! VERSION = 6.00
!Data measured by ggf on Mon Jan 22 13:30:34 2018 using model file NPN_MEAS_SCALE
BEGIN_HEADER
 ICCAP_INPUTS
  ve         V  E GROUND SMU_E 0.1 CON        0
  vc         V  C GROUND SMU_C 0.1 SYNC       1 0 vb
  vs         V  S GROUND SMU_S 0.015 CON        0
  vb         V  B GROUND SMU_B 0.015 LIN        1    -1         1.04       103  0.02      
 ICCAP_OUTPUTS
  ib         I  B GROUND SMU_B M
  ic         I  C GROUND SMU_C M
 ICCAP_VALUES
  TNOM "27"
  TEMP "27"
  TECHNO "SG13G2"
  LOT "EDJ802"
  WAFER "02"
  CHIP "(3.3)"
  MODULE "S439S"
  DEV_NAME "D40"
  DEV_GEOM_L "0.9"
  DEV_GEOM_W "0.07"
  NUM_OF_TRANS_RF "2"
  REMARKS "Nx=4; Power -30/-20dBm, Slope: 0.1dB/GHz"
  TIMEDATE "Mon Jan 22 13:12:31     2018"
  OPERATOR "ggf"
END_HEADER

BEGIN_DB
 ICCAP_VAR ve         0              
 ICCAP_VAR vs         0              

 #vb              vc              ib              ic             
  -1              -1              -1.487e-005     -0.0053146     
  -0.98           -0.98           -1.2096e-005    -0.0046278     
  -0.96           -0.96           -9.6786e-006    -0.0039864     
  -0.94           -0.94           -7.5814e-006    -0.0033914     
  -0.92           -0.92           -5.799e-006     -0.0028438     
  -0.9            -0.9            -4.3306e-006    -0.0023514     
  -0.88           -0.88           -3.1338e-006    -0.0019068     
  -0.86           -0.86           -2.199e-006     -0.0015174     
  -0.84           -0.84           -1.498e-006     -0.0011834     
  -0.82           -0.82           -9.947e-007     -0.00090328    
  -0.8            -0.8            -6.505e-007     -0.0006756     
  -0.78           -0.78           -4.2624e-007    -0.00049566    
  -0.76           -0.76           -2.8526e-007    -0.00035768    
  -0.74           -0.74           -1.9818e-007    -0.00025506    
  -0.72           -0.72           -1.4352e-007    -0.00017978    
  -0.7            -0.7            -1.0826e-007    -0.00012508    
  -0.68           -0.68           -8.463e-008     -8.599e-005    
  -0.66           -0.66           -6.7828e-008    -5.8276e-005   
  -0.64           -0.64           -5.5174e-008    -3.8864e-005   
  -0.62           -0.62           -4.5342e-008    -2.5452e-005   
  -0.6            -0.6            -3.742e-008     -1.6378e-005   
  -0.58           -0.58           -3.0966e-008    -1.0244e-005   
  -0.56           -0.56           -2.5588e-008    -6.246e-006    
  -0.54           -0.54           -2.1128e-008    -3.6884e-006   
  -0.52           -0.52           -1.7336e-008    -2.1036e-006   
  -0.5            -0.5            -1.4182e-008    -1.1596e-006   
  -0.48           -0.48           -1.156e-008     -6.0982e-007   
  -0.46           -0.46           -9.3598e-009    -3.0876e-007   
  -0.44           -0.44           -7.6082e-009    -1.5212e-007   
  -0.42           -0.42           -6.0778e-009    -7.3466e-008   
  -0.4            -0.4            -4.8732e-009    -3.493e-008    
  -0.38           -0.38           -3.8228e-009    -1.6448e-008   
  -0.36           -0.36           -3.004e-009     -7.6966e-009   
  -0.34           -0.34           -2.3586e-009    -3.5624e-009   
  -0.32           -0.32           -1.836e-009     -1.6454e-009   
  -0.3            -0.3            -1.3946e-009    -7.569e-010    
  -0.28           -0.28           -1.05892e-009   -3.5484e-010   
  -0.26           -0.26           -7.9054e-010    -1.6272e-010   
  -0.24           -0.24           -5.8816e-010    -7.314e-011    
  -0.22           -0.22           -4.295e-010     -2.362e-011    
  -0.2            -0.2            -3.0262e-010    -9.34e-012     
  -0.18           -0.18           -2.1496e-010    6.38e-012      
  -0.16           -0.16           -1.4218e-010    2.54e-012      
  -0.14           -0.14           -9.976e-011     1.078e-011     
  -0.12           -0.12           -5.422e-011     5.6e-012       
  -0.1            -0.1            -3.28e-011      6.56e-012      
  -0.08           -0.08           -1.352e-011     4.7e-012       
  -0.06           -0.06           -6.26e-012      5.06e-012      
  -0.04           -0.04           2.46e-012       5.26e-012      
  -0.02           -0.02           5.54e-012       7.06e-012      
  0               0               2.132e-011      9.84e-012      
  0.02            0.02            2.038e-011      6.58e-012      
  0.04            0.04            1.914e-011      7.92e-012      
  0.06            0.06            2.134e-011      7.72e-012      
  0.08            0.08            1.914e-011      7.16e-012      
  0.1             0.1             2.012e-011      5.76e-012      
  0.12            0.12            1.812e-011      7.84e-012      
  0.14            0.14            2.044e-011      5.04e-012      
  0.16            0.16            1.812e-011      8.2e-012       
  0.18            0.18            1.924e-011      6.62e-012      
  0.2             0.2             1.66e-011       6.84e-012      
  0.22            0.22            2.104e-011      9.4e-012       
  0.24            0.24            2.102e-011      1.23e-011      
  0.26            0.26            2.594e-011      1.296e-011     
  0.28            0.28            2.756e-011      1.57e-011      
  0.3             0.3             2.264e-011      2.328e-011     
  0.32            0.32            1.932e-011      3.092e-011     
  0.34            0.34            1.324e-011      5.238e-011     
  0.36            0.36            1.026e-011      9.274e-011     
  0.38            0.38            2.756e-011      1.8244e-010    
  0.4             0.4             1.488e-011      3.8602e-010    
  0.42            0.42            1.988e-011      8.0682e-010    
  0.44            0.44            3.31e-011       1.7272e-009    
  0.46            0.46            3.956e-011      3.7216e-009    
  0.48            0.48            4.22e-011       7.9732e-009    
  0.5             0.5             5.724e-011      1.7124e-008    
  0.52            0.52            1.0546e-010     3.684e-008     
  0.54            0.54            1.6174e-010     7.9116e-008    
  0.56            0.56            3.025e-010      1.7064e-007    
  0.58            0.58            5.9572e-010     3.6554e-007    
  0.6             0.6             1.17e-009       7.831e-007     
  0.62            0.62            2.4064e-009     1.6836e-006    
  0.64            0.64            4.972e-009      3.62e-006      
  0.66            0.66            1.0356e-008     7.7612e-006    
  0.68            0.68            2.1526e-008     1.6546e-005    
  0.7             0.7             4.4728e-008     3.5116e-005    
  0.72            0.72            9.3064e-008     7.4306e-005    
  0.74            0.74            1.9214e-007     0.0001554      
  0.76            0.76            3.9332e-007     0.00032068     
  0.78            0.78            7.8136e-007     0.00064172     
  0.8             0.8             1.4958e-006     0.0012304      
  0.82            0.82            2.7314e-006     0.0022302      
  0.84            0.84            4.7064e-006     0.0037432      
  0.86            0.86            7.6894e-006     0.0058104      
  0.88            0.88            1.2052e-005     0.0083728      
  0.9             0.9             1.84e-005       0.0113772      
  0.92            0.92            2.7588e-005     0.014794       
  0.94            0.94            4.0694e-005     0.018544       
  0.96            0.96            5.902e-005      0.022588       
  0.98            0.98            8.4468e-005     0.026936       
  1               1               0.00011904      0.031458       
  1.02            1.02            0.00016814      0.03562        
  1.04            1.04            0.00025334      0.03906        
END_DB

