! VERSION = 6.00
!Data measured by ggf on Mon Jan 22 13:30:34 2018 using model file NPN_MEAS_SCALE
BEGIN_HEADER
 ICCAP_INPUTS
  vc         V  C GROUND SMU_C 0.1 LIN        1    0          2          81   0.025     
  ve         V  E GROUND SMU_E 0.1 CON        0
  vs         V  S GROUND SMU_S 0.015 CON        0
  vb         V  B GROUND SMU_B 0.015 LIN        2    0.6        1          9    0.05      
 ICCAP_OUTPUTS
  ic         I  C DEFAULT SMU_C M
  ib         I  B GROUND SMU_B M
 ICCAP_VALUES
  TNOM "27"
  TEMP "27"
  TECHNO "SG13G2"
  LOT "EDJ802"
  WAFER "02"
  CHIP "(3.3)"
  MODULE "S439S"
  DEV_NAME "D40"
  DEV_GEOM_L "0.9"
  DEV_GEOM_W "0.07"
  NUM_OF_TRANS_RF "2"
  REMARKS "Nx=4; Power -30/-20dBm, Slope: 0.1dB/GHz"
  TIMEDATE "Mon Jan 22 13:12:31     2018"
  OPERATOR "ggf"
END_HEADER

BEGIN_DB
 ICCAP_VAR ve         0              
 ICCAP_VAR vs         0              
 ICCAP_VAR vb         0.6            

 #vc              ic              ib             
  0               -1.6402e-006    1.4964e-007    
  0.025           -1.9128e-007    1.0338e-007    
  0.05            3.7608e-007     7.394e-008     
  0.075           6.0214e-007     5.351e-008     
  0.1             6.947e-007      3.92e-008      
  0.125           7.3538e-007     2.8896e-008    
  0.15            7.5444e-007     2.1342e-008    
  0.175           7.6456e-007     1.5842e-008    
  0.2             7.7034e-007     1.1772e-008    
  0.225           7.7432e-007     8.7464e-009    
  0.25            7.7672e-007     6.5642e-009    
  0.275           7.7862e-007     5.0024e-009    
  0.3             7.7982e-007     3.8648e-009    
  0.325           7.8084e-007     3.065e-009     
  0.35            7.8152e-007     2.482e-009     
  0.375           7.8226e-007     2.0666e-009    
  0.4             7.8242e-007     1.7642e-009    
  0.425           7.8272e-007     1.55e-009      
  0.45            7.8264e-007     1.4106e-009    
  0.475           7.8302e-007     1.3096e-009    
  0.5             7.8312e-007     1.2548e-009    
  0.525           7.8294e-007     1.2138e-009    
  0.55            7.8326e-007     1.1902e-009    
  0.575           7.834e-007      1.1654e-009    
  0.6             7.8346e-007     1.1452e-009    
  0.625           7.833e-007      1.1104e-009    
  0.65            7.832e-007      1.1014e-009    
  0.675           7.8318e-007     1.0766e-009    
  0.7             7.8332e-007     1.0756e-009    
  0.725           7.8324e-007     1.0666e-009    
  0.75            7.8318e-007     1.077e-009     
  0.775           7.8322e-007     1.0706e-009    
  0.8             7.8314e-007     1.066e-009     
  0.825           7.831e-007      1.0624e-009    
  0.85            7.8324e-007     1.0536e-009    
  0.875           7.8344e-007     1.0226e-009    
  0.9             7.8362e-007     1.00578e-009   
  0.925           7.8312e-007     9.8846e-010    
  0.95            7.8324e-007     9.7282e-010    
  0.975           7.832e-007      9.6012e-010    
  1               7.8312e-007     9.3962e-010    
  1.025           7.8308e-007     9.2128e-010    
  1.05            7.8326e-007     8.9002e-010    
  1.075           7.8322e-007     8.5986e-010    
  1.1             7.833e-007      8.1446e-010    
  1.125           7.8308e-007     7.772e-010     
  1.15            7.833e-007      7.246e-010     
  1.175           7.8314e-007     6.778e-010     
  1.2             7.8302e-007     6.18e-010      
  1.225           7.8296e-007     5.6336e-010    
  1.25            7.8322e-007     4.9168e-010    
  1.275           7.8316e-007     4.1378e-010    
  1.3             7.83e-007       3.1374e-010    
  1.325           7.8302e-007     2.0564e-010    
  1.35            7.8328e-007     8.288e-011     
  1.375           7.8332e-007     -4.32e-011     
  1.4             7.8308e-007     -1.8646e-010   
  1.425           7.8318e-007     -3.4348e-010   
  1.45            7.8326e-007     -5.2982e-010   
  1.475           7.8312e-007     -7.3226e-010   
  1.5             7.8372e-007     -9.5052e-010   
  1.525           7.836e-007      -1.181e-009    
  1.55            7.8386e-007     -1.4504e-009   
  1.575           7.8404e-007     -1.7178e-009   
  1.6             7.8444e-007     -2.0212e-009   
  1.625           7.8472e-007     -2.348e-009    
  1.65            7.8484e-007     -2.719e-009    
  1.675           7.8538e-007     -3.1238e-009   
  1.7             7.8584e-007     -3.5658e-009   
  1.725           7.8588e-007     -4.096e-009    
  1.75            7.8646e-007     -4.6326e-009   
  1.775           7.8696e-007     -5.2184e-009   
  1.8             7.872e-007      -5.8372e-009   
  1.825           7.8812e-007     -6.5178e-009   
  1.85            7.885e-007      -7.2436e-009   
  1.875           7.8926e-007     -8.0186e-009   
  1.9             7.9026e-007     -8.8868e-009   
  1.925           7.9116e-007     -9.8484e-009   
  1.95            7.9198e-007     -1.08844e-008  
  1.975           7.931e-007      -1.2032e-008   
  2               7.9436e-007     -1.3254e-008   
END_DB

BEGIN_DB
 ICCAP_VAR ve         0              
 ICCAP_VAR vs         0              
 ICCAP_VAR vb         0.65           

 #vc              ic              ib             
  0               -9.6146e-006    3.8014e-007    
  0.025           -7.146e-007     2.3532e-007    
  0.05            2.8862e-006     1.5652e-007    
  0.075           4.3094e-006     1.0982e-007    
  0.1             4.8706e-006     8.0276e-008    
  0.125           5.0962e-006     6.0098e-008    
  0.15            5.191e-006      4.5566e-008    
  0.175           5.232e-006      3.5198e-008    
  0.2             5.253e-006      2.7606e-008    
  0.225           5.2656e-006     2.2064e-008    
  0.25            5.2704e-006     1.793e-008     
  0.275           5.2776e-006     1.488e-008     
  0.3             5.2808e-006     1.2646e-008    
  0.325           5.2834e-006     1.1002e-008    
  0.35            5.2854e-006     9.8286e-009    
  0.375           5.2884e-006     9.0544e-009    
  0.4             5.2882e-006     8.422e-009     
  0.425           5.2918e-006     8.0136e-009    
  0.45            5.2912e-006     7.7146e-009    
  0.475           5.2928e-006     7.5212e-009    
  0.5             5.2908e-006     7.3644e-009    
  0.525           5.2936e-006     7.2524e-009    
  0.55            5.2934e-006     7.1984e-009    
  0.575           5.2944e-006     7.108e-009     
  0.6             5.2946e-006     7.0998e-009    
  0.625           5.2946e-006     7.0294e-009    
  0.65            5.2956e-006     7.0362e-009    
  0.675           5.2936e-006     6.9826e-009    
  0.7             5.296e-006      6.9868e-009    
  0.725           5.2956e-006     6.9538e-009    
  0.75            5.2968e-006     6.954e-009     
  0.775           5.295e-006      6.921e-009     
  0.8             5.2958e-006     6.902e-009     
  0.825           5.2962e-006     6.9058e-009    
  0.85            5.2952e-006     6.8556e-009    
  0.875           5.2956e-006     6.872e-009     
  0.9             5.2948e-006     6.824e-009     
  0.925           5.295e-006      6.8412e-009    
  0.95            5.2942e-006     6.7756e-009    
  0.975           5.296e-006      6.7676e-009    
  1               5.2944e-006     6.7194e-009    
  1.025           5.2948e-006     6.7e-009       
  1.05            5.2936e-006     6.639e-009     
  1.075           5.2946e-006     6.5738e-009    
  1.1             5.2928e-006     6.512e-009     
  1.125           5.2928e-006     6.3978e-009    
  1.15            5.2938e-006     6.318e-009     
  1.175           5.2928e-006     6.1542e-009    
  1.2             5.2938e-006     6.0376e-009    
  1.225           5.2928e-006     5.809e-009     
  1.25            5.2934e-006     5.6162e-009    
  1.275           5.2928e-006     5.3454e-009    
  1.3             5.2936e-006     5.065e-009     
  1.325           5.2916e-006     4.7076e-009    
  1.35            5.2912e-006     4.3022e-009    
  1.375           5.2926e-006     3.8712e-009    
  1.4             5.2924e-006     3.3276e-009    
  1.425           5.2918e-006     2.7674e-009    
  1.45            5.2928e-006     2.0836e-009    
  1.475           5.2922e-006     1.3866e-009    
  1.5             5.2924e-006     5.3648e-010    
  1.525           5.296e-006      -3.7944e-010   
  1.55            5.2932e-006     -1.387e-009    
  1.575           5.2928e-006     -2.5414e-009   
  1.6             5.2952e-006     -3.7818e-009   
  1.625           5.2946e-006     -5.1746e-009   
  1.65            5.2958e-006     -6.7166e-009   
  1.675           5.2974e-006     -8.387e-009    
  1.7             5.2988e-006     -1.02728e-008  
  1.725           5.3e-006        -1.2348e-008   
  1.75            5.303e-006      -1.4578e-008   
  1.775           5.3034e-006     -1.7038e-008   
  1.8             5.3064e-006     -1.9776e-008   
  1.825           5.3094e-006     -2.275e-008    
  1.85            5.3116e-006     -2.6046e-008   
  1.875           5.314e-006      -2.962e-008    
  1.9             5.3176e-006     -3.3596e-008   
  1.925           5.3226e-006     -3.7806e-008   
  1.95            5.3246e-006     -4.2572e-008   
  1.975           5.332e-006      -4.764e-008    
  2               5.3348e-006     -5.3232e-008   
END_DB

BEGIN_DB
 ICCAP_VAR ve         0              
 ICCAP_VAR vs         0              
 ICCAP_VAR vb         0.7            

 #vc              ic              ib             
  0               -4.2552e-005    1.2276e-006    
  0.025           1.3332e-007     6.9938e-007    
  0.05            2.0252e-005     4.2004e-007    
  0.075           2.8954e-005     2.7342e-007    
  0.1             3.25e-005       1.945e-007     
  0.125           3.3932e-005     1.4876e-007    
  0.15            3.4506e-005     1.1828e-007    
  0.175           3.4756e-005     9.778e-008     
  0.2             3.4864e-005     8.3392e-008    
  0.225           3.4918e-005     7.2986e-008    
  0.25            3.4964e-005     6.5478e-008    
  0.275           3.4978e-005     5.9926e-008    
  0.3             3.4994e-005     5.5764e-008    
  0.325           3.502e-005      5.2752e-008    
  0.35            3.5022e-005     5.0478e-008    
  0.375           3.5036e-005     4.8836e-008    
  0.4             3.5048e-005     4.7676e-008    
  0.425           3.5058e-005     4.6712e-008    
  0.45            3.5066e-005     4.6186e-008    
  0.475           3.5074e-005     4.575e-008     
  0.5             3.5078e-005     4.5366e-008    
  0.525           3.5088e-005     4.5128e-008    
  0.55            3.5088e-005     4.4932e-008    
  0.575           3.5098e-005     4.4772e-008    
  0.6             3.5108e-005     4.4522e-008    
  0.625           3.5106e-005     4.4382e-008    
  0.65            3.5118e-005     4.4328e-008    
  0.675           3.5126e-005     4.4282e-008    
  0.7             3.5122e-005     4.4174e-008    
  0.725           3.5136e-005     4.4178e-008    
  0.75            3.5128e-005     4.4064e-008    
  0.775           3.5138e-005     4.406e-008     
  0.8             3.5142e-005     4.403e-008     
  0.825           3.514e-005      4.3994e-008    
  0.85            3.5142e-005     4.3918e-008    
  0.875           3.5146e-005     4.3916e-008    
  0.9             3.5146e-005     4.3798e-008    
  0.925           3.516e-005      4.3738e-008    
  0.95            3.515e-005      4.3642e-008    
  0.975           3.515e-005      4.3624e-008    
  1               3.5158e-005     4.3576e-008    
  1.025           3.5146e-005     4.345e-008     
  1.05            3.5158e-005     4.3294e-008    
  1.075           3.516e-005      4.3102e-008    
  1.1             3.515e-005      4.2828e-008    
  1.125           3.5162e-005     4.2604e-008    
  1.15            3.5152e-005     4.2182e-008    
  1.175           3.515e-005      4.1696e-008    
  1.2             3.5164e-005     4.1122e-008    
  1.225           3.5152e-005     4.0402e-008    
  1.25            3.5154e-005     3.941e-008     
  1.275           3.516e-005      3.844e-008     
  1.3             3.5156e-005     3.72e-008      
  1.325           3.5164e-005     3.5642e-008    
  1.35            3.516e-005      3.3856e-008    
  1.375           3.5156e-005     3.1742e-008    
  1.4             3.5162e-005     2.9462e-008    
  1.425           3.5164e-005     2.668e-008     
  1.45            3.5172e-005     2.3492e-008    
  1.475           3.5176e-005     1.9958e-008    
  1.5             3.5164e-005     1.5872e-008    
  1.525           3.5174e-005     1.1326e-008    
  1.55            3.5176e-005     6.205e-009     
  1.575           3.5172e-005     3.6752e-010    
  1.6             3.5182e-005     -5.8412e-009   
  1.625           3.5184e-005     -1.2946e-008   
  1.65            3.5196e-005     -2.0738e-008   
  1.675           3.5196e-005     -2.9422e-008   
  1.7             3.5204e-005     -3.902e-008    
  1.725           3.5218e-005     -4.9666e-008   
  1.75            3.5222e-005     -6.1428e-008   
  1.775           3.5234e-005     -7.4282e-008   
  1.8             3.525e-005      -8.8536e-008   
  1.825           3.5258e-005     -1.04286e-007  
  1.85            3.5272e-005     -1.213e-007    
  1.875           3.53e-005       -1.4036e-007   
  1.9             3.5316e-005     -1.61e-007     
  1.925           3.5342e-005     -1.8398e-007   
  1.95            3.5364e-005     -2.09e-007     
  1.975           3.5392e-005     -2.3626e-007   
  2               3.542e-005      -2.6582e-007   
END_DB

BEGIN_DB
 ICCAP_VAR ve         0              
 ICCAP_VAR vs         0              
 ICCAP_VAR vb         0.75           

 #vc              ic              ib             
  0               -9.0234e-005    4.3246e-006    
  0.025           5.835e-005      2.5576e-006    
  0.05            0.0001406       1.5416e-006    
  0.075           0.00018384      9.7458e-007    
  0.1             0.00020458      6.7356e-007    
  0.125           0.0002137       5.1678e-007    
  0.15            0.00021764      4.3146e-007    
  0.175           0.00021938      3.8196e-007    
  0.2             0.00022018      3.5088e-007    
  0.225           0.00022068      3.2976e-007    
  0.25            0.00022094      3.1488e-007    
  0.275           0.00022112      3.0474e-007    
  0.3             0.00022132      2.9704e-007    
  0.325           0.0002215       2.9112e-007    
  0.35            0.00022168      2.8696e-007    
  0.375           0.00022188      2.839e-007     
  0.4             0.00022192      2.8124e-007    
  0.425           0.00022212      2.7948e-007    
  0.45            0.00022226      2.7802e-007    
  0.475           0.00022234      2.771e-007     
  0.5             0.0002225       2.7634e-007    
  0.525           0.00022256      2.7582e-007    
  0.55            0.00022268      2.7538e-007    
  0.575           0.00022284      2.7452e-007    
  0.6             0.00022292      2.7414e-007    
  0.625           0.00022306      2.7402e-007    
  0.65            0.00022314      2.738e-007     
  0.675           0.0002232       2.7358e-007    
  0.7             0.00022334      2.7326e-007    
  0.725           0.00022338      2.7316e-007    
  0.75            0.0002235       2.7258e-007    
  0.775           0.0002236       2.7264e-007    
  0.8             0.00022368      2.7292e-007    
  0.825           0.00022378      2.7248e-007    
  0.85            0.00022386      2.7258e-007    
  0.875           0.0002239       2.7216e-007    
  0.9             0.00022402      2.7192e-007    
  0.925           0.0002241       2.722e-007     
  0.95            0.00022414      2.7196e-007    
  0.975           0.0002243       2.719e-007     
  1               0.00022432      2.7174e-007    
  1.025           0.0002244       2.7116e-007    
  1.05            0.00022454      2.7096e-007    
  1.075           0.00022456      2.7042e-007    
  1.1             0.00022462      2.6972e-007    
  1.125           0.00022474      2.6892e-007    
  1.15            0.00022472      2.6732e-007    
  1.175           0.00022484      2.6584e-007    
  1.2             0.0002249       2.6398e-007    
  1.225           0.00022496      2.6104e-007    
  1.25            0.00022504      2.574e-007     
  1.275           0.00022514      2.5302e-007    
  1.3             0.00022518      2.4804e-007    
  1.325           0.00022522      2.4154e-007    
  1.35            0.00022526      2.3356e-007    
  1.375           0.00022544      2.2424e-007    
  1.4             0.00022542      2.131e-007     
  1.425           0.00022554      2.0056e-007    
  1.45            0.00022562      1.8534e-007    
  1.475           0.00022566      1.6852e-007    
  1.5             0.00022574      1.4874e-007    
  1.525           0.00022588      1.2646e-007    
  1.55            0.00022588      1.007e-007     
  1.575           0.00022598      7.2326e-008    
  1.6             0.00022608      4.0062e-008    
  1.625           0.00022616      3.799e-009     
  1.65            0.0002263       -3.6074e-008   
  1.675           0.00022632      -8.062e-008    
  1.7             0.00022652      -1.302e-007    
  1.725           0.00022662      -1.8556e-007   
  1.75            0.00022672      -2.4676e-007   
  1.775           0.0002269       -3.1348e-007   
  1.8             0.000227        -3.8848e-007   
  1.825           0.00022716      -4.7032e-007   
  1.85            0.00022734      -5.6134e-007   
  1.875           0.00022746      -6.6042e-007   
  1.9             0.00022766      -7.705e-007    
  1.925           0.00022782      -8.9136e-007   
  1.95            0.00022808      -1.02406e-006  
  1.975           0.00022826      -1.1692e-006   
  2               0.00022852      -1.3298e-006   
END_DB

BEGIN_DB
 ICCAP_VAR ve         0              
 ICCAP_VAR vs         0              
 ICCAP_VAR vb         0.8            

 #vc              ic              ib             
  0               -5.3306e-005    1.8744e-005    
  0.025           0.00046788      1.1492e-005    
  0.05            0.00078586      7.1606e-006    
  0.075           0.0009665       4.6698e-006    
  0.1             0.00106888      3.239e-006     
  0.125           0.00112536      2.434e-006     
  0.15            0.0011552       1.9964e-006    
  0.175           0.0011704       1.771e-006     
  0.2             0.0011782       1.655e-006     
  0.225           0.0011826       1.59e-006      
  0.25            0.0011862       1.5504e-006    
  0.275           0.001189        1.5262e-006    
  0.3             0.0011914       1.5078e-006    
  0.325           0.0011938       1.4978e-006    
  0.35            0.0011958       1.4888e-006    
  0.375           0.001198        1.484e-006     
  0.4             0.0012002       1.4786e-006    
  0.425           0.0012018       1.4782e-006    
  0.45            0.0012042       1.4772e-006    
  0.475           0.0012062       1.4758e-006    
  0.5             0.001208        1.4742e-006    
  0.525           0.0012102       1.474e-006     
  0.55            0.0012118       1.4762e-006    
  0.575           0.0012136       1.4752e-006    
  0.6             0.001216        1.476e-006     
  0.625           0.0012176       1.477e-006     
  0.65            0.0012196       1.4798e-006    
  0.675           0.0012216       1.4816e-006    
  0.7             0.0012232       1.4828e-006    
  0.725           0.0012252       1.4842e-006    
  0.75            0.001227        1.485e-006     
  0.775           0.001229        1.4876e-006    
  0.8             0.001231        1.4902e-006    
