! VERSION = 6.00
!Data measured by ggf on Mon Jan 22 13:30:33 2018 using model file NPN_MEAS_SCALE
BEGIN_HEADER
 ICCAP_INPUTS
  vc         V  C GROUND SMU_C 0.1 CON        1.2
  ve         V  E GROUND SMU_E 0.1 CON        0
  vs         V  S GROUND SMU_S 0.015 CON        0
  freq       F  LIST       1 74 100000000 200000000 300000000 400000000 500000000 600000000 700000000 800000000 900000000 1000000000 2000000000 3000000000 4000000000 5000000000 6000000000 7000000000 8000000000 9000000000 10000000000 11000000000 12000000000 13000000000 14000000000 15000000000 16000000000 17000000000 18000000000 19000000000 20000000000 21000000000 22000000000 23000000000 24000000000 25000000000 26000000000 27000000000 28000000000 29000000000 30000000000 31000000000 32000000000 33000000000 34000000000 35000000000 36000000000 37000000000 38000000000 39000000000 40000000000 41000000000 42000000000 43000000000 44000000000 45000000000 46000000000 47000000000 48000000000 49000000000 50000000000 51000000000 52000000000 53000000000 54000000000 55000000000 56000000000 57000000000 58000000000 59000000000 60000000000 61000000000 62000000000 63000000000 64000000000 65000000000
  vb         V  B GROUND SMU_B 0.015 LIN        2    0.68       1.04       37   0.01      
 ICCAP_OUTPUTS
  ic         I  C GROUND SMU_C M
  ib         I  B GROUND SMU_B M
  S          S  B C GROUND NWA M
 ICCAP_VALUES
  TNOM "27"
  TEMP "27"
  TECHNO "SG13G2"
  LOT "EDJ802"
  WAFER "02"
  CHIP "(3.3)"
  MODULE "S439S"
  DEV_NAME "D40"
  DEV_GEOM_L "0.9"
  DEV_GEOM_W "0.07"
  NUM_OF_TRANS_RF "2"
  REMARKS "Nx=4; Power -30/-20dBm, Slope: 0.1dB/GHz"
  TIMEDATE "Mon Jan 22 13:12:31     2018"
  OPERATOR "ggf"
END_HEADER

BEGIN_DB
 ICCAP_VAR vc         1.2            
 ICCAP_VAR ve         0              
 ICCAP_VAR vs         0              
 ICCAP_VAR vb         0.68           

 #freq            ic              ib              R:S(1,1)        I:S(1,1)        R:S(1,2)        I:S(1,2)        R:S(2,1)        I:S(2,1)        R:S(2,2)        I:S(2,2)       
  1e+008          1.6518e-005     1.9366e-008     0.999379        -0.00420846     -2.96022e-005   0.00106056      -0.0694141      0.000466398     0.998902        -0.00320622    
  2e+008          1.6518e-005     1.9366e-008     0.99994         -0.00787295     5.6551e-005     0.00208329      -0.067416       0.00188493      0.999865        -0.00550043    
  3e+008          1.6518e-005     1.9366e-008     0.999955        -0.0116148      5.56679e-005    0.003161        -0.0676945      0.00322788      0.99982         -0.00815047    
  4e+008          1.6518e-005     1.9366e-008     0.999826        -0.0146807      7.26551e-005    0.00421282      -0.0666691      0.00460888      0.99989         -0.0107994     
  5e+008          1.6518e-005     1.9366e-008     0.999825        -0.0192813      9.74531e-005    0.00527932      -0.067536       0.00596518      0.9997          -0.0135035     
  6e+008          1.6518e-005     1.9366e-008     0.999338        -0.0223737      0.000147028     0.00631974      -0.06744        0.00709376      0.999715        -0.0161717     
  7e+008          1.6518e-005     1.9366e-008     0.999322        -0.0260996      0.000194391     0.00736964      -0.0674478      0.00851253      0.99958         -0.0188947     
  8e+008          1.6518e-005     1.9366e-008     0.999107        -0.0295407      0.000213039     0.00841997      -0.0676802      0.00985114      0.999491        -0.0214846     
  9e+008          1.6518e-005     1.9366e-008     0.999052        -0.0333619      0.000290337     0.00949094      -0.066972       0.0114228       0.999286        -0.0242489     
  1e+009          1.6518e-005     1.9366e-008     0.998928        -0.0372745      0.000348473     0.010494        -0.0676199      0.0127643       0.999304        -0.0268435     
  2e+009          1.6518e-005     1.9366e-008     0.996241        -0.0739222      0.00135763      0.0209561       -0.0647565      0.0257828       0.997381        -0.0533988     
  3e+009          1.6518e-005     1.9366e-008     0.992114        -0.110174       0.00302303      0.0313088       -0.0640451      0.0381155       0.994648        -0.0799143     
  4e+009          1.6518e-005     1.9366e-008     0.986136        -0.146112       0.00538948      0.0414653       -0.0614879      0.0510179       0.991029        -0.105689      
  5e+009          1.6518e-005     1.9366e-008     0.978876        -0.181884       0.00834109      0.0515705       -0.057297       0.0634895       0.986597        -0.131399      
  6e+009          1.6518e-005     1.9366e-008     0.970207        -0.216718       0.0118795       0.0613158       -0.0529271      0.0752758       0.981262        -0.156799      
  7e+009          1.6518e-005     1.9366e-008     0.959818        -0.251558       0.016119        0.0709602       -0.0484287      0.0870673       0.97494         -0.181876      
  8e+009          1.6518e-005     1.9366e-008     0.948295        -0.28549        0.0209542       0.0800799       -0.0426643      0.0984804       0.968205        -0.206345      
  9e+009          1.6518e-005     1.9366e-008     0.935298        -0.319033       0.0263225       0.0889795       -0.036319       0.109376        0.960595        -0.230411      
  1e+010          1.6518e-005     1.9366e-008     0.921097        -0.351736       0.0321996       0.0973282       -0.0286374      0.11962         0.952341        -0.254407      
  1.1e+010        1.6518e-005     1.9366e-008     0.905515        -0.3823         0.0384718       0.10542         -0.0215573      0.130005        0.943352        -0.277715      
  1.2e+010        1.6518e-005     1.9366e-008     0.888617        -0.412579       0.0453877       0.113174        -0.0141432      0.139594        0.933231        -0.300707      
  1.3e+010        1.6518e-005     1.9366e-008     0.870422        -0.441473       0.052526        0.120237        -0.00600043     0.148716        0.923026        -0.322723      
  1.4e+010        1.6518e-005     1.9366e-008     0.85171         -0.469659       0.0605866       0.126852        0.00374794      0.156953        0.911774        -0.344272      
  1.5e+010        1.6518e-005     1.9366e-008     0.83149         -0.496304       0.0687352       0.132594        0.0135171       0.163813        0.900324        -0.365291      
  1.6e+010        1.6518e-005     1.9366e-008     0.811198        -0.521613       0.0769331       0.137946        0.0231405       0.170446        0.887757        -0.386056      
  1.7e+010        1.6518e-005     1.9366e-008     0.790208        -0.546526       0.0857042       0.142707        0.0338362       0.176643        0.875735        -0.405801      
  1.8e+010        1.6518e-005     1.9366e-008     0.768353        -0.569041       0.0942284       0.146656        0.043458        0.182277        0.862325        -0.424645      
  1.9e+010        1.6518e-005     1.9366e-008     0.74555         -0.591734       0.102765        0.150546        0.0540027       0.186768        0.848471        -0.444119      
  2e+010          1.6518e-005     1.9366e-008     0.723084        -0.612437       0.111677        0.153591        0.0643216       0.191526        0.834925        -0.460797      
  2.1e+010        1.6518e-005     1.9366e-008     0.699956        -0.631722       0.120595        0.156032        0.0737083       0.194981        0.820219        -0.47802       
  2.2e+010        1.6518e-005     1.9366e-008     0.676563        -0.649766       0.129812        0.157853        0.0852099       0.197094        0.806197        -0.49439       
  2.3e+010        1.6518e-005     1.9366e-008     0.653883        -0.666921       0.138309        0.1589          0.0954024       0.199727        0.791753        -0.510047      
  2.4e+010        1.6518e-005     1.9366e-008     0.630895        -0.683232       0.146714        0.159997        0.105206        0.201093        0.777591        -0.525004      
  2.5e+010        1.6518e-005     1.9366e-008     0.607856        -0.699729       0.155116        0.160827        0.115405        0.202585        0.762292        -0.540353      
  2.6e+010        1.6518e-005     1.9366e-008     0.583514        -0.713732       0.164055        0.161062        0.125835        0.204146        0.747641        -0.555143      
  2.7e+010        1.6518e-005     1.9366e-008     0.559688        -0.726811       0.172594        0.160963        0.135977        0.204149        0.73355         -0.566818      
  2.8e+010        1.6518e-005     1.9366e-008     0.535417        -0.738713       0.180892        0.159298        0.145528        0.203248        0.715469        -0.580992      
  2.9e+010        1.6518e-005     1.9366e-008     0.512082        -0.750724       0.18833         0.158614        0.153202        0.203213        0.701132        -0.592344      
  3e+010          1.6518e-005     1.9366e-008     0.489078        -0.761397       0.196267        0.157686        0.163649        0.202625        0.686897        -0.605006      
  3.1e+010        1.6518e-005     1.9366e-008     0.464719        -0.77213        0.203535        0.155485        0.173703        0.200753        0.672426        -0.615195      
  3.2e+010        1.6518e-005     1.9366e-008     0.441783        -0.780955       0.211745        0.153838        0.182008        0.198326        0.656904        -0.626756      
  3.3e+010        1.6518e-005     1.9366e-008     0.417812        -0.7882         0.219631        0.151742        0.191087        0.19688         0.641832        -0.638979      
  3.4e+010        1.6518e-005     1.9366e-008     0.395379        -0.794343       0.227016        0.148738        0.20009         0.194753        0.626704        -0.648819      
  3.5e+010        1.6518e-005     1.9366e-008     0.373218        -0.800671       0.23348         0.145262        0.209071        0.191295        0.610807        -0.65794       
  3.6e+010        1.6518e-005     1.9366e-008     0.349313        -0.806002       0.240467        0.142407        0.216284        0.188012        0.595643        -0.667461      
  3.7e+010        1.6518e-005     1.9366e-008     0.328736        -0.811882       0.247248        0.138583        0.224668        0.185046        0.580652        -0.676956      
  3.8e+010        1.6518e-005     1.9366e-008     0.306542        -0.815872       0.253839        0.13465         0.232274        0.181509        0.565662        -0.685905      
  3.9e+010        1.6518e-005     1.9366e-008     0.285919        -0.820151       0.259216        0.130816        0.239493        0.176431        0.550199        -0.694217      
  4e+010          1.6518e-005     1.9366e-008     0.26397         -0.823949       0.265304        0.126449        0.245578        0.172743        0.534625        -0.701662      
  4.1e+010        1.6518e-005     1.9366e-008     0.241866        -0.8264         0.270973        0.121979        0.25329         0.168136        0.519107        -0.710183      
  4.2e+010        1.6518e-005     1.9366e-008     0.222142        -0.827867       0.27724         0.117033        0.259555        0.163343        0.502598        -0.716771      
  4.3e+010        1.6518e-005     1.9366e-008     0.200902        -0.828578       0.281564        0.111342        0.26613         0.157909        0.488359        -0.7239        
  4.4e+010        1.6518e-005     1.9366e-008     0.182197        -0.830588       0.285761        0.107121        0.272174        0.152627        0.47186         -0.729088      
  4.5e+010        1.6518e-005     1.9366e-008     0.162499        -0.831831       0.2904          0.102903        0.277472        0.147697        0.456604        -0.734971      
  4.6e+010        1.6518e-005     1.9366e-008     0.141861        -0.833144       0.294887        0.0969961       0.282526        0.141687        0.441846        -0.739964      
  4.7e+010        1.6518e-005     1.9366e-008     0.121899        -0.831459       0.2981          0.0914366       0.287967        0.135955        0.427949        -0.74446       
  4.8e+010        1.6518e-005     1.9366e-008     0.103925        -0.832052       0.301955        0.0875928       0.292155        0.131754        0.412343        -0.75004       
  4.9e+010        1.6518e-005     1.9366e-008     0.0885058       -0.82974        0.306241        0.0819599       0.295375        0.125842        0.39819         -0.753924      
  5e+010          1.6518e-005     1.9366e-008     0.067747        -0.830971       0.3098          0.0766509       0.301537        0.122179        0.383176        -0.758208      
  5.1e+010        1.6518e-005     1.9366e-008     0.0510967       -0.826727       0.313229        0.0712809       0.307542        0.115185        0.368053        -0.762792      
  5.2e+010        1.6518e-005     1.9366e-008     0.0348738       -0.826445       0.316008        0.0653586       0.30737         0.108585        0.355363        -0.764585      
  5.3e+010        1.6518e-005     1.9366e-008     0.0173031       -0.824674       0.319219        0.0591733       0.313521        0.10528         0.340295        -0.77007       
  5.4e+010        1.6518e-005     1.9366e-008     -0.000622986    -0.821361       0.320994        0.053332        0.31695         0.0973938       0.326809        -0.77178       
  5.5e+010        1.6518e-005     1.9366e-008     -0.0147748      -0.819817       0.322651        0.047714        0.318151        0.0907699       0.310984        -0.772288      
  5.6e+010        1.6518e-005     1.9366e-008     -0.0304581      -0.819403       0.32324         0.0442428       0.318763        0.0879188       0.3029          -0.774882      
  5.7e+010        1.6518e-005     1.9366e-008     -0.0468606      -0.817223       0.326929        0.0404281       0.325445        0.0852693       0.291361        -0.779162      
  5.8e+010        1.6518e-005     1.9366e-008     -0.0620043      -0.815595       0.331641        0.0359509       0.329161        0.078823        0.277469        -0.784836      
  5.9e+010        1.6518e-005     1.9366e-008     -0.0805433      -0.809986       0.335712        0.0282102       0.333576        0.071953        0.263621        -0.788127      
  6e+010          1.6518e-005     1.9366e-008     -0.0963195      -0.805684       0.337141        0.0209972       0.337811        0.0625919       0.249801        -0.789406      
  6.1e+010        1.6518e-005     1.9366e-008     -0.112116       -0.803879       0.338473        0.0144836       0.33674         0.0581631       0.236966        -0.793229      
  6.2e+010        1.6518e-005     1.9366e-008     -0.124778       -0.797713       0.339358        0.00751823      0.340124        0.0508891       0.223945        -0.797035      
  6.3e+010        1.6518e-005     1.9366e-008     -0.13866        -0.796916       0.340464        0.00112848      0.343701        0.0459112       0.207916        -0.797196      
  6.4e+010        1.6518e-005     1.9366e-008     -0.154641       -0.789717       0.341993        -0.0049209      0.344511        0.0342835       0.200768        -0.800936      
  6.5e+010        1.6518e-005     1.9366e-008     -0.170953       -0.786781       0.341273        -0.0133914      0.342753        0.0298421       0.182546        -0.803175      
END_DB

BEGIN_DB
 ICCAP_VAR vc         1.2            
 ICCAP_VAR ve         0              
 ICCAP_VAR vs         0              
 ICCAP_VAR vb         0.69           

 #freq            ic              ib              R:S(1,1)        I:S(1,1)        R:S(1,2)        I:S(1,2)        R:S(2,1)        I:S(2,1)        R:S(2,2)        I:S(2,2)       
  1e+008          2.4134e-005     2.834e-008      0.999345        -0.00436276     5.64262e-005    0.00104714      -0.100869       -0.000169758    0.998967        -0.0032729     
  2e+008          2.4134e-005     2.834e-008      1.00007         -0.00786017     2.19323e-005    0.00205802      -0.0981736      0.0015552       0.999854        -0.00545595    
  3e+008          2.4134e-005     2.834e-008      0.999855        -0.0118158      2.07204e-005    0.00319589      -0.0983582      0.00318987      0.999555        -0.00757539    
  4e+008          2.4134e-005     2.834e-008      0.99945         -0.0149762      7.63385e-005    0.00416364      -0.0968427      0.00485443      0.999791        -0.0108662     
  5e+008          2.4134e-005     2.834e-008      0.999517        -0.0189128      0.000110987     0.00526226      -0.0982455      0.00609526      0.999683        -0.0135791     
  6e+008          2.4134e-005     2.834e-008      0.999508        -0.0226958      0.0001224       0.00631453      -0.0980421      0.00752774      0.999616        -0.0162778     
  7e+008          2.4134e-005     2.834e-008      0.999209        -0.0263038      0.000162213     0.00736399      -0.0981095      0.00920716      0.999575        -0.0190015     
  8e+008          2.4134e-005     2.834e-008      0.998952        -0.0299751      0.00020963      0.00842312      -0.0984353      0.0105436       0.999434        -0.0215915     
  9e+008          2.4134e-005     2.834e-008      0.998999        -0.0336801      0.000274921     0.00948564      -0.0973033      0.0121834       0.999271        -0.0244392     
  1e+009          2.4134e-005     2.834e-008      0.998712        -0.0377826      0.000390716     0.010504        -0.0985041      0.0137718       0.999411        -0.0269543     
  2e+009          2.4134e-005     2.834e-008      0.996085        -0.0745671      0.0014002       0.0209713       -0.094806       0.0277615       0.997466        -0.0536372     
  3e+009          2.4134e-005     2.834e-008      0.99176         -0.11133        0.00307117      0.0313384       -0.0942952      0.0412184       0.994645        -0.080361      
  4e+009          2.4134e-005     2.834e-008      0.98572         -0.147763       0.00537774      0.0414849       -0.0917668      0.0553388       0.990875        -0.106373      
  5e+009          2.4134e-005     2.834e-008      0.978266        -0.183758       0.00840086      0.0515804       -0.0871273      0.0686709       0.986497        -0.132051      
  6e+009          2.4134e-005     2.834e-008      0.969341        -0.219622       0.0119574       0.061355        -0.0820608      0.0818148       0.980898        -0.157705      
  7e+009          2.4134e-005     2.834e-008      0.959022        -0.254077       0.0162751       0.0709498       -0.0773491      0.0944639       0.974658        -0.182854      
  8e+009          2.4134e-005     2.834e-008      0.946992        -0.288234       0.0210676       0.0800961       -0.0711519      0.106876        0.967697        -0.207565      
  9e+009          2.4134e-005     2.834e-008      0.933775        -0.322265       0.0264734       0.0889576       -0.0644856      0.11872         0.960006        -0.231751      
  1e+010          2.4134e-005     2.834e-008      0.919486        -0.354977       0.0323325       0.0972678       -0.055897       0.129882        0.951735        -0.255855      
  1.1e+010        2.4134e-005     2.834e-008      0.903643        -0.384879       0.0386772       0.105361        -0.0486446      0.140944        0.942466        -0.279267      
  1.2e+010        2.4134e-005     2.834e-008      0.886335        -0.415659       0.0456084       0.11304         -0.0406364      0.151461        0.932225        -0.302292      
  1.3e+010        2.4134e-005     2.834e-008      0.867819        -0.445434       0.0527703       0.120121        -0.0321233      0.161575        0.921954        -0.324394      
  1.4e+010        2.4134e-005     2.834e-008      0.848683        -0.473527       0.0608925       0.126663        -0.0216566      0.170508        0.910506        -0.345987      
  1.5e+010        2.4134e-005     2.834e-008      0.827874        -0.501009       0.0690729       0.132391        -0.0106821      0.177865        0.898853        -0.367015      
