#   Hz   S  RI   R   50
!
0.0 -0.9394430653917976 0.0
75000000.0 -0.9389639485324688 0.029771970123944266
150000000.0 -0.9375281116247727 0.05949803673101534
225000000.0 -0.9351400827074653 0.08913255058066917
300000000.0 -0.9318073654812206 0.11863036790373574
375000000.0 -0.9275403754915987 0.14794709549857385
450000000.0 -0.9223523522236797 0.17703932683609672
525000000.0 -0.9162592485026868 0.20586486646459048
600000000.0 -0.9092795989321072 0.234382940240571
675000000.0 -0.9014343693951927 0.262554389192315
750000000.0 -0.8927467898910662 0.2903418451398142
825000000.0 -0.8832421731684814 0.3177098865396386
900000000.0 -0.872947721755763 0.34462517338589094
975000000.0 -0.8618923260637888 0.37105656036935464
1050000000.0 -0.8501063562607973 0.3969751878666173
1125000000.0 -0.8376214505858649 0.42235455069043265
1200000000.0 -0.8244703026859383 0.4471705448738038
1275000000.0 -0.8106864504344466 0.471401493076209
1350000000.0 -0.79630406852378 0.49502814948530316
1425000000.0 -0.7813577669259766 0.5180336853367798
1500000000.0 -0.7658823970928397 0.5404036563859179
1575000000.0 -0.7499128675255645 0.5621259538347643
1650000000.0 -0.7334839700917728 0.5831907403485903
1725000000.0 -0.7166302182112625 0.603590372884811
1800000000.0 -0.6993856977768392 0.6233193141086854
1875000000.0 -0.681783931428804 0.6423740341854113
1950000000.0 -0.6638577565655351 0.6607529047208606
2025000000.0 -0.6456392172521214 0.6784560865768846
2100000000.0 -0.6271594699870179 0.6954854132159239
2175000000.0 -0.6084487031054805 0.7118442711376639
2250000000.0 -0.5895360694394229 0.727537478861978
2325000000.0 -0.5704496317170632 0.7425711657913652
2400000000.0 -0.5512163200722782 0.7569526521564348
2475000000.0 -0.5318619009425053 0.7706903311132282
2550000000.0 -0.5124109565643482 0.7837935539245453
2625000000.0 -0.4928868742264516 0.7962725190217005
2700000000.0 -0.47331184440809354 0.8081381656107599
2775000000.0 -0.45370686691760553 0.8194020723602392
2850000000.0 -0.43409176414516765 0.830076361587099
2925000000.0 -0.41448520055794724 0.8401736092458717
3000000000.0 -0.3949047075898974 0.8497067609227977
3075000000.0 -0.37536671311207903 0.8586890539434362
3150000000.0 -0.3558865747101911 0.8671339456187368
3225000000.0 -0.3364786160426069 0.8750550475809548
3300000000.0 -0.3171561656029423 0.882466066097011
3375000000.0 -0.2979315972647595 0.8893807481925905
3450000000.0 -0.2788163720411957 0.8958128333749834
3525000000.0 -0.25982108054801417 0.9017760107059409
3600000000.0 -0.2409554857139207 0.9072838809469528
3675000000.0 -0.22222856533621616 0.9123499234778052
3750000000.0 -0.20364855413227095 0.916987467674269
3825000000.0 -0.18522298498747639 0.9212096684217509
3900000000.0 -0.16695872914780324 0.9250294854379016
3975000000.0 -0.14886203514957927 0.928459666077993
4050000000.0 -0.13093856632040407 0.9315127313016232
4125000000.0 -0.11319343672310637 0.9342009644874465
4200000000.0 -0.0956312454492181 0.9365364027935789
4275000000.0 -0.07825610919966265 0.93853083077457
4350000000.0 -0.061071693118165994 0.9401957759808975
4425000000.0 -0.04408123986748325 0.9415425062833872
4500000000.0 -0.027287596959926583 0.9425820286823914
4575000000.0 -0.010693242372057125 0.9433250893796178
4650000000.0 0.005699691511063362 0.9437821749088915
4725000000.0 0.021889395563849647 0.9439635141405467
4800000000.0 0.03787436313183157 0.9438790809923608
4875000000.0 0.053653370710377034 0.9435385976977734
4950000000.0 0.06922546000796911 0.9429515384993452
5025000000.0 0.08458992130750402 0.9421271336519202
5100000000.0 0.09974627803674525 0.9410743736356119
5175000000.0 0.11469427245827356 0.9398020134934564
5250000000.0 0.12943385238977131 0.9383185772222776
5325000000.0 0.14396515886716854 0.9366323621579917
5400000000.0 0.1582885146657455 0.9347514433081334
5475000000.0 0.17240441359776665 0.9326836775949102
5550000000.0 0.18631351050924727 0.9304367079814818
5625000000.0 0.20001661190304823 0.9280179674625139
5700000000.0 0.21351466712043204 0.9254346829073673
5775000000.0 0.22680876001842037 0.9226938787506188
5850000000.0 0.23990010108562682 0.9198023805299644
5925000000.0 0.2527900199446494 0.9167668182760638
6000000000.0 0.26547995819444853 0.9135936297625404
6075000000.0 0.2779714625514234 0.9102890636272553
6150000000.0 0.2902661782529528 0.9068591823781595
6225000000.0 0.30236584269206235 0.903309865298622
6300000000.0 0.314272279256494 0.8996468112681107
6375000000.0 0.3259873913497525 0.8958755415146328
6450000000.0 0.33751315657574854 0.8920014023154009
6525000000.0 0.3488516210723017 0.8880295676618998
6600000000.0 0.3600048939821435 0.8839650419049114
6675000000.0 0.3709751420530316 0.8798126623941792
6750000000.0 0.38176458436128474 0.8755771021263233
6825000000.0 0.39237548715534876 0.871262872413355
6900000000.0 0.4028101588180458 0.8668743255827973
6975000000.0 0.413070944947862 0.8624156577189499
7050000000.0 0.42316022356103217 0.8578909114533615
7125000000.0 0.433080400417361 0.8533039788110578
7200000000.0 0.4428339044735893 0.8486586041175629
7275000000.0 0.45242318346879495 0.8439583869702915
7350000000.0 0.46185069964677344 0.8392067852764588
7425000000.0 0.4711189256205926 0.8344071183582934
7500000000.0 0.48023034038463713 0.8295625701250687
7575000000.0 0.4891874254793669 0.8246761923102526
7650000000.0 0.4979926613138579 0.819750907770984
7725000000.0 0.5066485236508644 0.8147895138460769
7800000000.0 0.5151574802587602 0.8097946857678447
7875000000.0 0.5235219877342194 0.8047689801222381
7950000000.0 0.5317444884989638 0.7997148383510846
8025000000.0 0.5398274079732901 0.7946345902896345
8100000000.0 0.5477731519284562 0.7895304577321011
8175000000.0 0.5555841040193349 0.7844045580174991
8250000000.0 0.5632626234980472 0.77925890762777
8325000000.0 0.5708110431085984 0.7740954257899652
8400000000.0 0.5782316671618284 0.768915938074133
8475000000.0 0.5855267697893112 0.7637221799784977
8550000000.0 0.5926985933741368 0.7585158004935432
8625000000.0 0.599749347155867 0.7532983656367238
8700000000.0 0.6066812060063093 0.7480713619496656
8775000000.0 0.6134963093721522 0.7428361999499634
8850000000.0 0.6201967603799223 0.7375942175299496
8925000000.0 0.6267846250982023 0.73234668329514
9000000000.0 0.6332619319515337 0.7270947998354418
9075000000.0 0.6396306712799851 0.7218397069226211
9150000000.0 0.6458927950379533 0.7165824846279814
9225000000.0 0.6520502166254019 0.7113241563546816
9300000000.0 0.6581048108444177 0.7060656917796342
9375000000.0 0.6640584139737069 0.7008080097004526
9450000000.0 0.6699128239534257 0.6955519807834519
9525000000.0 0.6756698006725774 0.6902984302092753
9600000000.0 0.6813310663510657 0.6850481402132635
9675000000.0 0.6868983060084514 0.6798018525182691
9750000000.0 0.6923731680114 0.6745602706581548
9825000000.0 0.6977572646918482 0.6693240621907927
9900000000.0 0.7030521730279693 0.6640938607999114
9975000000.0 0.708259435380128 0.658870268285679
10050000000.0 0.713380560274158 0.6536538564444174
10125000000.0 0.7184170232244802 0.6484451688383508
10200000000.0 0.7233702675898018 0.6432447224567411
10275000000.0 0.7282417054543805 0.6380530092702364
10350000000.0 0.7330327185281293 0.6328704976806506
10425000000.0 0.7377446590591415 0.6276976338688033
10500000000.0 0.7423788507525432 0.6225348430433858
10575000000.0 0.7469365896899431 0.6173825305941584
10650000000.0 0.7514191452441079 0.612241083153067
10725000000.0 0.7558277609838812 0.6071108695671259
10800000000.0 0.7601636555647567 0.6019922417871285
10875000000.0 0.7644280236009137 0.5968855356764431
10950000000.0 0.7686220365149335 0.5917910717443028
11025000000.0 0.7727468433618189 0.5867091558080993
11100000000.0 0.7768035716243384 0.5816400795893033
11175000000.0 0.7807933279771299 0.5765841212476608
11250000000.0 0.7847171990173809 0.5715415458583536
11325000000.0 0.7885762519602882 0.5665126058367952
11400000000.0 0.7923715352978843 0.5614975413157045
11475000000.0 0.7961040794201598 0.5564965804790274
11550000000.0 0.7997748971977737 0.5515099398572093
11625000000.0 0.8033849845259626 0.5465378245881874
11700000000.0 0.8069353208295769 0.541580428648367
11775000000.0 0.8104268695294553 0.5366379350576836
11850000000.0 0.8138605784706411 0.5317105160626917
11925000000.0 0.8172373803131806 0.5267983333014453
12000000000.0 0.8205581928864799 0.5219015379537429
12075000000.0 0.823823919508422 0.5170202708801068
12150000000.0 0.8270354492706177 0.5121546627526541
12225000000.0 0.8301936572913536 0.5073048341808054
12300000000.0 0.8332994049379394 0.5024708958345487
12375000000.0 0.8363535400202852 0.49765294856775005
12450000000.0 0.8393568969576658 0.4928510835437774
12525000000.0 0.8423102969206973 0.4880653823654721
12600000000.0 0.8452145479506366 0.4832959172112718
12675000000.0 0.8480704450581694 0.47854275097907034
12750000000.0 0.8508787703038797 0.4738059374391641
12825000000.0 0.8536402928626197 0.46908552139742976
12900000000.0 0.8563557690739976 0.46438153886964917
12975000000.0 0.8590259424811976 0.45969401726770587
13050000000.0 0.8616515438603045 0.4550229755981586
13125000000.0 0.8642332912422853 0.4503684246735237
13200000000.0 0.8667718899297074 0.44573036733639315
13275000000.0 0.8692680325102333 0.44110879869636077
13350000000.0 0.8717223988688259 0.43650370637954
13425000000.0 0.8741356562005442 0.431915070790321
13500000000.0 0.8765084590256971 0.42734286538485383
13575000000.0 0.8788414492090282 0.4227870569556201
13650000000.0 0.8811352559844856 0.4182476059263182
13725000000.0 0.8833904959870341 0.413724466656191
13800000000.0 0.8856077732928281 0.40921758775280753
13875000000.0 0.8877876794689431 0.4047269123922273
13950000000.0 0.8899307936337377 0.40025237864540125
14025000000.0 0.8920376825287848 0.395793919809585
14100000000.0 0.8941089006031723 0.391351464743495
14175000000.0 0.8961449901108403 0.38692493820489093
14250000000.0 0.8981464812214898 0.3825142611892364
14325000000.0 0.9001138921454496 0.3781193512680609
14400000000.0 0.9020477292727767 0.3737401229256546
14475000000.0 0.9039484873267015 0.369376487892703
14550000000.0 0.9058166495314315 0.36502835547550405
14625000000.0 0.9076526877941785 0.3606956328794126
14700000000.0 0.9094570629011582 0.35637822552519977
14775000000.0 0.9112302247272004 0.3520760373570495
14850000000.0 0.9129726124584854 0.347788971140962
14925000000.0 0.9146846548278214 0.3435169287523968
15000000000.0 0.9163667703617786 0.33925981145204354
15075000000.0 0.9180193676388994 0.33501752014869113
15150000000.0 0.9196428455581179 0.33078995564822944
15225000000.0 0.9212375936164467 0.3265770188879182
15300000000.0 0.9228039921949193 0.3223786111551287
15375000000.0 0.9243424128517068 0.31819463428987216
15450000000.0 0.9258532186212811 0.3140249908705131
15525000000.0 0.927336764318454 0.30986958438217616
15600000000.0 0.9287933968460687 0.30572831936744627
15675000000.0 0.9302234555051164 0.3016011015590752
15750000000.0 0.9316272723060076 0.29748783799450595
15825000000.0 0.9330051722797348 0.2933884371121346
15900000000.0 0.9343574737876512 0.2893028088293307
15975000000.0 0.9356844888285928 0.2852308646023456
16050000000.0 0.9369865233421029 0.28117251746833616
16125000000.0 0.9382638775065147 0.2771276820698343
16200000000.0 0.9395168460306996 0.27309627466208475
16275000000.0 0.9407457184383136 0.2690782131037817
16350000000.0 0.9419507793434179 0.26507341683180374
16425000000.0 0.9431323087164123 0.26108180682065574
16500000000.0 0.94429058213926 0.25710330552739363
16575000000.0 0.9454258710490571 0.2531378368228903
16650000000.0 0.9465384429690729 0.2491853259103751
16725000000.0 0.9476285617264406 0.24524569923223866
16800000000.0 0.9486964876557806 0.24131888436616394
16875000000.0 0.9497424777881105 0.23740480991169446
16950000000.0 0.9507667860244731 0.23350340536839526
17025000000.0 0.9517696632938287 0.22961460100680894
17100000000.0 0.9527513576948232 0.22573832773344085
17175000000.0 0.9537121146211599 0.22187451695103208
17250000000.0 0.9546521768703886 0.21802310041540449
17325000000.0 0.9555717847360334 0.2141840100901686
17400000000.0 0.9564711760830682 0.210357178000591
17475000000.0 0.9573505864068675 0.20654253608791928
17550000000.0 0.9582102488758384 0.20274001606544828
17625000000.0 0.9590503943580608 0.19894954927759262
17700000000.0 0.959871251432348 0.1951710665632074
17775000000.0 0.9606730463842352 0.19140449812436622
17850000000.0 0.9614560031875167 0.1876497734017569
17925000000.0 0.9622203434720116 0.1839068209578219
18000000000.0 0.9629662864783686 0.18017556836869356
18075000000.0 0.9636940490007584 0.17645594212593593
18150000000.0 0.9644038453184218 0.17274786754900975
18225000000.0 0.9650958871170948 0.16905126870932213
18300000000.0 0.9657703834014001 0.16536606836662765
18375000000.0 0.9664275403993735 0.16169218791845866
18450000000.0 0.9670675614603294 0.15802954736317681
18525000000.0 0.967690646947335 0.15437806527712986
18600000000.0 0.9682969941255878 0.15073765880629766
18675000000.0 0.9688867970480467 0.14710824367270586
18750000000.0 0.9694602464396594 0.14348973419576747
18825000000.0 0.970017529581575 0.13988204332860976
18900000000.0 0.9705588301967186 0.1362850827093178
18975000000.0 0.9710843283381039 0.1326987627269167
19050000000.0 0.9715942002812461 0.12912299260179155
19125000000.0 0.9720886184220265 0.1255576804801372
19200000000.0 0.9725677511813036 0.12200273354189912
19275000000.0 0.9730317629175419 0.11845805812156991
19350000000.0 0.9734808138486735 0.11492355984108464
19425000000.0 0.9739150599843334 0.11139914375395557
19500000000.0 0.9743346530695528 0.10788471449968452
19575000000.0 0.9747397405409102 0.10438017646739824
19650000000.0 0.9751304654960345 0.10088543396755277
19725000000.0 0.9755069666772841 0.09740039141048266
19800000000.0 0.9758693784702974 0.09392495349048673
19875000000.0 0.9762178309180075 0.09045902537407995
19950000000.0 0.9765524497505984 0.087002512890982
20025000000.0 0.9768733564317413 0.0835553227263688
20100000000.0 0.977180668221346 0.08011736261287299
20175000000.0 0.9774744982548956 0.0766885415207988
20250000000.0 0.977754955639331 0.07326876984499749
20325000000.0 0.9780221455652882 0.06985795958684729
20400000000.0 0.9782761694353688 0.06645602452979606
20475000000.0 0.9785171250079734 0.06306288040694101
20550000000.0 0.9787451065560948 0.05967844505915248
20625000000.0 0.9789602050403416 0.056302638582298704
20700000000.0 0.9791625082953077 0.05293538346218701
20775000000.0 0.9793521012282956 0.04957660469589275
20850000000.0 0.9795290660292673 0.04622622989825106
20925000000.0 0.9796934823907812 0.04288418939235686
21000000000.0 0.9798454277365665 0.039550416283033865
21075000000.0 0.9799849774572764 0.03622484651234353
21150000000.0 0.9801122051518789 0.03290741889632614
21225000000.0 0.9802271828730502 0.02959807514229914
21300000000.0 0.9803299813748702 0.026296759846178668
21375000000.0 0.9804206703610625 0.023003420469437784
21450000000.0 0.9804993187319521 0.019718007295464055
21525000000.0 0.9805659948283083 0.016440473365247815
21600000000.0 0.9806207666701917 0.013170774392487374
21675000000.0 0.9806637021889301 0.00990886865837402
21750000000.0 0.9806948694503499 0.006654716886475364
21825000000.0 0.9807143368674066 0.0034082820983286537
21900000000.0 0.9807221734004093 0.00016952945050541305
21975000000.0 0.980718448743052 -0.003061573945908265
22050000000.0 0.9807032334925848 -0.006285059222313363
22125000000.0 0.9806765993024724 -0.009500955964795875
22200000000.0 0.9806386190160528 -0.012709292440114846
22275000000.0 0.9805893667797645 -0.015910095833880193
22350000000.0 0.9805289181346819 -0.01910339249919875
22425000000.0 0.9804573500851994 -0.022289208213947902
22500000000.0 0.9803747411439055 -0.025467568444664523
22575000000.0 0.9802811713518039 -0.028638498614990657
22650000000.0 0.9801767222732672 -0.03180202437645434
22725000000.0 0.9800614769652699 -0.03495817187934003
22800000000.0 0.979935519920653 -0.03810696804128585
22875000000.0 0.9797989369853972 -0.04124844081123701
22950000000.0 0.979651815250076 -0.044382619426315405
23025000000.0 0.9794942429159048 -0.047509534659190965
23100000000.0 0.9793263091360158 -0.05062921905352106
23175000000.0 0.9791481038328247 -0.05374170714504789
23250000000.0 0.9789597174925786 -0.05684703566603915
23325000000.0 0.978761240938416 -0.0599452437307572
23400000000.0 0.978552765083483 -0.06303637299981257
23475000000.0 0.9783343806658751 -0.06612046782130539
23550000000.0 0.9781061779673945 -0.06919757534684888
23625000000.0 0.9778682465182973 -0.07226774562069638
23700000000.0 0.9776206747904165 -0.07533103164038388
23775000000.0 0.9773635498812125 -0.07838748938750356
23850000000.0 0.9770969571914631 -0.08143717782744213
23925000000.0 0.9768209800994535 -0.0844801588771574
24000000000.0 0.9765356996346506 -0.08751649734029984
24075000000.0 0.9762411941539241 -0.0905462608093095
24150000000.0 0.9759375390234983 -0.09356951953432319
24225000000.0 0.9756248063098212 -0.09658634625910445
24300000000.0 0.9753030644825881 -0.09959681602442658
24375000000.0 0.9749723781331515 -0.10260100593973369
24450000000.0 0.9746328077115188 -0.10559899492413076
24525000000.0 0.9742844092850492 -0.10859086341814164
24600000000.0 0.9739272343219268 -0.11157669306793008
24675000000.0 0.9735613295022927 -0.11455656638401872
24750000000.0 0.9731867365598311 -0.11753056637683203
24825000000.0 0.9728034921563717 -0.12049877617164965
24900000000.0 0.9724116277919042 -0.12346127860589931
24975000000.0 0.9720111697521091 -0.12641815581188678
25050000000.0 0.9716021390952977 -0.1293694887883897
25125000000.0 0.9711845516803146 -0.1323153569646886
25200000000.0 0.9707584182366591 -0.13525583776084976
25275000000.0 0.9703237444777684 -0.13819100614821533
25350000000.0 0.969880531257971 -0.14112093421421387
25425000000.0 0.9694287747733515 -0.14404569073567977
25500000000.0 0.9689684668062677 -0.14696534076498385
25575000000.0 0.9684995950129536 -0.14987994523329695
25650000000.0 0.9680221432531435 -0.15278956057527984
25725000000.0 0.967536091960318 -0.15569423837953228
25800000000.0 0.9670414185506849 -0.1585940250689801
25875000000.0 0.9665380978686376 -0.1614889616153158
25950000000.0 0.9660261026659716 -0.16437908329144355
26025000000.0 0.9655054041117923 -0.16726441946567697
26100000000.0 0.9649759723295934 -0.17014499344121742
26175000000.0 0.9644377769576362 -0.17302082234416877
26250000000.0 0.9638907877283893 -0.17589191706301296
26325000000.0 0.9633349750624581 -0.1787582822421635
26400000000.0 0.9627703106720855 -0.1816199163317805
26475000000.0 0.9621967681690808 -0.18447681169564645
26550000000.0 0.9616143236717063 -0.18732895477842665
26625000000.0 0.9610229564049018 -0.19017632633318063
26700000000.0 0.9604226492880188 -0.19301890170943858
26775000000.0 0.9598133895041012 -0.1958566512016486
26850000000.0 0.9591951690446794 -0.19868954045724113
26925000000.0 0.9585679852240029 -0.2015175309429482
27000000000.0 0.9579318411566491 -0.20434058046746437
27075000000.0 0.9572867461925115 -0.2071586437578698
27150000000.0 0.9566327163033288 -0.209971673086708
27225000000.0 0.9559697744150419 -0.2127796189459132
27300000000.0 0.9552979506806021 -0.21558243076323602
27375000000.0 0.9546172826880734 -0.21838005765617757
27450000000.0 0.9539278155993067 -0.22117244921790458
27525000000.0 0.9532296022148721 -0.22395955632901343
27600000000.0 0.9525227029614466 -0.22674133198849175
27675000000.0 0.9518071857983932 -0.22951773215677582
27750000000.0 0.9510831260409042 -0.23228871660326753
27825000000.0 0.9503506060977666 -0.23505424975035785
27900000000.0 0.9496097151224803 -0.23781430150555646
27975000000.0 0.9488605485773496 -0.24056884807318335
