! VERSION = 6.00
!Data measured by ggf on Tue Jan 23 14:00:02 2018 using model file NPN_MEAS_SCALE
BEGIN_HEADER
 ICCAP_INPUTS
  ve         V  E GROUND SMU_E 0.2 CON        0
  vc         V  C GROUND SMU_C 0.2 SYNC       1 0 vb
  vs         V  S GROUND SMU_S 0.015 CON        0
  vb         V  B GROUND SMU_B 0.015 LIN        1    -1         1.04       103  0.02      
 ICCAP_OUTPUTS
  ib         I  B GROUND SMU_B M
  ic         I  C GROUND SMU_C M
 ICCAP_VALUES
  TNOM "27"
  TEMP "27"
  TECHNO "SG13G2"
  LOT "EDJ802"
  WAFER "02"
  CHIP "(3.3)"
  MODULE "S439S"
  DEV_NAME "D13"
  DEV_GEOM_L "2.5"
  DEV_GEOM_W "0.07"
  NUM_OF_TRANS_RF "2"
  REMARKS "Nx=3; Power -30/-20dBm, Slope: 0.1dB/GHz"
  TIMEDATE "Tue Jan 23 13:42:58     2018"
  OPERATOR "ggf"
END_HEADER

BEGIN_DB
 ICCAP_VAR ve         0              
 ICCAP_VAR vs         0              

 #vb              vc              ib              ic             
  -1              -1              -2.207e-005     -0.0069226     
  -0.98           -0.98           -1.7614e-005    -0.005914      
  -0.96           -0.96           -1.3822e-005    -0.005001      
  -0.94           -0.94           -1.0628e-005    -0.0041742     
  -0.92           -0.92           -8.0046e-006    -0.0034392     
  -0.9            -0.9            -5.8554e-006    -0.002784      
  -0.88           -0.88           -4.1652e-006    -0.0022158     
  -0.86           -0.86           -2.8782e-006    -0.001731      
  -0.84           -0.84           -1.93e-006      -0.0013256     
  -0.82           -0.82           -1.2626e-006    -0.00099352    
  -0.8            -0.8            -8.1576e-007    -0.00073168    
  -0.78           -0.78           -5.31e-007      -0.00053016    
  -0.76           -0.76           -3.5492e-007    -0.00037924    
  -0.74           -0.74           -2.4704e-007    -0.00026888    
  -0.72           -0.72           -1.797e-007     -0.00018914    
  -0.7            -0.7            -1.3654e-007    -0.00013226    
  -0.68           -0.68           -1.0692e-007    -9.165e-005    
  -0.66           -0.66           -8.5806e-008    -6.2928e-005   
  -0.64           -0.64           -6.9862e-008    -4.257e-005    
  -0.62           -0.62           -5.7306e-008    -2.8418e-005   
  -0.6            -0.6            -4.7324e-008    -1.8654e-005   
  -0.58           -0.58           -3.9122e-008    -1.203e-005    
  -0.56           -0.56           -3.2292e-008    -7.5822e-006   
  -0.54           -0.54           -2.6622e-008    -4.6584e-006   
  -0.52           -0.52           -2.1856e-008    -2.7694e-006   
  -0.5            -0.5            -1.7868e-008    -1.585e-006    
  -0.48           -0.48           -1.4554e-008    -8.7134e-007   
  -0.46           -0.46           -1.1822e-008    -4.603e-007    
  -0.44           -0.44           -9.5356e-009    -2.336e-007    
  -0.42           -0.42           -7.6426e-009    -1.141e-007    
  -0.4            -0.4            -6.0844e-009    -5.5128e-008   
  -0.38           -0.38           -4.8206e-009    -2.5144e-008   
  -0.36           -0.36           -3.7796e-009    -1.0964e-008   
  -0.34           -0.34           -2.949e-009     -7.246e-009    
  -0.32           -0.32           -2.2716e-009    -2.677e-009    
  -0.3            -0.3            -1.743e-009     -8.0308e-010   
  -0.28           -0.28           -1.3182e-009    1.326e-010     
  -0.26           -0.26           -9.878e-010     -5.086e-010    
  -0.24           -0.24           -7.2952e-010    -2.536e-010    
  -0.22           -0.22           -5.2772e-010    -2.906e-010    
  -0.2            -0.2            -3.7756e-010    -2.542e-010    
  -0.18           -0.18           -2.6254e-010    -1.13e-010     
  -0.16           -0.16           -1.7694e-010    -1.764e-010    
  -0.14           -0.14           -1.1292e-010    -1.39e-010     
  -0.12           -0.12           -6.702e-011     -1.436e-010    
  -0.1            -0.1            -3.734e-011     -1.85e-010     
  -0.08           -0.08           -1.282e-011     -2.52e-010     
  -0.06           -0.06           -1.46e-012      -8.56e-011     
  -0.04           -0.04           7.04e-012       -1.656e-010    
  -0.02           -0.02           1.334e-011      -2.088e-010    
  0               0               1.976e-011      -1.424e-010    
  0.02            0.02            2.102e-011      -2.29e-010     
  0.04            0.04            2.286e-011      -2.182e-010    
  0.06            0.06            2.028e-011      -1.728e-010    
  0.08            0.08            2.1e-011        -1.3e-010      
  0.1             0.1             2.21e-011       -2.346e-010    
  0.12            0.12            2.106e-011      -1.986e-010    
  0.14            0.14            2.132e-011      -2.282e-010    
  0.16            0.16            2.416e-011      -2.012e-010    
  0.18            0.18            2.11e-011       -9e-011        
  0.2             0.2             2.294e-011      -1.844e-010    
  0.22            0.22            2.282e-011      -6.88e-011     
  0.24            0.24            2.07e-011       -2.092e-010    
  0.26            0.26            2.246e-011      -1.556e-010    
  0.28            0.28            2.546e-011      -1.044e-010    
  0.3             0.3             2.282e-011      -1.252e-010    
  0.32            0.32            2.306e-011      -1.442e-010    
  0.34            0.34            2.488e-011      -3.32e-011     
  0.36            0.36            2.154e-011      -1.52e-011     
  0.38            0.38            2.668e-011      -3.76e-011     
  0.4             0.4             2.874e-011      1.516e-010     
  0.42            0.42            2.766e-011      5.476e-010     
  0.44            0.44            3.33e-011       1.237e-009     
  0.46            0.46            3.832e-011      2.854e-009     
  0.48            0.48            4.49e-011       1.0048e-008    
  0.5             0.5             7.018e-011      1.6816e-008    
  0.52            0.52            1.1234e-010     3.5626e-008    
  0.54            0.54            1.863e-010      7.4882e-008    
  0.56            0.56            3.3126e-010     1.6074e-007    
  0.58            0.58            6.2276e-010     3.4306e-007    
  0.6             0.6             1.2214e-009     7.3406e-007    
  0.62            0.62            2.4402e-009     1.5784e-006    
  0.64            0.64            4.9986e-009     3.3774e-006    
  0.66            0.66            1.0314e-008     7.2184e-006    
  0.68            0.68            2.1538e-008     1.5446e-005    
  0.7             0.7             4.4888e-008     3.2818e-005    
  0.72            0.72            9.2776e-008     6.9628e-005    
  0.74            0.74            1.9244e-007     0.0001463      
  0.76            0.76            3.9674e-007     0.0003034      
  0.78            0.78            8.104e-007      0.00061796     
  0.8             0.8             1.5878e-006     0.0012122      
  0.82            0.82            3.0108e-006     0.002272       
  0.84            0.84            5.4442e-006     0.0039704      
  0.86            0.86            9.347e-006      0.0064144      
  0.88            0.88            1.5464e-005     0.0096218      
  0.9             0.9             2.4946e-005     0.01352        
  0.92            0.92            3.9788e-005     0.01812        
  0.94            0.94            6.2658e-005     0.023354       
  0.96            0.96            9.783e-005      0.029276       
  0.98            0.98            0.00015026      0.035788       
  1               1               0.0002272       0.042906       
  1.02            1.02            0.00033504      0.050158       
  1.04            1.04            0.00049136      0.056798       
END_DB

