! VERSION = 6.00
!Data measured by ggf on Tue Jan 23 14:00:02 2018 using model file NPN_MEAS_SCALE
BEGIN_HEADER
 ICCAP_INPUTS
  vc         V  C GROUND SMU_C 0.2 LIN        1    0          2          81   0.025     
  vs         V  S GROUND SMU_S 0.015 CON        0
  ve         V  E GROUND SMU_E 0.2 CON        0
  ib         I  B GROUND SMU_B 2 LIST       2 6 2E-009 6.25E-006 1.25E-005 2.5E-005 5E-005 0.0001
 ICCAP_OUTPUTS
  ic         I  C GROUND SMU_C M
  vb         V  B GROUND SMU_B M
 ICCAP_VALUES
  TNOM "27"
  TEMP "27"
  TECHNO "SG13G2"
  LOT "EDJ802"
  WAFER "02"
  CHIP "(3.3)"
  MODULE "S439S"
  DEV_NAME "D13"
  DEV_GEOM_L "2.5"
  DEV_GEOM_W "0.07"
  NUM_OF_TRANS_RF "2"
  REMARKS "Nx=3; Power -30/-20dBm, Slope: 0.1dB/GHz"
  TIMEDATE "Tue Jan 23 13:42:58     2018"
  OPERATOR "ggf"
END_HEADER

BEGIN_DB
 ICCAP_VAR vs         0              
 ICCAP_VAR ve         0              
 ICCAP_VAR ib         2e-009         

 #vc              ic              vb             
  0               -7.338e-009     0.35704        
  0.025           -3.2732e-009    0.33332        
  0.05            -2.3116e-009    0.32824        
  0.075           -1.8046e-009    0.3326         
  0.1             -3.2278e-009    0.34636        
  0.125           -8.1856e-010    0.36092        
  0.15            -6.1582e-010    0.37988        
  0.175           -1.6722e-010    0.40024        
  0.2             5.939e-010      0.4216         
  0.225           3.414e-010      0.44032        
  0.25            1.8046e-009     0.45728        
  0.275           4.3748e-009     0.47524        
  0.3             1.0202e-008     0.49636        
  0.325           2.377e-008      0.5116         
  0.35            4.307e-008      0.5274         
  0.375           7.8752e-008     0.54324        
  0.4             1.3434e-007     0.55752        
  0.425           2.1904e-007     0.57024        
  0.45            3.4374e-007     0.58188        
  0.475           5.0776e-007     0.5918         
  0.5             6.9346e-007     0.59964        
  0.525           8.7368e-007     0.6054         
  0.55            1.0122e-006     0.609          
  0.575           1.0608e-006     0.61008        
  0.6             1.1024e-006     0.61104        
  0.625           1.1418e-006     0.61188        
  0.65            1.174e-006      0.6126         
  0.675           1.2038e-006     0.61316        
  0.7             1.2306e-006     0.61372        
  0.725           1.2524e-006     0.61412        
  0.75            1.2706e-006     0.61452        
  0.775           1.2884e-006     0.61484        
  0.8             1.3026e-006     0.61516        
  0.825           1.3178e-006     0.6154         
  0.85            1.3312e-006     0.61568        
  0.875           1.3432e-006     0.61592        
  0.9             1.3546e-006     0.61612        
  0.925           1.3668e-006     0.61636        
  0.95            1.3794e-006     0.61664        
  0.975           1.3932e-006     0.61688        
  1               1.4064e-006     0.61716        
  1.025           1.423e-006      0.61748        
  1.05            1.4408e-006     0.61784        
  1.075           1.4608e-006     0.61824        
  1.1             1.486e-006      0.61868        
  1.125           1.514e-006      0.6192         
  1.15            1.548e-006      0.6198         
  1.175           1.5846e-006     0.62048        
  1.2             1.6314e-006     0.62132        
  1.225           1.6862e-006     0.62224        
  1.25            1.7514e-006     0.62332        
  1.275           1.8318e-006     0.62456        
  1.3             1.9288e-006     0.626          
  1.325           2.0476e-006     0.62772        
  1.35            2.1958e-006     0.62968        
  1.375           2.3838e-006     0.63196        
  1.4             2.6222e-006     0.63468        
  1.425           2.9374e-006     0.63788        
  1.45            3.3602e-006     0.64172        
  1.475           3.957e-006      0.6464         
  1.5             4.842e-006      0.65232        
  1.525           9.0466e-006     0.6684         
  1.55            1.6652e-005     0.68476        
  1.575           2.2814e-005     0.69672        
  1.6             4.5432e-005     0.72044        
  1.625           0.0001892       0.75532        
  1.65            0.00057422      0.77944        
  1.675           0.0012916       0.80048        
  1.7             0.0023208       0.81808        
  1.725           0.0036288       0.83248        
  1.75            0.0050886       0.84408        
  1.775           0.0066196       0.85376        
  1.8             0.0081596       0.86192        
  1.825           0.009705        0.86892        
  1.85            0.0112372       0.87508        
  1.875           0.012772        0.8806         
  1.9             0.0143          0.88548        
  1.925           0.015826        0.88992        
  1.95            0.017358        0.894          
  1.975           0.018894        0.89764        
  2               0.020428        0.90092        
END_DB

BEGIN_DB
 ICCAP_VAR vs         0              
 ICCAP_VAR ve         0              
 ICCAP_VAR ib         6.25e-006      

 #vc              ic              vb             
  0               -0.0001229      0.76256        
  0.025           0.00024134      0.78188        
  0.05            0.00075894      0.79828        
  0.075           0.0013888       0.81172        
  0.1             0.0020626       0.82252        
  0.125           0.0027126       0.831          
  0.15            0.0032916       0.83752        
  0.175           0.0037562       0.8422         
  0.2             0.0040972       0.84536        
  0.225           0.004315        0.84724        
  0.25            0.0044428       0.84828        
  0.275           0.0045156       0.84876        
  0.3             0.004558        0.849          
  0.325           0.004586        0.84904        
  0.35            0.004602        0.84904        
  0.375           0.0046132       0.84896        
  0.4             0.004619        0.84888        
  0.425           0.004624        0.84876        
  0.45            0.0046266       0.8486         
  0.475           0.0046274       0.84848        
  0.5             0.0046282       0.84828        
  0.525           0.004626        0.84812        
  0.55            0.0046232       0.84796        
  0.575           0.0046212       0.84776        
  0.6             0.0046188       0.84756        
  0.625           0.0046128       0.8474         
  0.65            0.0046096       0.8472         
  0.675           0.0046056       0.847          
  0.7             0.0046016       0.8468         
  0.725           0.0045978       0.84664        
  0.75            0.0045928       0.84644        
  0.775           0.004588        0.84628        
  0.8             0.0045842       0.84604        
  0.825           0.0045792       0.84588        
  0.85            0.004574        0.84568        
  0.875           0.0045694       0.84548        
  0.9             0.0045644       0.84532        
  0.925           0.0045586       0.84508        
  0.95            0.0045532       0.84492        
  0.975           0.0045498       0.84472        
  1               0.0045452       0.84452        
  1.025           0.0045392       0.84436        
  1.05            0.0045358       0.84416        
  1.075           0.0045312       0.844          
  1.1             0.0045272       0.8438         
  1.125           0.0045252       0.84364        
  1.15            0.0045252       0.84348        
  1.175           0.0045274       0.8434         
  1.2             0.0045318       0.84328        
  1.225           0.0045404       0.8432         
  1.25            0.0045536       0.84316        
  1.275           0.0045734       0.84316        
  1.3             0.0045996       0.84324        
  1.325           0.004635        0.8434         
  1.35            0.0046812       0.8436         
  1.375           0.0047406       0.84396        
  1.4             0.0048132       0.8444         
  1.425           0.0049046       0.84496        
  1.45            0.005019        0.84568        
  1.475           0.005154        0.84652        
  1.5             0.0053212       0.84756        
  1.525           0.0055212       0.84884        
  1.55            0.0057632       0.85024        
  1.575           0.0060502       0.85196        
  1.6             0.0063886       0.85396        
  1.625           0.006794        0.8562         
  1.65            0.0072676       0.85872        
  1.675           0.0078176       0.86148        
  1.7             0.008451        0.86452        
  1.725           0.0091728       0.8678         
  1.75            0.0099836       0.87124        
  1.775           0.0108828       0.8748         
  1.8             0.011854        0.8784         
  1.825           0.012896        0.88196        
  1.85            0.014006        0.88556        
  1.875           0.015176        0.88904        
  1.9             0.0164          0.89232        
  1.925           0.017666        0.89556        
  1.95            0.018974        0.8986         
  1.975           0.020312        0.90144        
  2               0.021686        0.90412        
END_DB

BEGIN_DB
 ICCAP_VAR vs         0              
 ICCAP_VAR ve         0              
 ICCAP_VAR ib         1.25e-005      

 #vc              ic              vb             
  0               -9.9882e-005    0.78688        
  0.025           0.0005956       0.80484        
  0.05            0.0014846       0.82028        
  0.075           0.002501        0.8334         
  0.1             0.0035646       0.84448        
  0.125           0.0046004       0.85368        
  0.15            0.0055558       0.86124        
  0.175           0.0063922       0.86724        
  0.2             0.0070852       0.87184        
  0.225           0.0076144       0.87512        
  0.25            0.0079848       0.87724        
  0.275           0.008217        0.87844        
  0.3             0.0083502       0.879          
  0.325           0.0084222       0.87916        
  0.35            0.0084592       0.87912        
  0.375           0.0084808       0.87892        
  0.4             0.0084886       0.87872        
  0.425           0.0084896       0.87844        
  0.45            0.0084858       0.87812        
  0.475           0.0084808       0.8778         
  0.5             0.0084712       0.87744        
  0.525           0.0084598       0.87712        
  0.55            0.008448        0.87676        
  0.575           0.0084336       0.8764         
  0.6             0.0084202       0.87604        
  0.625           0.0084064       0.87568        
  0.65            0.0083892       0.87532        
  0.675           0.008374        0.87496        
  0.7             0.0083594       0.8746         
  0.725           0.008343        0.87424        
  0.75            0.0083254       0.87384        
  0.775           0.008309        0.87348        
  0.8             0.0082924       0.87312        
  0.825           0.0082772       0.87276        
  0.85            0.0082586       0.8724         
  0.875           0.0082428       0.87204        
  0.9             0.0082254       0.87164        
  0.925           0.0082048       0.87128        
  0.95            0.0081874       0.87092        
  0.975           0.0081708       0.87056        
  1               0.0081544       0.87024        
  1.025           0.0081372       0.86988        
  1.05            0.0081202       0.86956        
  1.075           0.008105        0.8692         
  1.1             0.0080906       0.86884        
  1.125           0.008078        0.86852        
  1.15            0.008066        0.8682         
  1.175           0.0080562       0.86788        
  1.2             0.0080478       0.8676         
  1.225           0.0080454       0.86736        
  1.25            0.008046        0.86708        
  1.275           0.0080544       0.86688        
  1.3             0.0080716       0.86672        
  1.325           0.0080926       0.8666         
  1.35            0.0081288       0.86656        
  1.375           0.008178        0.86656        
  1.4             0.0082412       0.86668        
  1.425           0.0083244       0.86688        
  1.45            0.0084292       0.86716        
  1.475           0.0085564       0.8676         
  1.5             0.0087122       0.86812        
  1.525           0.008898        0.86884        
  1.55            0.0091192       0.86964        
  1.575           0.009381        0.87064        
  1.6             0.009685        0.8718         
  1.625           0.010038        0.87316        
  1.65            0.0104492       0.87472        
  1.675           0.0109128       0.8764         
  1.7             0.011434        0.87828        
  1.725           0.012026        0.88032        
  1.75            0.012686        0.88252        
  1.775           0.013418        0.88488        
  1.8             0.014216        0.88728        
  1.825           0.015084        0.88976        
  1.85            0.016012        0.89228        
  1.875           0.017012        0.89484        
  1.9             0.018068        0.8974         
  1.925           0.019176        0.89988        
  1.95            0.020342        0.90228        
  1.975           0.021552        0.9046         
  2               0.022806        0.90684        
END_DB

BEGIN_DB
 ICCAP_VAR vs         0              
 ICCAP_VAR ve         0              
 ICCAP_VAR ib         2.5e-005       

 #vc              ic              vb             
  0               -7.5516e-005    0.80864        
  0.025           0.001           0.82496        
  0.05            0.0022546       0.83936        
  0.075           0.0036282       0.85212        
  0.1             0.0050592       0.86348        
  0.125           0.0064984       0.8736         
  0.15            0.0079058       0.88252        
  0.175           0.009238        0.89028        
  0.2             0.0104614       0.89688        
  0.225           0.011518        0.90216        
  0.25            0.012392        0.90628        
  0.275           0.013072        0.90924        
  0.3             0.013572        0.91116        
  0.325           0.013906        0.91228        
  0.35            0.01411         0.91276        
  0.375           0.014214        0.91276        
  0.4             0.014258        0.91252        
  0.425           0.014278        0.91212        
  0.45            0.014274        0.91164        
  0.475           0.014258        0.91112        
  0.5             0.014234        0.91052        
  0.525           0.014206        0.90992        
  0.55            0.014176        0.90932        
  0.575           0.014142        0.90872        
  0.6             0.014108        0.90808        
  0.625           0.014068        0.90748        
  0.65            0.014032        0.90684        
  0.675           0.01399         0.9062         
  0.7             0.013954        0.9056         
  0.725           0.013916        0.90496        
  0.75            0.013874        0.90436        
  0.775           0.013834        0.90372        
  0.8             0.013794        0.90308        
  0.825           0.013752        0.90248        
  0.85            0.013712        0.90188        
  0.875           0.01367         0.90124        
  0.9             0.01363         0.90064        
  0.925           0.01359         0.9            
  0.95            0.013548        0.8994         
  0.975           0.01351         0.89884        
  1               0.013474        0.89824        
  1.025           0.013436        0.89764        
  1.05            0.013392        0.89704        
  1.075           0.013352        0.89644        
  1.1             0.013314        0.89584        
  1.125           0.01328         0.89528        
  1.15            0.013238        0.89468        
  1.175           0.013204        0.89416        
  1.2             0.013178        0.8936         
  1.225           0.01315         0.89308        
  1.25            0.013126        0.8926         
  1.275           0.013108        0.89208        
  1.3             0.013092        0.89164        
  1.325           0.013086        0.8912         
  1.35            0.013092        0.89084        
  1.375           0.013108        0.89048        
  1.4             0.013136        0.8902         
  1.425           0.013186        0.89           
  1.45            0.01325         0.88984        
  1.475           0.013332        0.88972        
  1.5             0.013436        0.88976        
  1.525           0.01357         0.88988        
  1.55            0.013734        0.89008        
  1.575           0.013928        0.8904         
  1.6             0.014158        0.89084        
  1.625           0.014426        0.8914         
  1.65            0.014736        0.89208        
  1.675           0.015092        0.89292        
  1.7             0.015496        0.89384        
  1.725           0.01595         0.89484        
  1.75            0.016462        0.89604        
  1.775           0.017028        0.89732        
  1.8             0.01765         0.89868        
  1.825           0.018336        0.90016        
  1.85            0.019078        0.90168        
  1.875           0.019882        0.90328        
  1.9             0.020742        0.90488        
  1.925           0.021662        0.90652        
  1.95            0.022646        0.9082         
  1.975           0.023682        0.9098         
  2               0.024768        0.91136        
END_DB

BEGIN_DB
 ICCAP_VAR vs         0              
 ICCAP_VAR ve         0              
 ICCAP_VAR ib         5e-005         

 #vc              ic              vb             
  0               -7.1042e-005    0.82956        
  0.025           0.0013316       0.84424        
  0.05            0.0028512       0.85744        
  0.075           0.0044482       0.86944        
  0.1             0.0060822       0.8804         
  0.125           0.0077306       0.8904         
  0.15            0.0093716       0.8996         
  0.175           0.0109898       0.90796        
  0.2             0.012582        0.9156         
  0.225           0.014112        0.92248        
  0.25            0.015576        0.9286         
  0.275           0.016938        0.93396        
  0.3             0.018182        0.93848        
  0.325           0.019264        0.94208        
  0.35            0.02015         0.94476        
  0.375           0.020822        0.94652        
  0.4             0.021288        0.9474         
  0.425           0.021588        0.94772        
  0.45            0.021758        0.94756        
  0.475           0.021832        0.947          
  0.5             0.02185         0.94632        
  0.525           0.021828        0.94552        
  0.55            0.021788        0.94464        
  0.575           0.021736        0.94372        
  0.6             0.02168         0.9428         
  0.625           0.021616        0.94188        
  0.65            0.02155         0.94096        
  0.675           0.021482        0.94           
  0.7             0.021412        0.93908        
  0.725           0.021342        0.93812        
  0.75            0.021268        0.9372         
  0.775           0.021194        0.93624        
  0.8             0.021118        0.93532        
