! VERSION = 6.00
!Data measured by ggf on Tue Jan 23 14:00:02 2018 using model file NPN_MEAS_SCALE
BEGIN_HEADER
 ICCAP_INPUTS
  vc         V  C GROUND SMU_C 0.2 LIN        1    0          2          81   0.025     
  ve         V  E GROUND SMU_E 0.2 CON        0
  vs         V  S GROUND SMU_S 0.015 CON        0
  vb         V  B GROUND SMU_B 0.015 LIN        2    0.6        1          9    0.05      
 ICCAP_OUTPUTS
  ic         I  C DEFAULT SMU_C M
  ib         I  B GROUND SMU_B M
 ICCAP_VALUES
  TNOM "27"
  TEMP "27"
  TECHNO "SG13G2"
  LOT "EDJ802"
  WAFER "02"
  CHIP "(3.3)"
  MODULE "S439S"
  DEV_NAME "D13"
  DEV_GEOM_L "2.5"
  DEV_GEOM_W "0.07"
  NUM_OF_TRANS_RF "2"
  REMARKS "Nx=3; Power -30/-20dBm, Slope: 0.1dB/GHz"
  TIMEDATE "Tue Jan 23 13:42:58     2018"
  OPERATOR "ggf"
END_HEADER

BEGIN_DB
 ICCAP_VAR ve         0              
 ICCAP_VAR vs         0              
 ICCAP_VAR vb         0.6            

 #vc              ic              ib             
  0               -2.7508e-006    1.4192e-007    
  0.025           -6.5364e-007    9.591e-008     
  0.05            1.6856e-007     6.869e-008     
  0.075           4.929e-007      5.0878e-008    
  0.1             6.2312e-007     3.802e-008     
  0.125           6.7764e-007     2.8542e-008    
  0.15            7.02e-007       2.1308e-008    
  0.175           7.1408e-007     1.591e-008     
  0.2             7.2102e-007     1.1814e-008    
  0.225           7.2528e-007     8.8016e-009    
  0.25            7.2802e-007     6.6212e-009    
  0.275           7.2976e-007     5.0608e-009    
  0.3             7.3118e-007     3.9352e-009    
  0.325           7.32e-007       3.1266e-009    
  0.35            7.3294e-007     2.5412e-009    
  0.375           7.333e-007      2.1076e-009    
  0.4             7.3358e-007     1.8002e-009    
  0.425           7.3416e-007     1.5842e-009    
  0.45            7.3424e-007     1.4266e-009    
  0.475           7.3438e-007     1.329e-009     
  0.5             7.3458e-007     1.257e-009     
  0.525           7.348e-007      1.2082e-009    
  0.55            7.3482e-007     1.1796e-009    
  0.575           7.3486e-007     1.1544e-009    
  0.6             7.348e-007      1.1424e-009    
  0.625           7.3484e-007     1.1246e-009    
  0.65            7.3472e-007     1.1204e-009    
  0.675           7.3504e-007     1.1112e-009    
  0.7             7.3504e-007     1.1022e-009    
  0.725           7.3478e-007     1.0978e-009    
  0.75            7.3482e-007     1.0856e-009    
  0.775           7.3476e-007     1.078e-009     
  0.8             7.3494e-007     1.065e-009     
  0.825           7.3508e-007     1.058e-009     
  0.85            7.35e-007       1.0478e-009    
  0.875           7.3486e-007     1.0308e-009    
  0.9             7.3496e-007     1.0164e-009    
  0.925           7.3488e-007     1.00432e-009   
  0.95            7.3498e-007     9.8508e-010    
  0.975           7.35e-007       9.6482e-010    
  1               7.351e-007      9.3618e-010    
  1.025           7.3504e-007     9.059e-010     
  1.05            7.3506e-007     8.7606e-010    
  1.075           7.3514e-007     8.3342e-010    
  1.1             7.351e-007      7.9194e-010    
  1.125           7.35e-007       7.402e-010     
  1.15            7.3492e-007     6.873e-010     
  1.175           7.351e-007      6.1858e-010    
  1.2             7.3502e-007     5.4864e-010    
  1.225           7.3508e-007     4.6406e-010    
  1.25            7.3514e-007     3.715e-010     
  1.275           7.3516e-007     2.6604e-010    
  1.3             7.3508e-007     1.4978e-010    
  1.325           7.3512e-007     1.898e-011     
  1.35            7.3524e-007     -1.2818e-010   
  1.375           7.3538e-007     -2.8816e-010   
  1.4             7.3546e-007     -4.691e-010    
  1.425           7.3556e-007     -6.7142e-010   
  1.45            7.3564e-007     -8.8776e-010   
  1.475           7.3578e-007     -1.13454e-009  
  1.5             7.3556e-007     -1.4066e-009   
  1.525           7.3612e-007     -1.7006e-009   
  1.55            7.3646e-007     -2.0234e-009   
  1.575           7.37e-007       -2.3686e-009   
  1.6             7.373e-007      -2.7426e-009   
  1.625           7.3756e-007     -3.163e-009    
  1.65            7.3804e-007     -3.6204e-009   
  1.675           7.3848e-007     -4.1194e-009   
  1.7             7.389e-007      -4.6648e-009   
  1.725           7.3952e-007     -5.2594e-009   
  1.75            7.401e-007      -5.9462e-009   
  1.775           7.4078e-007     -6.6152e-009   
  1.8             7.4146e-007     -7.3884e-009   
  1.825           7.4228e-007     -8.2194e-009   
  1.85            7.4316e-007     -9.1204e-009   
  1.875           7.442e-007      -1.01006e-008  
  1.9             7.4506e-007     -1.11626e-008  
  1.925           7.458e-007      -1.2318e-008   
  1.95            7.4736e-007     -1.3514e-008   
  1.975           7.4872e-007     -1.4928e-008   
  2               7.502e-007      -1.6382e-008   
END_DB

BEGIN_DB
 ICCAP_VAR ve         0              
 ICCAP_VAR vs         0              
 ICCAP_VAR vb         0.65           

 #vc              ic              ib             
  0               -1.5618e-005    4.0248e-007    
  0.025           -3.5954e-006    2.3406e-007    
  0.05            1.5056e-006     1.4762e-007    
  0.075           3.5634e-006     1.015e-007     
  0.1             4.3736e-006     7.4252e-008    
  0.125           4.6932e-006     5.6564e-008    
  0.15            4.8232e-006     4.3816e-008    
  0.175           4.8776e-006     3.433e-008     
  0.2             4.9038e-006     2.7064e-008    
  0.225           4.9166e-006     2.1596e-008    
  0.25            4.9254e-006     1.756e-008     
  0.275           4.9296e-006     1.4566e-008    
  0.3             4.9344e-006     1.2346e-008    
  0.325           4.9366e-006     1.0802e-008    
  0.35            4.9382e-006     9.6596e-009    
  0.375           4.942e-006      8.8524e-009    
  0.4             4.9432e-006     8.2658e-009    
  0.425           4.944e-006      7.8364e-009    
  0.45            4.9446e-006     7.5234e-009    
  0.475           4.9448e-006     7.312e-009     
  0.5             4.9456e-006     7.158e-009     
  0.525           4.9466e-006     7.0516e-009    
  0.55            4.9456e-006     6.9768e-009    
  0.575           4.9466e-006     6.9234e-009    
  0.6             4.947e-006      6.9036e-009    
  0.625           4.9464e-006     6.8706e-009    
  0.65            4.9476e-006     6.8338e-009    
  0.675           4.9482e-006     6.8166e-009    
  0.7             4.9478e-006     6.7994e-009    
  0.725           4.9476e-006     6.7844e-009    
  0.75            4.9496e-006     6.7642e-009    
  0.775           4.9498e-006     6.7544e-009    
  0.8             4.9494e-006     6.7414e-009    
  0.825           4.9486e-006     6.7244e-009    
  0.85            4.9486e-006     6.712e-009     
  0.875           4.9484e-006     6.6916e-009    
  0.9             4.9488e-006     6.676e-009     
  0.925           4.9484e-006     6.6518e-009    
  0.95            4.9484e-006     6.625e-009     
  0.975           4.9472e-006     6.6052e-009    
  1               4.9478e-006     6.5744e-009    
  1.025           4.9478e-006     6.5232e-009    
  1.05            4.9476e-006     6.4612e-009    
  1.075           4.9464e-006     6.4e-009       
  1.1             4.9474e-006     6.316e-009     
  1.125           4.9466e-006     6.22e-009      
  1.15            4.9456e-006     6.0968e-009    
  1.175           4.9464e-006     5.9508e-009    
  1.2             4.9458e-006     5.7796e-009    
  1.225           4.9448e-006     5.5734e-009    
  1.25            4.9452e-006     5.3354e-009    
  1.275           4.9462e-006     5.058e-009     
  1.3             4.9456e-006     4.7358e-009    
  1.325           4.9452e-006     4.363e-009     
  1.35            4.9454e-006     3.9278e-009    
  1.375           4.9448e-006     3.4472e-009    
  1.4             4.9446e-006     2.9044e-009    
  1.425           4.9454e-006     2.2858e-009    
  1.45            4.9454e-006     1.5828e-009    
  1.475           4.9446e-006     8.1068e-010    
  1.5             4.9492e-006     -4.894e-011    
  1.525           4.9478e-006     -1.01582e-009  
  1.55            4.943e-006      -2.113e-009    
  1.575           4.9462e-006     -3.298e-009    
  1.6             4.949e-006      -4.6088e-009   
  1.625           4.951e-006      -6.0666e-009   
  1.65            4.9514e-006     -7.6646e-009   
  1.675           4.9522e-006     -9.4156e-009   
  1.7             4.9532e-006     -1.13698e-008  
  1.725           4.952e-006      -1.349e-008    
  1.75            4.9572e-006     -1.5868e-008   
  1.775           4.9556e-006     -1.8432e-008   
  1.8             4.9606e-006     -2.1286e-008   
  1.825           4.9656e-006     -2.4386e-008   
  1.85            4.9674e-006     -2.7806e-008   
  1.875           4.9708e-006     -3.154e-008    
  1.9             4.9766e-006     -3.56e-008     
  1.925           4.981e-006      -4.005e-008    
  1.95            4.9828e-006     -4.496e-008    
  1.975           4.9884e-006     -5.0264e-008   
  2               4.9938e-006     -5.6026e-008   
END_DB

BEGIN_DB
 ICCAP_VAR ve         0              
 ICCAP_VAR vs         0              
 ICCAP_VAR vb         0.7            

 #vc              ic              ib             
  0               -6.141e-005     1.3732e-006    
  0.025           -1.2634e-005    7.7248e-007    
  0.05            1.2552e-005     4.423e-007     
  0.075           2.4286e-005     2.7242e-007    
  0.1             2.9276e-005     1.8512e-007    
  0.125           3.129e-005      1.3842e-007    
  0.15            3.2102e-005     1.106e-007     
  0.175           3.2432e-005     9.292e-008     
  0.2             3.2574e-005     8.0168e-008    
  0.225           3.2654e-005     7.0654e-008    
  0.25            3.2684e-005     6.3576e-008    
  0.275           3.2704e-005     5.813e-008     
  0.3             3.2726e-005     5.4024e-008    
  0.325           3.2744e-005     5.1044e-008    
  0.35            3.2748e-005     4.8822e-008    
  0.375           3.276e-005      4.7254e-008    
  0.4             3.277e-005      4.6072e-008    
  0.425           3.2782e-005     4.5372e-008    
  0.45            3.2788e-005     4.476e-008     
  0.475           3.2794e-005     4.419e-008     
  0.5             3.28e-005       4.3952e-008    
  0.525           3.2814e-005     4.3694e-008    
  0.55            3.2808e-005     4.3494e-008    
  0.575           3.2816e-005     4.3398e-008    
  0.6             3.282e-005      4.3288e-008    
  0.625           3.2822e-005     4.3192e-008    
  0.65            3.2832e-005     4.3086e-008    
  0.675           3.2834e-005     4.3078e-008    
  0.7             3.2838e-005     4.2994e-008    
  0.725           3.2834e-005     4.3078e-008    
  0.75            3.2844e-005     4.289e-008     
  0.775           3.2846e-005     4.2862e-008    
  0.8             3.285e-005      4.2808e-008    
  0.825           3.2852e-005     4.2788e-008    
  0.85            3.285e-005      4.2692e-008    
  0.875           3.2852e-005     4.2688e-008    
  0.9             3.2852e-005     4.2648e-008    
  0.925           3.2854e-005     4.267e-008     
  0.95            3.2854e-005     4.26e-008      
  0.975           3.2864e-005     4.2528e-008    
  1               3.2862e-005     4.2428e-008    
  1.025           3.2854e-005     4.228e-008     
  1.05            3.2862e-005     4.2098e-008    
  1.075           3.286e-005      4.2042e-008    
  1.1             3.2864e-005     4.1822e-008    
  1.125           3.286e-005      4.147e-008     
  1.15            3.2858e-005     4.0926e-008    
  1.175           3.2858e-005     4.0438e-008    
  1.2             3.2858e-005     3.9814e-008    
  1.225           3.2858e-005     3.9038e-008    
  1.25            3.2862e-005     3.8066e-008    
  1.275           3.2862e-005     3.7072e-008    
  1.3             3.286e-005      3.5708e-008    
  1.325           3.2854e-005     3.4138e-008    
  1.35            3.286e-005      3.2246e-008    
  1.375           3.2862e-005     3.0132e-008    
  1.4             3.2866e-005     2.7664e-008    
  1.425           3.2862e-005     2.473e-008     
  1.45            3.2876e-005     2.1438e-008    
  1.475           3.2866e-005     1.7832e-008    
  1.5             3.2868e-005     1.3694e-008    
  1.525           3.2868e-005     9.0596e-009    
  1.55            3.287e-005      3.8728e-009    
  1.575           3.2872e-005     -1.9464e-009   
  1.6             3.287e-005      -8.354e-009    
  1.625           3.2888e-005     -1.5522e-008   
  1.65            3.29e-005       -2.3508e-008   
  1.675           3.2902e-005     -3.2296e-008   
  1.7             3.2912e-005     -4.1954e-008   
  1.725           3.2918e-005     -5.2654e-008   
  1.75            3.2926e-005     -6.4458e-008   
  1.775           3.2934e-005     -7.76e-008     
  1.8             3.2942e-005     -9.19e-008     
  1.825           3.2962e-005     -1.07712e-007  
  1.85            3.2984e-005     -1.2492e-007   
  1.875           3.3e-005        -1.4402e-007   
  1.9             3.3024e-005     -1.6482e-007   
  1.925           3.3044e-005     -1.8778e-007   
  1.95            3.306e-005      -2.1306e-007   
  1.975           3.3098e-005     -2.4044e-007   
  2               3.3124e-005     -2.707e-007    
END_DB

BEGIN_DB
 ICCAP_VAR ve         0              
 ICCAP_VAR vs         0              
 ICCAP_VAR vb         0.75           

 #vc              ic              ib             
  0               -0.00012134     4.6134e-006    
  0.025           2.9662e-005     2.7388e-006    
  0.05            0.00011516      1.6564e-006    
  0.075           0.00016314      1.03e-006      
  0.1             0.0001881       6.8308e-007    
  0.125           0.00019974      5.0676e-007    
  0.15            0.00020486      4.1612e-007    
  0.175           0.00020708      3.6806e-007    
  0.2             0.00020808      3.3884e-007    
  0.225           0.00020858      3.2048e-007    
  0.25            0.00020888      3.0788e-007    
  0.275           0.0002091       2.9812e-007    
  0.3             0.00020922      2.9028e-007    
  0.325           0.0002094       2.8488e-007    
  0.35            0.00020956      2.8148e-007    
  0.375           0.0002097       2.7776e-007    
  0.4             0.00020978      2.7564e-007    
  0.425           0.00020994      2.7422e-007    
  0.45            0.00021002      2.7306e-007    
  0.475           0.00021012      2.7204e-007    
  0.5             0.00021024      2.7194e-007    
  0.525           0.00021032      2.7074e-007    
  0.55            0.00021048      2.7024e-007    
  0.575           0.00021056      2.705e-007     
  0.6             0.00021066      2.6972e-007    
  0.625           0.00021078      2.6962e-007    
  0.65            0.0002108       2.6942e-007    
  0.675           0.00021092      2.6924e-007    
  0.7             0.00021098      2.6912e-007    
  0.725           0.0002111       2.6938e-007    
  0.75            0.00021116      2.689e-007     
  0.775           0.00021122      2.6888e-007    
  0.8             0.00021132      2.6874e-007    
  0.825           0.00021134      2.6876e-007    
  0.85            0.00021144      2.6836e-007    
  0.875           0.00021152      2.6836e-007    
  0.9             0.00021156      2.6834e-007    
  0.925           0.00021172      2.6884e-007    
  0.95            0.00021166      2.6848e-007    
  0.975           0.0002118       2.6836e-007    
  1               0.00021184      2.6792e-007    
  1.025           0.0002119       2.6782e-007    
  1.05            0.00021194      2.672e-007     
  1.075           0.00021202      2.667e-007     
  1.1             0.00021214      2.6598e-007    
  1.125           0.00021216      2.6546e-007    
  1.15            0.00021222      2.6388e-007    
  1.175           0.00021232      2.618e-007     
  1.2             0.00021234      2.5946e-007    
  1.225           0.0002124       2.5638e-007    
  1.25            0.0002124       2.5256e-007    
  1.275           0.00021248      2.4754e-007    
  1.3             0.00021252      2.4206e-007    
  1.325           0.00021268      2.3484e-007    
  1.35            0.00021266      2.2628e-007    
  1.375           0.00021272      2.1662e-007    
  1.4             0.00021278      2.0496e-007    
  1.425           0.00021284      1.9156e-007    
  1.45            0.0002129       1.7616e-007    
  1.475           0.00021298      1.5836e-007    
  1.5             0.00021304      1.3786e-007    
  1.525           0.00021314      1.1498e-007    
  1.55            0.00021312      8.8186e-008    
  1.575           0.00021326      5.91e-008      
  1.6             0.00021334      2.6178e-008    
  1.625           0.00021342      -1.0766e-008   
  1.65            0.00021348      -5.2166e-008   
  1.675           0.00021356      -9.7408e-008   
  1.7             0.0002137       -1.4778e-007   
  1.725           0.0002138       -2.0424e-007   
  1.75            0.00021394      -2.6608e-007   
  1.775           0.0002141       -3.3492e-007   
  1.8             0.00021418      -4.1066e-007   
  1.825           0.00021434      -4.9376e-007   
  1.85            0.00021444      -5.8604e-007   
  1.875           0.00021464      -6.8746e-007   
  1.9             0.00021476      -7.9888e-007   
  1.925           0.00021496      -9.2096e-007   
  1.95            0.00021518      -1.05568e-006  
  1.975           0.00021536      -1.204e-006    
  2               0.00021562      -1.3654e-006   
END_DB

BEGIN_DB
 ICCAP_VAR ve         0              
 ICCAP_VAR vs         0              
 ICCAP_VAR vb         0.8            

 #vc              ic              ib             
  0               -8.327e-005     1.9346e-005    
  0.025           0.0005085       1.091e-005     
  0.05            0.00080828      6.689e-006     
  0.075           0.00096712      4.451e-006     
  0.1             0.00105794      3.1556e-006    
  0.125           0.00110996      2.4112e-006    
  0.15            0.00113852      1.9972e-006    
  0.175           0.0011536       1.787e-006     
  0.2             0.0011614       1.6812e-006    
  0.225           0.0011664       1.624e-006     
  0.25            0.0011696       1.5926e-006    
  0.275           0.0011724       1.5728e-006    
  0.3             0.0011748       1.561e-006     
  0.325           0.001177        1.5514e-006    
  0.35            0.001179        1.5436e-006    
  0.375           0.0011812       1.5406e-006    
  0.4             0.0011834       1.5378e-006    
  0.425           0.001185        1.5342e-006    
  0.45            0.001187        1.5332e-006    
  0.475           0.001189        1.5348e-006    
  0.5             0.0011908       1.5336e-006    
  0.525           0.0011928       1.5338e-006    
  0.55            0.0011946       1.5362e-006    
  0.575           0.0011966       1.5394e-006    
  0.6             0.0011982       1.5384e-006    
  0.625           0.0012          1.5412e-006    
  0.65            0.0012018       1.5408e-006    
  0.675           0.001204        1.5438e-006    
  0.7             0.0012054       1.5458e-006    
  0.725           0.0012074       1.548e-006     
  0.75            0.0012092       1.55e-006      
  0.775           0.001211        1.5504e-006    
  0.8             0.0012128       1.5526e-006    
