! VERSION = 6.00
!Data measured by ggf on Tue Jan 23 14:00:01 2018 using model file NPN_MEAS_SCALE
BEGIN_HEADER
 ICCAP_INPUTS
  vc         V  C GROUND SMU_C 0.2 SYNC       1 0.25 vb
  ve         V  E GROUND SMU_E 0 CON        0
  vs         V  S GROUND SMU_S 0 CON        0
  freq       F  LIST       1 74 100000000 200000000 300000000 400000000 500000000 600000000 700000000 800000000 900000000 1000000000 2000000000 3000000000 4000000000 5000000000 6000000000 7000000000 8000000000 9000000000 10000000000 11000000000 12000000000 13000000000 14000000000 15000000000 16000000000 17000000000 18000000000 19000000000 20000000000 21000000000 22000000000 23000000000 24000000000 25000000000 26000000000 27000000000 28000000000 29000000000 30000000000 31000000000 32000000000 33000000000 34000000000 35000000000 36000000000 37000000000 38000000000 39000000000 40000000000 41000000000 42000000000 43000000000 44000000000 45000000000 46000000000 47000000000 48000000000 49000000000 50000000000 51000000000 52000000000 53000000000 54000000000 55000000000 56000000000 57000000000 58000000000 59000000000 60000000000 61000000000 62000000000 63000000000 64000000000 65000000000
  vb         V  B GROUND SMU_B 0.015 LIN        2    0.68       1.04       37   0.01      
 ICCAP_OUTPUTS
  ic         I  C GROUND SMU_C M
  ib         I  B GROUND SMU_B M
  S          S  B C GROUND NWA M
  S_deemb    S B C GROUND n/a B
 ICCAP_VALUES
  TNOM "27"
  TEMP "27"
  TECHNO "SG13G2"
  LOT "EDJ802"
  WAFER "02"
  CHIP "(3.3)"
  MODULE "S439S"
  DEV_NAME "D13"
  DEV_GEOM_L "2.5"
  DEV_GEOM_W "0.07"
  NUM_OF_TRANS_RF "2"
  REMARKS "Nx=3; Power -30/-20dBm, Slope: 0.1dB/GHz"
  TIMEDATE "Tue Jan 23 13:42:58     2018"
  OPERATOR "ggf"
END_HEADER

BEGIN_DB
 ICCAP_VAR vc         0.93           
 ICCAP_VAR ve         0              
 ICCAP_VAR vs         0              
 ICCAP_VAR vb         0.68           

 #freq            ic              ib              R:S(1,1)        I:S(1,1)        R:S(1,2)        I:S(1,2)        R:S(2,1)        I:S(2,1)        R:S(2,2)        I:S(2,2)        R:S_deemb(1,1)  I:S_deemb(1,1)  R:S_deemb(1,2)  I:S_deemb(1,2)  R:S_deemb(2,1)  I:S_deemb(2,1)  R:S_deemb(2,2)  I:S_deemb(2,2) 
  1e+008          1.5458e-005     2.111e-008      0.99933         -0.0039053      -4.35155e-005   0.0012545       -0.0648425      0.000332802     0.999847        -0.00301467     0.999545        -0.00277927     -7.68849e-005   0.00119257      -0.0646259      0.000211863     1               -0.00150596    
  2e+008          1.5458e-005     2.111e-008      1.00009         -0.00838648     -5.53176e-005   0.00266498      -0.0630642      0.00217435      0.999796        -0.00570818     1.00012         -0.00596181     -7.3193e-005    0.0025152       -0.0632684      0.00183354      1.00002         -0.00322489    
  3e+008          1.5458e-005     2.111e-008      0.999596        -0.012024       7.05749e-005    0.00389152      -0.0633515      0.00396312      0.999891        -0.00867039     0.999538        -0.00853565     4.85797e-005    0.00363668      -0.0632305      0.00351351      1               -0.00498448    
  4e+008          1.5458e-005     2.111e-008      1.00011         -0.0168454      8.95732e-005    0.00524722      -0.0621418      0.00550489      0.999526        -0.0117339      0.999797        -0.0122388      5.67295e-005    0.00489304      -0.0623179      0.00485061      0.999941        -0.00676791    
  5e+008          1.5458e-005     2.111e-008      0.999833        -0.0211576      0.000142493     0.00654764      -0.0630861      0.0070891       0.999638        -0.0145042      0.999695        -0.0153166      6.78244e-005    0.00610171      -0.063149       0.00632452      0.999808        -0.00852       
  6e+008          1.5458e-005     2.111e-008      0.999793        -0.0255193      0.000209902     0.00785673      -0.0627801      0.00866182      0.999658        -0.0173942      0.999708        -0.0183362      0.000154598     0.00732726      -0.0627317      0.00763453      0.999798        -0.0102721     
  7e+008          1.5458e-005     2.111e-008      0.999653        -0.0298752      0.000267683     0.00912358      -0.0628544      0.0103704       0.999422        -0.0203008      0.999546        -0.0215655      0.000154464     0.00852832      -0.0629871      0.00917772      0.999851        -0.0118989     
  8e+008          1.5458e-005     2.111e-008      0.999621        -0.0343356      0.000320236     0.0104708       -0.0630546      0.0118798       0.999439        -0.0231871      0.999703        -0.0246902      0.000196748     0.00977912      -0.0631793      0.0105864       0.999789        -0.0136104     
  9e+008          1.5458e-005     2.111e-008      0.999326        -0.0384288      0.000426795     0.0117617       -0.062286       0.0136452       0.999227        -0.0261991      0.999397        -0.0277816      0.000254641     0.0109791       -0.0624055      0.012091        0.999688        -0.0154684     
  1e+009          1.5458e-005     2.111e-008      0.998918        -0.0427489      0.000507933     0.0130514       -0.0629392      0.0153159       0.999065        -0.0290237      0.999226        -0.0308126      0.000295766     0.0121687       -0.0631181      0.0136422       0.999575        -0.0170787     
  2e+009          1.5458e-005     2.111e-008      0.995972        -0.085423       0.00197172      0.026066        -0.0597673      0.03078         0.996758        -0.0580294      0.997684        -0.0617406      0.00125499      0.0243518       -0.0606389      0.0274332       0.998324        -0.0341537     
  3e+009          1.5458e-005     2.111e-008      0.990158        -0.127979       0.00431955      0.0387923       -0.058157       0.0457237       0.993441        -0.0861167      0.994369        -0.0923665      0.00271896      0.0363796       -0.0600689      0.0409578       0.996599        -0.0507854     
  4e+009          1.5458e-005     2.111e-008      0.982615        -0.169507       0.00759674      0.0513242       -0.0547571      0.0609815       0.989305        -0.114181       0.990185        -0.122777       0.00478634      0.048276        -0.0580964      0.0548761       0.994522        -0.0672957     
  5e+009          1.5458e-005     2.111e-008      0.973094        -0.210341       0.0117457       0.0636118       -0.0493265      0.0755129       0.983958        -0.141722       0.984667        -0.152813       0.00740547      0.0601109       -0.0544498      0.0683123       0.99194         -0.0835282     
  6e+009          1.5458e-005     2.111e-008      0.961663        -0.250166       0.0167556       0.0754706       -0.0433754      0.0895609       0.977663        -0.169116       0.978199        -0.18302        0.0106564       0.0716969       -0.050721       0.0815999       0.988855        -0.0995957     
  7e+009          1.5458e-005     2.111e-008      0.947388        -0.290638       0.022645        0.0870158       -0.0367267      0.103411        0.970452        -0.196125       0.970165        -0.212292       0.0143904       0.0832536       -0.0466885      0.0946913       0.985401        -0.115563      
  8e+009          1.5458e-005     2.111e-008      0.932608        -0.328702       0.0292734       0.0979003       -0.0293599      0.116407        0.962348        -0.222023       0.961527        -0.241544       0.0187185       0.0943807       -0.0419754      0.107352        0.98149         -0.131152      
  9e+009          1.5458e-005     2.111e-008      0.915461        -0.366011       0.0365814       0.108263        -0.020983       0.128791        0.953102        -0.248111       0.951618        -0.269664       0.0234737       0.1053          -0.036754       0.119801        0.977262        -0.146659      
  1e+010          1.5458e-005     2.111e-008      0.896776        -0.402432       0.0445796       0.117843        -0.0110742      0.140734        0.943051        -0.273255       0.940697        -0.297488       0.0287639       0.115762        -0.030145       0.132324        0.972638        -0.16182       
  1.1e+010        1.5458e-005     2.111e-008      0.876449        -0.4366         0.0530222       0.127094        -0.00206476     0.151516        0.932785        -0.297934       0.928859        -0.324434       0.0343949       0.126206        -0.0244761      0.143611        0.967587        -0.17696       
  1.2e+010        1.5458e-005     2.111e-008      0.854695        -0.46973        0.062334        0.135704        0.00873934      0.162034        0.920982        -0.321915       0.915947        -0.35117        0.0406979       0.136395        -0.0174109      0.155424        0.961963        -0.191756      
  1.3e+010        1.5458e-005     2.111e-008      0.831801        -0.501024       0.0718305       0.143472        0.0188844       0.171634        0.908384        -0.344734       0.902055        -0.376644       0.0471739       0.146136        -0.010929       0.166601        0.956173        -0.206192      
  1.4e+010        1.5458e-005     2.111e-008      0.807675        -0.531022       0.0822998       0.150393        0.0310796       0.180257        0.895537        -0.367546       0.88749         -0.40203        0.0546759       0.155622        -0.00238003     0.177414        0.950004        -0.220546      
  1.5e+010        1.5458e-005     2.111e-008      0.783371        -0.558413       0.0928293       0.156237        0.0436971       0.186576        0.882456        -0.388757       0.872118        -0.42484        0.0623806       0.164218        0.00690202      0.186517        0.943652        -0.234182      
  1.6e+010        1.5458e-005     2.111e-008      0.757345        -0.585722       0.103379        0.161553        0.0554243       0.193602        0.868626        -0.409747       0.855752        -0.448592       0.0701499       0.172566        0.0150546       0.196291        0.936653        -0.247919      
  1.7e+010        1.5458e-005     2.111e-008      0.731335        -0.610737       0.114484        0.165986        0.068399        0.198788        0.853608        -0.429576       0.839281        -0.470868       0.0786348       0.18051         0.0248729       0.205057        0.929578        -0.261069      
  1.8e+010        1.5458e-005     2.111e-008      0.704307        -0.634035       0.125199        0.169491        0.0803794       0.204115        0.839053        -0.449571       0.821826        -0.492293       0.0869417       0.187805        0.0335721       0.214099        0.92254         -0.274281      
  1.9e+010        1.5458e-005     2.111e-008      0.677243        -0.655842       0.136023        0.172701        0.0935403       0.208139        0.824085        -0.468912       0.803791        -0.512542       0.0952693       0.194963        0.0436737       0.222153        0.914723        -0.286593      
  2e+010          1.5458e-005     2.111e-008      0.649935        -0.675885       0.146912        0.174837        0.104874        0.210565        0.80849         -0.485031       0.786209        -0.531852       0.104437        0.201315        0.0528234       0.228677        0.90673         -0.298449      
  2.1e+010        1.5458e-005     2.111e-008      0.622741        -0.694956       0.157581        0.176358        0.11765         0.214035        0.791021        -0.500747       0.767896        -0.550581       0.113638        0.207416        0.0631311       0.236937        0.89846         -0.310803      
  2.2e+010        1.5458e-005     2.111e-008      0.59517         -0.711717       0.168626        0.17723         0.129778        0.214314        0.773614        -0.518539       0.748772        -0.56792        0.123291        0.213252        0.0734746       0.242263        0.890955        -0.32273       
  2.3e+010        1.5458e-005     2.111e-008      0.567584        -0.727512       0.178994        0.177156        0.141738        0.215699        0.761369        -0.535928       0.730013        -0.58478        0.13219         0.21783         0.0833599       0.248346        0.883386        -0.333182      
  2.4e+010        1.5458e-005     2.111e-008      0.540595        -0.743334       0.188238        0.176881        0.153067        0.215883        0.751508        -0.543355       0.711593        -0.601199       0.140847        0.221108        0.0938448       0.252476        0.875093        -0.340733      
  2.5e+010        1.5458e-005     2.111e-008      0.511979        -0.756958       0.198659        0.178579        0.164293        0.218288        0.747442        -0.549746       0.692116        -0.616095       0.150356        0.225213        0.104112        0.257597        0.865034        -0.351634      
  2.6e+010        1.5458e-005     2.111e-008      0.485258        -0.76942        0.211753        0.175535        0.178954        0.216841        0.722272        -0.574926       0.673089        -0.630576       0.161913        0.228436        0.115917        0.262218        0.851389        -0.362607      
  2.7e+010        1.5458e-005     2.111e-008      0.456477        -0.780115       0.220436        0.173038        0.189798        0.215099        0.688148        -0.590395       0.651623        -0.644312       0.171436        0.233338        0.126574        0.268648        0.845111        -0.376186      
  2.8e+010        1.5458e-005     2.111e-008      0.429543        -0.790036       0.230347        0.170008        0.200887        0.211332        0.667015        -0.611291       0.631948        -0.657333       0.181201        0.237666        0.137134        0.272313        0.837614        -0.388051      
  2.9e+010        1.5458e-005     2.111e-008      0.403335        -0.798764       0.237861        0.167347        0.209524        0.209092        0.655183        -0.621245       0.612451        -0.669407       0.189087        0.239941        0.145362        0.27529         0.831846        -0.394567      
  3e+010          1.5458e-005     2.111e-008      0.375849        -0.805402       0.246511        0.165354        0.22            0.207034        0.645513        -0.628427       0.592177        -0.679956       0.198337        0.241767        0.156565        0.277765        0.82378         -0.402321      
  3.1e+010        1.5458e-005     2.111e-008      0.349469        -0.813078       0.255222        0.161495        0.231199        0.203799        0.627845        -0.637313       0.572187        -0.690897       0.207976        0.242799        0.168535        0.279765        0.813257        -0.411571      
  3.2e+010        1.5458e-005     2.111e-008      0.324759        -0.81782        0.264201        0.157788        0.240438        0.199177        0.608229        -0.647799       0.552819        -0.699644       0.218346        0.244784        0.178632        0.281462        0.803761        -0.421154      
  3.3e+010        1.5458e-005     2.111e-008      0.298004        -0.822126       0.272426        0.153818        0.249423        0.196477        0.592769        -0.660601       0.531841        -0.70896        0.227607        0.24612         0.188031        0.28421         0.796101        -0.430468      
  3.4e+010        1.5458e-005     2.111e-008      0.270636        -0.824339       0.280584        0.148937        0.259754        0.191255        0.578416        -0.669104       0.510272        -0.716715       0.237553        0.246277        0.199934        0.284638        0.787502        -0.437903      
  3.5e+010        1.5458e-005     2.111e-008      0.247755        -0.827694       0.287561        0.144149        0.268716        0.186001        0.561898        -0.676526       0.491926        -0.723975       0.246428        0.246144        0.210819        0.284741        0.777237        -0.445539      
  3.6e+010        1.5458e-005     2.111e-008      0.225017        -0.828925       0.29445         0.138826        0.275761        0.180903        0.541791        -0.684906       0.473226        -0.729286       0.255952        0.245804        0.219881        0.284878        0.767509        -0.453507      
  3.7e+010        1.5458e-005     2.111e-008      0.202734        -0.829906       0.300759        0.13396         0.283505        0.176651        0.527479        -0.694515       0.455043        -0.735305       0.263994        0.245341        0.229209        0.285514        0.7596          -0.461726      
  3.8e+010        1.5458e-005     2.111e-008      0.180415        -0.831695       0.307573        0.128306        0.29239         0.170412        0.511991        -0.701356       0.436211        -0.741713       0.273149        0.243945        0.240046        0.284549        0.750577        -0.468062      
  3.9e+010        1.5458e-005     2.111e-008      0.157823        -0.832319       0.313064        0.122863        0.298781        0.163638        0.49368         -0.70802        0.417703        -0.746392       0.28147         0.243259        0.249506        0.282761        0.740424        -0.475841      
  4e+010          1.5458e-005     2.111e-008      0.136516        -0.833523       0.318985        0.117207        0.305391        0.159364        0.478537        -0.716098       0.400258        -0.751937       0.289513        0.242241        0.257856        0.282737        0.732057        -0.482633      
  4.1e+010        1.5458e-005     2.111e-008      0.114804        -0.833317       0.324911        0.111959        0.313945        0.153088        0.460857        -0.723211       0.381768        -0.75651        0.297805        0.241161        0.268866        0.281918        0.722415        -0.489928      
  4.2e+010        1.5458e-005     2.111e-008      0.0948602       -0.830464       0.330592        0.105151        0.31888         0.144698        0.442405        -0.725406       0.364612        -0.758433       0.306717        0.239398        0.277028        0.278094        0.711613        -0.494961      
  4.3e+010        1.5458e-005     2.111e-008      0.073509        -0.830171       0.335392        0.0987537       0.323993        0.139887        0.428205        -0.73032        0.346242        -0.762866       0.314911        0.236934        0.284929        0.277756        0.702812        -0.501518      
  4.4e+010        1.5458e-005     2.111e-008      0.0553567       -0.828938       0.339431        0.0931841       0.331092        0.133657        0.412958        -0.734675       0.330497        -0.765379       0.322249        0.23526         0.295366        0.276535        0.693659        -0.507093      
  4.5e+010        1.5458e-005     2.111e-008      0.0349376       -0.828258       0.34504         0.0873156       0.335708        0.127926        0.396852        -0.74193        0.312983        -0.769669       0.330618        0.233878        0.302624        0.275112        0.685445        -0.513529      
  4.6e+010        1.5458e-005     2.111e-008      0.0169686       -0.825832       0.349769        0.0802917       0.341702        0.121522        0.382341        -0.743861       0.297293        -0.77127        0.338458        0.23063         0.311159        0.27306         0.675463        -0.518035      
  4.7e+010        1.5458e-005     2.111e-008      -0.00276007     -0.824471       0.353417        0.0739363       0.34755         0.114433        0.366593        -0.74592        0.280494        -0.774381       0.346116        0.228433        0.321947        0.271519        0.665967        -0.522751      
  4.8e+010        1.5458e-005     2.111e-008      -0.0206937      -0.821884       0.35777         0.0674288       0.352414        0.105523        0.350454        -0.751878       0.264516        -0.775696       0.354453        0.226477        0.331338        0.26722         0.657057        -0.528449      
