!  2-Port S-parameters saved by WinCal
! VAR MeasName=S-Parameters (RAW_DATA) read from VNA (XF)
! VAR MeasDate=30.04.2014 13:13:18
! VAR NAME=LINE_880_corrected
! VAR FILENAME=LINE_880_corrected.S2P
! VAR DATE=30.04.2014 13:13:18
! VAR PHYS_PORTS=1,2
! VAR ObjTypeName=DATASET
! VAR IndexType=Frequency
!
# Hz S RI R 50
500000000.000 +1.7025999583E-002 +2.0780091523E-003  +9.8188819060E-001 -1.9177345382E-002  +9.8186688549E-001 -2.0827348752E-002  +1.7508945961E-002 +2.4729973241E-003 
1000000000.000 +1.8148892369E-002 +2.8687661405E-003  +9.8013317570E-001 -3.7673660015E-002  +9.8002164518E-001 -3.8172597472E-002  +1.8402622891E-002 +2.9939463712E-003 
1500000000.000 +1.9016520126E-002 +3.8292348073E-003  +9.7807420216E-001 -5.5364207866E-002  +9.7847182992E-001 -5.6244123912E-002  +1.9256023198E-002 +3.8284422144E-003 
2000000000.000 +1.9712979728E-002 +4.4373411359E-003  +9.7584447568E-001 -7.2796671658E-002  +9.7582653167E-001 -7.3647374841E-002  +2.0208543541E-002 +4.3712438835E-003 
2500000000.000 +2.0314553515E-002 +4.7416098808E-003  +9.7366744253E-001 -9.0350968538E-002  +9.7316900244E-001 -9.1077569152E-002  +2.0969697651E-002 +4.9287216160E-003 
3000000000.000 +2.1315262502E-002 +4.9501931309E-003  +9.7100630595E-001 -1.0715566980E-001  +9.7114406085E-001 -1.0825254794E-001  +2.1926580785E-002 +5.1760206923E-003 
3500000000.000 +2.2103006334E-002 +5.2301497484E-003  +9.6850243274E-001 -1.2431654877E-001  +9.6829341266E-001 -1.2533118283E-001  +2.2652669978E-002 +5.3570500513E-003 
4000000000.000 +2.2684521087E-002 +5.3432138531E-003  +9.6525903311E-001 -1.4076555412E-001  +9.6493442305E-001 -1.4230645486E-001  +2.3243566891E-002 +5.4345837296E-003 
4500000000.000 +2.3116746881E-002 +5.3429688397E-003  +9.6172730777E-001 -1.5830956823E-001  +9.6176155508E-001 -1.5849196840E-001  +2.3873147337E-002 +5.4373392530E-003 
5000000000.000 +2.3555403156E-002 +5.2560892705E-003  +9.5843848744E-001 -1.7537735560E-001  +9.5822532133E-001 -1.7516772369E-001  +2.4398473653E-002 +5.4834872091E-003 
5500000000.000 +2.4172513479E-002 +5.3171547458E-003  +9.5434702230E-001 -1.9178959785E-001  +9.5438766585E-001 -1.9185246965E-001  +2.5056109412E-002 +5.4068159445E-003 
6000000000.000 +2.4841853064E-002 +5.6097771746E-003  +9.5040409771E-001 -2.0793776400E-001  +9.5028772938E-001 -2.0859799217E-001  +2.5803062577E-002 +5.3677123308E-003 
6500000000.000 +2.5344543535E-002 +5.5463538092E-003  +9.4569174895E-001 -2.2471868437E-001  +9.4582669158E-001 -2.2432201444E-001  +2.6418014258E-002 +5.0530568193E-003 
7000000000.000 +2.5861462186E-002 +5.3856601485E-003  +9.4141844854E-001 -2.4006937429E-001  +9.4139328598E-001 -2.4147663376E-001  +2.7070553510E-002 +5.1514221337E-003 
7500000000.000 +2.6442725618E-002 +5.3036597150E-003  +9.3677282360E-001 -2.5696393464E-001  +9.3644713472E-001 -2.5719125176E-001  +2.7732119250E-002 +4.8307847485E-003 
8000000000.000 +2.7104598075E-002 +5.1362504886E-003  +9.3127646512E-001 -2.7356174798E-001  +9.3159165407E-001 -2.7290632185E-001  +2.8238383972E-002 +4.6303623973E-003 
8500000000.000 +2.7862019252E-002 +4.9460486552E-003  +9.2516019695E-001 -2.8907533467E-001  +9.2590536387E-001 -2.8852337115E-001  +2.9061942549E-002 +4.2001945806E-003 
9000000000.000 +2.8145571516E-002 +4.7189014762E-003  +9.2012919161E-001 -3.0538372906E-001  +9.1991165157E-001 -3.0477149014E-001  +2.9649400573E-002 +3.9175744603E-003 
9500000000.000 +2.8826073062E-002 +4.5024386748E-003  +9.1384181346E-001 -3.2039830125E-001  +9.1395084656E-001 -3.2059269896E-001  +3.0230245829E-002 +3.5260524599E-003 
10000000000.000 +2.9541876263E-002 +3.8597381908E-003  +9.0789012829E-001 -3.3566283276E-001  +9.0757028716E-001 -3.3650173633E-001  +3.0710407835E-002 +2.7525112663E-003 
10500000000.000 +3.0181534750E-002 +3.3505305884E-003  +9.0120413666E-001 -3.5106307421E-001  +9.0110019112E-001 -3.5155317258E-001  +3.1212335056E-002 +2.1908837963E-003 
11000000000.000 +3.0705702331E-002 +2.6902097377E-003  +8.9454289415E-001 -3.6650042306E-001  +8.9427237836E-001 -3.6643958389E-001  +3.1869501153E-002 +1.6331001249E-003 
11500000000.000 +3.1400043014E-002 +2.0681143310E-003  +8.8733192945E-001 -3.8170248933E-001  +8.8729163537E-001 -3.8134393227E-001  +3.2425102298E-002 +1.0320453318E-003 
12000000000.000 +3.1683912531E-002 +1.7211686146E-003  +8.7974506160E-001 -3.9640618377E-001  +8.8045384399E-001 -3.9548155294E-001  +3.2831734398E-002 +6.2744239927E-004 
12500000000.000 +3.2166273767E-002 +9.1211891976E-004  +8.7270886121E-001 -4.1038881836E-001  +8.7291349695E-001 -4.1058556193E-001  +3.3372465528E-002 -2.8074173707E-005 
13000000000.000 +3.2666950470E-002 -8.7964341714E-005  +8.6561976136E-001 -4.2452574480E-001  +8.6537901913E-001 -4.2476508693E-001  +3.3728738851E-002 -1.1450544237E-003 
13500000000.000 +3.2837344452E-002 -9.4921217175E-004  +8.5812777887E-001 -4.3900142890E-001  +8.5773839340E-001 -4.3946092784E-001  +3.4135729526E-002 -1.8427003180E-003 
14000000000.000 +3.3103884129E-002 -1.7333070330E-003  +8.5002087709E-001 -4.5398259272E-001  +8.5033295596E-001 -4.5303283105E-001  +3.4544293526E-002 -2.4269584665E-003 
14500000000.000 +3.3182610808E-002 -2.5778093973E-003  +8.4196672220E-001 -4.6817457046E-001  +8.4198662133E-001 -4.6712198861E-001  +3.5012881253E-002 -3.0901549924E-003 
15000000000.000 +3.3554310454E-002 -3.5047980134E-003  +8.3365801347E-001 -4.8163788811E-001  +8.3365818529E-001 -4.8143614383E-001  +3.5534929632E-002 -4.1512788573E-003 
15500000000.000 +3.3548820415E-002 -4.3207857773E-003  +8.2503534299E-001 -4.9529348813E-001  +8.2521685202E-001 -4.9487090742E-001  +3.5698625252E-002 -4.7991350352E-003 
16000000000.000 +3.3305848193E-002 -5.5208739212E-003  +8.1699195462E-001 -5.0891402312E-001  +8.1668080700E-001 -5.0848107555E-001  +3.6005032080E-002 -5.8353032978E-003 
16500000000.000 +3.3085637142E-002 -6.5647800957E-003  +8.0808920352E-001 -5.2234362343E-001  +8.0827064633E-001 -5.2211398154E-001  +3.5876930294E-002 -6.7882393949E-003 
17000000000.000 +3.2741498501E-002 -7.1663562807E-003  +7.9932825061E-001 -5.3579672668E-001  +7.9961586276E-001 -5.3571343831E-001  +3.5834514087E-002 -7.6510665392E-003 
17500000000.000 +3.2587621083E-002 -7.9049456469E-003  +7.9011521468E-001 -5.4980737372E-001  +7.9026110532E-001 -5.4931844751E-001  +3.5801629703E-002 -8.4299274082E-003 
18000000000.000 +3.2965699878E-002 -8.3710354301E-003  +7.8062256876E-001 -5.6293585909E-001  +7.8084770374E-001 -5.6302326701E-001  +3.6095510013E-002 -8.6824979407E-003 
18500000000.000 +3.2412367683E-002 -9.0347227150E-003  +7.7067571640E-001 -5.7642906025E-001  +7.7169392707E-001 -5.7571557141E-001  +3.5729100111E-002 -1.0072597688E-002 
19000000000.000 +3.2912891731E-002 -9.6939818750E-003  +7.6135583521E-001 -5.8912538576E-001  +7.6136512845E-001 -5.8944261582E-001  +3.6150825941E-002 -9.7152879824E-003 
19500000000.000 +3.2159698280E-002 -9.8874618303E-003  +7.5101415060E-001 -6.0231935260E-001  +7.5213503253E-001 -6.0179206514E-001  +3.6383379800E-002 -1.0747602702E-002 
20000000000.000 +3.3230422838E-002 -1.1084446038E-002  +7.4132934634E-001 -6.1583605363E-001  +7.4159755144E-001 -6.1525894566E-001  +3.5902904657E-002 -1.1237592228E-002 
20500000000.000 +3.2899213878E-002 -1.1365637906E-002  +7.3079764620E-001 -6.2858744084E-001  +7.3113169344E-001 -6.2746309697E-001  +3.6456489603E-002 -1.1708016301E-002 
21000000000.000 +3.3761382710E-002 -1.2197429127E-002  +7.1992197292E-001 -6.4056597655E-001  +7.2007403322E-001 -6.4037406992E-001  +3.6516389595E-002 -1.3291714811E-002 
21500000000.000 +3.3029023636E-002 -1.2804156035E-002  +7.0850403832E-001 -6.5307366651E-001  +7.0872453486E-001 -6.5318804895E-001  +3.6098117891E-002 -1.3774940353E-002 
22000000000.000 +3.3228047814E-002 -1.4197478454E-002  +6.9608839346E-001 -6.6572866865E-001  +6.9751369948E-001 -6.6507215507E-001  +3.7613759851E-002 -1.5214640015E-002 
22500000000.000 +3.3404060796E-002 -1.4563381100E-002  +6.8517152199E-001 -6.7705527740E-001  +6.8534891000E-001 -6.7718381257E-001  +3.6136504657E-002 -1.6074420779E-002 
23000000000.000 +3.2895692047E-002 -1.5878030936E-002  +6.7282074316E-001 -6.8951533325E-001  +6.7415260864E-001 -6.8908028676E-001  +3.6415166940E-002 -1.7193297485E-002 
23500000000.000 +3.2767271571E-002 -1.5636440300E-002  +6.6185487495E-001 -7.0006692179E-001  +6.6235834591E-001 -6.9980231270E-001  +3.5926659187E-002 -1.8262777194E-002 
24000000000.000 +3.2036163785E-002 -1.7725019451E-002  +6.4813822988E-001 -7.1273133791E-001  +6.4968437381E-001 -7.1136611253E-001  +3.4400794551E-002 -1.8523709569E-002 
24500000000.000 +3.1968640741E-002 -1.7383070529E-002  +6.3634257722E-001 -7.2334849217E-001  +6.3698182062E-001 -7.2269194070E-001  +3.4868827484E-002 -1.9657167575E-002 
25000000000.000 +3.0596763117E-002 -1.8741745159E-002  +6.2346150700E-001 -7.3335291905E-001  +6.2414700297E-001 -7.3390739697E-001  +3.3856872284E-002 -2.1142790904E-002 
25500000000.000 +3.0826536500E-002 -1.9275828717E-002  +6.1085026753E-001 -7.4446387186E-001  +6.1069263006E-001 -7.4551317163E-001  +3.3656901310E-002 -2.0259266362E-002 
26000000000.000 +2.9728506500E-002 -1.9612166066E-002  +5.9704772324E-001 -7.5569260902E-001  +5.9755976467E-001 -7.5508648860E-001  +3.3300367054E-002 -2.1425571867E-002 
26500000000.000 +2.9414826494E-002 -2.0761447147E-002  +5.8357095195E-001 -7.6576223805E-001  +5.8363316660E-001 -7.6545123222E-001  +3.2505823024E-002 -2.2316808252E-002 
27000000000.000 +2.8217802569E-002 -2.1083360349E-002  +5.7045507332E-001 -7.7587237825E-001  +5.7042085906E-001 -7.7476776043E-001  +3.2674563337E-002 -2.2922283240E-002 
27500000000.000 +2.8772294823E-002 -2.1497437625E-002  +5.5661097900E-001 -7.8484824447E-001  +5.5672547095E-001 -7.8419768754E-001  +3.2634924714E-002 -2.3233802264E-002 
28000000000.000 +2.8132891230E-002 -2.1247613050E-002  +5.4286520245E-001 -7.9346705828E-001  +5.4246438878E-001 -7.9426769975E-001  +3.2491485907E-002 -2.3341842150E-002 
28500000000.000 +2.8527629304E-002 -2.2242501680E-002  +5.2889624385E-001 -8.0269168034E-001  +5.2868179764E-001 -8.0374106774E-001  +3.3204168764E-002 -2.4594974419E-002 
29000000000.000 +2.8088365492E-002 -2.2303492618E-002  +5.1437676173E-001 -8.1180152110E-001  +5.1447765673E-001 -8.1164912057E-001  +3.1717762457E-002 -2.5860638985E-002 
29500000000.000 +2.7693400779E-002 -2.3819134714E-002  +5.0053938487E-001 -8.2055401021E-001  +4.9995012662E-001 -8.2036498921E-001  +3.2229486069E-002 -2.6431993101E-002 
30000000000.000 +2.7526417333E-002 -2.3618360694E-002  +4.8615981153E-001 -8.2837141944E-001  +4.8564134155E-001 -8.2873573001E-001  +3.1466382459E-002 -2.7829930829E-002 
30500000000.000 +2.7101812124E-002 -2.4806037163E-002  +4.7060063030E-001 -8.3698530828E-001  +4.7110307611E-001 -8.3665224321E-001  +3.0676908714E-002 -2.8596870511E-002 
31000000000.000 +2.6461895000E-002 -2.4547644547E-002  +4.5660776875E-001 -8.4447711193E-001  +4.5655388851E-001 -8.4508511008E-001  +3.1434891777E-002 -3.0169647134E-002 
31500000000.000 +2.6309678763E-002 -2.6168777094E-002  +4.4191089146E-001 -8.5164482018E-001  +4.4216471364E-001 -8.5277870012E-001  +2.9553077789E-002 -3.1766542405E-002 
32000000000.000 +2.6445952505E-002 -2.5640595351E-002  +4.2755950314E-001 -8.5892911093E-001  +4.2647506283E-001 -8.5953018527E-001  +2.8914119677E-002 -3.1257745911E-002 
32500000000.000 +2.5085952999E-002 -2.6898461295E-002  +4.1181107894E-001 -8.6749321422E-001  +4.1175890005E-001 -8.6649775083E-001  +2.8384924142E-002 -3.3537967748E-002 
33000000000.000 +2.5572739914E-002 -2.6666899706E-002  +3.9643097288E-001 -8.7309186218E-001  +3.9588817968E-001 -8.7350981203E-001  +2.6287912242E-002 -3.4020678845E-002 
33500000000.000 +2.4211919575E-002 -2.7698811197E-002  +3.8091334714E-001 -8.7971924364E-001  +3.8144372827E-001 -8.7945209513E-001  +2.5770636879E-002 -3.4804604591E-002 
34000000000.000 +2.4904731746E-002 -2.7505722622E-002  +3.6640544375E-001 -8.8508728148E-001  +3.6578187913E-001 -8.8638355780E-001  +2.4449289675E-002 -3.5523244870E-002 
34500000000.000 +2.3311592432E-002 -2.8098079433E-002  +3.4942052524E-001 -8.9355877992E-001  +3.4853236336E-001 -8.9098234348E-001  +2.3109900542E-002 -3.4544018889E-002 
35000000000.000 +2.4029366258E-002 -2.8579456502E-002  +3.3502272517E-001 -8.9602616194E-001  +3.3435669399E-001 -8.9755156498E-001  +2.2901151105E-002 -3.6112108579E-002 
35500000000.000 +2.2669851965E-002 -2.9667394450E-002  +3.1789648066E-001 -9.0283653640E-001  +3.1803143568E-001 -9.0362347387E-001  +2.2595413256E-002 -3.6367193209E-002 
36000000000.000 +2.3572913243E-002 -3.1168942523E-002  +3.0451084225E-001 -9.0653280447E-001  +3.0139608815E-001 -9.0766772984E-001  +2.2344816688E-002 -3.6723774706E-002 
36500000000.000 +2.2041234380E-002 -3.0682881426E-002  +2.8758843999E-001 -9.1358930053E-001  +2.8539705799E-001 -9.1371349791E-001  +1.9954842158E-002 -3.7279047233E-002 
37000000000.000 +2.1842879788E-002 -3.2001164581E-002  +2.7172454188E-001 -9.1739586446E-001  +2.7042819378E-001 -9.1804014351E-001  +1.9262551211E-002 -3.6399466014E-002 
37500000000.000 +2.0043679883E-002 -3.1419102952E-002  +2.5429488415E-001 -9.2057911642E-001  +2.5463063600E-001 -9.2058232623E-001  +1.9178449710E-002 -3.6533309669E-002 
38000000000.000 +1.9974724552E-002 -3.3496788740E-002  +2.3723150632E-001 -9.2475882726E-001  +2.3764691129E-001 -9.2552278586E-001  +1.7015249949E-002 -3.7014289092E-002 
38500000000.000 +1.9070770252E-002 -3.2358349901E-002  +2.2176162243E-001 -9.2915138914E-001  +2.2169469876E-001 -9.2782590615E-001  +1.7312244834E-002 -3.7315536165E-002 
39000000000.000 +1.8114981806E-002 -3.3845309886E-002  +2.0591881244E-001 -9.3201098508E-001  +2.0453151793E-001 -9.3266647211E-001  +1.5183857869E-002 -3.7993582993E-002 
39500000000.000 +1.7928210645E-002 -3.3476729708E-002  +1.9004899543E-001 -9.3444143448E-001  +1.8847087672E-001 -9.3452682649E-001  +1.5234290536E-002 -3.7320133518E-002 
40000000000.000 +1.7428712803E-002 -3.4460892576E-002  +1.7392244508E-001 -9.3718763266E-001  +1.7215024688E-001 -9.3658028786E-001  +1.5097666432E-002 -3.6826075718E-002 
40500000000.000 +1.5894882803E-002 -3.4023828824E-002  +1.5855389680E-001 -9.3821103728E-001  +1.5531749417E-001 -9.3952128143E-001  +1.3011950642E-002 -3.6153469544E-002 
41000000000.000 +1.4802270682E-002 -3.4656559097E-002  +1.4059558114E-001 -9.4206255264E-001  +1.3996286198E-001 -9.4084865786E-001  +1.2780471474E-002 -3.5396922758E-002 
41500000000.000 +1.6326954557E-002 -3.4956575700E-002  +1.2509312569E-001 -9.4188774698E-001  +1.2374392187E-001 -9.4274479309E-001  +1.1930830594E-002 -3.5967966063E-002 
42000000000.000 +1.4807225223E-002 -3.5746538480E-002  +1.0875283991E-001 -9.4339463570E-001  +1.0709136456E-001 -9.4439826746E-001  +1.1067257547E-002 -3.5157729726E-002 
42500000000.000 +1.4723066278E-002 -3.5708804913E-002  +9.1810205582E-002 -9.4287669678E-001  +9.0573310288E-002 -9.4578321750E-001  +1.0598866717E-002 -3.5133108932E-002 
43000000000.000 +1.2997237305E-002 -3.7445459573E-002  +7.7824692593E-002 -9.4691814298E-001  +7.3036402378E-002 -9.4633701542E-001  +8.6146723110E-003 -3.6041672065E-002 
43500000000.000 +1.3165035657E-002 -3.7865656889E-002  +6.0545191836E-002 -9.4689394248E-001  +5.7864713477E-002 -9.4555223177E-001  +8.9811078688E-003 -3.5347379127E-002 
44000000000.000 +1.1325286492E-002 -3.8655204708E-002  +4.3969441582E-002 -9.4674764573E-001  +4.1893321262E-002 -9.4644786123E-001  +6.8394864660E-003 -3.5433718435E-002 
44500000000.000 +1.0501795252E-002 -3.9119379319E-002  +2.7772748113E-002 -9.4646155721E-001  +2.6353246234E-002 -9.4579005541E-001  +5.1152660794E-003 -3.5436904567E-002 
45000000000.000 +8.7414151248E-003 -3.8709248138E-002  +1.2401387090E-002 -9.4528596359E-001  +1.0375605592E-002 -9.4631657804E-001  +5.2310505290E-003 -3.5856888145E-002 
45500000000.000 +7.6782781630E-003 -3.9840643325E-002  -3.0847510956E-003 -9.4521960389E-001  -6.4096494702E-003 -9.4578464111E-001  +2.9965670526E-003 -3.5596135660E-002 
46000000000.000 +5.4011371347E-003 -3.8577443704E-002  -1.9236566093E-002 -9.4348862953E-001  -2.2461671562E-002 -9.4403445099E-001  +6.5970328461E-004 -3.3538940142E-002 
46500000000.000 +4.3496585023E-003 -3.7658364271E-002  -3.4519046984E-002 -9.4397216733E-001  -3.8492926748E-002 -9.4452627068E-001  +4.5874280169E-004 -3.4670698568E-002 
47000000000.000 +3.7245233812E-003 -3.6534921420E-002  -5.0187654146E-002 -9.4373499726E-001  -5.2579888602E-002 -9.4212480819E-001  +5.5812693941E-004 -3.3627010515E-002 
47500000000.000 +1.8834175033E-003 -3.6551454133E-002  -6.8488284441E-002 -9.4084855279E-001  -7.0406754342E-002 -9.4219542293E-001  +4.6528752414E-004 -3.1969575633E-002 
48000000000.000 +1.1374862384E-003 -3.4398593541E-002  -8.2192242315E-002 -9.3937740045E-001  -8.5992128186E-002 -9.4059696056E-001  -8.4953413294E-004 -3.2905523718E-002 
48500000000.000 -2.1490447799E-004 -3.3899207582E-002  -9.9677237555E-002 -9.3855939624E-001  -1.0027531774E-001 -9.3871258092E-001  -3.1565021825E-004 -3.0807698285E-002 
49000000000.000 -1.2844684601E-003 -3.1803591025E-002  -1.1332955165E-001 -9.3615789496E-001  -1.1939601241E-001 -9.3540772992E-001  -1.8044549671E-003 -3.1699417382E-002 
49500000000.000 -2.7918465005E-003 -3.1150823770E-002  -1.2989198156E-001 -9.3430711018E-001  -1.3474817999E-001 -9.3418063627E-001  -2.0335642171E-003 -3.0950677014E-002 
50000000000.000 -4.3651263988E-003 -3.2275789173E-002  -1.4559183476E-001 -9.3127153638E-001  -1.5195116746E-001 -9.3140654881E-001  -6.9420540646E-004 -2.9560747838E-002 
50500000000.000 -3.4054264424E-003 -3.0662537538E-002  -1.6247285313E-001 -9.2870972822E-001  -1.6574570241E-001 -9.2657501081E-001  -2.1049266474E-003 -3.0452448076E-002 
51000000000.000 -2.7406312363E-003 -2.9720563500E-002  -1.7734718598E-001 -9.2527351765E-001  -1.8326762781E-001 -9.2415764608E-001  -2.9174524983E-003 -3.0602967217E-002 
51500000000.000 -3.2291940455E-003 -2.9332928696E-002  -1.9343717657E-001 -9.2209313677E-001  -1.9960202447E-001 -9.2081438234E-001  -4.5806337128E-003 -2.8949085620E-002 
52000000000.000 -4.9336534028E-003 -2.8622310240E-002  -2.0885184954E-001 -9.1885272935E-001  -2.1742515078E-001 -9.1772119692E-001  -5.7016521539E-003 -2.9274519956E-002 
52500000000.000 -3.9443075788E-003 -2.7938396278E-002  -2.2642229222E-001 -9.1420820262E-001  -2.3180164299E-001 -9.1203918152E-001  -6.1016512704E-003 -2.8589990944E-002 
53000000000.000 -4.1125375780E-003 -2.7435639919E-002  -2.4516111754E-001 -9.0735492560E-001  -2.4684590308E-001 -9.0787258316E-001  -8.0821247912E-003 -2.7522275663E-002 
53500000000.000 -2.3176432822E-003 -2.4276567145E-002  -2.5802866428E-001 -9.0426537358E-001  -2.6388303005E-001 -9.0360598230E-001  -7.8390550288E-003 -2.5806958919E-002 
54000000000.000 -5.7170777198E-004 -2.3296103034E-002  -2.7263906494E-001 -8.9740843001E-001  -2.7809029473E-001 -8.9617696841E-001  -6.9403463353E-003 -2.3044279609E-002 
54500000000.000 -3.3459992063E-003 -2.5737639031E-002  -2.8922464400E-001 -8.9101281491E-001  -2.9245014391E-001 -8.8913450705E-001  -8.7022965053E-003 -2.2043141110E-002 
55000000000.000 -1.4689902214E-003 -2.5181341510E-002  -3.0249284514E-001 -8.8501082113E-001  -3.0787171133E-001 -8.8349193214E-001  -7.1628787042E-003 -2.1004095463E-002 
55500000000.000 +2.6280615849E-004 -2.5275637605E-002  -3.1703089964E-001 -8.8158446387E-001  -3.2399481119E-001 -8.7844468960E-001  -7.4337917946E-003 -1.9009331362E-002 
56000000000.000 -5.1801703415E-004 -2.5331268804E-002  -3.2956652596E-001 -8.7447663207E-001  -3.3712656907E-001 -8.7146916682E-001  -6.7629965934E-003 -2.0790173549E-002 
56500000000.000 -1.4687661996E-004 -2.5908539685E-002  -3.4655880114E-001 -8.6748665183E-001  -3.5123164285E-001 -8.6417798077E-001  -6.1497067056E-003 -2.0467464894E-002 
