! VERSION = 6.00
!Data measured by ggf on Tue Jan 23 16:08:50 2018 using model file NPN_MEAS_SCALE
BEGIN_HEADER
 ICCAP_INPUTS
  ve         V  E GROUND SMU_E 0.2 CON        0
  vc         V  C GROUND SMU_C 0.2 SYNC       1 0.5 vb
  vs         V  S GROUND SMU_S 0.015 CON        0
  vb         V  B GROUND SMU_B 0.015 LIN        1    -1         1          101  0.02      
 ICCAP_OUTPUTS
  ib         I  B GROUND SMU_B M
  ic         I  C GROUND SMU_C M
 ICCAP_VALUES
  TNOM "27"
  TEMP "27"
  TECHNO "SG13G2"
  LOT "EDJ802"
  WAFER "02"
  CHIP "(3.3)"
  MODULE "S439S"
  DEV_NAME "D00"
  DEV_GEOM_L "5.0"
  DEV_GEOM_W "0.07"
  NUM_OF_TRANS_RF "1"
  REMARKS "Nx=4; Power -30/-20dBm, Slope: 0.1dB/GHz"
  TIMEDATE "Tue Jan 23 15:51:24     2018"
  OPERATOR "ggf"
END_HEADER

BEGIN_DB
 ICCAP_VAR ve         0              
 ICCAP_VAR vs         0              

 #vb              vc              ib              ic             
  -1              -0.5            -2.9338e-006    -1.762e-006    
  -0.98           -0.48           -2.6014e-006    -9.9302e-007   
  -0.96           -0.46           -2.3004e-006    -5.39e-007     
  -0.94           -0.44           -2.032e-006     -2.8068e-007   
  -0.92           -0.42           -1.7898e-006    -1.4024e-007   
  -0.9            -0.4            -1.5722e-006    -6.8934e-008   
  -0.88           -0.38           -1.3792e-006    -3.255e-008    
  -0.86           -0.36           -1.2052e-006    -1.4834e-008   
  -0.84           -0.34           -1.051e-006     -6.4402e-009   
  -0.82           -0.32           -9.149e-007     -3.1096e-009   
  -0.8            -0.3            -7.9414e-007    -2.1278e-009   
  -0.78           -0.28           -6.8696e-007    -2.4208e-010   
  -0.76           -0.26           -5.9304e-007    4.0816e-010    
  -0.74           -0.24           -5.1038e-007    -3.872e-010    
  -0.72           -0.22           -4.374e-007     -3.394e-010    
  -0.7            -0.2            -3.7436e-007    -1.608e-010    
  -0.68           -0.18           -3.1904e-007    -1.63e-010     
  -0.66           -0.16           -2.7084e-007    -8.5e-011      
  -0.64           -0.14           -2.2926e-007    -1.154e-010    
  -0.62           -0.12           -1.9326e-007    -5.8e-011      
  -0.6            -0.1            -1.6248e-007    -4.86e-011     
  -0.58           -0.08           -1.359e-007     -7.76e-011     
  -0.56           -0.06           -1.133e-007     -5.66e-011     
  -0.54           -0.04           -9.4068e-008    -7.26e-011     
  -0.52           -0.02           -7.7734e-008    1.4e-011       
  -0.5            0               -6.3878e-008    -5.4e-012      
  -0.48           0.02            -5.2276e-008    2.44e-011      
  -0.46           0.04            -4.252e-008     7.92e-011      
  -0.44           0.06            -3.4428e-008    1.14e-010      
  -0.42           0.08            -2.7684e-008    1.736e-010     
  -0.4            0.1             -2.2148e-008    8.52e-011      
  -0.38           0.12            -1.761e-008     4.92e-011      
  -0.36           0.14            -1.3882e-008    1.264e-010     
  -0.34           0.16            -1.0866e-008    8.5e-011       
  -0.32           0.18            -8.4372e-009    1.456e-010     
  -0.3            0.2             -6.4836e-009    1.074e-010     
  -0.28           0.22            -4.933e-009     1.24e-011      
  -0.26           0.24            -3.7216e-009    5.02e-011      
  -0.24           0.26            -2.7654e-009    2.78e-011      
  -0.22           0.28            -2.0294e-009    6.64e-011      
  -0.2            0.3             -1.466e-009     7e-012         
  -0.18           0.32            -1.0368e-009    4e-013         
  -0.16           0.34            -7.2456e-010    -3.78e-011     
  -0.14           0.36            -4.8804e-010    2.98e-011      
  -0.12           0.38            -3.1968e-010    -6.4e-011      
  -0.1            0.4             -1.9778e-010    -1.366e-010    
  -0.08           0.42            -1.171e-010     -2.82e-011     
  -0.06           0.44            -5.956e-011     -3.26e-011     
  -0.04           0.46            -2.518e-011     -1.032e-010    
  -0.02           0.48            -4.22e-012      -1.056e-010    
  0               0.5             1.122e-011      -6.2e-011      
  0.02            0.52            1.974e-011      -7.74e-011     
  0.04            0.54            2.136e-011      -5.94e-011     
  0.06            0.56            2.386e-011      -6.04e-011     
  0.08            0.58            2.354e-011      -1.88e-011     
  0.1             0.6             2.126e-011      -2.7e-011      
  0.12            0.62            2.29e-011       -8.16e-011     
  0.14            0.64            2.056e-011      -6.1e-011      
  0.16            0.66            2.178e-011      -6.5e-011      
  0.18            0.68            1.826e-011      4.1e-011       
  0.2             0.7             1.852e-011      -6.34e-011     
  0.22            0.72            1.48e-011       9.2e-012       
  0.24            0.74            1.75e-011       -5.68e-011     
  0.26            0.76            1.588e-011      2.6e-011       
  0.28            0.78            1.638e-011      -8.24e-011     
  0.3             0.8             1.626e-011      6.94e-011      
  0.32            0.82            1.586e-011      4.32e-011      
  0.34            0.84            1.714e-011      6.18e-011      
  0.36            0.86            1.468e-011      1.728e-010     
  0.38            0.88            1.946e-011      2.512e-010     
  0.4             0.9             2.042e-011      6.328e-010     
  0.42            0.92            2.262e-011      1.313e-009     
  0.44            0.94            2.938e-011      2.846e-009     
  0.46            0.96            4.15e-011       1.1118e-008    
  0.48            0.98            6.374e-011      1.6148e-008    
  0.5             1               1.04e-010       3.3506e-008    
  0.52            1.02            1.8322e-010     7.1426e-008    
  0.54            1.04            3.2892e-010     1.5092e-007    
  0.56            1.06            6.456e-010      3.2342e-007    
  0.58            1.08            1.2826e-009     6.9176e-007    
  0.6             1.1             2.5774e-009     1.481e-006     
  0.62            1.12            5.3248e-009     3.1874e-006    
  0.64            1.14            1.106e-008      6.828e-006     
  0.66            1.16            2.3028e-008     1.4594e-005    
  0.68            1.18            4.8454e-008     3.1288e-005    
  0.7             1.2             1.0182e-007     6.6614e-005    
  0.72            1.22            2.1448e-007     0.00014176     
  0.74            1.24            4.509e-007      0.00029946     
  0.76            1.26            9.4354e-007     0.00062634     
  0.78            1.28            1.9648e-006     0.0012938      
  0.8             1.3             4.0174e-006     0.0025958      
  0.82            1.32            8.0658e-006     0.005007       
  0.84            1.34            1.58e-005       0.0090068      
  0.86            1.36            3.9524e-005     0.013376       
  0.88            1.38            0.000106702     0.015756       
  0.9             1.4             0.00022922      0.018478       
  0.92            1.42            0.00043512      0.022282       
  0.94            1.44            0.00075266      0.027252       
  0.96            1.46            0.0012222       0.033336       
  0.98            1.48            0.001871        0.04025        
  1               1.5             0.0027322       0.047894       
END_DB

