! VERSION = 6.00
!Data measured by ggf on Tue Jan 23 16:08:50 2018 using model file NPN_MEAS_SCALE
BEGIN_HEADER
 ICCAP_INPUTS
  ve         V  E GROUND SMU_E 0.2 CON        0
  vc         V  C GROUND SMU_C 0.2 SYNC       1 0 vb
  vs         V  S GROUND SMU_S 0.015 CON        0
  vb         V  B GROUND SMU_B 0.015 LIN        1    -1         1          101  0.02      
 ICCAP_OUTPUTS
  ib         I  B GROUND SMU_B M
  ic         I  C GROUND SMU_C M
 ICCAP_VALUES
  TNOM "27"
  TEMP "27"
  TECHNO "SG13G2"
  LOT "EDJ802"
  WAFER "02"
  CHIP "(3.3)"
  MODULE "S439S"
  DEV_NAME "D00"
  DEV_GEOM_L "5.0"
  DEV_GEOM_W "0.07"
  NUM_OF_TRANS_RF "1"
  REMARKS "Nx=4; Power -30/-20dBm, Slope: 0.1dB/GHz"
  TIMEDATE "Tue Jan 23 15:51:24     2018"
  OPERATOR "ggf"
END_HEADER

BEGIN_DB
 ICCAP_VAR ve         0              
 ICCAP_VAR vs         0              

 #vb              vc              ib              ic             
  -1              -1              -0.00051878     -0.0062658     
  -0.98           -0.98           -0.00042964     -0.0053864     
  -0.96           -0.96           -0.00034978     -0.004587      
  -0.94           -0.94           -0.00027854     -0.0038586     
  -0.92           -0.92           -0.00021672     -0.0032074     
  -0.9            -0.9            -0.00016334     -0.0026224     
  -0.88           -0.88           -0.00011902     -0.0021108     
  -0.86           -0.86           -8.3462e-005    -0.0016694     
  -0.84           -0.84           -5.6006e-005    -0.0012956     
  -0.82           -0.82           -3.5812e-005    -0.00098462    
  -0.8            -0.8            -2.191e-005     -0.0007349     
  -0.78           -0.78           -1.2894e-005    -0.00053898    
  -0.76           -0.76           -7.3962e-006    -0.00038926    
  -0.74           -0.74           -4.2076e-006    -0.000278      
  -0.72           -0.72           -2.4126e-006    -0.0001965     
  -0.7            -0.7            -1.4202e-006    -0.00013784    
  -0.68           -0.68           -8.6742e-007    -9.5668e-005   
  -0.66           -0.66           -5.57e-007      -6.5728e-005   
  -0.64           -0.64           -3.7704e-007    -4.445e-005    
  -0.62           -0.62           -2.6886e-007    -2.9658e-005   
  -0.6            -0.6            -2.0126e-007    -1.9452e-005   
  -0.58           -0.58           -1.5582e-007    -1.255e-005    
  -0.56           -0.56           -1.232e-007     -7.9538e-006   
  -0.54           -0.54           -9.914e-008     -4.9386e-006   
  -0.52           -0.52           -8.0306e-008    -2.9876e-006   
  -0.5            -0.5            -6.517e-008     -1.7512e-006   
  -0.48           -0.48           -5.2892e-008    -9.8756e-007   
  -0.46           -0.46           -4.2816e-008    -5.3566e-007   
  -0.44           -0.44           -3.4572e-008    -2.7846e-007   
  -0.42           -0.42           -2.7738e-008    -1.39e-007     
  -0.4            -0.4            -2.2168e-008    -6.7888e-008   
  -0.38           -0.38           -1.7594e-008    -3.1818e-008   
  -0.36           -0.36           -1.3876e-008    -1.4268e-008   
  -0.34           -0.34           -1.0876e-008    -5.9972e-009   
  -0.32           -0.32           -8.428e-009     -2.7258e-009   
  -0.3            -0.3            -6.4828e-009    -1.00304e-009  
  -0.28           -0.28           -4.9366e-009    1.4628e-010    
  -0.26           -0.26           -3.7198e-009    -4.332e-010    
  -0.24           -0.24           -2.7644e-009    -2.442e-010    
  -0.22           -0.22           -2.0326e-009    -4.02e-011     
  -0.2            -0.2            -1.4682e-009    -1.832e-010    
  -0.18           -0.18           -1.04368e-009   -1.652e-010    
  -0.16           -0.16           -7.259e-010     -9.9e-011      
  -0.14           -0.14           -4.8508e-010    -1.078e-010    
  -0.12           -0.12           -3.1718e-010    -1.674e-010    
  -0.1            -0.1            -1.9828e-010    -2.18e-011     
  -0.08           -0.08           -1.1402e-010    -1.194e-010    
  -0.06           -0.06           -5.952e-011     -1.66e-010     
  -0.04           -0.04           -2.408e-011     -3.74e-011     
  -0.02           -0.02           -5.2e-013       -1.32e-010     
  0               0               1.486e-011      5.02e-011      
  0.02            0.02            1.932e-011      -4.52e-011     
  0.04            0.04            2.576e-011      -6.52e-011     
  0.06            0.06            2.57e-011       -1.046e-010    
  0.08            0.08            2.436e-011      -5.78e-011     
  0.1             0.1             2.572e-011      -2.74e-011     
  0.12            0.12            2.108e-011      -9.08e-011     
  0.14            0.14            2.09e-011       -4.54e-011     
  0.16            0.16            2.112e-011      -1.76e-011     
  0.18            0.18            1.734e-011      -1.38e-011     
  0.2             0.2             2.066e-011      -4.86e-011     
  0.22            0.22            1.592e-011      -1.38e-011     
  0.24            0.24            1.916e-011      -4.46e-011     
  0.26            0.26            1.802e-011      -6.46e-011     
  0.28            0.28            1.652e-011      -5.84e-011     
  0.3             0.3             1.65e-011       -5.32e-011     
  0.32            0.32            1.896e-011      1.32e-011      
  0.34            0.34            1.86e-011       5.6e-011       
  0.36            0.36            2.144e-011      7.08e-011      
  0.38            0.38            2.128e-011      2.654e-010     
  0.4             0.4             2.158e-011      5.656e-010     
  0.42            0.42            2.658e-011      1.253e-009     
  0.44            0.44            3.13e-011       2.8898e-009    
  0.46            0.46            3.982e-011      1.0162e-008    
  0.48            0.48            7.076e-011      1.6144e-008    
  0.5             0.5             1.1208e-010     3.3478e-008    
  0.52            0.52            1.9382e-010     7.0518e-008    
  0.54            0.54            3.484e-010      1.5074e-007    
  0.56            0.56            6.7948e-010     3.229e-007     
  0.58            0.58            1.347e-009      6.9086e-007    
  0.6             0.6             2.7074e-009     1.4808e-006    
  0.62            0.62            5.5786e-009     3.1826e-006    
  0.64            0.64            1.1538e-008     6.8172e-006    
  0.66            0.66            2.3952e-008     1.457e-005     
  0.68            0.68            5.0228e-008     3.1226e-005    
  0.7             0.7             1.0492e-007     6.6432e-005    
  0.72            0.72            2.2006e-007     0.0001412      
  0.74            0.74            4.6024e-007     0.00029756     
  0.76            0.76            9.553e-007      0.0006198      
  0.78            0.78            1.965e-006      0.0012704      
  0.8             0.8             3.9496e-006     0.0025134      
  0.82            0.82            7.7572e-006     0.004745       
  0.84            0.84            1.646e-005      0.0081154      
  0.86            0.86            5.2536e-005     0.010477       
  0.88            0.88            0.00012692      0.012436       
  0.9             0.9             0.00025388      0.014988       
  0.92            0.92            0.0004578       0.018406       
  0.94            0.94            0.00076312      0.022668       
  0.96            0.96            0.0012022       0.027748       
  0.98            0.98            0.0017916       0.033474       
  1               1               0.0025542       0.039792       
END_DB

