! VERSION = 6.00
!Data measured by ggf on Tue Jan 23 16:08:50 2018 using model file NPN_MEAS_SCALE
BEGIN_HEADER
 ICCAP_INPUTS
  ve         V  E GROUND SMU_E 0.2 CON        0
  vc         V  C GROUND SMU_C 0.2 SYNC       1 1 vb
  vs         V  S GROUND SMU_S 0.015 CON        0
  vb         V  B GROUND SMU_B 0.015 LIN        1    -1         1          101  0.02      
 ICCAP_OUTPUTS
  ib         I  B GROUND SMU_B M
  ic         I  C GROUND SMU_C M
 ICCAP_VALUES
  TNOM "27"
  TEMP "27"
  TECHNO "SG13G2"
  LOT "EDJ802"
  WAFER "02"
  CHIP "(3.3)"
  MODULE "S439S"
  DEV_NAME "D00"
  DEV_GEOM_L "5.0"
  DEV_GEOM_W "0.07"
  NUM_OF_TRANS_RF "1"
  REMARKS "Nx=4; Power -30/-20dBm, Slope: 0.1dB/GHz"
  TIMEDATE "Tue Jan 23 15:51:24     2018"
  OPERATOR "ggf"
END_HEADER

BEGIN_DB
 ICCAP_VAR ve         0              
 ICCAP_VAR vs         0              

 #vb              vc              ib              ic             
  -1              0               -2.9324e-006    -2.254e-010    
  -0.98           0.02            -2.6008e-006    -8.04e-011     
  -0.96           0.04            -2.2994e-006    -6.48e-011     
  -0.94           0.06            -2.0304e-006    9e-012         
  -0.92           0.08            -1.788e-006     -5.18e-011     
  -0.9            0.1             -1.5724e-006    -8.6e-012      
  -0.88           0.12            -1.3786e-006    -8.5e-011      
  -0.86           0.14            -1.2058e-006    -2.4e-011      
  -0.84           0.16            -1.0524e-006    -1.01e-010     
  -0.82           0.18            -9.1498e-007    -8.34e-011     
  -0.8            0.2             -7.9378e-007    -6.64e-011     
  -0.78           0.22            -6.8698e-007    -3.24e-011     
  -0.76           0.24            -5.929e-007     -3.32e-011     
  -0.74           0.26            -5.1034e-007    -2.24e-011     
  -0.72           0.28            -4.3758e-007    -3.68e-011     
  -0.7            0.3             -3.7442e-007    2.7e-011       
  -0.68           0.32            -3.1872e-007    5.98e-011      
  -0.66           0.34            -2.7078e-007    2.6e-011       
  -0.64           0.36            -2.294e-007     1.012e-010     
  -0.62           0.38            -1.9306e-007    5.8e-011       
  -0.6            0.4             -1.6238e-007    4.72e-011      
  -0.58           0.42            -1.3602e-007    1.014e-010     
  -0.56           0.44            -1.1334e-007    8.66e-011      
  -0.54           0.46            -9.4094e-008    5.54e-011      
  -0.52           0.48            -7.774e-008     8e-011         
  -0.5            0.5             -6.3894e-008    4.56e-011      
  -0.48           0.52            -5.2274e-008    1.01e-010      
  -0.46           0.54            -4.2522e-008    1.538e-010     
  -0.44           0.56            -3.4438e-008    1.382e-010     
  -0.42           0.58            -2.769e-008     6.34e-011      
  -0.4            0.6             -2.2156e-008    7.2e-011       
  -0.38           0.62            -1.7604e-008    1.85e-010      
  -0.36           0.64            -1.387e-008     2.286e-010     
  -0.34           0.66            -1.0882e-008    1.498e-010     
  -0.32           0.68            -8.4406e-009    1.064e-010     
  -0.3            0.7             -6.489e-009     1.314e-010     
  -0.28           0.72            -4.9424e-009    -6.8e-012      
  -0.26           0.74            -3.7312e-009    1.16e-011      
  -0.24           0.76            -2.7772e-009    3.16e-011      
  -0.22           0.78            -2.0398e-009    -1.62e-011     
  -0.2            0.8             -1.4752e-009    1.16e-011      
  -0.18           0.82            -1.05894e-009   2.74e-011      
  -0.16           0.84            -7.35e-010      -4.74e-011     
  -0.14           0.86            -4.9586e-010    -4.46e-011     
  -0.12           0.88            -3.2782e-010    -7.9e-011      
  -0.1            0.9             -2.0592e-010    1.1e-011       
  -0.08           0.92            -1.2562e-010    1.18e-011      
  -0.06           0.94            -7.028e-011     -8.4e-012      
  -0.04           0.96            -3.386e-011     -7.18e-011     
  -0.02           0.98            -1.194e-011     -7.06e-011     
  0               1               2.98e-012       -1.76e-011     
  0.02            1.02            1.214e-011      -6.08e-011     
  0.04            1.04            1.1e-011        -3.52e-011     
  0.06            1.06            1.404e-011      -6.3e-011      
  0.08            1.08            1.576e-011      1.2e-012       
  0.1             1.1             1.5e-011        -1.036e-010    
  0.12            1.12            1.498e-011      -7.9e-011      
  0.14            1.14            9.36e-012       -1.54e-011     
  0.16            1.16            9.2e-012        -9.76e-011     
  0.18            1.18            1.21e-011       1.12e-011      
  0.2             1.2             7.38e-012       -6.34e-011     
  0.22            1.22            9.1e-012        2.94e-011      
  0.24            1.24            5.3e-012        1.74e-011      
  0.26            1.26            7.92e-012       -6.48e-011     
  0.28            1.28            7.92e-012       4.62e-011      
  0.3             1.3             6.06e-012       -4.04e-011     
  0.32            1.32            8.48e-012       -9.24e-011     
  0.34            1.34            8.98e-012       6.18e-011      
  0.36            1.36            8.4e-012        6.9e-011       
  0.38            1.38            1.024e-011      2.116e-010     
  0.4             1.4             1.32e-011       6.042e-010     
  0.42            1.42            1.374e-011      1.2124e-009    
  0.44            1.44            2.164e-011      2.78e-009      
  0.46            1.46            3.028e-011      1.0794e-008    
  0.48            1.48            5.288e-011      1.624e-008     
  0.5             1.5             9.284e-011      3.3484e-008    
  0.52            1.52            1.6722e-010     7.078e-008     
  0.54            1.54            3.138e-010      1.509e-007     
  0.56            1.56            6.1358e-010     3.2364e-007    
  0.58            1.58            1.2254e-009     6.923e-007     
  0.6             1.6             2.4758e-009     1.4842e-006    
  0.62            1.62            5.122e-009      3.1896e-006    
  0.64            1.64            1.0654e-008     6.8354e-006    
  0.66            1.66            2.2232e-008     1.4614e-005    
  0.68            1.68            4.687e-008      3.133e-005     
  0.7             1.7             9.8588e-008     6.675e-005     
  0.72            1.72            2.0824e-007     0.00014224     
  0.74            1.74            4.3994e-007     0.00030108     
  0.76            1.76            9.2798e-007     0.00063278     
  0.78            1.78            1.9574e-006     0.0013182      
  0.8             1.8             4.096e-006      0.0026822      
  0.82            1.82            8.5342e-006     0.0052956      
  0.84            1.84            1.7528e-005     0.009848       
  0.86            1.86            3.9504e-005     0.015894       
  0.88            1.88            0.000106348     0.019054       
  0.9             1.9             0.00023534      0.02221        
  0.92            1.92            0.00046314      0.02671        
  0.94            1.94            0.00083096      0.032802       
  0.96            1.96            0.0013992       0.040392       
  0.98            1.98            0.0022164       0.049044       
  1               2               0.0033362       0.058496       
END_DB

