! VERSION = 6.00
!Data measured by ggf on Tue Jan 23 16:08:50 2018 using model file NPN_MEAS_SCALE
BEGIN_HEADER
 ICCAP_INPUTS
  vc         V  C GROUND SMU_C 0.2 LIN        1    0          3          61   0.05      
  ve         V  E GROUND SMU_E 0.2 CON        0
  vs         V  S GROUND SMU_S 0.015 CON        0
  vb         V  B GROUND SMU_B 0.015 LIN        2    0.6        0.9        7    0.05      
 ICCAP_OUTPUTS
  ic         I  C DEFAULT SMU_C M
  ib         I  B GROUND SMU_B M
 ICCAP_VALUES
  TNOM "27"
  TEMP "27"
  TECHNO "SG13G2"
  LOT "EDJ802"
  WAFER "02"
  CHIP "(3.3)"
  MODULE "S439S"
  DEV_NAME "D00"
  DEV_GEOM_L "5.0"
  DEV_GEOM_W "0.07"
  NUM_OF_TRANS_RF "1"
  REMARKS "Nx=4; Power -30/-20dBm, Slope: 0.1dB/GHz"
  TIMEDATE "Tue Jan 23 15:51:24     2018"
  OPERATOR "ggf"
END_HEADER

BEGIN_DB
 ICCAP_VAR ve         0              
 ICCAP_VAR vs         0              
 ICCAP_VAR vb         0.6            

 #vc              ic              ib             
  0               -5.1858e-006    3.3566e-007    
  0.05            3.8904e-007     1.0038e-007    
  0.1             1.2922e-006     3.6714e-008    
  0.15            1.4404e-006     1.5354e-008    
  0.2             1.4684e-006     7.4334e-009    
  0.25            1.4712e-006     4.4224e-009    
  0.3             1.4748e-006     3.3154e-009    
  0.35            1.4766e-006     2.9462e-009    
  0.4             1.478e-006      2.8146e-009    
  0.45            1.48e-006       2.7594e-009    
  0.5             1.478e-006      2.7208e-009    
  0.55            1.4792e-006     2.693e-009     
  0.6             1.4796e-006     2.673e-009     
  0.65            1.4798e-006     2.6518e-009    
  0.7             1.483e-006      2.6374e-009    
  0.75            1.4832e-006     2.6194e-009    
  0.8             1.4822e-006     2.6086e-009    
  0.85            1.4846e-006     2.594e-009     
  0.9             1.4832e-006     2.5848e-009    
  0.95            1.484e-006      2.5746e-009    
  1               1.485e-006      2.5638e-009    
  1.05            1.4826e-006     2.5568e-009    
  1.1             1.4872e-006     2.55e-009      
  1.15            1.484e-006      2.5422e-009    
  1.2             1.4832e-006     2.5356e-009    
  1.25            1.4834e-006     2.5266e-009    
  1.3             1.482e-006      2.5212e-009    
  1.35            1.4794e-006     2.5144e-009    
  1.4             1.4868e-006     2.504e-009     
  1.45            1.486e-006      2.4964e-009    
  1.5             1.482e-006      2.4828e-009    
  1.55            1.4852e-006     2.4692e-009    
  1.6             1.4846e-006     2.4496e-009    
  1.65            1.483e-006      2.432e-009     
  1.7             1.4828e-006     2.407e-009     
  1.75            1.4866e-006     2.3712e-009    
  1.8             1.4836e-006     2.334e-009     
  1.85            1.4872e-006     2.291e-009     
  1.9             1.4856e-006     2.2362e-009    
  1.95            1.4888e-006     2.1698e-009    
  2               1.4834e-006     2.085e-009     
  2.05            1.4876e-006     1.997e-009     
  2.1             1.4842e-006     1.8822e-009    
  2.15            1.4864e-006     1.7516e-009    
  2.2             1.4888e-006     1.5986e-009    
  2.25            1.4854e-006     1.4214e-009    
  2.3             1.4896e-006     1.2164e-009    
  2.35            1.488e-006      9.746e-010     
  2.4             1.4858e-006     7.087e-010     
  2.45            1.4872e-006     4.0126e-010    
  2.5             1.493e-006      3.73e-011      
  2.55            1.4852e-006     -3.6522e-010   
  2.6             1.4868e-006     -8.2686e-010   
  2.65            1.4898e-006     -1.354e-009    
  2.7             1.4918e-006     -1.9472e-009   
  2.75            1.4908e-006     -2.6088e-009   
  2.8             1.488e-006      -3.374e-009    
  2.85            1.4968e-006     -4.2172e-009   
  2.9             1.4954e-006     -5.168e-009    
  2.95            1.4928e-006     -6.2498e-009   
  3               1.4992e-006     -7.4274e-009   
END_DB

BEGIN_DB
 ICCAP_VAR ve         0              
 ICCAP_VAR vs         0              
 ICCAP_VAR vb         0.65           

 #vc              ic              ib             
  0               -2.4806e-005    1.3182e-006    
  0.05            3.2344e-006     3.5418e-007    
  0.1             8.8136e-006     1.1562e-007    
  0.15            9.7366e-006     5.0884e-008    
  0.2             9.8896e-006     2.9944e-008    
  0.25            9.9308e-006     2.1976e-008    
  0.3             9.947e-006      1.891e-008     
  0.35            9.9512e-006     1.776e-008     
  0.4             9.9582e-006     1.7252e-008    
  0.45            9.9604e-006     1.6982e-008    
  0.5             9.9654e-006     1.6812e-008    
  0.55            9.97e-006       1.6658e-008    
  0.6             9.971e-006      1.6544e-008    
  0.65            9.9734e-006     1.6434e-008    
  0.7             9.9776e-006     1.635e-008     
  0.75            9.979e-006      1.6258e-008    
  0.8             9.9806e-006     1.6168e-008    
  0.85            9.982e-006      1.6136e-008    
  0.9             9.983e-006      1.6048e-008    
  0.95            9.9878e-006     1.601e-008     
  1               9.9882e-006     1.597e-008     
  1.05            9.9882e-006     1.5928e-008    
  1.1             9.9936e-006     1.5872e-008    
  1.15            9.9908e-006     1.5844e-008    
  1.2             9.9916e-006     1.5804e-008    
  1.25            9.989e-006      1.5746e-008    
  1.3             9.9944e-006     1.5716e-008    
  1.35            9.9908e-006     1.5698e-008    
  1.4             9.9974e-006     1.5674e-008    
  1.45            9.9962e-006     1.5642e-008    
  1.5             9.9966e-006     1.5574e-008    
  1.55            1.00008e-005    1.5494e-008    
  1.6             9.9964e-006     1.5432e-008    
  1.65            9.9988e-006     1.5322e-008    
  1.7             1.00004e-005    1.5214e-008    
  1.75            9.9996e-006     1.505e-008     
  1.8             1.00046e-005    1.4852e-008    
  1.85            1.0002e-005     1.4638e-008    
  1.9             1.00032e-005    1.433e-008     
  1.95            1.00074e-005    1.3984e-008    
  2               1.00092e-005    1.3556e-008    
  2.05            1.00072e-005    1.3068e-008    
  2.1             1.00084e-005    1.2442e-008    
  2.15            1.00138e-005    1.1732e-008    
  2.2             1.0012e-005     1.0912e-008    
  2.25            1.0024e-005     9.937e-009     
  2.3             1.0016e-005     8.8006e-009    
  2.35            1.002e-005      7.4586e-009    
  2.4             1.0024e-005     5.9426e-009    
  2.45            1.003e-005      4.1836e-009    
  2.5             1.0034e-005     2.1288e-009    
  2.55            1.0026e-005     -1.722e-010    
  2.6             1.00296e-005    -2.814e-009    
  2.65            1.002e-005      -5.851e-009    
  2.7             1.003e-005      -9.2154e-009   
  2.75            1.0036e-005     -1.3072e-008   
  2.8             1.005e-005      -1.751e-008    
  2.85            1.007e-005      -2.2416e-008   
  2.9             1.0068e-005     -2.7978e-008   
  2.95            1.0078e-005     -3.4326e-008   
  3               1.0078e-005     -4.1266e-008   
END_DB

BEGIN_DB
 ICCAP_VAR ve         0              
 ICCAP_VAR vs         0              
 ICCAP_VAR vb         0.7            

 #vc              ic              ib             
  0               -6.852e-005     4.8684e-006    
  0.05            2.9348e-005     1.458e-006     
  0.1             5.8614e-005     4.604e-007     
  0.15            6.4708e-005     2.1064e-007    
  0.2             6.5792e-005     1.451e-007     
  0.25            6.6036e-005     1.2318e-007    
  0.3             6.6152e-005     1.1452e-007    
  0.35            6.622e-005      1.1096e-007    
  0.4             6.6254e-005     1.0894e-007    
  0.45            6.6286e-005     1.0748e-007    
  0.5             6.6332e-005     1.0662e-007    
  0.55            6.6366e-005     1.0584e-007    
  0.6             6.6398e-005     1.0488e-007    
  0.65            6.6408e-005     1.0442e-007    
  0.7             6.6442e-005     1.042e-007     
  0.75            6.6472e-005     1.0362e-007    
  0.8             6.6486e-005     1.0316e-007    
  0.85            6.6506e-005     1.0284e-007    
  0.9             6.6536e-005     1.0258e-007    
  0.95            6.656e-005      1.022e-007     
  1               6.6566e-005     1.0204e-007    
  1.05            6.6574e-005     1.0182e-007    
  1.1             6.6592e-005     1.0158e-007    
  1.15            6.662e-005      1.0146e-007    
  1.2             6.6636e-005     1.0104e-007    
  1.25            6.6644e-005     1.011e-007     
  1.3             6.6672e-005     1.0088e-007    
  1.35            6.667e-005      1.006e-007     
  1.4             6.6696e-005     1.0028e-007    
  1.45            6.6716e-005     1.0044e-007    
  1.5             6.672e-005      1.00158e-007   
  1.55            6.6734e-005     9.9844e-008    
  1.6             6.6756e-005     9.9422e-008    
  1.65            6.6782e-005     9.896e-008     
  1.7             6.6766e-005     9.8362e-008    
  1.75            6.6804e-005     9.7564e-008    
  1.8             6.6806e-005     9.6582e-008    
  1.85            6.6808e-005     9.5368e-008    
  1.9             6.6842e-005     9.3866e-008    
  1.95            6.6862e-005     9.201e-008     
  2               6.6866e-005     8.977e-008     
  2.05            6.6876e-005     8.6994e-008    
  2.1             6.6888e-005     8.3664e-008    
  2.15            6.69e-005       7.9774e-008    
  2.2             6.6916e-005     7.5168e-008    
  2.25            6.6928e-005     6.9612e-008    
  2.3             6.694e-005      6.3192e-008    
  2.35            6.6968e-005     5.5612e-008    
  2.4             6.698e-005      4.6918e-008    
  2.45            6.7e-005        3.6844e-008    
  2.5             6.7022e-005     2.5066e-008    
  2.55            6.7032e-005     1.182e-008     
  2.6             6.7084e-005     -3.3436e-009   
  2.65            6.7078e-005     -2.0946e-008   
  2.7             6.7116e-005     -4.07e-008     
  2.75            6.7158e-005     -6.314e-008    
  2.8             6.7182e-005     -8.9088e-008   
  2.85            6.7222e-005     -1.1764e-007   
  2.9             6.7276e-005     -1.507e-007    
  2.95            6.7318e-005     -1.8798e-007   
  3               6.7386e-005     -2.2896e-007   
END_DB

BEGIN_DB
 ICCAP_VAR ve         0              
 ICCAP_VAR vs         0              
 ICCAP_VAR vb         0.75           

 #vc              ic              ib             
  0               -7.0528e-005    1.773e-005     
  0.05            0.0002471       6.0486e-006    
  0.1             0.00036922      2.3078e-006    
  0.15            0.00041116      1.1324e-006    
  0.2             0.00042154      8.2502e-007    
  0.25            0.0004244       7.386e-007     
  0.3             0.0004256       7.0702e-007    
  0.35            0.0004264       6.9226e-007    
  0.4             0.00042704      6.832e-007     
  0.45            0.00042764      6.7716e-007    
  0.5             0.0004281       6.7236e-007    
  0.55            0.00042852      6.6856e-007    
  0.6             0.00042894      6.6542e-007    
  0.65            0.00042946      6.6302e-007    
  0.7             0.00042988      6.6072e-007    
  0.75            0.00043018      6.5874e-007    
  0.8             0.00043064      6.5716e-007    
  0.85            0.00043102      6.5602e-007    
  0.9             0.00043132      6.5468e-007    
  0.95            0.00043176      6.5392e-007    
  1               0.00043214      6.528e-007     
  1.05            0.0004324       6.5182e-007    
  1.1             0.00043278      6.514e-007     
  1.15            0.00043316      6.5064e-007    
  1.2             0.00043344      6.5016e-007    
  1.25            0.00043376      6.4986e-007    
  1.3             0.0004341       6.4968e-007    
  1.35            0.00043448      6.491e-007     
  1.4             0.0004348       6.4874e-007    
  1.45            0.00043506      6.4808e-007    
  1.5             0.00043554      6.4734e-007    
  1.55            0.00043574      6.464e-007     
  1.6             0.00043606      6.4488e-007    
  1.65            0.00043636      6.4346e-007    
  1.7             0.0004367       6.4096e-007    
  1.75            0.00043706      6.3826e-007    
  1.8             0.0004374       6.3376e-007    
  1.85            0.00043762      6.2836e-007    
  1.9             0.00043798      6.213e-007     
  1.95            0.00043836      6.1196e-007    
  2               0.00043862      6.0084e-007    
  2.05            0.00043898      5.8702e-007    
  2.1             0.00043924      5.699e-007     
  2.15            0.00043966      5.4942e-007    
  2.2             0.00043994      5.2538e-007    
  2.25            0.00044026      4.9578e-007    
  2.3             0.00044054      4.6148e-007    
  2.35            0.00044098      4.2012e-007    
  2.4             0.0004412       3.731e-007     
  2.45            0.00044156      3.1762e-007    
  2.5             0.00044206      2.5276e-007    
  2.55            0.00044244      1.7906e-007    
  2.6             0.00044284      9.4172e-008    
  2.65            0.00044326      -4.3854e-009   
  2.7             0.00044368      -1.1584e-007   
  2.75            0.00044406      -2.43e-007     
  2.8             0.0004445       -3.904e-007    
  2.85            0.0004451       -5.5452e-007   
  2.9             0.0004456       -7.4196e-007   
  2.95            0.00044612      -9.5666e-007   
  3               0.00044686      -1.1946e-006   
END_DB

BEGIN_DB
 ICCAP_VAR ve         0              
 ICCAP_VAR vs         0              
 ICCAP_VAR vb         0.8            

 #vc              ic              ib             
  0               -3.7196e-005    8.5614e-005    
  0.05            0.0010196       3.4216e-005    
  0.1             0.0016618       1.6222e-005    
  0.15            0.0020432       9.239e-006     
  0.2             0.0022434       6.3304e-006    
  0.25            0.0023448       5.025e-006     
  0.3             0.0023958       4.439e-006     
  0.35            0.0024214       4.1922e-006    
  0.4             0.0024374       4.0744e-006    
  0.45            0.0024492       4.0134e-006    
  0.5             0.0024598       3.9738e-006    
  0.55            0.0024696       3.95e-006      
  0.6             0.0024786       3.936e-006     
  0.65            0.0024878       3.9268e-006    
  0.7             0.0024962       3.9222e-006    
  0.75            0.0025048       3.9206e-006    
  0.8             0.0025132       3.9208e-006    
  0.85            0.0025216       3.9246e-006    
  0.9             0.00253         3.9292e-006    
  0.95            0.0025382       3.934e-006     
  1               0.0025466       3.9416e-006    
  1.05            0.0025542       3.9502e-006    
  1.1             0.0025634       3.958e-006     
  1.15            0.0025712       3.9692e-006    
  1.2             0.0025794       3.9784e-006    
  1.25            0.002588        3.9886e-006    
  1.3             0.0025964       3.9992e-006    
  1.35            0.0026046       4.0112e-006    
  1.4             0.0026132       4.023e-006     
  1.45            0.0026216       4.035e-006     
  1.5             0.0026302       4.0474e-006    
  1.55            0.0026386       4.0572e-006    
  1.6             0.0026472       4.068e-006     
  1.65            0.002656        4.0762e-006    
  1.7             0.0026646       4.0818e-006    
  1.75            0.0026734       4.0856e-006    
  1.8             0.0026826       4.0846e-006    
  1.85            0.0026912       4.0798e-006    
  1.9             0.0027004       4.0662e-006    
  1.95            0.0027098       4.0442e-006    
  2               0.002719        4.0144e-006    
  2.05            0.0027284       3.9722e-006    
  2.1             0.0027374       3.915e-006     
  2.15            0.0027466       3.8416e-006    
  2.2             0.0027566       3.749e-006     
  2.25            0.0027668       3.6312e-006    
  2.3             0.0027766       3.4878e-006    
  2.35            0.0027862       3.3124e-006    
  2.4             0.0027964       3.104e-006     
  2.45            0.0028068       2.8564e-006    
  2.5             0.0028174       2.5588e-006    
  2.55            0.002829        2.2142e-006    
  2.6             0.0028394       1.8114e-006    
  2.65            0.0028504       1.3382e-006    
  2.7             0.0028622       7.9614e-007    
  2.75            0.0028736       1.688e-007     
  2.8             0.0028864       -5.6286e-007   
  2.85            0.0028986       -1.3884e-006   
  2.9             0.0029114       -2.3394e-006   
  2.95            0.0029246       -3.439e-006    
  3               0.0029382       -4.6642e-006   
END_DB

BEGIN_DB
 ICCAP_VAR ve         0              
 ICCAP_VAR vs         0              
 ICCAP_VAR vb         0.85           

 #vc              ic              ib             
  0               -5.1126e-005    0.00043574     
  0.05            0.001987        0.00022792     
  0.1             0.0034444       0.00013382     
  0.15            0.0044136       9.5378e-005    
  0.2             0.0050452       7.909e-005     
  0.25            0.0055224       7.0148e-005    
  0.3             0.0059376       6.38e-005      
  0.35            0.0063138       5.8702e-005    
  0.4             0.0066786       5.423e-005     
  0.45            0.0070268       5.0262e-005    
  0.5             0.007367        4.6666e-005    
  0.55            0.0077044       4.3386e-005    
  0.6             0.008027        4.046e-005     
  0.65            0.0083396       3.7808e-005    
  0.7             0.0086502       3.5378e-005    
  0.75            0.0089424       3.3246e-005    
  0.8             0.0092258       3.1338e-005    
  0.85            0.0095012       2.9622e-005    
  0.9             0.0097586       2.817e-005     
  0.95            0.0100026       2.6934e-005    
  1               0.0102382       2.586e-005     
  1.05            0.010454        2.5002e-005    
  1.1             0.0106598       2.431e-005     
  1.15            0.0108498       2.38e-005      
  1.2             0.0110272       2.344e-005     
  1.25            0.0111988       2.318e-005     
  1.3             0.0113594       2.3046e-005    
  1.35            0.01151         2.2998e-005    
  1.4             0.011662        2.3028e-005    
  1.45            0.011808        2.3122e-005    
  1.5             0.01195         2.3266e-005    
  1.55            0.012096        2.3468e-005    
  1.6             0.012238        2.3696e-005    
  1.65            0.01238         2.395e-005     
  1.7             0.012522        2.4238e-005    
  1.75            0.012668        2.4538e-005    
  1.8             0.01282         2.4852e-005    
  1.85            0.01297         2.5158e-005    
  1.9             0.013124        2.5462e-005    
  1.95            0.013288        2.5764e-005    
  2               0.013448        2.6042e-005    
  2.05            0.013614        2.6278e-005    
  2.1             0.013792        2.6466e-005    
  2.15            0.01397         2.6594e-005    
  2.2             0.014152        2.6652e-005    
  2.25            0.014346        2.6614e-005    
  2.3             0.014544        2.6462e-005    
  2.35            0.014756        2.6152e-005    
