! VERSION = 6.00
!Data measured by ggf on Tue Mar 20 12:39:05 2018 using model file NPN_MEAS_SCALE
BEGIN_HEADER
 ICCAP_INPUTS
  vc         V  C GROUND SMU_C 0.1 CON        1.5
  ve         V  E GROUND SMU_E 0.1 CON        0
  vs         V  S GROUND SMU_S 0.015 CON        0
  freq       F  LIST       1 74 100000000 200000000 300000000 400000000 500000000 600000000 700000000 800000000 900000000 1000000000 2000000000 3000000000 4000000000 5000000000 6000000000 7000000000 8000000000 9000000000 10000000000 11000000000 12000000000 13000000000 14000000000 15000000000 16000000000 17000000000 18000000000 19000000000 20000000000 21000000000 22000000000 23000000000 24000000000 25000000000 26000000000 27000000000 28000000000 29000000000 30000000000 31000000000 32000000000 33000000000 34000000000 35000000000 36000000000 37000000000 38000000000 39000000000 40000000000 41000000000 42000000000 43000000000 44000000000 45000000000 46000000000 47000000000 48000000000 49000000000 50000000000 51000000000 52000000000 53000000000 54000000000 55000000000 56000000000 57000000000 58000000000 59000000000 60000000000 61000000000 62000000000 63000000000 64000000000 65000000000
  vb         V  B GROUND SMU_B 0.015 LIN        2    0.74       0.87       27   0.005     
 ICCAP_OUTPUTS
  ic         I  C GROUND SMU_C M
  ib         I  B GROUND SMU_B M
  S          S  B C GROUND NWA M
  S_deemb    S M C GROUND n/a B
 ICCAP_VALUES
  TNOM "27"
  TEMP "27"
  TECHNO "SG13G2"
  LOT "EDJ802"
  WAFER "02"
  CHIP "(3.3)"
  MODULE "S439S"
  DEV_NAME "D00"
  DEV_GEOM_L "5.0"
  DEV_GEOM_W "0.07"
  NUM_OF_TRANS_RF "1"
  REMARKS "Nx=4; Power -30/-20dBm, Slope: 0.1dB/GHz"
  TIMEDATE "Tue Jan 23 15:51:24     2018"
  OPERATOR "ggf"
END_HEADER

BEGIN_DB
 ICCAP_VAR vc         1.5            
 ICCAP_VAR ve         0              
 ICCAP_VAR vs         0              
 ICCAP_VAR vb         0.74           

 #freq            ic              ib              R:S(1,1)        I:S(1,1)        R:S(1,2)        I:S(1,2)        R:S(2,1)        I:S(2,1)        R:S(2,2)        I:S(2,2)        R:S_deemb(1,1)  I:S_deemb(1,1)  R:S_deemb(1,2)  I:S_deemb(1,2)  R:S_deemb(2,1)  I:S_deemb(2,1)  R:S_deemb(2,2)  I:S_deemb(2,2) 
  1e+008          0.00030102      4.5046e-007     0.997387        -0.0074109      5.77328e-006    0.00148942      -1.22196        -0.00684514     1.00083         -0.00376756     0.997387        -0.00692758     9.63174e-006    0.00138703      -1.22296        -0.00801414     1.00071         -0.00242663    
  2e+008          0.00030102      4.5046e-007     0.99845         -0.0166898      8.81943e-005    0.00305244      -1.18764        0.00638623      1.0007          -0.00791409     0.998258        -0.0147676      6.63988e-005    0.00293365      -1.18856        0.0032374       1.00037         -0.00495764    
  3e+008          0.00030102      4.5046e-007     0.998143        -0.025627       8.93325e-005    0.00446274      -1.19276        0.0172839       1.0006          -0.0119889      0.998069        -0.0225281      1.84287e-005    0.00426984      -1.1938         0.0130347       1.00043         -0.00843128    
  4e+008          0.00030102      4.5046e-007     0.998173        -0.0343671      0.000140963     0.00598032      -1.1765         0.0278739       1.00048         -0.0158704      0.997671        -0.0302296      9.13856e-005    0.00575646      -1.17731        0.0221949       1.00049         -0.0111124     
  5e+008          0.00030102      4.5046e-007     0.997668        -0.0429996      0.000279783     0.0075038       -1.19019        0.0376664       1.00035         -0.0198768      0.997216        -0.0370564      0.000231563     0.0072105       -1.19109        0.0301373       1.00031         -0.0140109     
  6e+008          0.00030102      4.5046e-007     0.997255        -0.0520198      0.000359327     0.0089871       -1.18953        0.0474447       1.00011         -0.0237813      0.997154        -0.0454801      0.000283758     0.00862927      -1.19061        0.038705        1.00001         -0.0168176     
  7e+008          0.00030102      4.5046e-007     0.996587        -0.0606489      0.000463253     0.0104752       -1.1895         0.0595411       0.999871        -0.0278485      0.996508        -0.0529512      0.000345438     0.0100562       -1.19078        0.0493434       1.00001         -0.0196315     
  8e+008          0.00030102      4.5046e-007     0.995911        -0.0695801      0.00062713      0.011972        -1.19284        0.0701701       0.999453        -0.0315798      0.995946        -0.0604351      0.000521548     0.0114929       -1.19434        0.058288        0.99961         -0.0222582     
  9e+008          0.00030102      4.5046e-007     0.995067        -0.0777546      0.00075995      0.0134961       -1.18245        0.0821975       0.999445        -0.0354976      0.995422        -0.0677004      0.000595995     0.0129844       -1.18426        0.0688594       0.999664        -0.0249837     
  1e+009          0.00030102      4.5046e-007     0.994105        -0.0867926      0.000961296     0.0149428       -1.19285        0.0947306       0.998913        -0.0392367      0.994641        -0.0754961      0.000758256     0.0143671       -1.19489        0.0799401       0.999285        -0.0276858     
  2e+009          0.00030102      4.5046e-007     0.981149        -0.170492       0.00360515      0.0295378       -1.15111        0.186614        0.994605        -0.0776292      0.984723        -0.148226       0.00280379      0.0285034       -1.15719        0.158129        0.996317        -0.0544806     
  3e+009          0.00030102      4.5046e-007     0.959676        -0.254057       0.00800241      0.0435787       -1.14454        0.273654        0.98783         -0.11529        0.968482        -0.221078       0.00624173      0.0421679       -1.15744        0.231161        0.991916        -0.0808957     
  4e+009          0.00030102      4.5046e-007     0.930942        -0.332419       0.0137999       0.056859        -1.11484        0.365327        0.978536        -0.151098       0.946434        -0.289479       0.0107538       0.0553494       -1.13717        0.310509        0.985842        -0.106011      
  5e+009          0.00030102      4.5046e-007     0.896361        -0.405446       0.0210464       0.0693153       -1.06113        0.440689        0.967455        -0.186727       0.919487        -0.355872       0.016489        0.0680235       -1.09376        0.377464        0.978679        -0.131294      
  6e+009          0.00030102      4.5046e-007     0.854942        -0.474931       0.0294434       0.0804818       -1.00988        0.514035        0.954289        -0.220646       0.887342        -0.419028       0.023163        0.0797518       -1.05486        0.443089        0.969958        -0.155252      
  7e+009          0.00030102      4.5046e-007     0.809079        -0.536726       0.0389884       0.0907528       -0.95552        0.579073        0.940378        -0.253228       0.851464        -0.476191       0.0308727       0.0909357       -1.01389        0.502744        0.961138        -0.17844       
  8e+009          0.00030102      4.5046e-007     0.759584        -0.593947       0.0492143       0.0995252       -0.90128        0.638833        0.923788        -0.283651       0.811941        -0.530931       0.0392617       0.100973        -0.973371       0.559218        0.950009        -0.200374      
  9e+009          0.00030102      4.5046e-007     0.708156        -0.644827       0.0601228       0.107064        -0.838612       0.68801         0.90652         -0.312853       0.770908        -0.57989        0.0482679       0.110134        -0.924342       0.607159        0.938739        -0.221392      
  1e+010          0.00030102      4.5046e-007     0.652391        -0.690916       0.0713771       0.11311         -0.771628       0.73528         0.887783        -0.339964       0.725562        -0.626095       0.0577316       0.118163        -0.871834       0.655967        0.926211        -0.241167      
  1.1e+010        0.00030102      4.5046e-007     0.596477        -0.730059       0.0828371       0.118135        -0.71348        0.769779        0.868964        -0.365455       0.679662        -0.666648       0.0675479       0.125448        -0.826613       0.692434        0.913592        -0.259691      
  1.2e+010        0.00030102      4.5046e-007     0.539017        -0.763002       0.094784        0.121901        -0.648794       0.804584        0.849246        -0.389353       0.631737        -0.702769       0.0779876       0.131804        -0.775368       0.732278        0.900489        -0.277418      
  1.3e+010        0.00030102      4.5046e-007     0.48151         -0.790937       0.106464        0.124322        -0.586658       0.832163        0.828834        -0.411111       0.582959        -0.73492        0.088414        0.13723         -0.725949       0.76609         0.88707         -0.293826      
  1.4e+010        0.00030102      4.5046e-007     0.426476        -0.812264       0.118167        0.125288        -0.519529       0.843062        0.808574        -0.432006       0.535678        -0.761284       0.0992721       0.141337        -0.668462       0.785432        0.87333         -0.309694      
  1.5e+010        0.00030102      4.5046e-007     0.373583        -0.829965       0.12928         0.125243        -0.451402       0.850729        0.788513        -0.451189       0.489254        -0.784136       0.109768        0.144478        -0.608502       0.802547        0.859491        -0.324205      
  1.6e+010        0.00030102      4.5046e-007     0.319759        -0.842592       0.140029        0.124383        -0.394926       0.859159        0.767928        -0.4683         0.441161        -0.803013       0.120256        0.146836        -0.55983        0.820119        0.844923        -0.337164      
  1.7e+010        0.00030102      4.5046e-007     0.269704        -0.853473       0.150278        0.122578        -0.334642       0.857503        0.747454        -0.48482        0.396048        -0.820084       0.130474        0.148422        -0.50538        0.829419        0.831388        -0.350125      
  1.8e+010        0.00030102      4.5046e-007     0.220887        -0.859446       0.159884        0.120024        -0.282425       0.859041        0.727424        -0.500378       0.351339        -0.832347       0.140374        0.149254        -0.45928        0.841106        0.817701        -0.361935      
  1.9e+010        0.00030102      4.5046e-007     0.170817        -0.863454       0.169177        0.116723        -0.229353       0.858785        0.708345        -0.514906       0.30492         -0.843214       0.150195        0.149305        -0.411549       0.852063        0.80427         -0.372366      
  2e+010          0.00030102      4.5046e-007     0.127897        -0.863957       0.177467        0.112776        -0.181675       0.847164        0.68777         -0.526087       0.264684        -0.84971        0.159295        0.148361        -0.365376       0.850523        0.789341        -0.381696      
  2.1e+010        0.00030102      4.5046e-007     0.0833364       -0.863503       0.185022        0.108531        -0.136862       0.842291        0.667227        -0.536728       0.221907        -0.855611       0.168178        0.147108        -0.322716       0.857327        0.775799        -0.39147       
  2.2e+010        0.00030102      4.5046e-007     0.0443714       -0.860827       0.192117        0.104404        -0.0905361      0.825943        0.648239        -0.549142       0.184555        -0.858518       0.176475        0.146132        -0.276953       0.852523        0.764212        -0.400858      
  2.3e+010        0.00030102      4.5046e-007     0.00518346      -0.856338       0.198581        0.0995536       -0.0500847      0.812492        0.63375         -0.561047       0.146729        -0.860378       0.184066        0.144152        -0.236994       0.848095        0.75285         -0.407359      
  2.4e+010        0.00030102      4.5046e-007     -0.0324834      -0.852635       0.20427         0.0951529       -0.0122772      0.799137        0.62213         -0.564519       0.110866        -0.861863       0.190912        0.141394        -0.196135       0.842456        0.740475        -0.411808      
  2.5e+010        0.00030102      4.5046e-007     -0.0704959      -0.843434       0.210962        0.091457        0.020394        0.787638        0.613888        -0.567531       0.0752005       -0.857939       0.197959        0.138113        -0.15772        0.83358         0.724282        -0.418972      
  2.6e+010        0.00030102      4.5046e-007     -0.103391       -0.836765       0.218027        0.0842959       0.0614969       0.771656        0.587823        -0.585654       0.0418831       -0.856275       0.205932        0.134606        -0.118656       0.826241        0.70853         -0.425064      
  2.7e+010        0.00030102      4.5046e-007     -0.135332       -0.828342       0.221406        0.0783759       0.0934256       0.754367        0.555741        -0.594904       0.00968008      -0.852102       0.212257        0.132535        -0.0883025      0.824401        0.700513        -0.435206      
  2.8e+010        0.00030102      4.5046e-007     -0.166692       -0.818728       0.226592        0.0720632       0.124783        0.733006        0.537097        -0.610636       -0.0224497      -0.848644       0.220106        0.130458        -0.0574256      0.816215        0.693122        -0.444508      
  2.9e+010        0.00030102      4.5046e-007     -0.196627       -0.808313       0.228476        0.0663166       0.149003        0.713345        0.52498         -0.616803       -0.0529468      -0.844143       0.224166        0.126663        -0.0301147      0.804241        0.684845        -0.448524      
  3e+010          0.00030102      4.5046e-007     -0.224847       -0.797032       0.231341        0.0622221       0.173249        0.692426        0.515888        -0.620848       -0.0804972      -0.837567       0.228262        0.123641        -0.00020461     0.788177        0.675463        -0.452619      
  3.1e+010        0.00030102      4.5046e-007     -0.249555       -0.782961       0.236031        0.0563019       0.198859        0.674819        0.500185        -0.625784       -0.106048       -0.827886       0.234859        0.119693        0.0285945       0.777402        0.663809        -0.458541      
  3.2e+010        0.00030102      4.5046e-007     -0.274262       -0.772435       0.238721        0.0505049       0.221872        0.652932        0.481402        -0.633658       -0.132006       -0.821423       0.24008         0.115895        0.0569708       0.764321        0.652774        -0.465936      
  3.3e+010        0.00030102      4.5046e-007     -0.297654       -0.761108       0.240967        0.0441349       0.240217        0.634058        0.466802        -0.642133       -0.155972       -0.814686       0.244608        0.111493        0.0784351       0.751951        0.643946        -0.471417      
  3.4e+010        0.00030102      4.5046e-007     -0.321279       -0.746722       0.242655        0.0390417       0.260895        0.614249        0.453986        -0.64796        -0.180932       -0.805053       0.248129        0.108057        0.103866        0.738363        0.635113        -0.475936      
  3.5e+010        0.00030102      4.5046e-007     -0.340104       -0.734092       0.245337        0.0332441       0.278845        0.594805        0.438949        -0.652542       -0.200825       -0.794998       0.25293         0.103559        0.126851        0.723749        0.624338        -0.480754      
  3.6e+010        0.00030102      4.5046e-007     -0.358649       -0.720779       0.245965        0.0268817       0.293691        0.575573        0.421698        -0.658332       -0.219777       -0.78433        0.256083        0.0984184       0.146587        0.710218        0.614684        -0.485342      
  3.7e+010        0.00030102      4.5046e-007     -0.376199       -0.709213       0.246881        0.0225416       0.306386        0.555917        0.408117        -0.666023       -0.238183       -0.776443       0.258768        0.0955073       0.163362        0.694355        0.606525        -0.491431      
  3.8e+010        0.00030102      4.5046e-007     -0.394217       -0.700518       0.247447        0.0173665       0.321946        0.539081        0.394777        -0.670822       -0.257097       -0.770561       0.261569        0.0915169       0.18369         0.683406        0.5979          -0.49578       
  3.9e+010        0.00030102      4.5046e-007     -0.409571       -0.686498       0.248035        0.0126384       0.334059        0.519308        0.379123        -0.675688       -0.273209       -0.759346       0.264324        0.0880405       0.20057         0.66823         0.58858         -0.499932      
  4e+010          0.00030102      4.5046e-007     -0.428271       -0.673944       0.248294        0.00662992      0.344176        0.501759        0.364316        -0.680704       -0.292517       -0.750479       0.266975        0.0827528       0.215147        0.653948        0.579379        -0.504415      
  4.1e+010        0.00030102      4.5046e-007     -0.442029       -0.661131       0.249222        0.00212501      0.355501        0.485439        0.350034        -0.685871       -0.307676       -0.740649       0.269637        0.0796044       0.229935        0.642012        0.572097        -0.508617      
  4.2e+010        0.00030102      4.5046e-007     -0.457246       -0.651349       0.248656        -0.00300918     0.36647         0.466547        0.336865        -0.689687       -0.322628       -0.734248       0.271573        0.0757518       0.246142        0.629136        0.566032        -0.513411      
  4.3e+010        0.00030102      4.5046e-007     -0.464602       -0.644874       0.248924        -0.00531634     0.372309        0.449698        0.321978        -0.693983       -0.331319       -0.729087       0.274031        0.0746488       0.25775         0.615076        0.55571         -0.519474      
  4.4e+010        0.00030102      4.5046e-007     -0.485732       -0.625732       0.24995         -0.0120758      0.383018        0.43433         0.306745        -0.697382       -0.354159       -0.713376       0.277843        0.068091        0.273765        0.602894        0.54591         -0.523175      
  4.5e+010        0.00030102      4.5046e-007     -0.498639       -0.619181       0.248535        -0.0165056      0.388815        0.418763        0.293127        -0.702085       -0.366347       -0.709175       0.278336        0.0640886       0.283527        0.590456        0.538644        -0.527258      
  4.6e+010        0.00030102      4.5046e-007     -0.508972       -0.606057       0.248678        -0.0198149      0.397161        0.402817        0.279695        -0.704579       -0.377212       -0.699579       0.280014        0.0619744       0.296291        0.577451        0.530346        -0.531577      
  4.7e+010        0.00030102      4.5046e-007     -0.518482       -0.600386       0.248853        -0.0233619      0.403096        0.387307        0.265002        -0.706996       -0.386809       -0.69541        0.282805        0.0592857       0.307828        0.565501        0.521296        -0.535967      
  4.8e+010        0.00030102      4.5046e-007     -0.533671       -0.583209       0.249204        -0.0294318      0.410722        0.37156         0.250445        -0.711719       -0.403078       -0.681122       0.285568        0.0536033       0.320238        0.552104        0.513283        -0.540587      
