! VERSION = 6.00
!Data measured by ggf on Tue Jan 23 16:08:50 2018 using model file NPN_MEAS_SCALE
BEGIN_HEADER
 ICCAP_INPUTS
  vbe        V  B GROUND SMU_B 0.015 LIN        2    0.6        -1.8       25   -0.1      
  vc         V  C GROUND SMU_C 0.015 CON        0
  ve         V  E GROUND SMU_E 0 CON        0
  vs         V  S GROUND SMU_S 0 CON        0
  freq       F  LIST       1 74 100000000 200000000 300000000 400000000 500000000 600000000 700000000 800000000 900000000 1000000000 2000000000 3000000000 4000000000 5000000000 6000000000 7000000000 8000000000 9000000000 10000000000 11000000000 12000000000 13000000000 14000000000 15000000000 16000000000 17000000000 18000000000 19000000000 20000000000 21000000000 22000000000 23000000000 24000000000 25000000000 26000000000 27000000000 28000000000 29000000000 30000000000 31000000000 32000000000 33000000000 34000000000 35000000000 36000000000 37000000000 38000000000 39000000000 40000000000 41000000000 42000000000 43000000000 44000000000 45000000000 46000000000 47000000000 48000000000 49000000000 50000000000 51000000000 52000000000 53000000000 54000000000 55000000000 56000000000 57000000000 58000000000 59000000000 60000000000 61000000000 62000000000 63000000000 64000000000 65000000000
 ICCAP_OUTPUTS
  S          S  B C GROUND NWA M
  ib         I  B GROUND SMU_B M
  S_deemb    S B C GROUND n/a B
 ICCAP_VALUES
  TNOM "27"
  TEMP "27"
  TECHNO "SG13G2"
  LOT "EDJ802"
  WAFER "02"
  CHIP "(3.3)"
  MODULE "S439S"
  DEV_NAME "D00"
  DEV_GEOM_L "5.0"
  DEV_GEOM_W "0.07"
  NUM_OF_TRANS_RF "1"
  REMARKS "Nx=4; Power -30/-20dBm, Slope: 0.1dB/GHz"
  TIMEDATE "Tue Jan 23 15:51:24     2018"
  OPERATOR "ggf"
END_HEADER

BEGIN_DB
 ICCAP_VAR vbe        0.6            
 ICCAP_VAR vc         0              
 ICCAP_VAR ve         0              
 ICCAP_VAR vs         0              

 #freq            R:S(1,1)        I:S(1,1)        R:S(1,2)        I:S(1,2)        R:S(2,1)        I:S(2,1)        R:S(2,2)        I:S(2,2)        ib              R:S_deemb(1,1)  I:S_deemb(1,1)  R:S_deemb(1,2)  I:S_deemb(1,2)  R:S_deemb(2,1)  I:S_deemb(2,1)  R:S_deemb(2,2)  I:S_deemb(2,2) 
  1e+008          0.999212        -0.00557333     0.0006092       0.00243867      0.000285939     0.00248695      0.989777        -0.00325528     3.3732e-007     0.999217        -0.00515199     0.000612316     0.00233729      0.000401676     0.00246978      0.98966         -0.00199736    
  2e+008          0.999892        -0.0138914      0.000681553     0.00474531      0.000499223     0.0045335       0.989649        -0.00821896     3.3732e-007     0.999686        -0.012038       0.000655742     0.00462812      0.000386422     0.00439062      0.989318        -0.00537811    
  3e+008          0.999672        -0.0214482      0.000804108     0.0071832       0.000646624     0.00709256      0.989282        -0.0121165      3.3732e-007     0.99955         -0.0184604      0.000724777     0.00699309      0.000555445     0.0069576       0.989076        -0.00873121    
  4e+008          0.99983         -0.0287295      0.00090656      0.00960546      0.000884639     0.00942479      0.989176        -0.0162671      3.3732e-007     0.999285        -0.0247199      0.000841415     0.00938495      0.000861818     0.00919659      0.989173        -0.0117187     
  5e+008          0.999608        -0.0368537      0.00113647      0.0119796       0.0010583       0.011749        0.98864         -0.0204028      3.3732e-007     0.999106        -0.0310781      0.00106251      0.0116912       0.00098703      0.0115192       0.988589        -0.0148104     
  6e+008          0.999096        -0.0437845      0.00135883      0.0142814       0.00116403      0.0140595       0.988131        -0.0241432      3.3732e-007     0.998916        -0.03745        0.00124897      0.0139307       0.00108899      0.0136844       0.988017        -0.0175121     
  7e+008          0.998685        -0.0510101      0.00153412      0.0166116       0.00146444      0.0163701       0.988383        -0.0285828      3.3732e-007     0.998486        -0.043551       0.00136957      0.0162015       0.0013788       0.0160247       0.988486        -0.0207528     
  8e+008          0.997967        -0.0587154      0.00175515      0.0189116       0.00173578      0.0187085       0.988477        -0.0324461      3.3732e-007     0.997872        -0.0498461      0.00158797      0.0184434       0.00154788      0.0182926       0.98862         -0.023565      
  9e+008          0.997412        -0.0655955      0.00212867      0.0212432       0.00199941      0.0208249       0.98817         -0.0363321      3.3732e-007     0.997587        -0.0558294      0.00188816      0.0207465       0.00176829      0.0201574       0.988353        -0.0262987     
  1e+009          0.996818        -0.0732931      0.00238678      0.0235375       0.0022875       0.0231579       0.987393        -0.0403403      3.3732e-007     0.997128        -0.0623188      0.00208947      0.0229795       0.00211804      0.0225667       0.987718        -0.0293334     
  2e+009          0.987158        -0.144839       0.00693125      0.0461141       0.00685974      0.0453437       0.983301        -0.0788453      3.3732e-007     0.989857        -0.123061       0.00576521      0.0451618       0.0057909       0.0444037       0.984804        -0.0567268     
  3e+009          0.971309        -0.216172       0.0142782       0.0678546       0.0137551       0.0666847       0.975415        -0.11582        3.3732e-007     0.978168        -0.183659       0.0117187       0.0666822       0.0112824       0.0655038       0.978985        -0.0830129     
  4e+009          0.949989        -0.283802       0.0236408       0.088121        0.0229882       0.0867404       0.966738        -0.151457       3.3732e-007     0.962127        -0.240908       0.0192234       0.0871081       0.0186246       0.0857111       0.973104        -0.10835       
  5e+009          0.923562        -0.348508       0.0352916       0.107078        0.0344198       0.105368        0.956145        -0.186475       3.3732e-007     0.941912        -0.298178       0.0287087       0.106672        0.0279338       0.105006        0.965942        -0.133278      
  6e+009          0.892122        -0.410094       0.0487688       0.124038        0.0473175       0.122095        0.944304        -0.220307       3.3732e-007     0.918141        -0.352113       0.0397037       0.124746        0.0383756       0.12266         0.958013        -0.157238      
  7e+009          0.856271        -0.467905       0.0636587       0.139292        0.0624996       0.137227        0.931709        -0.252479       3.3732e-007     0.890885        -0.403636       0.0519574       0.141621        0.0508935       0.139485        0.949913        -0.179991      
  8e+009          0.817855        -0.519922       0.0800148       0.152459        0.0780798       0.150638        0.916684        -0.283474       3.3732e-007     0.860982        -0.451068       0.0656721       0.156935        0.0638026       0.154936        0.939829        -0.202323      
  9e+009          0.777247        -0.569255       0.0977289       0.163947        0.0947805       0.161709        0.899753        -0.313257       3.3732e-007     0.829645        -0.496049       0.0806307       0.171155        0.0778593       0.168639        0.928425        -0.223733      
  1e+010          0.732901        -0.613344       0.114782        0.172384        0.113039        0.170424        0.884695        -0.341676       3.3732e-007     0.794742        -0.53735        0.0951441       0.182715        0.0934522       0.180575        0.919194        -0.244119      
  1.1e+010        0.687667        -0.653692       0.13429         0.180152        0.130308        0.178235        0.864965        -0.368467       3.3732e-007     0.759087        -0.576211       0.112253        0.194307        0.108425        0.191857        0.905371        -0.26372       
  1.2e+010        0.641055        -0.687906       0.152409        0.185032        0.149343        0.182837        0.847498        -0.393842       3.3732e-007     0.721748        -0.610381       0.128284        0.203239        0.125401        0.200713        0.894273        -0.282204      
  1.3e+010        0.593644        -0.719675       0.171348        0.188178        0.167524        0.186047        0.827484        -0.417412       3.3732e-007     0.683318        -0.642945       0.145487        0.211161        0.141887        0.208455        0.881075        -0.299795      
  1.4e+010        0.545476        -0.745842       0.189575        0.189178        0.186117        0.187924        0.809131        -0.440178       3.3732e-007     0.643641        -0.671165       0.162539        0.217095        0.159147        0.215288        0.869338        -0.316595      
  1.5e+010        0.500066        -0.768733       0.206719        0.18839         0.202726        0.186193        0.791033        -0.461661       3.3732e-007     0.605764        -0.696074       0.178828        0.22128         0.175088        0.218415        0.857789        -0.33241       
  1.6e+010        0.453014        -0.787291       0.225417        0.186316        0.219668        0.185208        0.768756        -0.481061       3.3732e-007     0.565972        -0.718007       0.197336        0.224618        0.191603        0.222409        0.841927        -0.347256      
  1.7e+010        0.408133        -0.804181       0.240759        0.182495        0.235365        0.181357        0.750182        -0.500266       3.3732e-007     0.527759        -0.738404       0.21281         0.226018        0.207468        0.223882        0.830884        -0.361894      
  1.8e+010        0.364268        -0.816524       0.257817        0.177633        0.250969        0.177626        0.727978        -0.518109       3.3732e-007     0.489917        -0.754396       0.230572        0.226879        0.223457        0.225502        0.815583        -0.375667      
  1.9e+010        0.319998        -0.826658       0.27134         0.171552        0.266001        0.170925        0.710976        -0.535518       3.3732e-007     0.45151         -0.768674       0.24501         0.226022        0.239542        0.224306        0.805247        -0.387808      
  2e+010          0.279916        -0.834521       0.285546        0.163981        0.278039        0.165047        0.689323        -0.54869        3.3732e-007     0.416418        -0.78085        0.260862        0.223473        0.252778        0.223066        0.790042        -0.398847      
  2.1e+010        0.238911        -0.839816       0.297374        0.156213        0.291959        0.157362        0.668753        -0.562765       3.3732e-007     0.37971         -0.790514       0.274997        0.220466        0.269074        0.220515        0.777681        -0.411475      
  2.2e+010        0.201418        -0.844403       0.307767        0.148441        0.302309        0.149481        0.65004         -0.577878       3.3732e-007     0.34652         -0.798993       0.287563        0.217626        0.281517        0.217582        0.7676          -0.423061      
  2.3e+010        0.163435        -0.846425       0.319082        0.13932         0.312685        0.141375        0.632636        -0.592498       3.3732e-007     0.312063        -0.805842       0.301112        0.213437        0.293939        0.214226        0.754692        -0.432437      
  2.4e+010        0.127383        -0.849258       0.327566        0.131031        0.321653        0.133151        0.62066         -0.597592       3.3732e-007     0.280155        -0.8131         0.311662        0.207829        0.304922        0.208715        0.742937        -0.438144      
  2.5e+010        0.0904606       -0.847033       0.338893        0.123595        0.331886        0.127181        0.610782        -0.603413       3.3732e-007     0.247747        -0.81664        0.323878        0.201495        0.315536        0.203673        0.72601         -0.44789       
  2.6e+010        0.0569413       -0.846149       0.349871        0.110283        0.343067        0.115143        0.580989        -0.623009       3.3732e-007     0.217317        -0.819949       0.337135        0.193962        0.328896        0.197285        0.707925        -0.45578       
  2.7e+010        0.0249063       -0.842373       0.354904        0.099792        0.350444        0.104279        0.547562        -0.634554       3.3732e-007     0.188282        -0.820245       0.347413        0.189299        0.34152         0.193016        0.699958        -0.46889       
  2.8e+010        -0.00572557     -0.839804       0.362257        0.088164        0.356756        0.0934463       0.526844        -0.652388       3.3732e-007     0.159547        -0.821668       0.359801        0.18425         0.352521        0.188645        0.692255        -0.48104       
  2.9e+010        -0.0371907      -0.834849       0.365585        0.0778016       0.360494        0.0842463       0.513646        -0.659379       3.3732e-007     0.129555        -0.82201        0.3671          0.177042        0.359887        0.182372        0.683942        -0.486204      
  3e+010          -0.0664022      -0.827958       0.369503        0.0694823       0.365914        0.0749354       0.502341        -0.665952       3.3732e-007     0.102516        -0.820249       0.373471        0.170452        0.368251        0.175409        0.673862        -0.493338      
  3.1e+010        -0.0922891      -0.820673       0.375286        0.0590574       0.371048        0.0643291       0.484389        -0.671621       3.3732e-007     0.0785175       -0.817536       0.382676        0.162842        0.376484        0.167304        0.660737        -0.500624      
  3.2e+010        -0.119217       -0.8145         0.379023        0.0486025       0.374486        0.0543037       0.463281        -0.681091       3.3732e-007     0.0529243       -0.815942       0.39112         0.155283        0.384525        0.160257        0.648647        -0.510391      
  3.3e+010        -0.145284       -0.806789       0.382447        0.0372743       0.378688        0.044554        0.445398        -0.690872       3.3732e-007     0.0282173       -0.812873       0.398938        0.146952        0.392695        0.153772        0.63773         -0.518321      
  3.4e+010        -0.170681       -0.79723        0.384369        0.0275367       0.381663        0.0338003       0.429957        -0.697682       3.3732e-007     0.00364667      -0.808529       0.404474        0.139499        0.399789        0.1453          0.627433        -0.524628      
  3.5e+010        -0.191789       -0.789078       0.387136        0.0176328       0.383417        0.0235722       0.412494        -0.70314        3.3732e-007     -0.0167269      -0.803885       0.410938        0.131256        0.405001        0.136462        0.615379        -0.531327      
  3.6e+010        -0.213104       -0.77907        0.387649        0.00635081      0.384353        0.0137099       0.392891        -0.709035       3.3732e-007     -0.0366405      -0.797134       0.41614         0.121512        0.410552        0.128601        0.604224        -0.537263      
  3.7e+010        -0.233175       -0.770601       0.388415        -0.00236242     0.385607        0.0053443       0.375417        -0.717053       3.3732e-007     -0.0561366      -0.792796       0.420436        0.114649        0.415016        0.122027        0.592976        -0.545275      
  3.8e+010        -0.252513       -0.765084       0.388244        -0.0112637      0.386882        -0.00497154     0.360231        -0.722141       3.3732e-007     -0.0745148      -0.790597       0.424148        0.107181        0.420597        0.113575        0.583509        -0.550606      
  3.9e+010        -0.271554       -0.755192       0.387691        -0.0199819      0.385449        -0.0133995      0.342836        -0.726672       3.3732e-007     -0.0923456      -0.784606       0.427558        0.0999315       0.423126        0.106486        0.573273        -0.555435      
  4e+010          -0.292499       -0.745507       0.387818        -0.0306374      0.385592        -0.0219588      0.324133        -0.731469       3.3732e-007     -0.112468       -0.779499       0.432176        0.0900981       0.42683         0.0987558       0.560868        -0.561726      
  4.1e+010        -0.307924       -0.736079       0.387997        -0.0391125      0.385541        -0.0304936      0.307304        -0.736521       3.3732e-007     -0.12753        -0.773483       0.435796        0.0832385       0.430261        0.0918261       0.551609        -0.567242      
  4.2e+010        -0.326458       -0.727838       0.385736        -0.0479006      0.384699        -0.0400883      0.291823        -0.740456       3.3732e-007     -0.144916       -0.769654       0.438055        0.0755936       0.434046        0.0840082       0.544029        -0.573734      
  4.3e+010        -0.33836        -0.722032       0.384873        -0.0533614      0.382927        -0.0463992      0.273459        -0.743363       3.3732e-007     -0.156978       -0.766084       0.441027        0.0711238       0.436383        0.0777074       0.530192        -0.579574      
  4.4e+010        -0.358984       -0.708315       0.385078        -0.0638757      0.382033        -0.0553296      0.256651        -0.746173       3.3732e-007     -0.177034       -0.756748       0.445831        0.0606106       0.439409        0.0692285       0.519713        -0.58432       
  4.5e+010        -0.375348       -0.703051       0.38174         -0.0720847      0.38139         -0.0616223      0.241286        -0.75041        3.3732e-007     -0.191688       -0.754954       0.446278        0.0524176       0.44215         0.0639619       0.511223        -0.589236      
  4.6e+010        -0.388191       -0.692443       0.380762        -0.0785047      0.380296        -0.0689582      0.22475         -0.751586       3.3732e-007     -0.204154       -0.748495       0.448227        0.0470173       0.444283        0.0571724       0.499604        -0.594079      
  4.7e+010        -0.401581       -0.686909       0.379007        -0.0848823      0.378596        -0.0768824      0.207795        -0.752958       3.3732e-007     -0.216581       -0.745653       0.450676        0.0409552       0.447075        0.0496166       0.488507        -0.59865       
  4.8e+010        -0.418387       -0.674418       0.378377        -0.0940625      0.376305        -0.0845732      0.192509        -0.757066       3.3732e-007     -0.232853       -0.737302       0.454127        0.031998        0.448478        0.0420154       0.480411        -0.604237      
  4.9e+010        -0.434094       -0.671847       0.372946        -0.100299       0.373951        -0.0914634      0.17801         -0.758504       3.3732e-007     -0.246756       -0.73828        0.452268        0.0245688       0.450475        0.0340808       0.471055        -0.608426      
  5e+010          -0.447511       -0.657476       0.373697        -0.107185       0.374161        -0.0996832      0.161184        -0.758158       3.3732e-007     -0.26           -0.728701       0.456111        0.0187091       0.453473        0.0274963       0.459114        -0.612384      
  5.1e+010        -0.458515       -0.648562       0.373113        -0.115652       0.371998        -0.106432       0.146847        -0.758612       3.3732e-007     -0.271078       -0.722501       0.459819        0.0104795       0.454966        0.0206689       0.449899        -0.615331      
  5.2e+010        -0.471459       -0.637878       0.367202        -0.126614       0.367343        -0.113678       0.131351        -0.760136       3.3732e-007     -0.282969       -0.716705       0.458725        -0.00149129     0.454028        0.0126599       0.440661        -0.619799      
