! VERSION = 6.00
!Data measured by ggf on Tue Jan 23 16:08:50 2018 using model file NPN_MEAS_SCALE
BEGIN_HEADER
 ICCAP_INPUTS
  vc         V  C GROUND SMU_C 0.1 CON        1.5
  ve         V  E GROUND SMU_E 0.1 CON        0
  vs         V  S GROUND SMU_S 0.015 CON        0
  freq       F  LIST       1 74 100000000 200000000 300000000 400000000 500000000 600000000 700000000 800000000 900000000 1000000000 2000000000 3000000000 4000000000 5000000000 6000000000 7000000000 8000000000 9000000000 10000000000 11000000000 12000000000 13000000000 14000000000 15000000000 16000000000 17000000000 18000000000 19000000000 20000000000 21000000000 22000000000 23000000000 24000000000 25000000000 26000000000 27000000000 28000000000 29000000000 30000000000 31000000000 32000000000 33000000000 34000000000 35000000000 36000000000 37000000000 38000000000 39000000000 40000000000 41000000000 42000000000 43000000000 44000000000 45000000000 46000000000 47000000000 48000000000 49000000000 50000000000 51000000000 52000000000 53000000000 54000000000 55000000000 56000000000 57000000000 58000000000 59000000000 60000000000 61000000000 62000000000 63000000000 64000000000 65000000000
  vb         V  B GROUND SMU_B 0.015 LIN        2    0.74       0.87       27   0.005     
 ICCAP_OUTPUTS
  ic         I  C GROUND SMU_C M
  ib         I  B GROUND SMU_B M
  S          S  B C GROUND NWA M
 ICCAP_VALUES
  TNOM "27"
  TEMP "27"
  TECHNO "SG13G2"
  LOT "EDJ802"
  WAFER "02"
  CHIP "(3.3)"
  MODULE "S439S"
  DEV_NAME "D00"
  DEV_GEOM_L "5.0"
  DEV_GEOM_W "0.07"
  NUM_OF_TRANS_RF "1"
  REMARKS "Nx=4; Power -30/-20dBm, Slope: 0.1dB/GHz"
  TIMEDATE "Tue Jan 23 15:51:24     2018"
  OPERATOR "ggf"
END_HEADER

BEGIN_DB
 ICCAP_VAR vc         1.5            
 ICCAP_VAR ve         0              
 ICCAP_VAR vs         0              
 ICCAP_VAR vb         0.74           

 #freq            ic              ib              R:S(1,1)        I:S(1,1)        R:S(1,2)        I:S(1,2)        R:S(2,1)        I:S(2,1)        R:S(2,2)        I:S(2,2)       
  1e+008          0.00030102      4.5046e-007     0.997387        -0.0074109      5.77328e-006    0.00148942      -1.22196        -0.00684514     1.00083         -0.00376756    
  2e+008          0.00030102      4.5046e-007     0.99845         -0.0166898      8.81943e-005    0.00305244      -1.18764        0.00638623      1.0007          -0.00791409    
  3e+008          0.00030102      4.5046e-007     0.998143        -0.025627       8.93325e-005    0.00446274      -1.19276        0.0172839       1.0006          -0.0119889     
  4e+008          0.00030102      4.5046e-007     0.998173        -0.0343671      0.000140963     0.00598032      -1.1765         0.0278739       1.00048         -0.0158704     
  5e+008          0.00030102      4.5046e-007     0.997668        -0.0429996      0.000279783     0.0075038       -1.19019        0.0376664       1.00035         -0.0198768     
  6e+008          0.00030102      4.5046e-007     0.997255        -0.0520198      0.000359327     0.0089871       -1.18953        0.0474447       1.00011         -0.0237813     
  7e+008          0.00030102      4.5046e-007     0.996587        -0.0606489      0.000463253     0.0104752       -1.1895         0.0595411       0.999871        -0.0278485     
  8e+008          0.00030102      4.5046e-007     0.995911        -0.0695801      0.00062713      0.011972        -1.19284        0.0701701       0.999453        -0.0315798     
  9e+008          0.00030102      4.5046e-007     0.995067        -0.0777546      0.00075995      0.0134961       -1.18245        0.0821975       0.999445        -0.0354976     
  1e+009          0.00030102      4.5046e-007     0.994105        -0.0867926      0.000961296     0.0149428       -1.19285        0.0947306       0.998913        -0.0392367     
  2e+009          0.00030102      4.5046e-007     0.981149        -0.170492       0.00360515      0.0295378       -1.15111        0.186614        0.994605        -0.0776292     
  3e+009          0.00030102      4.5046e-007     0.959676        -0.254057       0.00800241      0.0435787       -1.14454        0.273654        0.98783         -0.11529       
  4e+009          0.00030102      4.5046e-007     0.930942        -0.332419       0.0137999       0.056859        -1.11484        0.365327        0.978536        -0.151098      
  5e+009          0.00030102      4.5046e-007     0.896361        -0.405446       0.0210464       0.0693153       -1.06113        0.440689        0.967455        -0.186727      
  6e+009          0.00030102      4.5046e-007     0.854942        -0.474931       0.0294434       0.0804818       -1.00988        0.514035        0.954289        -0.220646      
  7e+009          0.00030102      4.5046e-007     0.809079        -0.536726       0.0389884       0.0907528       -0.95552        0.579073        0.940378        -0.253228      
  8e+009          0.00030102      4.5046e-007     0.759584        -0.593947       0.0492143       0.0995252       -0.90128        0.638833        0.923788        -0.283651      
  9e+009          0.00030102      4.5046e-007     0.708156        -0.644827       0.0601228       0.107064        -0.838612       0.68801         0.90652         -0.312853      
  1e+010          0.00030102      4.5046e-007     0.652391        -0.690916       0.0713771       0.11311         -0.771628       0.73528         0.887783        -0.339964      
  1.1e+010        0.00030102      4.5046e-007     0.596477        -0.730059       0.0828371       0.118135        -0.71348        0.769779        0.868964        -0.365455      
  1.2e+010        0.00030102      4.5046e-007     0.539017        -0.763002       0.094784        0.121901        -0.648794       0.804584        0.849246        -0.389353      
  1.3e+010        0.00030102      4.5046e-007     0.48151         -0.790937       0.106464        0.124322        -0.586658       0.832163        0.828834        -0.411111      
  1.4e+010        0.00030102      4.5046e-007     0.426476        -0.812264       0.118167        0.125288        -0.519529       0.843062        0.808574        -0.432006      
  1.5e+010        0.00030102      4.5046e-007     0.373583        -0.829965       0.12928         0.125243        -0.451402       0.850729        0.788513        -0.451189      
  1.6e+010        0.00030102      4.5046e-007     0.319759        -0.842592       0.140029        0.124383        -0.394926       0.859159        0.767928        -0.4683        
  1.7e+010        0.00030102      4.5046e-007     0.269704        -0.853473       0.150278        0.122578        -0.334642       0.857503        0.747454        -0.48482       
  1.8e+010        0.00030102      4.5046e-007     0.220887        -0.859446       0.159884        0.120024        -0.282425       0.859041        0.727424        -0.500378      
  1.9e+010        0.00030102      4.5046e-007     0.170817        -0.863454       0.169177        0.116723        -0.229353       0.858785        0.708345        -0.514906      
  2e+010          0.00030102      4.5046e-007     0.127897        -0.863957       0.177467        0.112776        -0.181675       0.847164        0.68777         -0.526087      
  2.1e+010        0.00030102      4.5046e-007     0.0833364       -0.863503       0.185022        0.108531        -0.136862       0.842291        0.667227        -0.536728      
  2.2e+010        0.00030102      4.5046e-007     0.0443714       -0.860827       0.192117        0.104404        -0.0905361      0.825943        0.648239        -0.549142      
  2.3e+010        0.00030102      4.5046e-007     0.00518346      -0.856338       0.198581        0.0995536       -0.0500847      0.812492        0.63375         -0.561047      
  2.4e+010        0.00030102      4.5046e-007     -0.0324834      -0.852635       0.20427         0.0951529       -0.0122772      0.799137        0.62213         -0.564519      
  2.5e+010        0.00030102      4.5046e-007     -0.0704959      -0.843434       0.210962        0.091457        0.020394        0.787638        0.613888        -0.567531      
  2.6e+010        0.00030102      4.5046e-007     -0.103391       -0.836765       0.218027        0.0842959       0.0614969       0.771656        0.587823        -0.585654      
  2.7e+010        0.00030102      4.5046e-007     -0.135332       -0.828342       0.221406        0.0783759       0.0934256       0.754367        0.555741        -0.594904      
  2.8e+010        0.00030102      4.5046e-007     -0.166692       -0.818728       0.226592        0.0720632       0.124783        0.733006        0.537097        -0.610636      
  2.9e+010        0.00030102      4.5046e-007     -0.196627       -0.808313       0.228476        0.0663166       0.149003        0.713345        0.52498         -0.616803      
  3e+010          0.00030102      4.5046e-007     -0.224847       -0.797032       0.231341        0.0622221       0.173249        0.692426        0.515888        -0.620848      
  3.1e+010        0.00030102      4.5046e-007     -0.249555       -0.782961       0.236031        0.0563019       0.198859        0.674819        0.500185        -0.625784      
  3.2e+010        0.00030102      4.5046e-007     -0.274262       -0.772435       0.238721        0.0505049       0.221872        0.652932        0.481402        -0.633658      
  3.3e+010        0.00030102      4.5046e-007     -0.297654       -0.761108       0.240967        0.0441349       0.240217        0.634058        0.466802        -0.642133      
  3.4e+010        0.00030102      4.5046e-007     -0.321279       -0.746722       0.242655        0.0390417       0.260895        0.614249        0.453986        -0.64796       
  3.5e+010        0.00030102      4.5046e-007     -0.340104       -0.734092       0.245337        0.0332441       0.278845        0.594805        0.438949        -0.652542      
  3.6e+010        0.00030102      4.5046e-007     -0.358649       -0.720779       0.245965        0.0268817       0.293691        0.575573        0.421698        -0.658332      
  3.7e+010        0.00030102      4.5046e-007     -0.376199       -0.709213       0.246881        0.0225416       0.306386        0.555917        0.408117        -0.666023      
  3.8e+010        0.00030102      4.5046e-007     -0.394217       -0.700518       0.247447        0.0173665       0.321946        0.539081        0.394777        -0.670822      
  3.9e+010        0.00030102      4.5046e-007     -0.409571       -0.686498       0.248035        0.0126384       0.334059        0.519308        0.379123        -0.675688      
  4e+010          0.00030102      4.5046e-007     -0.428271       -0.673944       0.248294        0.00662992      0.344176        0.501759        0.364316        -0.680704      
  4.1e+010        0.00030102      4.5046e-007     -0.442029       -0.661131       0.249222        0.00212501      0.355501        0.485439        0.350034        -0.685871      
  4.2e+010        0.00030102      4.5046e-007     -0.457246       -0.651349       0.248656        -0.00300918     0.36647         0.466547        0.336865        -0.689687      
  4.3e+010        0.00030102      4.5046e-007     -0.464602       -0.644874       0.248924        -0.00531634     0.372309        0.449698        0.321978        -0.693983      
  4.4e+010        0.00030102      4.5046e-007     -0.485732       -0.625732       0.24995         -0.0120758      0.383018        0.43433         0.306745        -0.697382      
  4.5e+010        0.00030102      4.5046e-007     -0.498639       -0.619181       0.248535        -0.0165056      0.388815        0.418763        0.293127        -0.702085      
  4.6e+010        0.00030102      4.5046e-007     -0.508972       -0.606057       0.248678        -0.0198149      0.397161        0.402817        0.279695        -0.704579      
  4.7e+010        0.00030102      4.5046e-007     -0.518482       -0.600386       0.248853        -0.0233619      0.403096        0.387307        0.265002        -0.706996      
  4.8e+010        0.00030102      4.5046e-007     -0.533671       -0.583209       0.249204        -0.0294318      0.410722        0.37156         0.250445        -0.711719      
  4.9e+010        0.00030102      4.5046e-007     -0.546963       -0.581406       0.246604        -0.0323128      0.415013        0.354462        0.239081        -0.714217      
  5e+010          0.00030102      4.5046e-007     -0.559622       -0.563436       0.248227        -0.0363988      0.421132        0.342737        0.2241          -0.716057      
  5.1e+010        0.00030102      4.5046e-007     -0.566815       -0.552893       0.249093        -0.0419944      0.427632        0.325168        0.209883        -0.71752       
  5.2e+010        0.00030102      4.5046e-007     -0.576219       -0.540048       0.245597        -0.048803       0.42882         0.309713        0.197055        -0.719838      
  5.3e+010        0.00030102      4.5046e-007     -0.588823       -0.536181       0.244532        -0.0501562      0.433453        0.296375        0.184526        -0.722357      
  5.4e+010        0.00030102      4.5046e-007     -0.593438       -0.518823       0.243996        -0.0558224      0.438195        0.281731        0.170766        -0.724156      
  5.5e+010        0.00030102      4.5046e-007     -0.605777       -0.508394       0.240382        -0.0605386      0.437567        0.26648         0.158027        -0.723447      
  5.6e+010        0.00030102      4.5046e-007     -0.609764       -0.501356       0.237691        -0.0636515      0.438517        0.256099        0.148728        -0.724371      
  5.7e+010        0.00030102      4.5046e-007     -0.622454       -0.488502       0.238253        -0.0644579      0.443626        0.242662        0.138148        -0.729803      
  5.8e+010        0.00030102      4.5046e-007     -0.628856       -0.480369       0.238663        -0.0691734      0.446678        0.228703        0.125575        -0.733443      
  5.9e+010        0.00030102      4.5046e-007     -0.634825       -0.469767       0.236826        -0.073501       0.447444        0.213771        0.110682        -0.733558      
  6e+010          0.00030102      4.5046e-007     -0.641984       -0.458577       0.235884        -0.0808804      0.448391        0.199319        0.0962465       -0.733922      
  6.1e+010        0.00030102      4.5046e-007     -0.650473       -0.448205       0.228668        -0.0843744      0.447362        0.186779        0.0849291       -0.737619      
  6.2e+010        0.00030102      4.5046e-007     -0.652453       -0.444355       0.228549        -0.0837291      0.446072        0.175571        0.0734742       -0.740963      
  6.3e+010        0.00030102      4.5046e-007     -0.663788       -0.425884       0.227125        -0.0895588      0.446569        0.162899        0.0590567       -0.737317      
  6.4e+010        0.00030102      4.5046e-007     -0.665531       -0.425259       0.225531        -0.0944893      0.446881        0.149772        0.0492831       -0.738942      
  6.5e+010        0.00030102      4.5046e-007     -0.673837       -0.408016       0.218323        -0.0969044      0.443057        0.138331        0.0348547       -0.743575      
END_DB

BEGIN_DB
 ICCAP_VAR vc         1.5            
 ICCAP_VAR ve         0              
 ICCAP_VAR vs         0              
 ICCAP_VAR vb         0.745          

 #freq            ic              ib              R:S(1,1)        I:S(1,1)        R:S(1,2)        I:S(1,2)        R:S(2,1)        I:S(2,1)        R:S(2,2)        I:S(2,2)       
  1e+008          0.00036184      5.4226e-007     0.997264        -0.00767982     -4.66449e-006   0.00151886      -1.46163        -0.00830013     1.00088         -0.00393785    
  2e+008          0.00036184      5.4226e-007     0.998084        -0.0173514      4.96033e-005    0.00302045      -1.42186        0.00784553      1.00086         -0.00883875    
  3e+008          0.00036184      5.4226e-007     0.997657        -0.0267081      9.48415e-005    0.00450232      -1.42762        0.0206851       1.0005          -0.0124516     
  4e+008          0.00036184      5.4226e-007     0.997854        -0.0354754      0.00017369      0.00603932      -1.40858        0.033166        1.0004          -0.0165318     
  5e+008          0.00036184      5.4226e-007     0.997557        -0.045296       0.000257063     0.00750245      -1.4249         0.0457461       1.00034         -0.0206853     
  6e+008          0.00036184      5.4226e-007     0.996708        -0.0539978      0.000350555     0.0089981       -1.42391        0.0565252       0.999926        -0.0246881     
  7e+008          0.00036184      5.4226e-007     0.996349        -0.0637456      0.000498294     0.0104835       -1.424          0.0721941       0.999758        -0.029018      
  8e+008          0.00036184      5.4226e-007     0.995198        -0.0722677      0.000644547     0.0119994       -1.4275         0.0836377       0.999323        -0.0329415     
  9e+008          0.00036184      5.4226e-007     0.994466        -0.0809419      0.000811799     0.013473        -1.41539        0.0981246       0.999231        -0.0369905     
  1e+009          0.00036184      5.4226e-007     0.99333         -0.0901105      0.000977441     0.0149286       -1.42768        0.112819        0.998616        -0.0409296     
  2e+009          0.00036184      5.4226e-007     0.979102        -0.177109       0.00373499      0.0295186       -1.37798        0.222488        0.993916        -0.0809433     
  3e+009          0.00036184      5.4226e-007     0.95623         -0.263635       0.00818986      0.0435293       -1.3687         0.326833        0.986474        -0.120165      
  4e+009          0.00036184      5.4226e-007     0.925219        -0.344415       0.014142        0.056697        -1.33167        0.435036        0.976207        -0.157287      
  5e+009          0.00036184      5.4226e-007     0.887897        -0.419286       0.0215709       0.0689932       -1.26668        0.523679        0.963967        -0.194101      
  6e+009          0.00036184      5.4226e-007     0.843507        -0.489816       0.0301148       0.0799513       -1.20418        0.609872        0.949406        -0.228944      
  7e+009          0.00036184      5.4226e-007     0.794871        -0.552375       0.0397681       0.0899936       -1.13803        0.684992        0.93409         -0.262326      
  8e+009          0.00036184      5.4226e-007     0.742014        -0.610219       0.050086        0.098412        -1.07217        0.754904        0.916018        -0.293172      
  9e+009          0.00036184      5.4226e-007     0.6879          -0.660841       0.0610454       0.105632        -0.996998       0.811159        0.897132        -0.322561      
  1e+010          0.00036184      5.4226e-007     0.629732        -0.705356       0.0722749       0.111329        -0.918          0.863935        0.876961        -0.349616      
  1.1e+010        0.00036184      5.4226e-007     0.571738        -0.742983       0.0837326       0.116005        -0.848966       0.901728        0.856698        -0.374814      
  1.2e+010        0.00036184      5.4226e-007     0.511805        -0.774805       0.0954853       0.119349        -0.772025       0.940759        0.835602        -0.39825       
  1.3e+010        0.00036184      5.4226e-007     0.452405        -0.800843       0.107027        0.121385        -0.698172       0.970161        0.813954        -0.419519      
  1.4e+010        0.00036184      5.4226e-007     0.396147        -0.820424       0.118491        0.121989        -0.62026        0.980794        0.792593        -0.439713      
  1.5e+010        0.00036184      5.4226e-007     0.34207         -0.836185       0.129297        0.12165         -0.541721       0.988367        0.771585        -0.45806       
