! VERSION = 6.00
!Data measured by ggf on Tue Jan 23 16:08:50 2018 using model file NPN_MEAS_SCALE
BEGIN_HEADER
 ICCAP_INPUTS
  vc         V  C GROUND SMU_C 0.2 SYNC       1 1 vb
  ve         V  E GROUND SMU_E 0 CON        0
  vs         V  S GROUND SMU_S 0 CON        0
  freq       F  LIST       1 74 100000000 200000000 300000000 400000000 500000000 600000000 700000000 800000000 900000000 1000000000 2000000000 3000000000 4000000000 5000000000 6000000000 7000000000 8000000000 9000000000 10000000000 11000000000 12000000000 13000000000 14000000000 15000000000 16000000000 17000000000 18000000000 19000000000 20000000000 21000000000 22000000000 23000000000 24000000000 25000000000 26000000000 27000000000 28000000000 29000000000 30000000000 31000000000 32000000000 33000000000 34000000000 35000000000 36000000000 37000000000 38000000000 39000000000 40000000000 41000000000 42000000000 43000000000 44000000000 45000000000 46000000000 47000000000 48000000000 49000000000 50000000000 51000000000 52000000000 53000000000 54000000000 55000000000 56000000000 57000000000 58000000000 59000000000 60000000000 61000000000 62000000000 63000000000 64000000000 65000000000
  vb         V  B GROUND SMU_B 0.015 LIN        2    0.74       0.87       27   0.005     
 ICCAP_OUTPUTS
  ic         I  C GROUND SMU_C M
  ib         I  B GROUND SMU_B M
  S          S  B C GROUND NWA M
  S_deemb    S B C GROUND n/a B
 ICCAP_VALUES
  TNOM "27"
  TEMP "27"
  TECHNO "SG13G2"
  LOT "EDJ802"
  WAFER "02"
  CHIP "(3.3)"
  MODULE "S439S"
  DEV_NAME "D00"
  DEV_GEOM_L "5.0"
  DEV_GEOM_W "0.07"
  NUM_OF_TRANS_RF "1"
  REMARKS "Nx=4; Power -30/-20dBm, Slope: 0.1dB/GHz"
  TIMEDATE "Tue Jan 23 15:51:24     2018"
  OPERATOR "ggf"
END_HEADER

BEGIN_DB
 ICCAP_VAR vc         1.74           
 ICCAP_VAR ve         0              
 ICCAP_VAR vs         0              
 ICCAP_VAR vb         0.74           

 #freq            ic              ib              R:S(1,1)        I:S(1,1)        R:S(1,2)        I:S(1,2)        R:S(2,1)        I:S(2,1)        R:S(2,2)        I:S(2,2)        R:S_deemb(1,1)  I:S_deemb(1,1)  R:S_deemb(1,2)  I:S_deemb(1,2)  R:S_deemb(2,1)  I:S_deemb(2,1)  R:S_deemb(2,2)  I:S_deemb(2,2) 
  1e+008          0.00030202      4.4252e-007     0.997578        -0.00707414     7.18399e-005    0.00146987      -1.22535        -0.0068344      1.00094         -0.00353914     0.998471        -0.00319029     4.9276e-005     0.000812891     -0.725888       -0.00669827     1.00048         -0.0010162     
  2e+008          0.00030202      4.4252e-007     0.99843         -0.0164399      5.29042e-005    0.0030113       -1.19087        0.00642519      1.00095         -0.00844555     0.999022        -0.00752263     4.20104e-005    0.00170147      -0.706068       -0.00129519     1.00001         -0.0024026     
  3e+008          0.00030202      4.4252e-007     0.998238        -0.0254698      0.000105482     0.00449407      -1.19595        0.017305        1.00056         -0.0118424      0.998975        -0.0116356      3.06092e-007    0.00256676      -0.709039       0.00288015      1.00019         -0.00455532    
  4e+008          0.00030202      4.4252e-007     0.998474        -0.033987       0.000173469     0.00596531      -1.17966        0.0277082       1.0005          -0.0157218      0.998946        -0.0155751      1.81882e-005    0.00343628      -0.699431       0.00688674      1.00026         -0.00601788    
  5e+008          0.00030202      4.4252e-007     0.997673        -0.0429192      0.00025477      0.00743916      -1.19331        0.0375931       1.00041         -0.0197283      0.998818        -0.0197472      6.9714e-005     0.004281        -0.707743       0.0104249       1.00021         -0.00763455    
  6e+008          0.00030202      4.4252e-007     0.997289        -0.0517136      0.000355471     0.00891004      -1.19296        0.0472454       1.00012         -0.0235582      0.998774        -0.0239398      9.49612e-005    0.00514553      -0.707458       0.0133165       1.00007         -0.00927732    
  7e+008          0.00030202      4.4252e-007     0.996751        -0.0603978      0.000487405     0.0103843       -1.19258        0.0592132       0.999835        -0.0276832      0.998512        -0.0278347      0.000144434     0.00600475      -0.707997       0.0183176       1.00001         -0.0107435     
  8e+008          0.00030202      4.4252e-007     0.995818        -0.0693525      0.00062359      0.0118899       -1.19597        0.0699493       0.999535        -0.0313341      0.998183        -0.0317759      0.000193851     0.00686028      -0.710205       0.0221487       0.999996        -0.012209      
  9e+008          0.00030202      4.4252e-007     0.99511         -0.0775675      0.000785081     0.0133588       -1.18563        0.0820206       0.999499        -0.0352252      0.998107        -0.0357257      0.000228025     0.00771229      -0.704765       0.026922        0.9999          -0.0136613     
  1e+009          0.00030202      4.4252e-007     0.994008        -0.0865195      0.000962104     0.0147916       -1.1961         0.0944728       0.998995        -0.039083       0.997696        -0.0397385      0.000250772     0.00855334      -0.710944       0.0318887       0.999768        -0.0152961     
  2e+009          0.00030202      4.4252e-007     0.981239        -0.170119       0.00359597      0.0292744       -1.15438        0.186137        0.994696        -0.077232       0.994608        -0.0785611      0.000956115     0.0170555       -0.692928       0.064991        0.998681        -0.030114      
  3e+009          0.00030202      4.4252e-007     0.960064        -0.253534       0.00786198      0.0432012       -1.14829        0.272803        0.988179        -0.114594       0.989748        -0.118065       0.00215826      0.0254763       -0.699323       0.093552        0.997177        -0.0446569     
  4e+009          0.00030202      4.4252e-007     0.931599        -0.331754       0.0136266       0.0563492       -1.11883        0.364421        0.978957        -0.150139       0.982838        -0.155611       0.00371624      0.0337163       -0.696551       0.128635        0.995272        -0.0589922     
  5e+009          0.00030202      4.4252e-007     0.897031        -0.404796       0.0207793       0.068712        -1.06546        0.439942        0.967977        -0.185633       0.974196        -0.193965       0.00577028      0.0419623       -0.682326       0.159456        0.992964        -0.0733116     
  6e+009          0.00030202      4.4252e-007     0.856184        -0.473667       0.0290528       0.0798193       -1.01465        0.512874        0.955062        -0.219434       0.963687        -0.230783       0.00814811      0.0498943       -0.670258       0.188791        0.989991        -0.0874922     
  7e+009          0.00030202      4.4252e-007     0.810215        -0.536505       0.0384835       0.0900578       -0.960156       0.578857        0.941233        -0.251816       0.951453        -0.267496       0.0109675       0.0578564       -0.661684       0.219875        0.987201        -0.10131       
  8e+009          0.00030202      4.4252e-007     0.760834        -0.593561       0.0485947       0.0987924       -0.906354       0.638838        0.92489         -0.282216       0.937788        -0.302881       0.014246        0.0654307       -0.651134       0.248157        0.983327        -0.11499       
  9e+009          0.00030202      4.4252e-007     0.709347        -0.645364       0.0594373       0.1063          -0.843509       0.689159        0.907666        -0.311325       0.923035        -0.336516       0.0177895       0.0728665       -0.636641       0.274737        0.97933         -0.128587      
  1e+010          0.00030202      4.4252e-007     0.654006        -0.690863       0.070547        0.112321        -0.776885       0.735784        0.889187        -0.338452       0.906409        -0.370219       0.0216556       0.079911        -0.619117       0.30271         0.974741        -0.141932      
  1.1e+010        0.00030202      4.4252e-007     0.598318        -0.729563       0.0819846       0.117408        -0.719077       0.770136        0.870528        -0.363789       0.888552        -0.402643       0.0258532       0.086878        -0.606948       0.325826        0.970153        -0.1547        
  1.2e+010        0.00030202      4.4252e-007     0.540557        -0.763187       0.0937622       0.121159        -0.654281       0.805779        0.85086         -0.387723       0.869216        -0.43386        0.0304666       0.0935511       -0.593039       0.354496        0.965037        -0.16749       
  1.3e+010        0.00030202      4.4252e-007     0.483401        -0.790817       0.105376        0.123599        -0.592275       0.833218        0.83071         -0.409433       0.848442        -0.464159       0.0351363       0.0999988       -0.580708       0.380823        0.959672        -0.179572      
  1.4e+010        0.00030202      4.4252e-007     0.428118        -0.812579       0.116987        0.124629        -0.524442       0.844748        0.810526        -0.430435       0.827174        -0.491817       0.0405825       0.106048        -0.558725       0.400956        0.954213        -0.192183      
  1.5e+010        0.00030202      4.4252e-007     0.375035        -0.830425       0.128015        0.124641        -0.456434       0.852502        0.790654        -0.44945        0.805877        -0.517987       0.0460863       0.111523        -0.530868       0.419197        0.948231        -0.20394       
  1.6e+010        0.00030202      4.4252e-007     0.321194        -0.843259       0.138695        0.123812        -0.39988        0.861242        0.770228        -0.466688       0.782608        -0.543611       0.0516154       0.116812        -0.514201       0.439077        0.941797        -0.215288      
  1.7e+010        0.00030202      4.4252e-007     0.270747        -0.85421        0.148902        0.122073        -0.339231       0.859865        0.749835        -0.483203       0.759553        -0.567929       0.0575505       0.121713        -0.489397       0.455201        0.935367        -0.226799      
  1.8e+010        0.00030202      4.4252e-007     0.221614        -0.860189       0.158465        0.119556        -0.286837       0.861658        0.729927        -0.498882       0.73547         -0.590317       0.06332         0.126213        -0.471263       0.47321         0.928983        -0.237833      
  1.9e+010        0.00030202      4.4252e-007     0.171934        -0.864241       0.167706        0.116324        -0.233707       0.86147         0.710927        -0.513416       0.710381        -0.612288       0.0692205       0.130569        -0.452265       0.492733        0.922303        -0.247971      
  2e+010          0.00030202      4.4252e-007     0.128814        -0.864892       0.17597         0.112474        -0.185935       0.850155        0.690565        -0.524617       0.685915        -0.63176        0.0753348       0.134226        -0.430825       0.504376        0.914599        -0.257791      
  2.1e+010        0.00030202      4.4252e-007     0.0843451       -0.864774       0.183458        0.108276        -0.141116       0.84521         0.670037        -0.535235       0.659917        -0.651099       0.0815966       0.137747        -0.412499       0.523624        0.907031        -0.268104      
  2.2e+010        0.00030202      4.4252e-007     0.0451049       -0.861847       0.190535        0.104225        -0.094345       0.829189        0.651176        -0.54776        0.63543         -0.667589       0.0879504       0.141161        -0.386678       0.533526        0.900671        -0.278591      
  2.3e+010        0.00030202      4.4252e-007     0.00560842      -0.857352       0.196995        0.0994088       -0.053656       0.815764        0.636642        -0.559855       0.609922        -0.683349       0.0938427       0.143682        -0.364066       0.543257        0.893992        -0.286705      
  2.4e+010        0.00030202      4.4252e-007     -0.0321943      -0.853573       0.202588        0.0950549       -0.0158871      0.802362        0.625412        -0.563034       0.585294        -0.698815       0.0994433       0.145317        -0.33981        0.552575        0.886354        -0.292138      
  2.5e+010        0.00030202      4.4252e-007     -0.0696108      -0.844781       0.209402        0.0913725       0.016786        0.791006        0.617516        -0.566264       0.558968        -0.711381       0.105835        0.147314        -0.317118       0.561315        0.876694        -0.300679      
  2.6e+010        0.00030202      4.4252e-007     -0.102968       -0.838074       0.216529        0.0843398       0.0576345       0.774965        0.591078        -0.584486       0.533537        -0.724676       0.113396        0.149029        -0.29315        0.571286        0.865131        -0.310606      
  2.7e+010        0.00030202      4.4252e-007     -0.135272       -0.829833       0.219806        0.0784372       0.090608        0.758161        0.558926        -0.594071       0.507152        -0.735739       0.119185        0.151484        -0.276708       0.583516        0.859335        -0.321551      
  2.8e+010        0.00030202      4.4252e-007     -0.166375       -0.819502       0.224911        0.072091        0.12174         0.736665        0.539864        -0.610003       0.481903        -0.747338       0.125759        0.154105        -0.25726        0.590636        0.854767        -0.332475      
  2.9e+010        0.00030202      4.4252e-007     -0.196679       -0.809033       0.226907        0.0664347       0.145854        0.717139        0.527942        -0.616169       0.455981        -0.756451       0.130688        0.154903        -0.239152       0.594604        0.8494          -0.337418      
  3e+010          0.00030202      4.4252e-007     -0.224131       -0.797789       0.229713        0.0623282       0.170363        0.69628         0.519202        -0.620137       0.43199         -0.76345        0.136106        0.155523        -0.215496       0.595134        0.842356        -0.343218      
  3.1e+010        0.00030202      4.4252e-007     -0.249216       -0.784324       0.234367        0.0564051       0.196038        0.678198        0.503491        -0.624895       0.408184        -0.769129       0.142174        0.155661        -0.192385       0.598992        0.832903        -0.350473      
  3.2e+010        0.00030202      4.4252e-007     -0.273655       -0.773501       0.237179        0.050908        0.219103        0.656222        0.484708        -0.633063       0.384764        -0.776104       0.148517        0.156485        -0.170181       0.602022        0.824432        -0.358846      
  3.3e+010        0.00030202      4.4252e-007     -0.297656       -0.761775       0.239348        0.044549        0.237793        0.637364        0.470303        -0.641214       0.361371        -0.782029       0.154159        0.156653        -0.153685       0.604302        0.81778         -0.366025      
  3.4e+010        0.00030202      4.4252e-007     -0.321105       -0.74735        0.241148        0.0392809       0.258452        0.617966        0.457264        -0.647341       0.335806        -0.785977       0.159619        0.156366        -0.132353       0.607334        0.81052         -0.371435      
  3.5e+010        0.00030202      4.4252e-007     -0.340572       -0.735041       0.243828        0.0336968       0.276756        0.598544        0.44231         -0.65237        0.314208        -0.78895        0.164984        0.155776        -0.110865       0.607028        0.801693        -0.377907      
  3.6e+010        0.00030202      4.4252e-007     -0.358762       -0.721754       0.244393        0.0271726       0.29181         0.579011        0.424671        -0.658329       0.292981        -0.790619       0.170415        0.155027        -0.0932042      0.606773        0.79313         -0.383434      
  3.7e+010        0.00030202      4.4252e-007     -0.375975       -0.709899       0.24529         0.0229582       0.304551        0.559513        0.411531        -0.665808       0.272317        -0.792752       0.17474         0.154771        -0.0765527      0.60326         0.786936        -0.389671      
  3.8e+010        0.00030202      4.4252e-007     -0.394247       -0.700752       0.246083        0.0179636       0.319794        0.54199         0.398461        -0.670624       0.251517        -0.797678       0.179711        0.154431        -0.0577697      0.606265        0.779577        -0.395152      
  3.9e+010        0.00030202      4.4252e-007     -0.410544       -0.687297       0.246658        0.0131498       0.332273        0.522771        0.383051        -0.675577       0.230421        -0.798119       0.184339        0.153714        -0.0392297      0.604319        0.7719          -0.39884       
  4e+010          0.00030202      4.4252e-007     -0.428266       -0.67464        0.246807        0.00719353      0.342526        0.505029        0.367898        -0.680131       0.209553        -0.799742       0.189537        0.152758        -0.0245728      0.601286        0.763738        -0.405448      
  4.1e+010        0.00030202      4.4252e-007     -0.442867       -0.661649       0.247769        0.00269342      0.353968        0.489178        0.353611        -0.685966       0.18811         -0.800165       0.19405         0.151958        -0.00803184     0.601874        0.757411        -0.410686      
  4.2e+010        0.00030202      4.4252e-007     -0.457938       -0.651413       0.247283        -0.00242629     0.365363        0.470016        0.340277        -0.689443       0.168458        -0.799813       0.19936         0.150982        0.00982803      0.599614        0.750358        -0.415029      
  4.3e+010        0.00030202      4.4252e-007     -0.466081       -0.643392       0.247572        -0.00482656     0.370545        0.452829        0.325461        -0.693766       0.153766        -0.799844       0.203368        0.150094        0.0245498       0.592823        0.742799        -0.420816      
  4.4e+010        0.00030202      4.4252e-007     -0.484986       -0.626947       0.248519        -0.0114386      0.381114        0.438804        0.310098        -0.697455       0.130494        -0.798209       0.208692        0.148499        0.0421266       0.593605        0.734392        -0.425517      
  4.5e+010        0.00030202      4.4252e-007     -0.49833        -0.619092       0.246933        -0.0157445      0.388005        0.42153         0.297037        -0.70195        0.112234        -0.797318       0.213202        0.1469          0.0561763       0.590191        0.727479        -0.429922      
  4.6e+010        0.00030202      4.4252e-007     -0.509023       -0.60724        0.247362        -0.0189735      0.395922        0.405388        0.283665        -0.704744       0.0962622       -0.796081       0.217038        0.145301        0.0696134       0.585032        0.720264        -0.433674      
  4.7e+010        0.00030202      4.4252e-007     -0.520108       -0.59975        0.247386        -0.0226798      0.402145        0.390055        0.268969        -0.70724        0.0798281       -0.796724       0.22136         0.14435         0.0840168       0.581993        0.712146        -0.438086      
  4.8e+010        0.00030202      4.4252e-007     -0.534379       -0.584174       0.247966        -0.0284888      0.409744        0.374409        0.254793        -0.712159       0.0598571       -0.792378       0.226376        0.14242         0.101642        0.578502        0.704571        -0.442605      
