! VERSION = 6.00
!Data measured by ggf on Tue Jan 23 16:08:50 2018 using model file NPN_MEAS_SCALE
BEGIN_HEADER
 ICCAP_INPUTS
  ve         V  E GROUND SMU_E 0.2 CON        0
  vc         V  C GROUND SMU_C 0.2 SYNC       1 -0.5 vb
  vs         V  S GROUND SMU_S 0.015 CON        0
  vb         V  B GROUND SMU_B 0.015 LIN        1    -1         1          101  0.02      
 ICCAP_OUTPUTS
  ib         I  B GROUND SMU_B M
  ic         I  C GROUND SMU_C M
 ICCAP_VALUES
  TNOM "27"
  TEMP "27"
  TECHNO "SG13G2"
  LOT "EDJ802"
  WAFER "02"
  CHIP "(3.3)"
  MODULE "S439S"
  DEV_NAME "D00"
  DEV_GEOM_L "5.0"
  DEV_GEOM_W "0.07"
  NUM_OF_TRANS_RF "1"
  REMARKS "Nx=4; Power -30/-20dBm, Slope: 0.1dB/GHz"
  TIMEDATE "Tue Jan 23 15:51:24     2018"
  OPERATOR "ggf"
END_HEADER

BEGIN_DB
 ICCAP_VAR ve         0              
 ICCAP_VAR vs         0              

 #vb              vc              ib              ic             
  -1              -1.5            -0.004774       -0.051764      
  -0.98           -1.48           -0.0045446      -0.049146      
  -0.96           -1.46           -0.0043168      -0.046566      
  -0.94           -1.44           -0.0040928      -0.044044      
  -0.92           -1.42           -0.0038728      -0.041598      
  -0.9            -1.4            -0.0036578      -0.03921       
  -0.88           -1.38           -0.0034462      -0.036884      
  -0.86           -1.36           -0.003239       -0.034632      
  -0.84           -1.34           -0.0030376      -0.032448      
  -0.82           -1.32           -0.002841       -0.03034       
  -0.8            -1.3            -0.0026492      -0.028296      
  -0.78           -1.28           -0.0024628      -0.026328      
  -0.76           -1.26           -0.0022806      -0.024416      
  -0.74           -1.24           -0.0021042      -0.022582      
  -0.72           -1.22           -0.0019346      -0.020824      
  -0.7            -1.2            -0.001771       -0.019142      
  -0.68           -1.18           -0.0016134      -0.017528      
  -0.66           -1.16           -0.0014622      -0.015988      
  -0.64           -1.14           -0.0013168      -0.01452       
  -0.62           -1.12           -0.0011778      -0.01312       
  -0.6            -1.1            -0.0010462      -0.0118        
  -0.58           -1.08           -0.0009215      -0.01055       
  -0.56           -1.06           -0.0008046      -0.0093762     
  -0.54           -1.04           -0.00069468     -0.008273      
  -0.52           -1.02           -0.00059284     -0.0072466     
  -0.5            -1              -0.00049896     -0.0062936     
  -0.48           -0.98           -0.0004127      -0.0054096     
  -0.46           -0.96           -0.00033556     -0.0046062     
  -0.44           -0.94           -0.00026682     -0.003874      
  -0.42           -0.92           -0.00020716     -0.0032198     
  -0.4            -0.9            -0.00015566     -0.0026318     
  -0.38           -0.88           -0.00011302     -0.0021176     
  -0.36           -0.86           -7.8854e-005    -0.001674      
  -0.34           -0.84           -5.2554e-005    -0.0012988     
  -0.32           -0.82           -3.3304e-005    -0.0009866     
  -0.3            -0.8            -2.0098e-005    -0.00073614    
  -0.28           -0.78           -1.1592e-005    -0.00053968    
  -0.26           -0.76           -6.4348e-006    -0.00038968    
  -0.24           -0.74           -3.4804e-006    -0.00027828    
  -0.22           -0.72           -1.8448e-006    -0.00019674    
  -0.2            -0.7            -9.6174e-007    -0.000138      
  -0.18           -0.68           -4.9026e-007    -9.5852e-005   
  -0.16           -0.66           -2.4092e-007    -6.5916e-005   
  -0.14           -0.64           -1.0894e-007    -4.4634e-005   
  -0.12           -0.62           -4.0098e-008    -2.9846e-005   
  -0.1            -0.6            -4.2608e-009    -1.9644e-005   
  -0.08           -0.58           1.4164e-008     -1.2758e-005   
  -0.06           -0.56           2.3742e-008     -8.1562e-006   
  -0.04           -0.54           2.8734e-008     -5.1478e-006   
  -0.02           -0.52           3.1282e-008     -3.192e-006    
  0               -0.5            3.2746e-008     -1.9562e-006   
  0.02            -0.48           3.339e-008      -1.1946e-006   
  0.04            -0.46           3.3794e-008     -7.4202e-007   
  0.06            -0.44           3.406e-008      -4.8476e-007   
  0.08            -0.42           3.4072e-008     -3.4406e-007   
  0.1             -0.4            3.4214e-008     -2.7204e-007   
  0.12            -0.38           3.4188e-008     -2.3546e-007   
  0.14            -0.36           3.4158e-008     -2.1666e-007   
  0.16            -0.34           3.4124e-008     -2.0756e-007   
  0.18            -0.32           3.4178e-008     -2.0282e-007   
  0.2             -0.3            3.4148e-008     -1.9926e-007   
  0.22            -0.28           3.4072e-008     -1.9676e-007   
  0.24            -0.26           3.4144e-008     -1.9594e-007   
  0.26            -0.24           3.411e-008      -1.9476e-007   
  0.28            -0.22           3.4174e-008     -1.9406e-007   
  0.3             -0.2            3.4118e-008     -1.9264e-007   
  0.32            -0.18           3.4124e-008     -1.9156e-007   
  0.34            -0.16           3.404e-008      -1.8986e-007   
  0.36            -0.14           3.4048e-008     -1.8868e-007   
  0.38            -0.12           3.4192e-008     -1.8814e-007   
  0.4             -0.1            3.4082e-008     -1.8598e-007   
  0.42            -0.08           3.4154e-008     -1.8486e-007   
  0.44            -0.06           3.4198e-008     -1.8176e-007   
  0.46            -0.04           3.4252e-008     -1.7746e-007   
  0.48            -0.02           3.4142e-008     -1.6748e-007   
  0.5             0               3.418e-008      -1.4942e-007   
  0.52            0.02            3.425e-008      -1.1104e-007   
  0.54            0.04            3.4458e-008     -3.1242e-008   
  0.56            0.06            3.4748e-008     1.4142e-007    
  0.58            0.08            3.5462e-008     5.088e-007     
  0.6             0.1             3.6864e-008     1.2932e-006    
  0.62            0.12            3.9892e-008     2.9874e-006    
  0.64            0.14            4.623e-008      6.6018e-006    
  0.66            0.16            5.9416e-008     1.4302e-005    
  0.68            0.18            8.7622e-008     3.0842e-005    
  0.7             0.2             1.464e-007      6.5774e-005    
  0.72            0.22            2.7054e-007     0.0001398      
  0.74            0.24            5.2798e-007     0.00029412     
  0.76            0.26            1.05814e-006    0.00060962     
  0.78            0.28            2.1496e-006     0.0012374      
  0.8             0.3             4.4872e-006     0.0023958      
  0.82            0.32            1.2118e-005     0.0041144      
  0.84            0.34            3.7862e-005     0.0055874      
  0.86            0.36            8.8762e-005     0.007106       
  0.88            0.38            0.00017718      0.0090346      
  0.9             0.4             0.0003204       0.011486       
  0.92            0.42            0.00054408      0.01455        
  0.94            0.44            0.00087318      0.01818        
  0.96            0.46            0.0013396       0.02235        
  0.98            0.48            0.001969        0.026862       
  1               0.5             0.0028088       0.031532       
END_DB

