! VERSION = 6.00
!Data measured by ggf on Tue Jan 23 16:08:50 2018 using model file NPN_MEAS_SCALE
BEGIN_HEADER
 ICCAP_INPUTS
  vc         V  C GROUND SMU_C 0.2 SYNC       1 0 vb
  ve         V  E GROUND SMU_E 0.2 CON        0
  vs         V  S GROUND SMU_S 0 CON        0
  freq       F  LIST       1 74 100000000 200000000 300000000 400000000 500000000 600000000 700000000 800000000 900000000 1000000000 2000000000 3000000000 4000000000 5000000000 6000000000 7000000000 8000000000 9000000000 10000000000 11000000000 12000000000 13000000000 14000000000 15000000000 16000000000 17000000000 18000000000 19000000000 20000000000 21000000000 22000000000 23000000000 24000000000 25000000000 26000000000 27000000000 28000000000 29000000000 30000000000 31000000000 32000000000 33000000000 34000000000 35000000000 36000000000 37000000000 38000000000 39000000000 40000000000 41000000000 42000000000 43000000000 44000000000 45000000000 46000000000 47000000000 48000000000 49000000000 50000000000 51000000000 52000000000 53000000000 54000000000 55000000000 56000000000 57000000000 58000000000 59000000000 60000000000 61000000000 62000000000 63000000000 64000000000 65000000000
  vb         V  B GROUND SMU_B 0.015 LIN        2    0.74       0.87       27   0.005     
 ICCAP_OUTPUTS
  ic         I  C GROUND SMU_C M
  ib         I  B GROUND SMU_B M
  S          S  B C GROUND NWA M
  S_deemb    S B C GROUND n/a B
 ICCAP_VALUES
  TNOM "27"
  TEMP "27"
  TECHNO "SG13G2"
  LOT "EDJ802"
  WAFER "02"
  CHIP "(3.3)"
  MODULE "S439S"
  DEV_NAME "D00"
  DEV_GEOM_L "5.0"
  DEV_GEOM_W "0.07"
  NUM_OF_TRANS_RF "1"
  REMARKS "Nx=4; Power -30/-20dBm, Slope: 0.1dB/GHz"
  TIMEDATE "Tue Jan 23 15:51:24     2018"
  OPERATOR "ggf"
END_HEADER

BEGIN_DB
 ICCAP_VAR vc         0.74           
 ICCAP_VAR ve         0              
 ICCAP_VAR vs         0              
 ICCAP_VAR vb         0.74           

 #freq            ic              ib              R:S(1,1)        I:S(1,1)        R:S(1,2)        I:S(1,2)        R:S(2,1)        I:S(2,1)        R:S(2,2)        I:S(2,2)        R:S_deemb(1,1)  I:S_deemb(1,1)  R:S_deemb(1,2)  I:S_deemb(1,2)  R:S_deemb(2,1)  I:S_deemb(2,1)  R:S_deemb(2,2)  I:S_deemb(2,2) 
  1e+008          0.00029722      4.6016e-007     0.997379        -0.00713874     3.19349e-005    0.0015857       -1.20953        -0.00755924     1.00082         -0.00377625     0.99738         -0.00665529     3.57215e-005    0.00148333      -1.21051        -0.00871572     1.0007          -0.00243546    
  2e+008          0.00029722      4.6016e-007     0.998344        -0.0170611      9.64237e-005    0.00310001      -1.17652        0.00678019      1.00063         -0.00825069     0.998152        -0.0151398      7.44643e-005    0.00298125      -1.17743        0.00365717      1.00031         -0.00529515    
  3e+008          0.00029722      4.6016e-007     0.998116        -0.0258695      0.000135662     0.00473123      -1.18132        0.0176647       1.00053         -0.0124223      0.998043        -0.0227707      6.37833e-005    0.00453846      -1.18234        0.0134533       1.00035         -0.00886501    
  4e+008          0.00029722      4.6016e-007     0.998185        -0.0341514      0.000206997     0.00631295      -1.16529        0.0277519       1.00037         -0.016475       0.997682        -0.0300134      0.000155865     0.00608929      -1.16608        0.0221247       1.00039         -0.0117176     
  5e+008          0.00029722      4.6016e-007     0.99764         -0.0437727      0.000278265     0.00788186      -1.1786         0.0385678       1.00029         -0.020615       0.997193        -0.0378297      0.000227552     0.00758843      -1.17949        0.0311049       1.00025         -0.0147498     
  6e+008          0.00029722      4.6016e-007     0.997228        -0.0528964      0.000402381     0.00943211      -1.17804        0.0486086       0.999954        -0.0247156      0.997134        -0.0463572      0.000323413     0.0090745       -1.17912        0.0399443       0.999863        -0.0177535     
  7e+008          0.00029722      4.6016e-007     0.996772        -0.0624359      0.000519131     0.0110044       -1.17817        0.0619722       0.999705        -0.0289393      0.99671         -0.0547374      0.000396373     0.0105857       -1.17945        0.0518588       0.999849        -0.0207243     
  8e+008          0.00029722      4.6016e-007     0.995767        -0.0708325      0.00067207      0.0125602       -1.18124        0.0718814       0.999265        -0.0328816      0.995815        -0.0616894      0.000560318     0.0120815       -1.18274        0.0601033       0.999435        -0.0235625     
  9e+008          0.00029722      4.6016e-007     0.994895        -0.0791924      0.00085372      0.0141466       -1.1711         0.084266        0.999195        -0.0368873      0.995267        -0.0691409      0.000682177     0.0136359       -1.17291        0.071042        0.999431        -0.026377      
  1e+009          0.00029722      4.6016e-007     0.993968        -0.0883226      0.0010208       0.0156704       -1.18111        0.0967304       0.998636        -0.0408264      0.994524        -0.0770287      0.000808347     0.0150955       -1.18316        0.0820709       0.999028        -0.0292799     
  2e+009          0.00029722      4.6016e-007     0.980207        -0.17375        0.00395121      0.0309573       -1.13897        0.190999        0.99372         -0.0805426      0.983867        -0.151515       0.00311332      0.0299336       -1.14517        0.162798        0.99551         -0.0574204     
  3e+009          0.00029722      4.6016e-007     0.95776         -0.258476       0.00859726      0.0456779       -1.13026        0.279579        0.9863          -0.119162       0.96674         -0.225592       0.00675691      0.0442972       -1.1434         0.237622        0.990541        -0.0848385     
  4e+009          0.00029722      4.6016e-007     0.927779        -0.337772       0.0148491       0.0594933       -1.09842        0.372091        0.976399        -0.155934       0.943544        -0.29504        0.0116727       0.0580531       -1.12113        0.318135        0.983959        -0.110986      
  5e+009          0.00029722      4.6016e-007     0.89146         -0.411329       0.0225778       0.0723586       -1.04246        0.447715        0.964442        -0.19232        0.914926        -0.362137       0.0178422       0.0711911       -1.07555        0.38574         0.976021        -0.13713       
  6e+009          0.00029722      4.6016e-007     0.848907        -0.480094       0.0314784       0.0838868       -0.989286       0.520106        0.950442        -0.226815       0.881632        -0.424743       0.024971        0.0833511       -1.03468        0.450839        0.966565        -0.16179       
  7e+009          0.00029722      4.6016e-007     0.801305        -0.543149       0.0416002       0.0944592       -0.932657       0.585617        0.935668        -0.259859       0.844119        -0.483441       0.0332098       0.0949305       -0.991504       0.511499        0.956979        -0.185597      
  8e+009          0.00029722      4.6016e-007     0.750687        -0.598922       0.0523432       0.103306        -0.87696        0.64375         0.918214        -0.290619       0.803334        -0.536936       0.0420952       0.105136        -0.949332       0.566805        0.945065        -0.20804       
  9e+009          0.00029722      4.6016e-007     0.698043        -0.64967        0.063827        0.110954        -0.812509       0.692275        0.899976        -0.320037       0.761037        -0.586022       0.0516547       0.114521        -0.898381       0.614639        0.93289         -0.229483      
  1e+010          0.00029722      4.6016e-007     0.641953        -0.693635       0.0755793       0.116998        -0.745507       0.736492        0.880557        -0.347385       0.715089        -0.630215       0.0616151       0.122656        -0.845383       0.660684        0.919739        -0.249681      
  1.1e+010        0.00029722      4.6016e-007     0.58503         -0.732416       0.0876071       0.121981        -0.685795       0.770176        0.860859        -0.372817       0.668045        -0.670646       0.0720085       0.130027        -0.798333       0.696862        0.906261        -0.268375      
  1.2e+010        0.00029722      4.6016e-007     0.527228        -0.764266       0.100006        0.125625        -0.620485       0.803046        0.840333        -0.396707       0.619541        -0.705798       0.0829277       0.13638         -0.746004       0.735134        0.89236         -0.286325      
  1.3e+010        0.00029722      4.6016e-007     0.469895        -0.790791       0.112106        0.127906        -0.558092       0.828126        0.819207        -0.418332       0.570648        -0.736561       0.0938147       0.14178         -0.695732       0.766709        0.878205        -0.302824      
  1.4e+010        0.00029722      4.6016e-007     0.414404        -0.811527       0.124202        0.128694        -0.490918       0.838136        0.798449        -0.43912        0.522683        -0.762451       0.105122        0.145821        -0.637812       0.785416        0.863946        -0.318785      
  1.5e+010        0.00029722      4.6016e-007     0.361291        -0.828373       0.135632        0.128422        -0.42326        0.844473        0.777856        -0.457924       0.475789        -0.784501       0.115998        0.14883         -0.577872       0.801315        0.849507        -0.333108      
  1.6e+010        0.00029722      4.6016e-007     0.30781         -0.84008        0.14669         0.127274        -0.36716        0.851399        0.756609        -0.474955       0.427794        -0.802386       0.126874        0.150986        -0.529079       0.817443        0.834245        -0.346205      
  1.7e+010        0.00029722      4.6016e-007     0.257769        -0.850141       0.157225        0.125268        -0.307464       0.848638        0.735651        -0.491177       0.382442        -0.818612       0.137453        0.152457        -0.474761       0.825649        0.820144        -0.359063      
  1.8e+010        0.00029722      4.6016e-007     0.209088        -0.855299       0.167122        0.122432        -0.255727       0.848812        0.715174        -0.506581       0.337617        -0.829994       0.147733        0.153089        -0.428629       0.83597         0.805954        -0.37091       
  1.9e+010        0.00029722      4.6016e-007     0.159673        -0.858465       0.176637        0.118806        -0.203324       0.846915        0.695563        -0.520702       0.291629        -0.839831       0.157873        0.15288         -0.381002       0.845181        0.791889        -0.381135      
  2e+010          0.00029722      4.6016e-007     0.117268        -0.85861        0.185045        0.114596        -0.156578       0.834634        0.674717        -0.531624       0.251803        -0.845835       0.167168        0.151715        -0.335469       0.842821        0.776614        -0.390339      
  2.1e+010        0.00029722      4.6016e-007     0.0731014       -0.857743       0.192755        0.110041        -0.112288       0.828526        0.6538          -0.541898       0.209287        -0.851166       0.17631         0.150184        -0.292831       0.848214        0.762549        -0.399892      
  2.2e+010        0.00029722      4.6016e-007     0.0344435       -0.854522       0.199967        0.105668        -0.0669983      0.811566        0.634655        -0.554125       0.172082        -0.853387       0.184818        0.149003        -0.247757       0.842581        0.750718        -0.409235      
  2.3e+010        0.00029722      4.6016e-007     -0.00433671     -0.849499       0.206588        0.100611        -0.0272848      0.797465        0.61973         -0.565759       0.134511        -0.854553       0.192642        0.14687         -0.208236       0.83739         0.738874        -0.415666      
  2.4e+010        0.00029722      4.6016e-007     -0.0416574      -0.845351       0.212221        0.095978        0.00955777      0.783272        0.608245        -0.568639       0.0989112       -0.855465       0.199468        0.143851        -0.168167       0.830585        0.726524        -0.41943       
  2.5e+010        0.00029722      4.6016e-007     -0.0783444      -0.835994       0.219149        0.0919654       0.0413706       0.771031        0.599478        -0.572313       0.0646595       -0.851114       0.20677         0.140278        -0.130736       0.820673        0.71007         -0.427201      
  2.6e+010        0.00029722      4.6016e-007     -0.111206       -0.829287       0.22637         0.0844996       0.0812453       0.754893        0.572878        -0.58937        0.0313369       -0.849318       0.214969        0.136513        -0.0926687      0.81297         0.693624        -0.432514      
  2.7e+010        0.00029722      4.6016e-007     -0.142918       -0.820442       0.229653        0.0783685       0.112901        0.736565        0.540555        -0.598499       -0.000697189    -0.844552       0.221312        0.134243        -0.0618994      0.809835        0.685122        -0.442874      
  2.8e+010        0.00029722      4.6016e-007     -0.173449       -0.810551       0.234819        0.0715213       0.14289         0.715371        0.52142         -0.61394        -0.0320672      -0.840542       0.229363        0.131646        -0.0321108      0.80157         0.677033        -0.452306      
  2.9e+010        0.00029722      4.6016e-007     -0.202837       -0.799765       0.2367          0.0656618       0.166409        0.695298        0.509434        -0.619748       -0.0620912      -0.835473       0.233481        0.127753        -0.00528323     0.788973        0.668762        -0.45602       
  3e+010          0.00029722      4.6016e-007     -0.23007        -0.788497       0.239499        0.0614429       0.189442        0.674259        0.50039         -0.623648       -0.0885421      -0.828697       0.237512        0.124608        0.0232797       0.772466        0.65948         -0.45995       
  3.1e+010        0.00029722      4.6016e-007     -0.254633       -0.774873       0.244115        0.0552672       0.214119        0.656209        0.484131        -0.628652       -0.113829       -0.819464       0.244113        0.120388        0.0513017       0.760987        0.647273        -0.466155      
  3.2e+010        0.00029722      4.6016e-007     -0.279134       -0.764171       0.246999        0.0492851       0.236336        0.634491        0.465984        -0.635273       -0.139611       -0.812694       0.249596        0.116441        0.0788963       0.74772         0.636462        -0.472122      
  3.3e+010        0.00029722      4.6016e-007     -0.302246       -0.752453       0.249093        0.042894        0.254433        0.615375        0.450607        -0.64407        -0.163379       -0.805415       0.254007        0.111994        0.100368        0.735024        0.626915        -0.478317      
  3.4e+010        0.00029722      4.6016e-007     -0.325405       -0.738202       0.250813        0.0373782       0.274115        0.595651        0.437838        -0.649477       -0.187794       -0.795783       0.257683        0.108136        0.124749        0.721234        0.618028        -0.482445      
  3.5e+010        0.00029722      4.6016e-007     -0.343835       -0.725729       0.253367        0.0314142       0.291102        0.576008        0.422661        -0.654191       -0.207164       -0.7858         0.262394        0.103441        0.146774        0.706129        0.607183        -0.487517      
  3.6e+010        0.00029722      4.6016e-007     -0.361837       -0.712658       0.253901        0.0246429       0.305271        0.556781        0.405376        -0.659257       -0.225424       -0.775235       0.265563        0.0978447       0.165863        0.692341        0.597223        -0.491445      
  3.7e+010        0.00029722      4.6016e-007     -0.378762       -0.701068       0.254877        0.0202702       0.318187        0.537211        0.391545        -0.666987       -0.243155       -0.767145       0.268335        0.0949447       0.182935        0.676676        0.588825        -0.497775      
  3.8e+010        0.00029722      4.6016e-007     -0.396386       -0.69258        0.255425        0.0150459       0.332529        0.519607        0.37846         -0.671439       -0.261541       -0.761366       0.271136        0.0909173       0.202219        0.664482        0.580371        -0.501746      
  3.9e+010        0.00029722      4.6016e-007     -0.41253        -0.67881        0.255902        0.0102068       0.343926        0.500581        0.363703        -0.675531       -0.278463       -0.750628       0.273797        0.0873156       0.218173        0.649877        0.571734        -0.504865      
  4e+010          0.00029722      4.6016e-007     -0.430589       -0.665985       0.25607         0.00395428      0.353883        0.483026        0.347676        -0.680456       -0.297094       -0.741283       0.276438        0.0817309       0.232673        0.635506        0.561208        -0.509803      
  4.1e+010        0.00029722      4.6016e-007     -0.444296       -0.654056       0.257179        -0.000719318    0.36412         0.467082        0.333264        -0.68582        -0.311963       -0.732433       0.279383        0.0784987       0.246278        0.623704        0.553849        -0.514415      
  4.2e+010        0.00029722      4.6016e-007     -0.458955       -0.643197       0.256357        -0.00601328     0.373853        0.447906        0.319968        -0.68906        -0.326532       -0.724703       0.281094        0.0744025       0.261282        0.609995        0.547402        -0.518786      
  4.3e+010        0.00029722      4.6016e-007     -0.467215       -0.636233       0.256707        -0.0086325      0.379896        0.431348        0.30505         -0.693155       -0.336356       -0.719161       0.283772        0.0729532       0.273135        0.596197        0.536931        -0.524671      
  4.4e+010        0.00029722      4.6016e-007     -0.487018       -0.620034       0.257659        -0.01547        0.389328        0.415372        0.289872        -0.696267       -0.35686        -0.706414       0.287533        0.0663531       0.287944        0.583084        0.527115        -0.528147      
  4.5e+010        0.00029722      4.6016e-007     -0.49965        -0.612013       0.255889        -0.0200485      0.39587         0.399853        0.276942        -0.700906       -0.369106       -0.700483       0.287663        0.0621045       0.298522        0.570868        0.520561        -0.53199       
  4.6e+010        0.00029722      4.6016e-007     -0.509709       -0.599513       0.256249        -0.0234368      0.403534        0.383979        0.262899        -0.70299        -0.379503       -0.691523       0.289625        0.0599951       0.310595        0.557732        0.511413        -0.536222      
  4.7e+010        0.00029722      4.6016e-007     -0.520483       -0.593443       0.25619         -0.0271177      0.409026        0.369072        0.248078        -0.705335       -0.390577       -0.687256       0.292234        0.0570422       0.321566        0.546164        0.502161        -0.540662      
  4.8e+010        0.00029722      4.6016e-007     -0.53376        -0.576711       0.256453        -0.0332337      0.416136        0.352938        0.234019        -0.710077       -0.404556       -0.672985       0.294881        0.0513689       0.333491        0.532283        0.494723        -0.545236      
