! VERSION = 6.00
BEGIN_HEADER
 ICCAP_INPUTS
  vb         V  B GROUND SMU_B 0.01 LIN        1    -0.4       -1         31   -0.02     
  ve         V  E GROUND SMU_E 0.1 CON        0
  vc         V  C GROUND SMU_C 0.1 SYNC       1 0 vb
 ICCAP_OUTPUTS
  ib         I  B GROUND SMU_B M
  ic         I  C GROUND SMU_C M
 ICCAP_VALUES
  TNOM "27"
  TEMP "27"
  TECHNO "SG13S"
  LOT "PQA701"
  WAFER "17"
  CHIP "d0406"
  MODULE "T323_pnpMPA"
  DEV_NAME "DUT10"
  DEV_GEOM_L "."
  DEV_GEOM_W "."
  NF_EMITTER "."
  REMARKS "pnpMPA Teststructure"
  TIMEDATE "Fri Oct 21 12:47:07     2022"
END_HEADER

BEGIN_DB
 ICCAP_VAR ve         0              

 #vb                    vc                    ib                    ic                   
  -0.4                  -0.4                  4.4e-13               6.2e-11              
  -0.42                 -0.42                 -6e-13                -3.76e-11            
  -0.44                 -0.44                 -2.68e-12             4.48e-11             
  -0.46                 -0.46                 -7.22e-12             -5.12e-11            
  -0.48                 -0.48                 -1.668e-11            1.64e-11             
  -0.5                  -0.5                  -3.722e-11            6.12e-11             
  -0.52                 -0.52                 -8.14e-11             -1.084e-10           
  -0.54                 -0.54                 -1.767e-10            -1.202e-10           
  -0.56                 -0.56                 -3.8044e-10           -3.718e-10           
  -0.58                 -0.58                 -8.2018e-10           -7.854e-10           
  -0.6                  -0.6                  -1.7686e-09           -2.0112e-09          
  -0.62                 -0.62                 -3.7928e-09           -4.1162e-09          
  -0.64                 -0.64                 -8.1882e-09           -9.618e-09           
  -0.66                 -0.66                 -1.7712e-08           -2.0354e-08          
  -0.68                 -0.68                 -3.8142e-08           -4.273e-08           
  -0.7                  -0.7                  -8.2452e-08           -9.3774e-08          
  -0.72                 -0.72                 -1.7704e-07           -2.0104e-07          
  -0.74                 -0.74                 -3.7852e-07           -4.2742e-07          
  -0.76                 -0.76                 -8.0384e-07           -9.0648e-07          
  -0.78                 -0.78                 -1.6664e-06           -1.867e-06           
  -0.8                  -0.8                  -3.359e-06            -3.7014e-06          
  -0.82                 -0.82                 -6.4226e-06           -6.9132e-06          
  -0.84                 -0.84                 -1.1426e-05           -1.199e-05           
  -0.86                 -0.86                 -1.8866e-05           -1.9174e-05          
  -0.88                 -0.88                 -2.8804e-05           -2.8342e-05          
  -0.9                  -0.9                  -4.1098e-05           -3.9304e-05          
  -0.92                 -0.92                 -5.524e-05            -5.1408e-05          
  -0.94                 -0.94                 -7.1542e-05           -6.4442e-05          
  -0.96                 -0.96                 -8.9568e-05           -7.8722e-05          
  -0.98                 -0.98                 -0.000108606          -9.303e-05           
  -1                    -1                    -0.00012758           -0.000106972         
END_DB

