! VERSION = 6.00
BEGIN_HEADER
 ICCAP_INPUTS
  vb         V  B GROUND SMU_B 0.01 LIN        1    -0.4       -1         31   -0.02     
  ve         V  E GROUND SMU_E 0.1 CON        0
  vc         V  C GROUND SMU_C 0.1 LIN        2    -1         -4         4    -1        
 ICCAP_OUTPUTS
  ie         I  E GROUND SMU_E M
  ib         I  B GROUND SMU_B M
  ic         I  C GROUND SMU_C M
 ICCAP_VALUES
  TNOM "27"
  TEMP "27"
  TECHNO "SG13S"
  LOT "PQA701"
  WAFER "17"
  CHIP "d0406"
  MODULE "T323_pnpMPA"
  DEV_NAME "DUT4"
  DEV_GEOM_L "."
  DEV_GEOM_W "."
  NF_EMITTER "."
  REMARKS "pnpMPA Teststructure"
  TIMEDATE "Fri Oct 21 12:47:07     2022"
END_HEADER

BEGIN_DB
 ICCAP_VAR ve         0              
 ICCAP_VAR vc         -1             

 #vb                    ie                    ib                    ic                   
  -0.4                  6.14e-12              -1e-13                9.72e-11             
  -0.42                 1.298e-11             -3.68e-12             -1.062e-10           
  -0.44                 2.78e-11              -1.124e-11            5.32e-11             
  -0.46                 5.886e-11             -2.716e-11            5.3e-11              
  -0.48                 1.2566e-10            -6.116e-11            8.8e-12              
  -0.5                  2.7162e-10            -1.3444e-10           6.7e-11              
  -0.52                 5.8224e-10            -2.9046e-10           -1.94e-10            
  -0.54                 1.2532e-09            -6.2738e-10           -5.546e-10           
  -0.56                 2.6986e-09            -1.351e-09            -1.4156e-09          
  -0.58                 5.8552e-09            -2.906e-09            -2.9276e-09          
  -0.6                  1.2566e-08            -6.2464e-09           -6.3482e-09          
  -0.62                 2.7002e-08            -1.3368e-08           -1.3856e-08          
  -0.64                 5.8178e-08            -2.8834e-08           -2.9296e-08          
  -0.66                 1.2632e-07            -6.2552e-08           -6.3068e-08          
  -0.68                 2.7184e-07            -1.35e-07             -1.37e-07            
  -0.7                  5.8798e-07            -2.9146e-07           -2.959e-07           
  -0.72                 1.2682e-06            -6.244e-07            -6.4126e-07          
  -0.74                 2.7154e-06            -1.3462e-06           -1.3738e-06          
  -0.76                 5.8074e-06            -2.8814e-06           -2.936e-06           
  -0.78                 1.2258e-05            -6.1012e-06           -6.1504e-06          
  -0.8                  2.55e-05              -1.2772e-05           -1.271e-05           
  -0.82                 5.1422e-05            -2.603e-05            -2.534e-05           
  -0.84                 9.9126e-05            -5.0928e-05           -4.8196e-05          
  -0.86                 0.00018022            -9.4344e-05           -8.5922e-05          
  -0.88                 0.00030458            -0.00016278           -0.00014174          
  -0.9                  0.00048006            -0.00026208           -0.00021794          
  -0.92                 0.00070628            -0.00039378           -0.00031252          
  -0.94                 0.00098178            -0.00055836           -0.0004237           
  -0.96                 0.0013034             -0.00075414           -0.00054896          
  -0.98                 0.0016676             -0.00098126           -0.00068686          
  -1                    0.0020686             -0.0012354            -0.00083426          
END_DB

BEGIN_DB
 ICCAP_VAR ve         0              
 ICCAP_VAR vc         -2             

 #vb                    ie                    ib                    ic                   
  -0.4                  6.2e-12               3.4e-13               -7.78e-11            
  -0.42                 1.296e-11             -3.16e-12             4.56e-11             
  -0.44                 2.768e-11             -1.07e-11             2.7e-11              
  -0.46                 5.882e-11             -2.67e-11             -1.18e-10            
  -0.48                 1.2588e-10            -6.032e-11            8.78e-11             
  -0.5                  2.7108e-10            -1.3364e-10           -1.51e-10            
  -0.52                 5.8306e-10            -2.8926e-10           -3.59e-10            
  -0.54                 1.2548e-09            -6.2902e-10           -5.426e-10           
  -0.56                 2.699e-09             -1.3464e-09           -1.3666e-09          
  -0.58                 5.8358e-09            -2.895e-09            -2.8288e-09          
  -0.6                  1.2572e-08            -6.234e-09            -6.578e-09           
  -0.62                 2.6982e-08            -1.3342e-08           -1.2846e-08          
  -0.64                 5.8284e-08            -2.8736e-08           -2.8872e-08          
  -0.66                 1.2608e-07            -6.223e-08            -6.3448e-08          
  -0.68                 2.7232e-07            -1.3396e-07           -1.4046e-07          
  -0.7                  5.8784e-07            -2.898e-07            -2.9586e-07          
  -0.72                 1.266e-06             -6.2354e-07           -6.3902e-07          
  -0.74                 2.7178e-06            -1.3398e-06           -1.3818e-06          
  -0.76                 5.8102e-06            -2.8752e-06           -2.9482e-06          
  -0.78                 1.2246e-05            -6.0828e-06           -6.17e-06            
  -0.8                  2.5522e-05            -1.275e-05            -1.2762e-05          
  -0.82                 5.1462e-05            -2.5978e-05           -2.55e-05            
  -0.84                 9.9254e-05            -5.0844e-05           -4.8404e-05          
  -0.86                 0.00018054            -9.4212e-05           -8.637e-05           
  -0.88                 0.00030532            -0.00016266           -0.0001427           
  -0.9                  0.00048124            -0.000262             -0.00021924          
  -0.92                 0.00070824            -0.00039364           -0.00031458          
  -0.94                 0.00098542            -0.00055854           -0.00042694          
  -0.96                 0.0013086             -0.0007548            -0.00055364          
  -0.98                 0.001675              -0.00098164           -0.0006933           
  -1                    0.0020766             -0.001236             -0.00084208          
END_DB

BEGIN_DB
 ICCAP_VAR ve         0              
 ICCAP_VAR vc         -3             

 #vb                    ie                    ib                    ic                   
  -0.4                  6.06e-12              7e-13                 -1.276e-10           
  -0.42                 1.288e-11             -2.78e-12             -6.96e-11            
  -0.44                 2.76e-11              -1.034e-11            -4e-11               
  -0.46                 5.876e-11             -2.626e-11            5.4e-11              
  -0.48                 1.258e-10             -5.992e-11            -8.88e-11            
  -0.5                  2.709e-10             -1.3268e-10           -1.068e-10           
  -0.52                 5.8212e-10            -2.8768e-10           -2.844e-10           
  -0.54                 1.253e-09             -6.2408e-10           -6.436e-10           
  -0.56                 2.6978e-09            -1.3366e-09           -1.3848e-09          
  -0.58                 5.8122e-09            -2.9006e-09           -2.7298e-09          
  -0.6                  1.2572e-08            -6.2134e-09           -5.276e-09           
  -0.62                 2.6974e-08            -1.329e-08            -1.3248e-08          
  -0.64                 5.8214e-08            -2.866e-08            -2.9022e-08          
  -0.66                 1.2608e-07            -6.2032e-08           -6.4216e-08          
  -0.68                 2.723e-07             -1.3348e-07           -1.3274e-07          
  -0.7                  5.8794e-07            -2.9052e-07           -2.994e-07           
  -0.72                 1.2666e-06            -6.2378e-07           -6.4088e-07          
  -0.74                 2.7196e-06            -1.339e-06            -1.3846e-06          
  -0.76                 5.828e-06             -2.8666e-06           -2.96e-06            
  -0.78                 1.2274e-05            -6.072e-06            -6.2004e-06          
  -0.8                  2.5536e-05            -1.2724e-05           -1.2808e-05          
  -0.82                 5.1512e-05            -2.593e-05            -2.5554e-05          
  -0.84                 9.936e-05             -5.0762e-05           -4.8594e-05          
  -0.86                 0.0001808             -9.412e-05            -8.6736e-05          
  -0.88                 0.00030588            -0.00016256           -0.00014336          
  -0.9                  0.00048252            -0.00026202           -0.00022054          
  -0.92                 0.00071042            -0.00039382           -0.00031676          
  -0.94                 0.00098872            -0.0005588            -0.00043004          
  -0.96                 0.001313              -0.00075504           -0.00055758          
  -0.98                 0.001681              -0.0009824            -0.00069852          
  -1                    0.0020852             -0.0012354            -0.00084872          
END_DB

BEGIN_DB
 ICCAP_VAR ve         0              
 ICCAP_VAR vc         -4             

 #vb                    ie                    ib                    ic                   
  -0.4                  6.14e-12              9.8e-13               5.68e-11             
  -0.42                 1.29e-11              -2.5e-12              -8.32e-11            
  -0.44                 2.756e-11             -1.006e-11            6.62e-11             
  -0.46                 5.89e-11              -2.59e-11             1.94e-11             
  -0.48                 1.2616e-10            -5.962e-11            -5.68e-11            
  -0.5                  2.7106e-10            -1.3208e-10           -1.622e-10           
  -0.52                 5.8264e-10            -2.8724e-10           -3.792e-10           
  -0.54                 1.254e-09             -6.2168e-10           -7.338e-10           
  -0.56                 2.7008e-09            -1.334e-09            -1.353e-09           
  -0.58                 5.8188e-09            -2.8708e-09           -2.818e-09           
  -0.6                  1.2592e-08            -6.2078e-09           -6.542e-09           
  -0.62                 2.7006e-08            -1.3266e-08           -1.3302e-08          
  -0.64                 5.8346e-08            -2.8618e-08           -2.9086e-08          
  -0.66                 1.2624e-07            -6.1956e-08           -6.3682e-08          
  -0.68                 2.7234e-07            -1.3332e-07           -1.3754e-07          
  -0.7                  5.8858e-07            -2.8816e-07           -3.0216e-07          
  -0.72                 1.2668e-06            -6.2038e-07           -6.4414e-07          
  -0.74                 2.718e-06             -1.3334e-06           -1.3866e-06          
  -0.76                 5.826e-06             -2.8622e-06           -2.9622e-06          
  -0.78                 1.2262e-05            -6.0564e-06           -6.2162e-06          
  -0.8                  2.5556e-05            -1.2696e-05           -1.287e-05           
  -0.82                 5.1544e-05            -2.588e-05            -2.5674e-05          
  -0.84                 9.9458e-05            -5.0678e-05           -4.8816e-05          
  -0.86                 0.00018102            -9.3996e-05           -8.7068e-05          
  -0.88                 0.00030622            -0.00016234           -0.00014388          
  -0.9                  0.00048312            -0.00026168           -0.00022148          
  -0.92                 0.00071152            -0.00039346           -0.0003182           
  -0.94                 0.00099038            -0.0005582            -0.00043216          
  -0.96                 0.0013148             -0.00075388           -0.00056054          
  -0.98                 0.0016832             -0.0009808            -0.00070212          
  -1                    0.0020876             -0.0012334            -0.00085334          
END_DB

