! VERSION = 6.00
BEGIN_HEADER
 ICCAP_INPUTS
  vb         V  B GROUND SMU_B 0.01 LIN        1    -0.4       -1         31   -0.02     
  ve         V  E GROUND SMU_E 0.1 CON        0
  vc         V  C GROUND SMU_C 0.1 SYNC       1 0 vb
 ICCAP_OUTPUTS
  ib         I  B GROUND SMU_B M
  ic         I  C GROUND SMU_C M
 ICCAP_VALUES
  TNOM "27"
  TEMP "27"
  TECHNO "SG13S"
  LOT "PQA701"
  WAFER "17"
  CHIP "d0406"
  MODULE "T323_pnpMPA"
  DEV_NAME "DUT7"
  DEV_GEOM_L "."
  DEV_GEOM_W "."
  NF_EMITTER "."
  REMARKS "pnpMPA Teststructure"
  TIMEDATE "Fri Oct 21 12:47:07     2022"
END_HEADER

BEGIN_DB
 ICCAP_VAR ve         0              

 #vb                    vc                    ib                    ic                   
  -0.4                  -0.4                  5.76e-12              -3.62e-11            
  -0.42                 -0.42                 4.24e-12              1.66e-11             
  -0.44                 -0.44                 1.08e-12              4.36e-11             
  -0.46                 -0.46                 -5.84e-12             -3.36e-11            
  -0.48                 -0.48                 -2.036e-11            -7.66e-11            
  -0.5                  -0.5                  -5.196e-11            -1.128e-10           
  -0.52                 -0.52                 -1.1924e-10           -1.164e-10           
  -0.54                 -0.54                 -2.651e-10            -4.148e-10           
  -0.56                 -0.56                 -5.7864e-10           -5.584e-10           
  -0.58                 -0.58                 -1.2496e-09           -1.3174e-09          
  -0.6                  -0.6                  -2.7114e-09           -3.0592e-09          
  -0.62                 -0.62                 -5.8232e-09           -6.348e-09           
  -0.64                 -0.64                 -1.2564e-08           -1.4006e-08          
  -0.66                 -0.66                 -2.7236e-08           -3.0462e-08          
  -0.68                 -0.68                 -5.8718e-08           -6.6788e-08          
  -0.7                  -0.7                  -1.271e-07            -1.4244e-07          
  -0.72                 -0.72                 -2.733e-07            -3.1356e-07          
  -0.74                 -0.74                 -5.8598e-07           -6.6424e-07          
  -0.76                 -0.76                 -1.2514e-06           -1.4094e-06          
  -0.78                 -0.78                 -2.6206e-06           -2.936e-06           
  -0.8                  -0.8                  -5.3848e-06           -5.9534e-06          
  -0.82                 -0.82                 -1.05908e-05          -1.1428e-05          
  -0.84                 -0.84                 -1.963e-05            -2.068e-05           
  -0.86                 -0.86                 -3.3942e-05           -3.4492e-05          
  -0.88                 -0.88                 -5.4184e-05           -5.3108e-05          
  -0.9                  -0.9                  -8.0774e-05           -7.631e-05           
  -0.92                 -0.92                 -0.000112984          -0.000102928         
  -0.94                 -0.94                 -0.00015024           -0.0001326           
  -0.96                 -0.96                 -0.00019226           -0.0001642           
  -0.98                 -0.98                 -0.00023768           -0.00019762          
  -1                    -1                    -0.00028662           -0.00023208          
END_DB

