! VERSION = 6.00
BEGIN_HEADER
 ICCAP_INPUTS
  vb         V  B GROUND SMU_B 0.01 LIN        1    -0.4       -1         31   -0.02     
  ve         V  E GROUND SMU_E 0.1 CON        0
  vc         V  C GROUND SMU_C 0.1 SYNC       1 0 vb
 ICCAP_OUTPUTS
  ib         I  B GROUND SMU_B M
  ic         I  C GROUND SMU_C M
 ICCAP_VALUES
  TNOM "27"
  TEMP "27"
  TECHNO "SG13S"
  LOT "PQA701"
  WAFER "17"
  CHIP "d0406"
  MODULE "T323_pnpMPA"
  DEV_NAME "DUT2"
  DEV_GEOM_L "."
  DEV_GEOM_W "."
  NF_EMITTER "."
  REMARKS "pnpMPA Teststructure"
  TIMEDATE "Fri Oct 21 12:47:07     2022"
END_HEADER

BEGIN_DB
 ICCAP_VAR ve         0              

 #vb                    vc                    ib                    ic                   
  -0.4                  -0.4                  -2.94e-12             1.056e-10            
  -0.42                 -0.42                 -9.66e-12             8.78e-11             
  -0.44                 -0.44                 -2.37e-11             -4.76e-11            
  -0.46                 -0.46                 -5.28e-11             -8.76e-11            
  -0.48                 -0.48                 -1.1446e-10           -2.16e-11            
  -0.5                  -0.5                  -2.4678e-10           -2.684e-10           
  -0.52                 -0.52                 -5.2842e-10           -5.796e-10           
  -0.54                 -0.54                 -1.13628e-09          -1.158e-09           
  -0.56                 -0.56                 -2.4256e-09           -2.374e-09           
  -0.58                 -0.58                 -5.211e-09            -5.3968e-09          
  -0.6                  -0.6                  -1.1268e-08           -1.1066e-08          
  -0.62                 -0.62                 -2.4096e-08           -2.4434e-08          
  -0.64                 -0.64                 -5.1988e-08           -5.403e-08           
  -0.66                 -0.66                 -1.1246e-07           -1.1564e-07          
  -0.68                 -0.68                 -2.4238e-07           -2.5552e-07          
  -0.7                  -0.7                  -5.239e-07            -5.4678e-07          
  -0.72                 -0.72                 -1.12738e-06          -1.1844e-06          
  -0.74                 -0.74                 -2.4174e-06           -2.5372e-06          
  -0.76                 -0.76                 -5.1736e-06           -5.3926e-06          
  -0.78                 -0.78                 -1.09256e-05          -1.1293e-05          
  -0.8                  -0.8                  -2.2762e-05           -2.3284e-05          
  -0.82                 -0.82                 -4.5906e-05           -4.5992e-05          
  -0.84                 -0.84                 -8.8244e-05           -8.6074e-05          
  -0.86                 -0.86                 -0.00015932           -0.00015012          
  -0.88                 -0.88                 -0.00026676           -0.00024152          
  -0.9                  -0.9                  -0.0004161            -0.00036122          
  -0.92                 -0.92                 -0.0006059            -0.00050506          
  -0.94                 -0.94                 -0.0008354            -0.00066966          
  -0.96                 -0.96                 -0.00110042           -0.00085022          
  -0.98                 -0.98                 -0.001401             -0.0010454           
  -1                    -1                    -0.0017288            -0.0012502           
END_DB

