! VERSION = 6.00
BEGIN_HEADER
 ICCAP_INPUTS
  vb         V  B GROUND SMU_B 0.01 LIN        1    -0.4       -1         31   -0.02     
  ve         V  E GROUND SMU_E 0.1 CON        0
  vc         V  C GROUND SMU_C 0.1 LIN        2    -1         -4         4    -1        
 ICCAP_OUTPUTS
  ie         I  E GROUND SMU_E M
  ib         I  B GROUND SMU_B M
  ic         I  C GROUND SMU_C M
 ICCAP_VALUES
  TNOM "27"
  TEMP "27"
  TECHNO "SG13S"
  LOT "PQA701"
  WAFER "17"
  CHIP "d0406"
  MODULE "T323_pnpMPA"
  DEV_NAME "DUT11"
  DEV_GEOM_L "."
  DEV_GEOM_W "."
  NF_EMITTER "."
  REMARKS "pnpMPA Teststructure"
  TIMEDATE "Fri Oct 21 12:47:07     2022"
END_HEADER

BEGIN_DB
 ICCAP_VAR ve         0              
 ICCAP_VAR vc         -1             

 #vb                    ie                    ib                    ic                   
  -0.4                  2.5e-12               1.46e-12              2.72e-11             
  -0.42                 5.24e-12              1.2e-13               -6.64e-11            
  -0.44                 1.098e-11             -2.7e-12              -6.4e-12             
  -0.46                 2.312e-11             -8.34e-12             -6.8e-12             
  -0.48                 4.932e-11             -2.132e-11            -3.36e-11            
  -0.5                  1.0546e-10            -4.652e-11            1.22e-11             
  -0.52                 2.2542e-10            -1.0186e-10           -1.282e-10           
  -0.54                 4.8656e-10            -2.2098e-10           -1.76e-10            
  -0.56                 1.04728e-09           -4.7644e-10           -5.19e-10            
  -0.58                 2.2488e-09            -1.02924e-09          -1.2602e-09          
  -0.6                  4.87e-09              -2.2174e-09           -2.478e-09           
  -0.62                 1.0445e-08            -4.7636e-09           -5.064e-09           
  -0.64                 2.2558e-08            -1.02586e-08          -1.1988e-08          
  -0.66                 4.883e-08             -2.2144e-08           -2.5628e-08          
  -0.68                 1.05266e-07           -4.7736e-08           -5.7008e-08          
  -0.7                  2.2758e-07            -1.03176e-07          -1.2166e-07          
  -0.72                 4.8998e-07            -2.22e-07             -2.7066e-07          
  -0.74                 1.04912e-06           -4.7652e-07           -5.731e-07           
  -0.76                 2.2466e-06            -1.02188e-06          -1.2204e-06          
  -0.78                 4.723e-06             -2.1616e-06           -2.5586e-06          
  -0.8                  9.8094e-06            -4.5356e-06           -5.2792e-06          
  -0.82                 1.9802e-05            -9.2822e-06           -1.05366e-05         
  -0.84                 3.8532e-05            -1.8394e-05           -2.0154e-05          
  -0.86                 7.1416e-05            -3.4904e-05           -3.6526e-05          
  -0.88                 0.0001242             -6.238e-05            -6.182e-05           
  -0.9                  0.0002028             -0.000104826          -9.804e-05           
  -0.92                 0.00030974            -0.00016446           -0.00014526          
  -0.94                 0.0004467             -0.00024338           -0.00020328          
  -0.96                 0.00061294            -0.00034182           -0.00027114          
  -0.98                 0.00080836            -0.00046026           -0.00034814          
  -1                    0.00102942            -0.00059704           -0.00043244          
END_DB

BEGIN_DB
 ICCAP_VAR ve         0              
 ICCAP_VAR vc         -2             

 #vb                    ie                    ib                    ic                   
  -0.4                  2.58e-12              1.9e-12               -9.24e-11            
  -0.42                 5.18e-12              6.2e-13               -1.88e-11            
  -0.44                 1.096e-11             -2.16e-12             6.56e-11             
  -0.46                 2.302e-11             -7.92e-12             -1.656e-10           
  -0.48                 4.926e-11             -2.012e-11            -7.6e-11             
  -0.5                  1.0554e-10            -4.598e-11            -3.74e-11            
  -0.52                 2.262e-10             -1.0124e-10           -1.888e-10           
  -0.54                 4.8826e-10            -2.2096e-10           -2.268e-10           
  -0.56                 1.05014e-09           -4.761e-10            -5.174e-10           
  -0.58                 2.2578e-09            -1.02792e-09          -1.3032e-09          
  -0.6                  4.8856e-09            -2.2144e-09           -2.5926e-09          
  -0.62                 1.04992e-08           -4.7586e-09           -5.7538e-09          
  -0.64                 2.2664e-08            -1.026e-08            -1.1856e-08          
  -0.66                 5.0438e-08            -2.282e-08            -2.7656e-08          
  -0.68                 1.08752e-07           -4.7696e-08           -5.7652e-08          
  -0.7                  2.284e-07             -1.03144e-07          -1.2304e-07          
  -0.72                 4.9166e-07            -2.2176e-07           -2.6832e-07          
  -0.74                 1.05264e-06           -4.7652e-07           -5.7662e-07          
  -0.76                 2.2528e-06            -1.02214e-06          -1.2298e-06          
  -0.78                 4.7358e-06            -2.1612e-06           -2.5822e-06          
  -0.8                  9.8436e-06            -4.533e-06            -5.305e-06           
  -0.82                 1.9836e-05            -9.264e-06            -1.058e-05           
  -0.84                 3.8562e-05            -1.8338e-05           -2.0196e-05          
  -0.86                 7.1504e-05            -3.4832e-05           -3.6662e-05          
  -0.88                 0.0001244             -6.2256e-05           -6.2122e-05          
  -0.9                  0.0002031             -0.000104602          -9.857e-05           
  -0.92                 0.00031024            -0.0001642            -0.00014602          
  -0.94                 0.00044738            -0.00024288           -0.0002045           
  -0.96                 0.00061396            -0.00034124           -0.0002728           
  -0.98                 0.00080966            -0.0004594            -0.00035028          
  -1                    0.00103106            -0.00059582           -0.00043528          
END_DB

BEGIN_DB
 ICCAP_VAR ve         0              
 ICCAP_VAR vc         -3             

 #vb                    ie                    ib                    ic                   
  -0.4                  2.56e-12              2.26e-12              1.596e-10            
  -0.42                 5.16e-12              9.4e-13               -2.26e-11            
  -0.44                 1.092e-11             -1.78e-12             -1.5e-11             
  -0.46                 2.302e-11             -7.52e-12             -7.98e-11            
  -0.48                 4.91e-11              -1.96e-11             3.26e-11             
  -0.5                  1.0544e-10            -4.55e-11             -8.06e-11            
  -0.52                 2.2622e-10            -1.0038e-10           -1.266e-10           
  -0.54                 4.8856e-10            -2.1916e-10           -2.686e-10           
  -0.56                 1.05104e-09           -4.7386e-10           -6.016e-10           
  -0.58                 2.2648e-09            -1.02688e-09          -1.3364e-09          
  -0.6                  4.9238e-09            -2.2148e-09           -2.6868e-09          
  -0.62                 1.05676e-08           -4.7262e-09           -5.706e-09           
  -0.64                 2.2588e-08            -1.02588e-08          -1.2062e-08          
  -0.66                 4.9072e-08            -2.2032e-08           -2.6876e-08          
  -0.68                 1.05472e-07           -4.777e-08            -5.7874e-08          
  -0.7                  2.278e-07             -1.02622e-07          -1.2508e-07          
  -0.72                 4.921e-07             -2.2162e-07           -2.724e-07           
  -0.74                 1.05278e-06           -4.763e-07            -5.8254e-07          
  -0.76                 2.2504e-06            -1.01524e-06          -1.2368e-06          
  -0.78                 4.7388e-06            -2.153e-06            -2.5862e-06          
  -0.8                  9.8506e-06            -4.5192e-06           -5.3202e-06          
  -0.82                 1.9858e-05            -9.2354e-06           -1.06316e-05         
  -0.84                 3.8608e-05            -1.832e-05            -2.0334e-05          
  -0.86                 7.1574e-05            -3.4734e-05           -3.6832e-05          
  -0.88                 0.00012454            -6.2116e-05           -6.2422e-05          
  -0.9                  0.00020338            -0.000104416          -9.902e-05           
  -0.92                 0.00031066            -0.00016396           -0.00014678          
  -0.94                 0.00044824            -0.00024262           -0.00020552          
  -0.96                 0.00061508            -0.00034076           -0.00027428          
  -0.98                 0.0008111             -0.00045882           -0.00035236          
  -1                    0.00103288            -0.0005951            -0.00043784          
END_DB

BEGIN_DB
 ICCAP_VAR ve         0              
 ICCAP_VAR vc         -4             

 #vb                    ie                    ib                    ic                   
  -0.4                  2.46e-12              2.48e-12              -5.4e-12             
  -0.42                 5.2e-12               1.08e-12              -1.48e-11            
  -0.44                 1.086e-11             -1.6e-12              -6.98e-11            
  -0.46                 2.302e-11             -7.22e-12             2.68e-11             
  -0.48                 4.912e-11             -1.922e-11            -2.686e-10           
  -0.5                  1.0532e-10            -4.49e-11             -1.376e-10           
  -0.52                 2.2692e-10            -9.986e-11            -1.624e-10           
  -0.54                 4.8844e-10            -2.1932e-10           -2.838e-10           
  -0.56                 1.0505e-09            -4.714e-10            -5.606e-10           
  -0.58                 2.2552e-09            -1.01742e-09          -1.2938e-09          
  -0.6                  4.8936e-09            -2.197e-09            -2.75e-09            
  -0.62                 1.04902e-08           -4.7106e-09           -5.308e-09           
  -0.64                 2.264e-08             -1.01538e-08          -1.1894e-08          
  -0.66                 4.9048e-08            -2.1984e-08           -2.75e-08            
  -0.68                 1.0576e-07            -4.7436e-08           -5.8698e-08          
  -0.7                  2.353e-07             -1.02442e-07          -1.2808e-07          
  -0.72                 4.938e-07             -2.2222e-07           -2.7196e-07          
  -0.74                 1.058e-06             -4.7706e-07           -5.8608e-07          
  -0.76                 2.2568e-06            -1.01654e-06          -1.2354e-06          
  -0.78                 4.7524e-06            -2.1496e-06           -2.6064e-06          
  -0.8                  9.8574e-06            -4.5068e-06           -5.36e-06            
  -0.82                 1.9888e-05            -9.2754e-06           -1.06926e-05         
  -0.84                 3.8668e-05            -1.8256e-05           -2.0436e-05          
  -0.86                 7.1678e-05            -3.4668e-05           -3.699e-05           
  -0.88                 0.00012472            -6.201e-05            -6.2754e-05          
  -0.9                  0.00020372            -0.000104264          -9.954e-05           
  -0.92                 0.00031124            -0.00016374           -0.00014754          
  -0.94                 0.0004491             -0.00024234           -0.0002067           
  -0.96                 0.00061634            -0.00034048           -0.00027584          
  -0.98                 0.0008128             -0.00045844           -0.00035434          
  -1                    0.00103514            -0.00059464           -0.00044054          
END_DB

