! VERSION = 6.00
BEGIN_HEADER
 ICCAP_INPUTS
  vb         V  B GROUND SMU_B 0.01 LIN        1    -0.4       -1         31   -0.02     
  ve         V  E GROUND SMU_E 0.1 CON        0
  vc         V  C GROUND SMU_C 0.1 LIN        2    -1         -4         4    -1        
 ICCAP_OUTPUTS
  ie         I  E GROUND SMU_E M
  ib         I  B GROUND SMU_B M
  ic         I  C GROUND SMU_C M
 ICCAP_VALUES
  TNOM "27"
  TEMP "27"
  TECHNO "SG13S"
  LOT "PQA701"
  WAFER "17"
  CHIP "d0406"
  MODULE "T323_pnpMPA"
  DEV_NAME "DUT15"
  DEV_GEOM_L "."
  DEV_GEOM_W "."
  NF_EMITTER "."
  REMARKS "pnpMPA Teststructure"
  TIMEDATE "Fri Oct 21 12:47:07     2022"
END_HEADER

BEGIN_DB
 ICCAP_VAR ve         0              
 ICCAP_VAR vc         -1             

 #vb                    ie                    ib                    ic                   
  -0.4                  7.8e-13               1.34e-12              -8.44e-11            
  -0.42                 1.5e-12               9.8e-13               -3.3e-11             
  -0.44                 3.14e-12              4.4e-13               6.42e-11             
  -0.46                 6.7e-12               -9e-13                -4.38e-11            
  -0.48                 1.42e-11              -3.52e-12             3.64e-11             
  -0.5                  3.04e-11              -9.24e-12             -2.82e-11            
  -0.52                 6.538e-11             -2.15e-11             7.7e-11              
  -0.54                 1.4074e-10            -4.76e-11             -4.4e-11             
  -0.56                 3.0226e-10            -1.0326e-10           -1.876e-10           
  -0.58                 6.5026e-10            -2.2204e-10           -3.406e-10           
  -0.6                  1.401e-09             -4.7898e-10           -8.642e-10           
  -0.62                 2.9974e-09            -1.02204e-09          -1.8748e-09          
  -0.64                 6.4746e-09            -2.1906e-09           -4.27e-09            
  -0.66                 1.3976e-08            -4.7322e-09           -8.452e-09           
  -0.68                 3.0176e-08            -1.0176e-08           -1.9404e-08          
  -0.7                  6.524e-08             -2.1938e-08           -4.3794e-08          
  -0.72                 1.3978e-07            -4.713e-08            -9.2316e-08          
  -0.74                 2.9952e-07            -1.01096e-07          -1.982e-07           
  -0.76                 6.3792e-07            -2.1632e-07           -4.2006e-07          
  -0.78                 1.3316e-06            -4.5592e-07           -8.7496e-07          
  -0.8                  2.7354e-06            -9.5044e-07           -1.7868e-06          
  -0.82                 5.4196e-06            -1.9244e-06           -3.501e-06           
  -0.84                 1.02576e-05           -3.7516e-06           -6.4974e-06          
  -0.86                 1.8376e-05            -6.9752e-06           -1.1418e-05          
  -0.88                 3.0846e-05            -1.2178e-05           -1.8638e-05          
  -0.9                  4.8568e-05            -2.0012e-05           -2.86e-05            
  -0.92                 7.1822e-05            -3.0742e-05           -4.1076e-05          
  -0.94                 0.000100598           -4.4612e-05           -5.5874e-05          
  -0.96                 0.00013404            -6.1592e-05           -7.2588e-05          
  -0.98                 0.00017298            -8.1662e-05           -9.1312e-05          
  -1                    0.00021524            -0.000103976          -0.0001109           
END_DB

BEGIN_DB
 ICCAP_VAR ve         0              
 ICCAP_VAR vc         -2             

 #vb                    ie                    ib                    ic                   
  -0.4                  6.6e-13               1.62e-12              -7.98e-11            
  -0.42                 1.44e-12              1.34e-12              1.04e-10             
  -0.44                 3.2e-12               6.6e-13               1.75e-10             
  -0.46                 6.6e-12               -6.2e-13              5.14e-11             
  -0.48                 1.426e-11             -3.38e-12             -1.98e-11            
  -0.5                  3.046e-11             -9.02e-12             1.12e-11             
  -0.52                 6.524e-11             -2.106e-11            -4e-13               
  -0.54                 1.4088e-10            -4.7e-11              7.16e-11             
  -0.56                 3.0262e-10            -1.0226e-10           -1.502e-10           
  -0.58                 6.5114e-10            -2.2066e-10           -3.366e-10           
  -0.6                  1.4016e-09            -4.7528e-10           -9.202e-10           
  -0.62                 3.002e-09             -1.01512e-09          -1.9604e-09          
  -0.64                 6.484e-09             -2.1766e-09           -4.316e-09           
  -0.66                 1.4008e-08            -4.701e-09            -9.264e-09           
  -0.68                 3.018e-08             -1.01058e-08          -1.9156e-08          
  -0.7                  6.5226e-08            -2.1822e-08           -4.3744e-08          
  -0.72                 1.4014e-07            -4.6818e-08           -9.193e-08           
  -0.74                 2.993e-07             -1.00512e-07          -1.9826e-07          
  -0.76                 6.3858e-07            -2.1504e-07           -4.2272e-07          
  -0.78                 1.3342e-06            -4.525e-07            -8.8124e-07          
  -0.8                  2.7368e-06            -9.4474e-07           -1.7908e-06          
  -0.82                 5.423e-06             -1.9166e-06           -3.5162e-06          
  -0.84                 1.02688e-05           -3.7298e-06           -6.5404e-06          
  -0.86                 1.8356e-05            -6.9214e-06           -1.1464e-05          
  -0.88                 3.0798e-05            -1.2086e-05           -1.871e-05           
  -0.9                  4.8508e-05            -1.9836e-05           -2.866e-05           
  -0.92                 7.1582e-05            -3.0462e-05           -4.1086e-05          
  -0.94                 0.00010005            -4.4226e-05           -5.5904e-05          
  -0.96                 0.00013382            -6.1152e-05           -7.274e-05           
  -0.98                 0.00017228            -8.0776e-05           -9.1228e-05          
  -1                    0.00021406            -0.000103042          -0.00011086          
END_DB

BEGIN_DB
 ICCAP_VAR ve         0              
 ICCAP_VAR vc         -3             

 #vb                    ie                    ib                    ic                   
  -0.4                  7.4e-13               1.84e-12              1.122e-10            
  -0.42                 1.44e-12              1.56e-12              5.92e-11             
  -0.44                 3.2e-12               9.4e-13               -5.4e-12             
  -0.46                 6.64e-12              -3e-13                2.14e-11             
  -0.48                 1.422e-11             -2.96e-12             -2.32e-11            
  -0.5                  3.044e-11             -8.66e-12             -2.82e-11            
  -0.52                 6.54e-11              -2.068e-11            8.8e-12              
  -0.54                 1.4122e-10            -4.66e-11             -1.096e-10           
  -0.56                 3.0302e-10            -1.0134e-10           -2.642e-10           
  -0.58                 6.5164e-10            -2.1866e-10           -3.566e-10           
  -0.6                  1.4034e-09            -4.7196e-10           -8.118e-10           
  -0.62                 3.0052e-09            -1.01014e-09          -1.9744e-09          
  -0.64                 6.4972e-09            -2.162e-09            -4.3714e-09          
  -0.66                 1.4034e-08            -4.6696e-09           -9.46e-09            
  -0.68                 3.019e-08             -1.00452e-08          -2.0194e-08          
  -0.7                  6.536e-08             -2.1652e-08           -4.3888e-08          
  -0.72                 1.3994e-07            -4.6492e-08           -9.2892e-08          
  -0.74                 2.9976e-07            -9.9652e-08           -2.0418e-07          
  -0.76                 6.3876e-07            -2.1332e-07           -4.2226e-07          
  -0.78                 1.3334e-06            -4.498e-07            -8.802e-07           
  -0.8                  2.7398e-06            -9.3752e-07           -1.8034e-06          
  -0.82                 5.4278e-06            -1.9002e-06           -3.5258e-06          
  -0.84                 1.02656e-05           -3.707e-06            -6.5576e-06          
  -0.86                 1.8382e-05            -6.8918e-06           -1.1482e-05          
  -0.88                 3.0822e-05            -1.2038e-05           -1.881e-05           
  -0.9                  4.8552e-05            -1.9794e-05           -2.8766e-05          
  -0.92                 7.1794e-05            -3.0462e-05           -4.1386e-05          
  -0.94                 0.000100702           -4.4298e-05           -5.6326e-05          
  -0.96                 0.00013458            -6.1172e-05           -7.3322e-05          
  -0.98                 0.00017296            -8.1086e-05           -9.2144e-05          
  -1                    0.00021574            -0.00010392           -0.00011221          
END_DB

BEGIN_DB
 ICCAP_VAR ve         0              
 ICCAP_VAR vc         -4             

 #vb                    ie                    ib                    ic                   
  -0.4                  7e-13                 2.02e-12              -1.278e-10           
  -0.42                 1.5e-12               1.64e-12              3.2e-11              
  -0.44                 3.22e-12              1.08e-12              -7.44e-11            
  -0.46                 6.66e-12              -1.6e-13              -6.34e-11            
  -0.48                 1.426e-11             -2.8e-12              1.406e-10            
  -0.5                  3.048e-11             -8.44e-12             -4.96e-11            
  -0.52                 6.536e-11             -2.034e-11            -1.6e-12             
  -0.54                 1.4108e-10            -4.61e-11             -1.572e-10           
  -0.56                 3.0292e-10            -1.0056e-10           -1.232e-10           
  -0.58                 6.5194e-10            -2.1716e-10           -4.522e-10           
  -0.6                  1.4046e-09            -4.6864e-10           -9.058e-10           
  -0.62                 3.0078e-09            -1.0016e-09           -1.54e-09            
  -0.64                 6.4938e-09            -2.1498e-09           -4.38e-09            
  -0.66                 1.4054e-08            -4.6442e-09           -9.024e-09           
  -0.68                 3.0264e-08            -9.9746e-09           -1.9888e-08          
  -0.7                  6.545e-08             -2.152e-08            -4.4044e-08          
  -0.72                 1.4062e-07            -4.6284e-08           -9.3668e-08          
  -0.74                 3.0028e-07            -9.9134e-08           -2.019e-07           
  -0.76                 6.3992e-07            -2.123e-07            -4.283e-07           
  -0.78                 1.3342e-06            -4.4728e-07           -8.8994e-07          
  -0.8                  2.7446e-06            -9.3258e-07           -1.8094e-06          
  -0.82                 5.4354e-06            -1.8914e-06           -3.5382e-06          
  -0.84                 1.02806e-05           -3.6898e-06           -6.5916e-06          
  -0.86                 1.842e-05             -6.8636e-06           -1.1578e-05          
  -0.88                 3.0846e-05            -1.198e-05            -1.8852e-05          
  -0.9                  4.8572e-05            -1.9702e-05           -2.8926e-05          
  -0.92                 7.1788e-05            -3.0292e-05           -4.1486e-05          
  -0.94                 0.000100574           -4.4044e-05           -5.657e-05           
  -0.96                 0.00013414            -6.0804e-05           -7.348e-05           
  -0.98                 0.0001729             -8.0566e-05           -9.2278e-05          
  -1                    0.00021554            -0.000102854          -0.000112298         
END_DB

