! VERSION = 6.00
BEGIN_HEADER
 ICCAP_INPUTS
  vb         V  B GROUND SMU_B 0.01 LIN        1    -0.4       -1         31   -0.02     
  ve         V  E GROUND SMU_E 0.1 CON        0
  vc         V  C GROUND SMU_C 0.1 LIN        2    -1         -4         4    -1        
 ICCAP_OUTPUTS
  ie         I  E GROUND SMU_E M
  ib         I  B GROUND SMU_B M
  ic         I  C GROUND SMU_C M
 ICCAP_VALUES
  TNOM "27"
  TEMP "27"
  TECHNO "SG13S"
  LOT "PQA701"
  WAFER "17"
  CHIP "d0406"
  MODULE "T323_pnpMPA"
  DEV_NAME "DUT10"
  DEV_GEOM_L "."
  DEV_GEOM_W "."
  NF_EMITTER "."
  REMARKS "pnpMPA Teststructure"
  TIMEDATE "Fri Oct 21 12:47:07     2022"
END_HEADER

BEGIN_DB
 ICCAP_VAR ve         0              
 ICCAP_VAR vc         -1             

 #vb                    ie                    ib                    ic                   
  -0.4                  1.94e-12              5.8e-13               -1.254e-10           
  -0.42                 3.8e-12               -3.2e-13              1.98e-11             
  -0.44                 8.16e-12              -2.46e-12             -6.44e-11            
  -0.46                 1.756e-11             -6.9e-12              4.04e-11             
  -0.48                 3.756e-11             -1.648e-11            -5.42e-11            
  -0.5                  8.1e-11               -3.7e-11              -1.432e-10           
  -0.52                 1.7386e-10            -8.106e-11            1.5e-11              
  -0.54                 3.758e-10             -1.7598e-10           -1.044e-10           
  -0.56                 8.0952e-10            -3.7972e-10           -4.192e-10           
  -0.58                 1.7408e-09            -8.191e-10            -8.802e-10           
  -0.6                  3.7722e-09            -1.7662e-09           -2.0366e-09          
  -0.62                 8.0878e-09            -3.7882e-09           -4.3702e-09          
  -0.64                 1.7474e-08            -8.1788e-09           -8.504e-09           
  -0.66                 3.7898e-08            -1.7668e-08           -2.0054e-08          
  -0.68                 8.158e-08             -3.809e-08            -4.372e-08           
  -0.7                  1.7626e-07            -8.2336e-08           -9.3382e-08          
  -0.72                 3.7906e-07            -1.7688e-07           -2.021e-07           
  -0.74                 8.074e-07             -3.7752e-07           -4.2856e-07          
  -0.76                 1.7082e-06            -8.0212e-07           -9.04e-07            
  -0.78                 3.5196e-06            -1.6592e-06           -1.8564e-06          
  -0.8                  7.014e-06             -3.3354e-06           -3.6766e-06          
  -0.82                 1.3172e-05            -6.3358e-06           -6.848e-06           
  -0.84                 2.3036e-05            -1.1277e-05           -1.1822e-05          
  -0.86                 3.7342e-05            -1.8498e-05           -1.8866e-05          
  -0.88                 5.5912e-05            -2.8064e-05           -2.7756e-05          
  -0.9                  7.8358e-05            -3.9962e-05           -3.8456e-05          
  -0.92                 0.000103864           -5.3838e-05           -5.0022e-05          
  -0.94                 0.00013138            -6.9178e-05           -6.262e-05           
  -0.96                 0.00016272            -8.6076e-05           -7.628e-05           
  -0.98                 0.00019474            -0.000104478          -9.0248e-05          
  -1                    0.00022792            -0.00012368           -0.00010424          
END_DB

BEGIN_DB
 ICCAP_VAR ve         0              
 ICCAP_VAR vc         -2             

 #vb                    ie                    ib                    ic                   
  -0.4                  1.84e-12              8.6e-13               5.1e-11              
  -0.42                 3.9e-12               -1e-13                -9.4e-12             
  -0.44                 8.12e-12              -2.24e-12             -5e-11               
  -0.46                 1.748e-11             -6.54e-12             2.8e-12              
  -0.48                 3.746e-11             -1.61e-11             -9.26e-11            
  -0.5                  8.084e-11             -3.68e-11             -1.07e-10            
  -0.52                 1.74e-10              -8.054e-11            -6.58e-11            
  -0.54                 3.761e-10             -1.7534e-10           -2.192e-10           
  -0.56                 8.1024e-10            -3.7852e-10           -4.432e-10           
  -0.58                 1.7438e-09            -8.1614e-10           -9.238e-10           
  -0.6                  3.775e-09             -1.7594e-09           -1.9594e-09          
  -0.62                 8.0894e-09            -3.7742e-09           -4.2582e-09          
  -0.64                 1.7482e-08            -8.1472e-09           -9.014e-09           
  -0.66                 3.7876e-08            -1.761e-08            -2.0326e-08          
  -0.68                 8.1572e-08            -3.7944e-08           -4.353e-08           
  -0.7                  1.762e-07             -8.2002e-08           -9.4116e-08          
  -0.72                 3.7878e-07            -1.7584e-07           -1.9936e-07          
  -0.74                 8.0694e-07            -3.7608e-07           -4.2832e-07          
  -0.76                 1.7078e-06            -7.983e-07            -9.0836e-07          
  -0.78                 3.5128e-06            -1.651e-06            -1.861e-06           
  -0.8                  6.9944e-06            -3.3148e-06           -3.6888e-06          
  -0.82                 1.3102e-05            -6.2674e-06           -6.8284e-06          
  -0.84                 2.2762e-05            -1.10716e-05          -1.1714e-05          
  -0.86                 3.6882e-05            -1.8084e-05           -1.8606e-05          
  -0.88                 5.4672e-05            -2.7486e-05           -2.739e-05           
  -0.9                  7.6858e-05            -3.9112e-05           -3.7832e-05          
  -0.92                 0.000102056           -5.2682e-05           -4.9496e-05          
  -0.94                 0.00012972            -6.7886e-05           -6.1914e-05          
  -0.96                 0.00016032            -8.4782e-05           -7.5576e-05          
  -0.98                 0.00019214            -0.00010299           -8.9402e-05          
  -1                    0.00022412            -0.00012096           -0.000103456         
END_DB

BEGIN_DB
 ICCAP_VAR ve         0              
 ICCAP_VAR vc         -3             

 #vb                    ie                    ib                    ic                   
  -0.4                  1.78e-12              1.08e-12              -1.28e-11            
  -0.42                 3.88e-12              4e-14                 1.6e-12              
  -0.44                 8.16e-12              -2.02e-12             6.6e-11              
  -0.46                 1.752e-11             -6.46e-12             -1.054e-10           
  -0.48                 3.756e-11             -1.6e-11              -1.182e-10           
  -0.5                  8.104e-11             -3.642e-11            -6.64e-11            
  -0.52                 1.7434e-10            -8.012e-11            -1.16e-11            
  -0.54                 3.7644e-10            -1.7464e-10           -1.826e-10           
  -0.56                 8.1092e-10            -3.7688e-10           -4.452e-10           
  -0.58                 1.7422e-09            -8.1282e-10           -9.752e-10           
  -0.6                  3.7758e-09            -1.7528e-09           -1.971e-09           
  -0.62                 8.0966e-09            -3.7596e-09           -4.3734e-09          
  -0.64                 1.7478e-08            -8.1158e-09           -9.43e-09            
  -0.66                 3.7918e-08            -1.755e-08            -2.0504e-08          
  -0.68                 8.158e-08             -3.7834e-08           -4.2962e-08          
  -0.7                  1.764e-07             -8.1724e-08           -9.3918e-08          
  -0.72                 3.7914e-07            -1.7546e-07           -2.0016e-07          
  -0.74                 8.0806e-07            -3.7518e-07           -4.3328e-07          
  -0.76                 1.7094e-06            -7.9564e-07           -9.092e-07           
  -0.78                 3.5188e-06            -1.646e-06            -1.8712e-06          
  -0.8                  7.0036e-06            -3.3026e-06           -3.6964e-06          
  -0.82                 1.313e-05             -6.263e-06            -6.8678e-06          
  -0.84                 2.289e-05             -1.1091e-05           -1.181e-05           
  -0.86                 3.6932e-05            -1.8128e-05           -1.877e-05           
  -0.88                 5.5e-05               -2.7428e-05           -2.7446e-05          
  -0.9                  7.6772e-05            -3.8924e-05           -3.7968e-05          
  -0.92                 0.000101382           -5.2338e-05           -4.9306e-05          
  -0.94                 0.00012928            -6.7082e-05           -6.1744e-05          
  -0.96                 0.00015992            -8.4234e-05           -7.543e-05           
  -0.98                 0.00019104            -0.000102108          -8.9032e-05          
  -1                    0.00022446            -0.00012086           -0.000103814         
END_DB

BEGIN_DB
 ICCAP_VAR ve         0              
 ICCAP_VAR vc         -4             

 #vb                    ie                    ib                    ic                   
  -0.4                  1.9e-12               1.26e-12              -1.304e-10           
  -0.42                 3.94e-12              2.6e-13               -4.48e-11            
  -0.44                 8.26e-12              -1.84e-12             6.2e-12              
  -0.46                 1.766e-11             -6.26e-12             -1.88e-11            
  -0.48                 3.774e-11             -1.566e-11            -6.08e-11            
  -0.5                  8.106e-11             -3.614e-11            -1.452e-10           
  -0.52                 1.7434e-10            -7.968e-11            -1.552e-10           
  -0.54                 3.7692e-10            -1.7372e-10           -1.516e-10           
  -0.56                 8.1166e-10            -3.7554e-10           -4.294e-10           
  -0.58                 1.7444e-09            -8.1088e-10           -9.446e-10           
  -0.6                  3.7808e-09            -1.7494e-09           -1.998e-09           
  -0.62                 8.1072e-09            -3.7508e-09           -4.3086e-09          
  -0.64                 1.751e-08             -8.0998e-09           -9.33e-09            
  -0.66                 3.7968e-08            -1.7498e-08           -2.024e-08           
  -0.68                 8.1654e-08            -3.7706e-08           -4.4344e-08          
  -0.7                  1.7668e-07            -8.1448e-08           -9.511e-08           
  -0.72                 3.7916e-07            -1.75e-07             -2.069e-07           
  -0.74                 8.089e-07             -3.7392e-07           -4.3376e-07          
  -0.76                 1.71e-06              -7.936e-07            -9.1212e-07          
  -0.78                 3.5228e-06            -1.642e-06            -1.875e-06           
  -0.8                  7.0164e-06            -3.2998e-06           -3.7214e-06          
  -0.82                 1.3188e-05            -6.2728e-06           -6.9204e-06          
  -0.84                 2.304e-05             -1.1108e-05           -1.1912e-05          
  -0.86                 3.72e-05              -1.8188e-05           -1.8958e-05          
  -0.88                 5.5518e-05            -2.7608e-05           -2.7864e-05          
  -0.9                  7.7896e-05            -3.9062e-05           -3.8454e-05          
  -0.92                 0.000102242           -5.2284e-05           -4.9868e-05          
  -0.94                 0.0001286             -6.6344e-05           -6.1786e-05          
  -0.96                 0.00015772            -8.285e-05            -7.5014e-05          
  -0.98                 0.00018764            -0.000100648          -8.9014e-05          
  -1                    0.0002203             -0.00011822           -0.000102422         
END_DB

