! VERSION = 6.00
BEGIN_HEADER
 ICCAP_INPUTS
  vb         V  B GROUND SMU_B 0.01 LIN        1    -0.4       -1         31   -0.02     
  ve         V  E GROUND SMU_E 0.1 CON        0
  vc         V  C GROUND SMU_C 0.1 LIN        2    -1         -4         4    -1        
 ICCAP_OUTPUTS
  ie         I  E GROUND SMU_E M
  ib         I  B GROUND SMU_B M
  ic         I  C GROUND SMU_C M
 ICCAP_VALUES
  TNOM "27"
  TEMP "27"
  TECHNO "SG13S"
  LOT "PQA701"
  WAFER "17"
  CHIP "d0406"
  MODULE "T323_pnpMPA"
  DEV_NAME "DUT8"
  DEV_GEOM_L "."
  DEV_GEOM_W "."
  NF_EMITTER "."
  REMARKS "pnpMPA Teststructure"
  TIMEDATE "Fri Oct 21 12:47:07     2022"
END_HEADER

BEGIN_DB
 ICCAP_VAR ve         0              
 ICCAP_VAR vc         -1             

 #vb                    ie                    ib                    ic                   
  -0.4                  2.86e-12              1.2e-12               1.1e-11              
  -0.42                 5.86e-12              -3.6e-13              1.98e-11             
  -0.44                 1.266e-11             -3.6e-12              -9.28e-11            
  -0.46                 2.68e-11              -1.04e-11             -6.4e-11             
  -0.48                 5.738e-11             -2.478e-11            -3.64e-11            
  -0.5                  1.2414e-10            -5.604e-11            -6.96e-11            
  -0.52                 2.6694e-10            -1.2302e-10           -1.006e-10           
  -0.54                 5.7846e-10            -2.6822e-10           -2.154e-10           
  -0.56                 1.2404e-09            -5.7944e-10           -6.702e-10           
  -0.58                 2.6812e-09            -1.2472e-09           -1.4326e-09          
  -0.6                  5.8016e-09            -2.7018e-09           -3.081e-09           
  -0.62                 1.2448e-08            -5.7956e-09           -6.098e-09           
  -0.64                 2.6928e-08            -1.2522e-08           -1.4396e-08          
  -0.66                 5.8328e-08            -2.7128e-08           -3.1348e-08          
  -0.68                 1.26e-07              -5.8494e-08           -6.6834e-08          
  -0.7                  2.729e-07             -1.2658e-07           -1.4354e-07          
  -0.72                 5.8592e-07            -2.7252e-07           -3.103e-07           
  -0.74                 1.2594e-06            -5.8676e-07           -6.7028e-07          
  -0.76                 2.699e-06             -1.2602e-06           -1.4342e-06          
  -0.78                 5.7048e-06            -2.6762e-06           -3.0286e-06          
  -0.8                  1.1922e-05            -5.648e-06            -6.2912e-06          
  -0.82                 2.4262e-05            -1.1628e-05           -1.2632e-05          
  -0.84                 4.7632e-05            -2.3222e-05           -2.4428e-05          
  -0.86                 8.91e-05              -4.4434e-05           -4.4648e-05          
  -0.88                 0.0001564             -8.0032e-05           -7.6402e-05          
  -0.9                  0.00025754            -0.00013544           -0.00012214          
  -0.92                 0.0003966             -0.00021416           -0.00018256          
  -0.94                 0.00057676            -0.00031928           -0.00025746          
  -0.96                 0.00079764            -0.00045168           -0.00034596          
  -0.98                 0.00106014            -0.00061276           -0.0004474           
  -1                    0.0013608             -0.000801             -0.00055956          
END_DB

BEGIN_DB
 ICCAP_VAR ve         0              
 ICCAP_VAR vc         -2             

 #vb                    ie                    ib                    ic                   
  -0.4                  2.82e-12              1.54e-12              4.72e-11             
  -0.42                 5.84e-12              1e-13                 5.46e-11             
  -0.44                 1.256e-11             -3.1e-12              -4.72e-11            
  -0.46                 2.686e-11             -9.92e-12             4.48e-11             
  -0.48                 5.806e-11             -2.458e-11            1.14e-10             
  -0.5                  1.2412e-10            -5.576e-11            -1.064e-10           
  -0.52                 2.6722e-10            -1.2232e-10           -2.1e-11             
  -0.54                 5.7818e-10            -2.6716e-10           -1.856e-10           
  -0.56                 1.2446e-09            -5.7756e-10           -6.74e-10            
  -0.58                 2.6828e-09            -1.2504e-09           -1.3888e-09          
  -0.6                  5.8076e-09            -2.695e-09            -3.1508e-09          
  -0.62                 1.2512e-08            -5.787e-09            -6.364e-09           
  -0.64                 2.6946e-08            -1.2492e-08           -1.4308e-08          
  -0.66                 5.834e-08             -2.7066e-08           -3.0248e-08          
  -0.68                 1.2604e-07            -5.8344e-08           -6.745e-08           
  -0.7                  2.731e-07             -1.2644e-07           -1.4718e-07          
  -0.72                 5.8708e-07            -2.731e-07            -3.1666e-07          
  -0.74                 1.2672e-06            -5.85e-07             -6.7546e-07          
  -0.76                 2.71e-06              -1.2646e-06           -1.4402e-06          
  -0.78                 5.7122e-06            -2.6704e-06           -3.039e-06           
  -0.8                  1.194e-05             -5.6362e-06           -6.3278e-06          
  -0.82                 2.4292e-05            -1.1598e-05           -1.274e-05           
  -0.84                 4.7684e-05            -2.3182e-05           -2.452e-05           
  -0.86                 8.9238e-05            -4.434e-05            -4.4862e-05          
  -0.88                 0.00015664            -7.991e-05            -7.6748e-05          
  -0.9                  0.000258              -0.00013528           -0.00012284          
  -0.92                 0.00039744            -0.00021394           -0.00018354          
  -0.94                 0.000578              -0.00031898           -0.00025902          
  -0.96                 0.00079956            -0.00045134           -0.00034826          
  -0.98                 0.00106274            -0.00061236           -0.00045052          
  -1                    0.001364              -0.00080032           -0.00056374          
END_DB

BEGIN_DB
 ICCAP_VAR ve         0              
 ICCAP_VAR vc         -3             

 #vb                    ie                    ib                    ic                   
  -0.4                  2.74e-12              1.88e-12              -4.72e-11            
  -0.42                 5.92e-12              3.6e-13               6.88e-11             
  -0.44                 1.246e-11             -2.82e-12             3.96e-11             
  -0.46                 2.692e-11             -9.52e-12             -7.82e-11            
  -0.48                 5.76e-11              -2.39e-11             -6.74e-11            
  -0.5                  1.243e-10             -5.514e-11            -4.22e-11            
  -0.52                 2.6724e-10            -1.2164e-10           -2.356e-10           
  -0.54                 5.7848e-10            -2.6586e-10           -3.298e-10           
  -0.56                 1.2426e-09            -5.7566e-10           -6.426e-10           
  -0.58                 2.6832e-09            -1.2392e-09           -1.4952e-09          
  -0.6                  5.8062e-09            -2.6872e-09           -3.584e-09           
  -0.62                 1.2472e-08            -5.7686e-09           -6.374e-09           
  -0.64                 2.6986e-08            -1.2446e-08           -1.393e-08           
  -0.66                 5.842e-08             -2.6982e-08           -3.0716e-08          
  -0.68                 1.2596e-07            -5.8158e-08           -6.7404e-08          
  -0.7                  2.7276e-07            -1.2608e-07           -1.4594e-07          
  -0.72                 5.8754e-07            -2.7114e-07           -3.1608e-07          
  -0.74                 1.2606e-06            -5.8344e-07           -6.8008e-07          
  -0.76                 2.7052e-06            -1.2552e-06           -1.4456e-06          
  -0.78                 5.7116e-06            -2.6634e-06           -3.0488e-06          
  -0.8                  1.1944e-05            -5.6174e-06           -6.3368e-06          
  -0.82                 2.4318e-05            -1.157e-05            -1.2758e-05          
  -0.84                 4.7734e-05            -2.3122e-05           -2.4632e-05          
  -0.86                 8.9334e-05            -4.4266e-05           -4.5062e-05          
  -0.88                 0.00015686            -7.9786e-05           -7.708e-05           
  -0.9                  0.00025852            -0.00013512           -0.00012346          
  -0.92                 0.00039828            -0.00021382           -0.0001845           
  -0.94                 0.00057932            -0.00031878           -0.00026056          
  -0.96                 0.0008015             -0.00045118           -0.00035036          
  -0.98                 0.00106548            -0.00061206           -0.0004534           
  -1                    0.0013676             -0.00080012           -0.00056746          
END_DB

BEGIN_DB
 ICCAP_VAR ve         0              
 ICCAP_VAR vc         -4             

 #vb                    ie                    ib                    ic                   
  -0.4                  2.84e-12              2.02e-12              3.7e-11              
  -0.42                 5.98e-12              5.6e-13               2.82e-11             
  -0.44                 1.268e-11             -2.7e-12              -7.7e-11             
  -0.46                 2.694e-11             -9.28e-12             -1.64e-11            
  -0.48                 5.78e-11              -2.378e-11            -6.74e-11            
  -0.5                  1.2462e-10            -5.49e-11             -9.34e-11            
  -0.52                 2.6936e-10            -1.218e-10            -1.606e-10           
  -0.54                 5.7968e-10            -2.6534e-10           -5.02e-10            
  -0.56                 1.2448e-09            -5.7862e-10           -6.74e-10            
  -0.58                 2.6868e-09            -1.2362e-09           -1.377e-09           
  -0.6                  5.8148e-09            -2.6772e-09           -2.464e-09           
  -0.62                 1.2478e-08            -5.7508e-09           -7.266e-09           
  -0.64                 2.6994e-08            -1.2416e-08           -1.474e-08           
  -0.66                 5.8444e-08            -2.6898e-08           -3.189e-08           
  -0.68                 1.26e-07              -5.8044e-08           -6.7348e-08          
  -0.7                  2.7334e-07            -1.2572e-07           -1.4496e-07          
  -0.72                 5.89e-07              -2.7052e-07           -3.198e-07           
  -0.74                 1.2628e-06            -5.8182e-07           -6.8334e-07          
  -0.76                 2.707e-06             -1.2514e-06           -1.4534e-06          
  -0.78                 5.7292e-06            -2.6612e-06           -3.0626e-06          
  -0.8                  1.1958e-05            -5.6074e-06           -6.3694e-06          
  -0.82                 2.4342e-05            -1.1542e-05           -1.282e-05           
  -0.84                 4.7804e-05            -2.3074e-05           -2.4718e-05          
  -0.86                 8.945e-05             -4.42e-05             -4.5268e-05          
  -0.88                 0.00015712            -7.9684e-05           -7.7442e-05          
  -0.9                  0.000259              -0.000135             -0.00012396          
  -0.92                 0.00039912            -0.00021366           -0.00018546          
  -0.94                 0.00058074            -0.00031876           -0.00026198          
  -0.96                 0.00080356            -0.0004512            -0.00035244          
  -0.98                 0.00106836            -0.00061222           -0.00045616          
  -1                    0.0013716             -0.00080028           -0.00057108          
END_DB

