! VERSION = 6.00
BEGIN_HEADER
 ICCAP_INPUTS
  vb         V  B GROUND SMU_B 0.01 LIN        1    -0.4       -1         31   -0.02     
  ve         V  E GROUND SMU_E 0.1 CON        0
  vc         V  C GROUND SMU_C 0.1 LIN        2    -1         -4         4    -1        
 ICCAP_OUTPUTS
  ie         I  E GROUND SMU_E M
  ib         I  B GROUND SMU_B M
  ic         I  C GROUND SMU_C M
 ICCAP_VALUES
  TNOM "27"
  TEMP "27"
  TECHNO "SG13S"
  LOT "PQA701"
  WAFER "17"
  CHIP "d0406"
  MODULE "T323_pnpMPA"
  DEV_NAME "DUT6"
  DEV_GEOM_L "."
  DEV_GEOM_W "."
  NF_EMITTER "."
  REMARKS "pnpMPA Teststructure"
  TIMEDATE "Fri Oct 21 12:47:07     2022"
END_HEADER

BEGIN_DB
 ICCAP_VAR ve         0              
 ICCAP_VAR vc         -1             

 #vb                    ie                    ib                    ic                   
  -0.4                  4.26e-12              8.2e-13               -2.94e-11            
  -0.42                 9.18e-12              -1.68e-12             -3.72e-11            
  -0.44                 1.96e-11              -7.04e-12             -1.86e-11            
  -0.46                 4.17e-11              -1.816e-11            -9e-11               
  -0.48                 8.922e-11             -4.222e-11            1.046e-10            
  -0.5                  1.921e-10             -9.392e-11            -1.862e-10           
  -0.52                 4.1316e-10            -2.0426e-10           -1.716e-10           
  -0.54                 8.9282e-10            -4.433e-10            -3.038e-10           
  -0.56                 1.9162e-09            -9.5528e-10           -8.314e-10           
  -0.58                 4.1382e-09            -2.0516e-09           -2.0404e-09          
  -0.6                  8.9484e-09            -4.442e-09            -4.458e-09           
  -0.62                 1.9194e-08            -9.519e-09            -9.294e-09           
  -0.64                 4.1538e-08            -2.0532e-08           -2.0646e-08          
  -0.66                 8.9848e-08            -4.4462e-08           -4.588e-08           
  -0.68                 1.9398e-07            -9.599e-08            -9.7746e-08          
  -0.7                  4.2008e-07            -2.0764e-07           -2.1282e-07          
  -0.72                 9.0394e-07            -4.4764e-07           -4.5458e-07          
  -0.74                 1.9428e-06            -9.618e-07            -9.8086e-07          
  -0.76                 4.1608e-06            -2.0648e-06           -2.1008e-06          
  -0.78                 8.7822e-06            -4.3762e-06           -4.4028e-06          
  -0.8                  1.8314e-05            -9.1956e-06           -9.1354e-06          
  -0.82                 3.708e-05             -1.8796e-05           -1.828e-05           
  -0.84                 7.1956e-05            -3.7018e-05           -3.4918e-05          
  -0.86                 0.00013204            -6.9206e-05           -6.2838e-05          
  -0.88                 0.00022556            -0.00012076           -0.000104856         
  -0.9                  0.00035954            -0.00019678           -0.00016274          
  -0.92                 0.00053462            -0.00029902           -0.00023566          
  -0.94                 0.00075098            -0.00042858           -0.00032236          
  -0.96                 0.0010054             -0.00058462           -0.00042096          
  -0.98                 0.0012966             -0.0007665            -0.00053006          
  -1                    0.0016192             -0.00097194           -0.00064738          
END_DB

BEGIN_DB
 ICCAP_VAR ve         0              
 ICCAP_VAR vc         -2             

 #vb                    ie                    ib                    ic                   
  -0.4                  4.4e-12               1.42e-12              -1.32e-11            
  -0.42                 9.16e-12              -1.26e-12             5.32e-11             
  -0.44                 1.958e-11             -6.54e-12             1.42e-11             
  -0.46                 4.16e-11              -1.768e-11            -6.02e-11            
  -0.48                 8.93e-11              -4.17e-11             -9.1e-11             
  -0.5                  1.9226e-10            -9.334e-11            -1.464e-10           
  -0.52                 4.1326e-10            -2.0314e-10           -1.988e-10           
  -0.54                 8.932e-10             -4.4168e-10           -4.648e-10           
  -0.56                 1.9164e-09            -9.5304e-10           -8.946e-10           
  -0.58                 4.1354e-09            -2.0468e-09           -2.02e-09            
  -0.6                  8.956e-09             -4.4238e-09           -4.494e-09           
  -0.62                 1.9202e-08            -9.4882e-09           -9.378e-09           
  -0.64                 4.1546e-08            -2.0464e-08           -2.0814e-08          
  -0.66                 8.9938e-08            -4.4362e-08           -4.5464e-08          
  -0.68                 1.9396e-07            -9.5666e-08           -9.8484e-08          
  -0.7                  4.2016e-07            -2.0694e-07           -2.1078e-07          
  -0.72                 9.0432e-07            -4.4618e-07           -4.5844e-07          
  -0.74                 1.9428e-06            -9.586e-07            -9.8298e-07          
  -0.76                 4.1628e-06            -2.06e-06             -2.0982e-06          
  -0.78                 8.7798e-06            -4.3664e-06           -4.4202e-06          
  -0.8                  1.8326e-05            -9.178e-06            -9.162e-06           
  -0.82                 3.7112e-05            -1.8764e-05           -1.837e-05           
  -0.84                 7.2036e-05            -3.6954e-05           -3.5074e-05          
  -0.86                 0.00013222            -6.9118e-05           -6.3102e-05          
  -0.88                 0.00022598            -0.00012062           -0.000105338         
  -0.9                  0.00036036            -0.00019666           -0.00016372          
  -0.92                 0.00053606            -0.00029894           -0.00023722          
  -0.94                 0.00075348            -0.0004287            -0.00032472          
  -0.96                 0.0010091             -0.00058468           -0.0004242           
  -0.98                 0.0013012             -0.00076684           -0.00053444          
  -1                    0.0016256             -0.00097212           -0.00065294          
END_DB

BEGIN_DB
 ICCAP_VAR ve         0              
 ICCAP_VAR vc         -3             

 #vb                    ie                    ib                    ic                   
  -0.4                  4.28e-12              1.5e-12               -6.2e-12             
  -0.42                 9.16e-12              -8.6e-13              4.38e-11             
  -0.44                 1.956e-11             -6.14e-12             2.52e-11             
  -0.46                 4.17e-11              -1.732e-11            1.9e-11              
  -0.48                 8.922e-11             -4.13e-11             -5.16e-11            
  -0.5                  1.9242e-10            -9.266e-11            -1.342e-10           
  -0.52                 4.137e-10             -2.0264e-10           -2.972e-10           
  -0.54                 8.9398e-10            -4.4052e-10           -4.634e-10           
  -0.56                 1.917e-09             -9.4966e-10           -1.0332e-09          
  -0.58                 4.14e-09              -2.0412e-09           -1.9834e-09          
  -0.6                  8.9548e-09            -4.4182e-09           -4.609e-09           
  -0.62                 1.9204e-08            -9.4752e-09           -9.666e-09           
  -0.64                 4.1562e-08            -2.0432e-08           -2.071e-08           
  -0.66                 9.0018e-08            -4.429e-08            -4.5402e-08          
  -0.68                 1.9432e-07            -9.5532e-08           -9.8514e-08          
  -0.7                  4.2096e-07            -2.0648e-07           -2.0958e-07          
  -0.72                 9.0446e-07            -4.4524e-07           -4.6064e-07          
  -0.74                 1.9434e-06            -9.5784e-07           -9.818e-07           
  -0.76                 4.165e-06             -2.056e-06            -2.103e-06           
  -0.78                 8.7888e-06            -4.3576e-06           -4.4304e-06          
  -0.8                  1.8346e-05            -9.1604e-06           -9.1816e-06          
  -0.82                 3.7138e-05            -1.8726e-05           -1.844e-05           
  -0.84                 7.2112e-05            -3.6904e-05           -3.5224e-05          
  -0.86                 0.0001324             -6.9048e-05           -6.3374e-05          
  -0.88                 0.00022642            -0.0001206            -0.000105878         
  -0.9                  0.00036126            -0.00019664           -0.0001646           
  -0.92                 0.0005377             -0.00029906           -0.00023862          
  -0.94                 0.00075572            -0.00042892           -0.00032686          
  -0.96                 0.00101234            -0.00058524           -0.00042718          
  -0.98                 0.001306              -0.0007677            -0.00053838          
  -1                    0.0016316             -0.0009731            -0.00065776          
END_DB

BEGIN_DB
 ICCAP_VAR ve         0              
 ICCAP_VAR vc         -4             

 #vb                    ie                    ib                    ic                   
  -0.4                  4.3e-12               1.9e-12               -1.472e-10           
  -0.42                 9.14e-12              -6.4e-13              -3.4e-11             
  -0.44                 1.958e-11             -5.9e-12              7.08e-11             
  -0.46                 4.162e-11             -1.704e-11            -2e-11               
  -0.48                 8.934e-11             -4.084e-11            -9.44e-11            
  -0.5                  1.9236e-10            -9.214e-11            -1.662e-10           
  -0.52                 4.1354e-10            -2.0188e-10           -1.124e-10           
  -0.54                 8.9388e-10            -4.3932e-10           -3.38e-10            
  -0.56                 1.918e-09             -9.4694e-10           -1.028e-09           
  -0.58                 4.14e-09              -2.036e-09            -2.1426e-09          
  -0.6                  9.0304e-09            -4.4452e-09           -4.5706e-09          
  -0.62                 1.9196e-08            -9.4468e-09           -9.64e-09            
  -0.64                 4.1548e-08            -2.0398e-08           -2.0914e-08          
  -0.66                 9.0014e-08            -4.4162e-08           -4.5324e-08          
  -0.68                 1.942e-07             -9.532e-08            -9.8114e-08          
  -0.7                  4.2112e-07            -2.0612e-07           -2.1324e-07          
  -0.72                 9.0436e-07            -4.4426e-07           -4.5888e-07          
  -0.74                 1.9434e-06            -9.552e-07            -9.8484e-07          
  -0.76                 4.1676e-06            -2.0516e-06           -2.1144e-06          
  -0.78                 8.791e-06             -4.3484e-06           -4.4426e-06          
  -0.8                  1.8354e-05            -9.143e-06            -9.218e-06           
  -0.82                 3.7164e-05            -1.8696e-05           -1.8436e-05          
  -0.84                 7.2176e-05            -3.685e-05            -3.5306e-05          
  -0.86                 0.0001326             -6.8984e-05           -6.3642e-05          
  -0.88                 0.00022682            -0.00012054           -0.000106348         
  -0.9                  0.000362              -0.00019666           -0.00016534          
  -0.92                 0.00053892            -0.0002991            -0.00023992          
  -0.94                 0.00075772            -0.00042902           -0.0003286           
  -0.96                 0.0010153             -0.00058542           -0.00042982          
  -0.98                 0.0013102             -0.00076816           -0.00054196          
  -1                    0.0016368             -0.00097382           -0.00066234          
END_DB

