! VERSION = 6.00
BEGIN_HEADER
 ICCAP_INPUTS
  vb         V  B GROUND SMU_B 0.01 LIN        1    -0.4       -1         31   -0.02     
  ve         V  E GROUND SMU_E 0.1 CON        0
  vc         V  C GROUND SMU_C 0.1 LIN        2    -1         -4         4    -1        
 ICCAP_OUTPUTS
  ie         I  E GROUND SMU_E M
  ib         I  B GROUND SMU_B M
  ic         I  C GROUND SMU_C M
 ICCAP_VALUES
  TNOM "27"
  TEMP "27"
  TECHNO "SG13S"
  LOT "PQA701"
  WAFER "17"
  CHIP "d0406"
  MODULE "T323_pnpMPA"
  DEV_NAME "DUT7"
  DEV_GEOM_L "."
  DEV_GEOM_W "."
  NF_EMITTER "."
  REMARKS "pnpMPA Teststructure"
  TIMEDATE "Fri Oct 21 12:47:07     2022"
END_HEADER

BEGIN_DB
 ICCAP_VAR ve         0              
 ICCAP_VAR vc         -1             

 #vb                    ie                    ib                    ic                   
  -0.4                  2.78e-12              7.06e-12              1.02e-11             
  -0.42                 5.9e-12               5.46e-12              1.98e-11             
  -0.44                 1.264e-11             2.24e-12              6.66e-11             
  -0.46                 2.696e-11             -4.66e-12             1.332e-10            
  -0.48                 5.77e-11              -1.934e-11            2e-11                
  -0.5                  1.2438e-10            -5.092e-11            -1.64e-10            
  -0.52                 2.6764e-10            -1.1826e-10           -1.32e-10            
  -0.54                 5.783e-10             -2.642e-10            -2.31e-10            
  -0.56                 1.2452e-09            -5.7698e-10           -7.5e-10             
  -0.58                 2.6804e-09            -1.247e-09            -1.4072e-09          
  -0.6                  5.8018e-09            -2.7066e-09           -3.173e-09           
  -0.62                 1.2446e-08            -5.8144e-09           -6.414e-09           
  -0.64                 2.699e-08             -1.2564e-08           -1.4184e-08          
  -0.66                 5.8312e-08            -2.72e-08             -3.1606e-08          
  -0.68                 1.2568e-07            -5.8654e-08           -6.6424e-08          
  -0.7                  2.7254e-07            -1.2718e-07           -1.4568e-07          
  -0.72                 5.8488e-07            -2.7294e-07           -3.1284e-07          
  -0.74                 1.2524e-06            -5.8564e-07           -6.6828e-07          
  -0.76                 2.6702e-06            -1.2504e-06           -1.4194e-06          
  -0.78                 5.5614e-06            -2.623e-06            -2.94e-06            
  -0.8                  1.13456e-05           -5.3786e-06           -5.957e-06           
  -0.82                 2.2024e-05            -1.05778e-05          -1.1448e-05          
  -0.84                 4.026e-05             -1.9606e-05           -2.066e-05           
  -0.86                 6.8368e-05            -3.3872e-05           -3.4488e-05          
  -0.88                 0.000107144           -5.4108e-05           -5.3108e-05          
  -0.9                  0.0001567             -8.0618e-05           -7.6124e-05          
  -0.92                 0.00021562            -0.000112838          -0.00010285          
  -0.94                 0.00028248            -0.00015002           -0.00013238          
  -0.96                 0.0003552             -0.0001915            -0.00016388          
  -0.98                 0.00043442            -0.00023754           -0.00019742          
  -1                    0.00051796            -0.00028644           -0.00023194          
END_DB

BEGIN_DB
 ICCAP_VAR ve         0              
 ICCAP_VAR vc         -2             

 #vb                    ie                    ib                    ic                   
  -0.4                  2.84e-12              8.46e-12              -5.72e-11            
  -0.42                 5.98e-12              6.84e-12              -9.12e-11            
  -0.44                 1.276e-11             3.66e-12              -5.6e-12             
  -0.46                 2.702e-11             -3.14e-12             -5.98e-11            
  -0.48                 5.78e-11              -1.786e-11            -2.08e-11            
  -0.5                  1.2448e-10            -4.928e-11            -1.642e-10           
  -0.52                 2.6754e-10            -1.1638e-10           -2.114e-10           
  -0.54                 5.7862e-10            -2.6178e-10           -4.65e-10            
  -0.56                 1.2426e-09            -5.737e-10            -7.614e-10           
  -0.58                 2.682e-09             -1.2418e-09           -1.4292e-09          
  -0.6                  5.809e-09             -2.6962e-09           -3.107e-09           
  -0.62                 1.2462e-08            -5.7962e-09           -6.846e-09           
  -0.64                 2.695e-08             -1.2508e-08           -1.4358e-08          
  -0.66                 5.8332e-08            -2.7136e-08           -3.1352e-08          
  -0.68                 1.2582e-07            -5.8442e-08           -6.7178e-08          
  -0.7                  2.724e-07             -1.2646e-07           -1.4344e-07          
  -0.72                 5.8542e-07            -2.7236e-07           -3.125e-07           
  -0.74                 1.2542e-06            -5.8366e-07           -6.6804e-07          
  -0.76                 2.6694e-06            -1.2474e-06           -1.427e-06           
  -0.78                 5.5616e-06            -2.6104e-06           -2.951e-06           
  -0.8                  1.1337e-05            -5.3626e-06           -5.98e-06            
  -0.82                 2.2034e-05            -1.05468e-05          -1.1506e-05          
  -0.84                 4.0276e-05            -1.955e-05            -2.0702e-05          
  -0.86                 6.8418e-05            -3.3788e-05           -3.4602e-05          
  -0.88                 0.00010729            -5.3992e-05           -5.333e-05           
  -0.9                  0.000157              -8.0494e-05           -7.6562e-05          
  -0.92                 0.0002159             -0.000112506          -0.00010337          
  -0.94                 0.00028258            -0.00014964           -0.00013294          
  -0.96                 0.00035586            -0.0001913            -0.00016474          
  -0.98                 0.00043524            -0.00023672           -0.00019846          
  -1                    0.00051926            -0.00028566           -0.00023316          
END_DB

BEGIN_DB
 ICCAP_VAR ve         0              
 ICCAP_VAR vc         -3             

 #vb                    ie                    ib                    ic                   
  -0.4                  2.88e-12              9.38e-12              1.18e-11             
  -0.42                 5.96e-12              7.8e-12               -6.84e-11            
  -0.44                 1.262e-11             4.64e-12              6.4e-11              
  -0.46                 2.692e-11             -2.18e-12             -6.8e-12             
  -0.48                 5.784e-11             -1.676e-11            -1.102e-10           
  -0.5                  1.245e-10             -4.802e-11            -1.372e-10           
  -0.52                 2.6782e-10            -1.1508e-10           -1.75e-10            
  -0.54                 5.79e-10              -2.6012e-10           -3.674e-10           
  -0.56                 1.2434e-09            -5.7088e-10           -6.58e-10            
  -0.58                 2.6854e-09            -1.2368e-09           -1.5482e-09          
  -0.6                  5.8068e-09            -2.6892e-09           -3.0826e-09          
  -0.62                 1.2466e-08            -5.7804e-09           -6.54e-09            
  -0.64                 2.6962e-08            -1.2484e-08           -1.4454e-08          
  -0.66                 5.8414e-08            -2.7048e-08           -3.1498e-08          
  -0.68                 1.2596e-07            -5.8366e-08           -6.732e-08           
  -0.7                  2.729e-07             -1.2616e-07           -1.4434e-07          
  -0.72                 5.8572e-07            -2.7146e-07           -3.1094e-07          
  -0.74                 1.2552e-06            -5.818e-07            -6.7262e-07          
  -0.76                 2.671e-06             -1.2428e-06           -1.4254e-06          
  -0.78                 5.5684e-06            -2.6036e-06           -2.9618e-06          
  -0.8                  1.1346e-05            -5.348e-06            -5.9978e-06          
  -0.82                 2.2046e-05            -1.05186e-05          -1.1566e-05          
  -0.84                 4.031e-05             -1.9492e-05           -2.075e-05           
  -0.86                 6.845e-05             -3.3714e-05           -3.4732e-05          
  -0.88                 0.00010736            -5.3852e-05           -5.351e-05           
  -0.9                  0.00015714            -8.0276e-05           -7.6876e-05          
  -0.92                 0.00021604            -0.000112192          -0.000103736         
  -0.94                 0.0002827             -0.00014934           -0.00013348          
  -0.96                 0.0003564             -0.00019102           -0.00016556          
  -0.98                 0.00043594            -0.00023642           -0.00019922          
  -1                    0.00051914            -0.000285             -0.00023398          
END_DB

BEGIN_DB
 ICCAP_VAR ve         0              
 ICCAP_VAR vc         -4             

 #vb                    ie                    ib                    ic                   
  -0.4                  2.76e-12              1.03e-11              -9.12e-11            
  -0.42                 5.88e-12              8.74e-12              -8.38e-11            
  -0.44                 1.27e-11              5.4e-12               -1.284e-10           
  -0.46                 2.702e-11             -1.4e-12              -2.04e-11            
  -0.48                 5.784e-11             -1.58e-11             -1.596e-10           
  -0.5                  1.2464e-10            -4.714e-11            -1.35e-10            
  -0.52                 2.6818e-10            -1.1396e-10           -2.702e-10           
  -0.54                 5.7956e-10            -2.5864e-10           -4.068e-10           
  -0.56                 1.2454e-09            -5.6888e-10           -7.094e-10           
  -0.58                 2.6866e-09            -1.2334e-09           -1.3202e-09          
  -0.6                  5.8188e-09            -2.6826e-09           -3.285e-09           
  -0.62                 1.2488e-08            -5.767e-09            -5.99e-09            
  -0.64                 2.7008e-08            -1.246e-08            -1.3738e-08          
  -0.66                 5.85e-08              -2.6974e-08           -3.074e-08           
  -0.68                 1.262e-07             -5.8198e-08           -6.8266e-08          
  -0.7                  2.7322e-07            -1.2584e-07           -1.4744e-07          
  -0.72                 5.8646e-07            -2.709e-07            -3.1438e-07          
  -0.74                 1.2564e-06            -5.803e-07            -6.702e-07           
  -0.76                 2.6732e-06            -1.24e-06             -1.4392e-06          
  -0.78                 5.574e-06             -2.598e-06            -2.9752e-06          
  -0.8                  1.13576e-05           -5.3382e-06           -6.0216e-06          
  -0.82                 2.2078e-05            -1.05004e-05          -1.1614e-05          
  -0.84                 4.0366e-05            -1.947e-05            -2.0882e-05          
  -0.86                 6.8598e-05            -3.367e-05            -3.4912e-05          
  -0.88                 0.000107588           -5.38e-05             -5.3756e-05          
  -0.9                  0.00015736            -8.0166e-05           -7.7182e-05          
  -0.92                 0.00021636            -0.000112126          -0.000104226         
  -0.94                 0.00028358            -0.00014922           -0.00013414          
  -0.96                 0.00035714            -0.00019064           -0.00016638          
  -0.98                 0.00043636            -0.00023594           -0.00020018          
  -1                    0.00052052            -0.00028524           -0.00023556          
END_DB

