! VERSION = 6.00
BEGIN_HEADER
 ICCAP_INPUTS
  vb         V  B GROUND SMU_B 0.01 LIN        1    -0.4       -1         31   -0.02     
  ve         V  E GROUND SMU_E 0.1 CON        0
  vc         V  C GROUND SMU_C 0.1 LIN        2    -1         -4         4    -1        
 ICCAP_OUTPUTS
  ie         I  E GROUND SMU_E M
  ib         I  B GROUND SMU_B M
  ic         I  C GROUND SMU_C M
 ICCAP_VALUES
  TNOM "27"
  TEMP "27"
  TECHNO "SG13S"
  LOT "PQA701"
  WAFER "17"
  CHIP "d0406"
  MODULE "T323_pnpMPA"
  DEV_NAME "DUT14"
  DEV_GEOM_L "."
  DEV_GEOM_W "."
  NF_EMITTER "."
  REMARKS "pnpMPA Teststructure"
  TIMEDATE "Fri Oct 21 12:47:07     2022"
END_HEADER

BEGIN_DB
 ICCAP_VAR ve         0              
 ICCAP_VAR vc         -1             

 #vb                    ie                    ib                    ic                   
  -0.4                  1.02e-12              1.02e-12              -1.532e-10           
  -0.42                 1.98e-12              6e-13                 1.052e-10            
  -0.44                 4.28e-12              -3.2e-13              -9.68e-11            
  -0.46                 9.04e-12              -2.2e-12              4.52e-11             
  -0.48                 1.912e-11             -6.24e-12             1.278e-10            
  -0.5                  4.098e-11             -1.46e-11             3.92e-11             
  -0.52                 8.78e-11              -3.242e-11            4e-12                
  -0.54                 1.8868e-10            -7.04e-11             -1.382e-10           
  -0.56                 4.051e-10             -1.5076e-10           -2.36e-10            
  -0.58                 8.7062e-10            -3.2282e-10           -3.838e-10           
  -0.6                  1.8726e-09            -6.9478e-10           -1.024e-09           
  -0.62                 4.0148e-09            -1.4752e-09           -2.4134e-09          
  -0.64                 8.6456e-09            -3.1682e-09           -5.3518e-09          
  -0.66                 1.8702e-08            -6.8374e-09           -1.2212e-08          
  -0.68                 4.0272e-08            -1.4676e-08           -2.5168e-08          
  -0.7                  8.6922e-08            -3.1692e-08           -5.5198e-08          
  -0.72                 1.8686e-07            -6.808e-08            -1.1684e-07          
  -0.74                 4.0026e-07            -1.4612e-07           -2.5532e-07          
  -0.76                 8.519e-07             -3.1228e-07           -5.35e-07            
  -0.78                 1.7822e-06            -6.579e-07            -1.12372e-06         
  -0.8                  3.6582e-06            -1.3694e-06           -2.2896e-06          
  -0.82                 7.2364e-06            -2.7634e-06           -4.4714e-06          
  -0.84                 1.3638e-05            -5.3542e-06           -8.2914e-06          
  -0.86                 2.427e-05             -9.834e-06            -1.4444e-05          
  -0.88                 4.032e-05             -1.6922e-05           -2.3394e-05          
  -0.9                  6.2686e-05            -2.7294e-05           -3.5444e-05          
  -0.92                 9.1504e-05            -4.1202e-05           -5.0342e-05          
  -0.94                 0.00012642            -5.8758e-05           -6.7692e-05          
  -0.96                 0.00016674            -7.9732e-05           -8.71e-05            
  -0.98                 0.00021232            -0.000104166          -0.000108296         
  -1                    0.00026236            -0.00013144           -0.00013086          
END_DB

BEGIN_DB
 ICCAP_VAR ve         0              
 ICCAP_VAR vc         -2             

 #vb                    ie                    ib                    ic                   
  -0.4                  9e-13                 1.3e-12               -8.6e-11             
  -0.42                 2e-12                 8.2e-13               -3.22e-11            
  -0.44                 4.3e-12               -6e-14                -1e-12               
  -0.46                 9.16e-12              -1.92e-12             1.084e-10            
  -0.48                 1.918e-11             -5.86e-12             2.98e-11             
  -0.5                  4.11e-11              -1.426e-11            -1.478e-10           
  -0.52                 8.782e-11             -3.192e-11            -9.66e-11            
  -0.54                 1.8886e-10            -6.972e-11            -2.62e-11            
  -0.56                 4.0552e-10            -1.5008e-10           -3.39e-10            
  -0.58                 8.7108e-10            -3.2156e-10           -4.654e-10           
  -0.6                  1.8752e-09            -6.9194e-10           -1.1628e-09          
  -0.62                 4.0172e-09            -1.467e-09            -2.602e-09           
  -0.64                 8.6526e-09            -3.1512e-09           -5.3766e-09          
  -0.66                 1.873e-08             -6.7942e-09           -1.1484e-08          
  -0.68                 4.0318e-08            -1.4592e-08           -2.5332e-08          
  -0.7                  8.7046e-08            -3.1512e-08           -5.5578e-08          
  -0.72                 1.871e-07             -6.7612e-08           -1.1856e-07          
  -0.74                 4.0072e-07            -1.4512e-07           -2.5632e-07          
  -0.76                 8.5296e-07            -3.1014e-07           -5.4362e-07          
  -0.78                 1.782e-06             -6.544e-07            -1.12582e-06         
  -0.8                  3.6662e-06            -1.3628e-06           -2.3002e-06          
  -0.82                 7.252e-06             -2.7522e-06           -4.499e-06           
  -0.84                 1.3684e-05            -5.339e-06            -8.3446e-06          
  -0.86                 2.4382e-05            -9.8324e-06           -1.4548e-05          
  -0.88                 4.0554e-05            -1.6938e-05           -2.3638e-05          
  -0.9                  6.3156e-05            -2.7362e-05           -3.5806e-05          
  -0.92                 9.2202e-05            -4.1318e-05           -5.0818e-05          
  -0.94                 0.0001274             -5.9012e-05           -6.8452e-05          
  -0.96                 0.00016874            -8.0378e-05           -8.8348e-05          
  -0.98                 0.00021488            -0.00010503           -0.000109966         
  -1                    0.00026568            -0.00013278           -0.00013296          
END_DB

BEGIN_DB
 ICCAP_VAR ve         0              
 ICCAP_VAR vc         -3             

 #vb                    ie                    ib                    ic                   
  -0.4                  1.18e-12              1.46e-12              -3.98e-11            
  -0.42                 2.04e-12              1.02e-12              -5.68e-11            
  -0.44                 4.26e-12              -1e-13                -1.28e-11            
  -0.46                 9.1e-12               -1.76e-12             -3.38e-11            
  -0.48                 1.932e-11             -5.66e-12             9.6e-11              
  -0.5                  4.104e-11             -1.4e-11              -3.38e-11            
  -0.52                 8.788e-11             -3.158e-11            -2.9e-11             
  -0.54                 1.8922e-10            -6.928e-11            -1.204e-10           
  -0.56                 4.0586e-10            -1.4902e-10           -2.55e-10            
  -0.58                 8.7288e-10            -3.1994e-10           -6.082e-10           
  -0.6                  1.8778e-09            -6.876e-10            -1.0208e-09          
  -0.62                 4.022e-09             -1.4604e-09           -2.5066e-09          
  -0.64                 8.6656e-09            -3.1364e-09           -5.07e-09            
  -0.66                 1.8726e-08            -6.7612e-09           -1.1706e-08          
  -0.68                 4.0358e-08            -1.4524e-08           -2.5956e-08          
  -0.7                  8.7182e-08            -3.1352e-08           -5.523e-08           
  -0.72                 1.8718e-07            -6.739e-08            -1.2038e-07          
  -0.74                 4.0076e-07            -1.4422e-07           -2.568e-07           
  -0.76                 8.5316e-07            -3.0892e-07           -5.4052e-07          
  -0.78                 1.7852e-06            -6.5158e-07           -1.1354e-06          
  -0.8                  3.6696e-06            -1.3564e-06           -2.3108e-06          
  -0.82                 7.2646e-06            -2.742e-06            -4.5256e-06          
  -0.84                 1.371e-05             -5.3226e-06           -8.3988e-06          
  -0.86                 2.4448e-05            -9.8092e-06           -1.464e-05           
  -0.88                 4.071e-05             -1.6918e-05           -2.3736e-05          
  -0.9                  6.3482e-05            -2.7398e-05           -3.6106e-05          
  -0.92                 9.2802e-05            -4.15e-05             -5.1284e-05          
  -0.94                 0.00012848            -5.9348e-05           -6.9204e-05          
  -0.96                 0.00017012            -8.0704e-05           -8.9296e-05          
  -0.98                 0.00021674            -0.000105738          -0.000111278         
  -1                    0.00026864            -0.00013394           -0.00013476          
END_DB

BEGIN_DB
 ICCAP_VAR ve         0              
 ICCAP_VAR vc         -4             

 #vb                    ie                    ib                    ic                   
  -0.4                  1.12e-12              1.54e-12              -2e-13               
  -0.42                 2.06e-12              1.1e-12               9.64e-11             
  -0.44                 4.28e-12              2.4e-13               -3.52e-11            
  -0.46                 9.08e-12              -1.58e-12             -1.234e-10           
  -0.48                 1.93e-11              -5.5e-12              -4.38e-11            
  -0.5                  4.12e-11              -1.368e-11            1.74e-11             
  -0.52                 8.782e-11             -3.122e-11            -8.86e-11            
  -0.54                 1.8912e-10            -6.848e-11            -9.46e-11            
  -0.56                 4.0616e-10            -1.4794e-10           -2.964e-10           
  -0.58                 8.7396e-10            -3.1768e-10           -5.474e-10           
  -0.6                  1.8792e-09            -6.8324e-10           -1.2248e-09          
  -0.62                 4.0268e-09            -1.4528e-09           -2.5318e-09          
  -0.64                 8.6788e-09            -3.1184e-09           -5.523e-09           
  -0.66                 1.8786e-08            -6.7286e-09           -1.1704e-08          
  -0.68                 4.046e-08             -1.4446e-08           -2.6136e-08          
  -0.7                  8.7342e-08            -3.1206e-08           -5.6362e-08          
  -0.72                 1.8774e-07            -6.7034e-08           -1.1734e-07          
  -0.74                 4.0188e-07            -1.4358e-07           -2.5622e-07          
  -0.76                 8.5524e-07            -3.0728e-07           -5.4166e-07          
  -0.78                 1.789e-06             -6.4814e-07           -1.1374e-06          
  -0.8                  3.6752e-06            -1.3504e-06           -2.3284e-06          
  -0.82                 7.2764e-06            -2.73e-06             -4.542e-06           
  -0.84                 1.3736e-05            -5.2988e-06           -8.4414e-06          
  -0.86                 2.4504e-05            -9.7732e-06           -1.4758e-05          
  -0.88                 4.0768e-05            -1.6864e-05           -2.3868e-05          
  -0.9                  6.3576e-05            -2.7318e-05           -3.6234e-05          
  -0.92                 9.2988e-05            -4.1376e-05           -5.1596e-05          
  -0.94                 0.00012882            -5.9246e-05           -6.9624e-05          
  -0.96                 0.00017046            -8.0666e-05           -8.9782e-05          
  -0.98                 0.00021756            -0.000105678          -0.000112048         
  -1                    0.00026924            -0.0001338            -0.00013566          
END_DB

