! VERSION = 6.00
BEGIN_HEADER
 ICCAP_INPUTS
  vb         V  B GROUND SMU_B 0.01 LIN        1    -0.4       -1         31   -0.02     
  ve         V  E GROUND SMU_E 0.1 CON        0
  vc         V  C GROUND SMU_C 0.1 LIN        2    -1         -4         4    -1        
 ICCAP_OUTPUTS
  ie         I  E GROUND SMU_E M
  ib         I  B GROUND SMU_B M
  ic         I  C GROUND SMU_C M
 ICCAP_VALUES
  TNOM "27"
  TEMP "27"
  TECHNO "SG13S"
  LOT "PQA701"
  WAFER "17"
  CHIP "d0406"
  MODULE "T323_pnpMPA"
  DEV_NAME "DUT2"
  DEV_GEOM_L "."
  DEV_GEOM_W "."
  NF_EMITTER "."
  REMARKS "pnpMPA Teststructure"
  TIMEDATE "Fri Oct 21 12:47:07     2022"
END_HEADER

BEGIN_DB
 ICCAP_VAR ve         0              
 ICCAP_VAR vc         -1             

 #vb                    ie                    ib                    ic                   
  -0.4                  1.162e-11             -2.42e-12             3.88e-11             
  -0.42                 2.422e-11             -9.04e-12             -6.72e-11            
  -0.44                 5.132e-11             -2.296e-11            -3.28e-11            
  -0.46                 1.0898e-10            -5.22e-11             -9.78e-11            
  -0.48                 2.315e-10             -1.1338e-10           -9.68e-11            
  -0.5                  4.9588e-10            -2.4526e-10           -2.094e-10           
  -0.52                 1.06352e-09           -5.26e-10             -4.648e-10           
  -0.54                 2.2918e-09            -1.13246e-09          -1.1304e-09          
  -0.56                 4.9216e-09            -2.4194e-09           -2.5788e-09          
  -0.58                 1.05906e-08           -5.214e-09            -5.3794e-09          
  -0.6                  2.2904e-08            -1.1226e-08           -1.153e-08           
  -0.62                 4.9148e-08            -2.4058e-08           -2.4436e-08          
  -0.64                 1.06182e-07           -5.1894e-08           -5.3806e-08          
  -0.66                 2.3026e-07            -1.1226e-07           -1.1838e-07          
  -0.68                 4.9576e-07            -2.4174e-07           -2.5482e-07          
  -0.7                  1.07272e-06           -5.2348e-07           -5.4598e-07          
  -0.72                 2.3056e-06            -1.12502e-06          -1.178e-06           
  -0.74                 4.9452e-06            -2.4144e-06           -2.5266e-06          
  -0.76                 1.05624e-05           -5.172e-06            -5.398e-06           
  -0.78                 2.2218e-05            -1.09202e-05          -1.13118e-05         
  -0.8                  4.6048e-05            -2.275e-05            -2.3296e-05          
  -0.82                 9.1932e-05            -4.5878e-05           -4.6064e-05          
  -0.84                 0.00017432            -8.8212e-05           -8.6174e-05          
  -0.86                 0.00030962            -0.00015936           -0.0001503           
  -0.88                 0.0005089             -0.00026686           -0.00024192          
  -0.9                  0.00077794            -0.00041628           -0.00036198          
  -0.92                 0.0011121             -0.00060636           -0.00050574          
  -0.94                 0.0015076             -0.0008365            -0.00067092          
  -0.96                 0.0019546             -0.00110218           -0.0008521           
  -0.98                 0.0024506             -0.0014034            -0.00104762          
  -1                    0.0029846             -0.0017324            -0.0012526           
END_DB

BEGIN_DB
 ICCAP_VAR ve         0              
 ICCAP_VAR vc         -2             

 #vb                    ie                    ib                    ic                   
  -0.4                  1.152e-11             -1.92e-12             3.2e-11              
  -0.42                 2.442e-11             -8.42e-12             7.74e-11             
  -0.44                 5.126e-11             -2.232e-11            8.82e-11             
  -0.46                 1.085e-10             -5.128e-11            -5.58e-11            
  -0.48                 2.3134e-10            -1.1276e-10           -1.266e-10           
  -0.5                  4.968e-10             -2.4422e-10           -2.598e-10           
  -0.52                 1.06462e-09           -5.2526e-10           -5.74e-10            
  -0.54                 2.288e-09             -1.13078e-09          -1.137e-09           
  -0.56                 4.9246e-09            -2.4192e-09           -2.43e-09            
  -0.58                 1.05946e-08           -5.2004e-09           -5.361e-09           
  -0.6                  2.2934e-08            -1.12278e-08          -1.1764e-08          
  -0.62                 4.9274e-08            -2.4018e-08           -2.4752e-08          
  -0.64                 1.06366e-07           -5.182e-08            -5.4096e-08          
  -0.66                 2.3038e-07            -1.12176e-07          -1.179e-07           
  -0.68                 4.9672e-07            -2.4158e-07           -2.5688e-07          
  -0.7                  1.07358e-06           -5.2202e-07           -5.5168e-07          
  -0.72                 2.3068e-06            -1.12328e-06          -1.191e-06           
  -0.74                 4.9498e-06            -2.4086e-06           -2.5476e-06          
  -0.76                 1.05754e-05           -5.1602e-06           -5.419e-06           
  -0.78                 2.2234e-05            -1.0898e-05           -1.13452e-05         
  -0.8                  4.6094e-05            -2.2714e-05           -2.336e-05           
  -0.82                 9.2026e-05            -4.58e-05             -4.6222e-05          
  -0.84                 0.00017458            -8.8082e-05           -8.6556e-05          
  -0.86                 0.00031018            -0.0001592            -0.0001511           
  -0.88                 0.00051002            -0.0002667            -0.00024332          
  -0.9                  0.00078036            -0.00041592           -0.00036416          
  -0.92                 0.0011156             -0.00060644           -0.00050964          
  -0.94                 0.0015126             -0.00083652           -0.0006761           
  -0.96                 0.0019614             -0.00110204           -0.00085908          
  -0.98                 0.0024586             -0.0014032            -0.0010568           
  -1                    0.0029964             -0.001731             -0.0012644           
END_DB

BEGIN_DB
 ICCAP_VAR ve         0              
 ICCAP_VAR vc         -3             

 #vb                    ie                    ib                    ic                   
  -0.4                  1.168e-11             -1.66e-12             -4.22e-11            
  -0.42                 2.436e-11             -8.3e-12              2.06e-11             
  -0.44                 5.156e-11             -2.212e-11            -1.096e-10           
  -0.46                 1.091e-10             -5.118e-11            -2e-12               
  -0.48                 2.3188e-10            -1.1266e-10           -4.14e-11            
  -0.5                  4.9774e-10            -2.4436e-10           -1.97e-10            
  -0.52                 1.06608e-09           -5.247e-10            -4e-10               
  -0.54                 2.2902e-09            -1.12932e-09          -1.0706e-09          
  -0.56                 4.9294e-09            -2.4158e-09           -2.4998e-09          
  -0.58                 1.06166e-08           -5.1916e-09           -5.5058e-09          
  -0.6                  2.2964e-08            -1.1212e-08           -1.1734e-08          
  -0.62                 4.9314e-08            -2.3978e-08           -2.4882e-08          
  -0.64                 1.0638e-07            -5.1808e-08           -5.5358e-08          
  -0.66                 2.3022e-07            -1.12034e-07          -1.1592e-07          
  -0.68                 4.971e-07             -2.4088e-07           -2.5356e-07          
  -0.7                  1.0745e-06            -5.2148e-07           -5.4982e-07          
  -0.72                 2.3106e-06            -1.12056e-06          -1.1924e-06          
  -0.74                 4.9522e-06            -2.4042e-06           -2.5464e-06          
  -0.76                 1.05864e-05           -5.1488e-06           -5.4416e-06          
  -0.78                 2.2262e-05            -1.0877e-05           -1.13928e-05         
  -0.8                  4.6144e-05            -2.2676e-05           -2.3464e-05          
  -0.82                 9.2172e-05            -4.574e-05            -4.644e-05           
  -0.84                 0.0001749             -8.8028e-05           -8.6924e-05          
  -0.86                 0.00031104            -0.0001592            -0.00015186          
  -0.88                 0.0005115             -0.00026676           -0.00024472          
  -0.9                  0.00078304            -0.00041646           -0.00036664          
  -0.92                 0.00112018            -0.00060686           -0.0005132           
  -0.94                 0.0015186             -0.00083734           -0.00068118          
  -0.96                 0.0019704             -0.00110426           -0.00086648          
  -0.98                 0.0024706             -0.0014048            -0.00106556          
  -1                    0.003009              -0.0017336            -0.0012758           
END_DB

BEGIN_DB
 ICCAP_VAR ve         0              
 ICCAP_VAR vc         -4             

 #vb                    ie                    ib                    ic                   
  -0.4                  1.168e-11             -1.14e-12             -5.3e-11             
  -0.42                 2.432e-11             -7.96e-12             3.34e-11             
  -0.44                 5.154e-11             -2.178e-11            2.6e-11              
  -0.46                 1.09e-10              -5.072e-11            -8e-13               
  -0.48                 2.3208e-10            -1.1208e-10           -2.34e-10            
  -0.5                  4.9772e-10            -2.433e-10            -2.518e-10           
  -0.52                 1.06658e-09           -5.2302e-10           -4.812e-10           
  -0.54                 2.2916e-09            -1.12638e-09          -1.2686e-09          
  -0.56                 4.9344e-09            -2.4088e-09           -2.5794e-09          
  -0.58                 1.06206e-08           -5.1796e-09           -5.428e-09           
  -0.6                  2.298e-08             -1.119e-08            -1.1526e-08          
  -0.62                 4.9528e-08            -2.4046e-08           -2.4984e-08          
  -0.64                 1.06814e-07           -5.1756e-08           -5.5134e-08          
  -0.66                 2.3116e-07            -1.12016e-07          -1.1634e-07          
  -0.68                 4.9722e-07            -2.4048e-07           -2.5264e-07          
  -0.7                  1.07498e-06           -5.202e-07            -5.5292e-07          
  -0.72                 2.3114e-06            -1.11774e-06          -1.1924e-06          
  -0.74                 4.96e-06              -2.4002e-06           -2.547e-06           
  -0.76                 1.05944e-05           -5.1378e-06           -5.452e-06           
  -0.78                 2.2278e-05            -1.08542e-05          -1.1458e-05          
  -0.8                  4.6182e-05            -2.2632e-05           -2.3514e-05          
  -0.82                 9.2284e-05            -4.5686e-05           -4.6592e-05          
  -0.84                 0.00017524            -8.7966e-05           -8.733e-05           
  -0.86                 0.00031184            -0.00015918           -0.00015266          
  -0.88                 0.00051338            -0.00026706           -0.00024626          
  -0.9                  0.00078638            -0.0004171            -0.00036912          
  -0.92                 0.0011259             -0.0006086            -0.00051734          
  -0.94                 0.0015276             -0.00084012           -0.00068742          
  -0.96                 0.0019828             -0.00110794           -0.00087456          
  -0.98                 0.0024862             -0.00141              -0.00107642          
  -1                    0.0030282             -0.0017396            -0.0012888           
END_DB

