! VERSION = 6.00
BEGIN_HEADER
 ICCAP_INPUTS
  vb         V  B GROUND SMU_B 0.01 LIN        1    -0.4       -1         31   -0.02     
  ve         V  E GROUND SMU_E 0.1 CON        0
  vc         V  C GROUND SMU_C 0.1 LIN        2    -1         -4         4    -1        
 ICCAP_OUTPUTS
  ie         I  E GROUND SMU_E M
  ib         I  B GROUND SMU_B M
  ic         I  C GROUND SMU_C M
 ICCAP_VALUES
  TNOM "27"
  TEMP "27"
  TECHNO "SG13S"
  LOT "PQA701"
  WAFER "17"
  CHIP "d0406"
  MODULE "T323_pnpMPA"
  DEV_NAME "DUT5"
  DEV_GEOM_L "."
  DEV_GEOM_W "."
  NF_EMITTER "."
  REMARKS "pnpMPA Teststructure"
  TIMEDATE "Fri Oct 21 12:47:07     2022"
END_HEADER

BEGIN_DB
 ICCAP_VAR ve         0              
 ICCAP_VAR vc         -1             

 #vb                    ie                    ib                    ic                   
  -0.4                  7.14e-12              -1.26e-12             -7.71e-10            
  -0.42                 1.456e-11             -4.58e-12             -6.666e-10           
  -0.44                 3.004e-11             -1.108e-11            -6.274e-10           
  -0.46                 6.248e-11             -2.45e-11             -6.104e-10           
  -0.48                 1.3158e-10            -5.212e-11            -6.818e-10           
  -0.5                  2.8018e-10            -1.1052e-10           -6.622e-10           
  -0.52                 5.9736e-10            -2.3328e-10           -9.154e-10           
  -0.54                 1.2794e-09            -4.965e-10            -1.3242e-09          
  -0.56                 2.7426e-09            -1.0553e-09           -2.0814e-09          
  -0.58                 5.8998e-09            -2.2438e-09           -3.91e-09            
  -0.6                  1.2724e-08            -4.8192e-09           -8.278e-09           
  -0.62                 2.7276e-08            -1.0278e-08           -1.7564e-08          
  -0.64                 5.886e-08             -2.2084e-08           -3.6694e-08          
  -0.66                 1.2726e-07            -4.7616e-08           -7.8984e-08          
  -0.68                 2.7406e-07            -1.02318e-07          -1.6964e-07          
  -0.7                  5.9184e-07            -2.2062e-07           -3.6894e-07          
  -0.72                 1.265e-06             -4.7102e-07           -7.8796e-07          
  -0.74                 2.6834e-06            -1.0021e-06           -1.6846e-06          
  -0.76                 5.63e-06              -2.107e-06            -3.5294e-06          
  -0.78                 1.1418e-05            -4.3006e-06           -7.1276e-06          
  -0.8                  2.2282e-05            -8.4616e-06           -1.384e-05           
  -0.82                 4.059e-05             -1.5582e-05           -2.4974e-05          
  -0.84                 6.8356e-05            -2.6686e-05           -4.1726e-05          
  -0.86                 0.00010651            -4.2274e-05           -6.4248e-05          
  -0.88                 0.00015414            -6.222e-05            -9.1814e-05          
  -0.9                  0.00020988            -8.6224e-05           -0.0001236           
  -0.92                 0.000272              -0.00011388           -0.0001585           
  -0.94                 0.00034066            -0.00014426           -0.00019562          
  -0.96                 0.00041188            -0.00017742           -0.00023454          
  -0.98                 0.00048814            -0.00021312           -0.00027502          
  -1                    0.00056778            -0.00025212           -0.00031652          
END_DB

BEGIN_DB
 ICCAP_VAR ve         0              
 ICCAP_VAR vc         -2             

 #vb                    ie                    ib                    ic                   
  -0.4                  7.32e-12              -1e-12                -1.6582e-09          
  -0.42                 1.454e-11             -4.2e-12              -1.508e-09           
  -0.44                 3.008e-11             -1.084e-11            -1.4444e-09          
  -0.46                 6.254e-11             -2.406e-11            -1.3452e-09          
  -0.48                 1.3178e-10            -5.152e-11            -1.3178e-09          
  -0.5                  2.806e-10             -1.0972e-10           -1.1936e-09          
  -0.52                 5.9808e-10            -2.322e-10            -1.3558e-09          
  -0.54                 1.2806e-09            -4.9564e-10           -1.59e-09            
  -0.56                 2.7508e-09            -1.05184e-09          -2.4966e-09          
  -0.58                 5.917e-09             -2.2444e-09           -4.5354e-09          
  -0.6                  1.2744e-08            -4.8016e-09           -8.334e-09           
  -0.62                 2.7314e-08            -1.02442e-08          -1.7634e-08          
  -0.64                 5.8944e-08            -2.1992e-08           -3.7438e-08          
  -0.66                 1.2742e-07            -4.7462e-08           -8.0404e-08          
  -0.68                 2.7412e-07            -1.0195e-07           -1.7476e-07          
  -0.7                  5.9198e-07            -2.1942e-07           -3.7074e-07          
  -0.72                 1.2654e-06            -4.6914e-07           -7.9766e-07          
  -0.74                 2.6876e-06            -9.9754e-07           -1.6966e-06          
  -0.76                 5.6382e-06            -2.0982e-06           -3.5428e-06          
  -0.78                 1.1444e-05            -4.2852e-06           -7.167e-06           
  -0.8                  2.2328e-05            -8.4294e-06           -1.3928e-05          
  -0.82                 4.0696e-05            -1.5554e-05           -2.5154e-05          
  -0.84                 6.858e-05             -2.661e-05            -4.2004e-05          
  -0.86                 0.000106862           -4.2208e-05           -6.4588e-05          
  -0.88                 0.00015446            -6.2128e-05           -9.238e-05           
  -0.9                  0.00021082            -8.6304e-05           -0.00012452          
  -0.92                 0.00027342            -0.00011369           -0.0001595           
  -0.94                 0.00034088            -0.00014418           -0.00019686          
  -0.96                 0.00041304            -0.00017722           -0.00023614          
  -0.98                 0.00048926            -0.00021282           -0.00027642          
  -1                    0.00057012            -0.0002508            -0.0003187           
END_DB

BEGIN_DB
 ICCAP_VAR ve         0              
 ICCAP_VAR vc         -3             

 #vb                    ie                    ib                    ic                   
  -0.4                  7.24e-12              -6.6e-13              -1.9268e-09          
  -0.42                 1.458e-11             -3.94e-12             -1.6102e-09          
  -0.44                 3.014e-11             -1.052e-11            -1.583e-09           
  -0.46                 6.272e-11             -2.368e-11            -1.4254e-09          
  -0.48                 1.3198e-10            -5.126e-11            -1.4518e-09          
  -0.5                  2.806e-10             -1.0908e-10           -1.6384e-09          
  -0.52                 5.9858e-10            -2.3116e-10           -1.6192e-09          
  -0.54                 1.2814e-09            -4.9216e-10           -2.0218e-09          
  -0.56                 2.7504e-09            -1.0466e-09           -2.7672e-09          
  -0.58                 5.9152e-09            -2.2294e-09           -4.7056e-09          
  -0.6                  1.2762e-08            -4.78e-09             -8.584e-09           
  -0.62                 2.7356e-08            -1.0202e-08           -1.7842e-08          
  -0.64                 5.9068e-08            -2.1894e-08           -3.7178e-08          
  -0.66                 1.2764e-07            -4.7284e-08           -8.122e-08           
  -0.68                 2.7484e-07            -1.0161e-07           -1.7594e-07          
  -0.7                  5.934e-07             -2.1882e-07           -3.7672e-07          
  -0.72                 1.2682e-06            -4.6758e-07           -7.9892e-07          
  -0.74                 2.6946e-06            -9.9548e-07           -1.6994e-06          
  -0.76                 5.6496e-06            -2.091e-06            -3.562e-06           
  -0.78                 1.1462e-05            -4.2698e-06           -7.2032e-06          
  -0.8                  2.235e-05             -8.3976e-06           -1.3976e-05          
  -0.82                 4.0744e-05            -1.5484e-05           -2.5274e-05          
  -0.84                 6.8638e-05            -2.65e-05             -4.2142e-05          
  -0.86                 0.00010686            -4.2026e-05           -6.49e-05            
  -0.88                 0.00015456            -6.1772e-05           -9.2656e-05          
  -0.9                  0.0002105             -8.5814e-05           -0.0001248           
  -0.92                 0.00027328            -0.000113218          -0.00016008          
  -0.94                 0.00034142            -0.00014366           -0.00019772          
  -0.96                 0.00041384            -0.00017726           -0.00023718          
  -0.98                 0.00049084            -0.00021268           -0.00027864          
  -1                    0.00057108            -0.00025032           -0.00032064          
END_DB

BEGIN_DB
 ICCAP_VAR ve         0              
 ICCAP_VAR vc         -4             

 #vb                    ie                    ib                    ic                   
  -0.4                  7.26e-12              -5.8e-13              -1.8192e-09          
  -0.42                 1.458e-11             -3.84e-12             -1.7502e-09          
  -0.44                 3.024e-11             -1.032e-11            -1.6068e-09          
  -0.46                 6.29e-11              -2.356e-11            -1.4416e-09          
  -0.48                 1.3226e-10            -5.09e-11             -1.4602e-09          
  -0.5                  2.8124e-10            -1.087e-10            -1.5476e-09          
  -0.52                 6.0002e-10            -2.3036e-10           -1.6958e-09          
  -0.54                 1.284e-09             -4.9016e-10           -1.9832e-09          
  -0.56                 2.7544e-09            -1.04248e-09          -2.9498e-09          
  -0.58                 5.9262e-09            -2.2194e-09           -4.7614e-09          
  -0.6                  1.2794e-08            -4.763e-09            -8.95e-09            
  -0.62                 2.7396e-08            -1.01598e-08          -1.7824e-08          
  -0.64                 5.9156e-08            -2.1842e-08           -3.845e-08           
  -0.66                 1.2772e-07            -4.706e-08            -8.126e-08           
  -0.68                 2.7496e-07            -1.01126e-07          -1.7778e-07          
  -0.7                  5.9428e-07            -2.1806e-07           -3.785e-07           
  -0.72                 1.27e-06              -4.6582e-07           -8.0298e-07          
  -0.74                 2.694e-06             -9.9038e-07           -1.702e-06           
  -0.76                 5.6586e-06            -2.0836e-06           -3.5712e-06          
  -0.78                 1.1478e-05            -4.2514e-06           -7.2328e-06          
  -0.8                  2.239e-05             -8.3708e-06           -1.4026e-05          
  -0.82                 4.0802e-05            -1.5432e-05           -2.5342e-05          
  -0.84                 6.8768e-05            -2.6428e-05           -4.2322e-05          
  -0.86                 0.000107146           -4.19e-05             -6.5186e-05          
  -0.88                 0.00015476            -6.171e-05            -9.3096e-05          
  -0.9                  0.00021118            -8.5612e-05           -0.00012558          
  -0.92                 0.000274              -0.000113178          -0.00016108          
  -0.94                 0.00034278            -0.00014378           -0.00019902          
  -0.96                 0.00041622            -0.0001769            -0.00023908          
  -0.98                 0.00049246            -0.00021254           -0.00028056          
  -1                    0.0005731             -0.00025094           -0.00032302          
END_DB

