! VERSION = 6.00
BEGIN_HEADER
 ICCAP_INPUTS
  vb         V  B GROUND SMU_B 0.01 LIN        1    -0.4       -1         31   -0.02     
  ve         V  E GROUND SMU_E 0.1 CON        0
  vc         V  C GROUND SMU_C 0.1 SYNC       1 0 vb
 ICCAP_OUTPUTS
  ib         I  B GROUND SMU_B M
  ic         I  C GROUND SMU_C M
 ICCAP_VALUES
  TNOM "27"
  TEMP "27"
  TECHNO "SG13S"
  LOT "PQA701"
  WAFER "17"
  CHIP "d0406"
  MODULE "T323_pnpMPA"
  DEV_NAME "DUT5"
  DEV_GEOM_L "."
  DEV_GEOM_W "."
  NF_EMITTER "."
  REMARKS "pnpMPA Teststructure"
  TIMEDATE "Fri Oct 21 12:47:07     2022"
END_HEADER

BEGIN_DB
 ICCAP_VAR ve         0              

 #vb                    vc                    ib                    ic                   
  -0.4                  -0.4                  -1.52e-12             -8.338e-10           
  -0.42                 -0.42                 -4.84e-12             -7.29e-10            
  -0.44                 -0.44                 -1.148e-11            -6.91e-10            
  -0.46                 -0.46                 -2.476e-11            -6.704e-10           
  -0.48                 -0.48                 -5.25e-11             -6.984e-10           
  -0.5                  -0.5                  -1.1098e-10           -7.964e-10           
  -0.52                 -0.52                 -2.3424e-10           -8.856e-10           
  -0.54                 -0.54                 -4.9762e-10           -1.5414e-09          
  -0.56                 -0.56                 -1.05786e-09          -2.2612e-09          
  -0.58                 -0.58                 -2.2514e-09           -3.87e-09            
  -0.6                  -0.6                  -4.8316e-09           -8e-09               
  -0.62                 -0.62                 -1.03024e-08          -1.7304e-08          
  -0.64                 -0.64                 -2.213e-08            -3.7108e-08          
  -0.66                 -0.66                 -4.7758e-08           -7.927e-08           
  -0.68                 -0.68                 -1.02594e-07          -1.7226e-07          
  -0.7                  -0.7                  -2.208e-07            -3.7416e-07          
  -0.72                 -0.72                 -4.723e-07            -7.8976e-07          
  -0.74                 -0.74                 -1.0044e-06           -1.6788e-06          
  -0.76                 -0.76                 -2.1096e-06           -3.5158e-06          
  -0.78                 -0.78                 -4.3052e-06           -7.1258e-06          
  -0.8                  -0.8                  -8.4676e-06           -1.3836e-05          
  -0.82                 -0.82                 -1.5594e-05           -2.4962e-05          
  -0.84                 -0.84                 -2.6688e-05           -4.1612e-05          
  -0.86                 -0.86                 -4.2262e-05           -6.4174e-05          
  -0.88                 -0.88                 -6.2226e-05           -9.1728e-05          
  -0.9                  -0.9                  -8.623e-05            -0.00012336          
  -0.92                 -0.92                 -0.00011366           -0.00015808          
  -0.94                 -0.94                 -0.00014424           -0.00019534          
  -0.96                 -0.96                 -0.00017758           -0.00023428          
  -0.98                 -0.98                 -0.00021306           -0.0002749           
  -1                    -1                    -0.00025162           -0.00031682          
END_DB

