! VERSION = 6.00
BEGIN_HEADER
 ICCAP_INPUTS
  vb         V  B GROUND SMU_B 0.01 LIN        1    -0.4       -1         31   -0.02     
  ve         V  E GROUND SMU_E 0.1 CON        0
  vc         V  C GROUND SMU_C 0.1 SYNC       1 0 vb
 ICCAP_OUTPUTS
  ib         I  B GROUND SMU_B M
  ic         I  C GROUND SMU_C M
 ICCAP_VALUES
  TNOM "27"
  TEMP "27"
  TECHNO "SG13S"
  LOT "PQA701"
  WAFER "17"
  CHIP "d0406"
  MODULE "T323_pnpMPA"
  DEV_NAME "DUT8"
  DEV_GEOM_L "."
  DEV_GEOM_W "."
  NF_EMITTER "."
  REMARKS "pnpMPA Teststructure"
  TIMEDATE "Fri Oct 21 12:47:07     2022"
END_HEADER

BEGIN_DB
 ICCAP_VAR ve         0              

 #vb                    vc                    ib                    ic                   
  -0.4                  -0.4                  8.4e-13               4.4e-11              
  -0.42                 -0.42                 -7e-13                5.02e-11             
  -0.44                 -0.44                 -3.9e-12              5.62e-11             
  -0.46                 -0.46                 -1.074e-11            1.78e-11             
  -0.48                 -0.48                 -2.524e-11            7e-12                
  -0.5                  -0.5                  -5.664e-11            -1.358e-10           
  -0.52                 -0.52                 -1.2386e-10           -2.046e-10           
  -0.54                 -0.54                 -2.6952e-10           -2.168e-10           
  -0.56                 -0.56                 -5.8154e-10           -7.184e-10           
  -0.58                 -0.58                 -1.2508e-09           -1.2798e-09          
  -0.6                  -0.6                  -2.7074e-09           -3.0658e-09          
  -0.62                 -0.62                 -5.8186e-09           -6.66e-09            
  -0.64                 -0.64                 -1.2538e-08           -1.384e-08           
  -0.66                 -0.66                 -2.7182e-08           -3.0766e-08          
  -0.68                 -0.68                 -5.8688e-08           -6.6684e-08          
  -0.7                  -0.7                  -1.2708e-07           -1.437e-07           
  -0.72                 -0.72                 -2.7354e-07           -3.1284e-07          
  -0.74                 -0.74                 -5.8756e-07           -6.7268e-07          
  -0.76                 -0.76                 -1.2638e-06           -1.4404e-06          
  -0.78                 -0.78                 -2.6796e-06           -3.0288e-06          
  -0.8                  -0.8                  -5.6518e-06           -6.279e-06           
  -0.82                 -0.82                 -1.1632e-05           -1.2644e-05          
  -0.84                 -0.84                 -2.3248e-05           -2.4402e-05          
  -0.86                 -0.86                 -4.4466e-05           -4.459e-05           
  -0.88                 -0.88                 -8.0074e-05           -7.633e-05           
  -0.9                  -0.9                  -0.0001355            -0.00012202          
  -0.92                 -0.92                 -0.0002142            -0.0001823           
  -0.94                 -0.94                 -0.00031934           -0.00025724          
  -0.96                 -0.96                 -0.00045176           -0.00034578          
  -0.98                 -0.98                 -0.0006128            -0.00044704          
  -1                    -1                    -0.0008009            -0.00055918          
END_DB

