! VERSION = 6.00
BEGIN_HEADER
 ICCAP_INPUTS
  vb         V  B GROUND SMU_B 0.01 LIN        1    -0.4       -1         31   -0.02     
  ve         V  E GROUND SMU_E 0.1 CON        0
  vc         V  C GROUND SMU_C 0.1 LIN        2    -1         -4         4    -1        
 ICCAP_OUTPUTS
  ie         I  E GROUND SMU_E M
  ib         I  B GROUND SMU_B M
  ic         I  C GROUND SMU_C M
 ICCAP_VALUES
  TNOM "27"
  TEMP "27"
  TECHNO "SG13S"
  LOT "PQA701"
  WAFER "17"
  CHIP "d0406"
  MODULE "T323_pnpMPA"
  DEV_NAME "DUT9"
  DEV_GEOM_L "."
  DEV_GEOM_W "."
  NF_EMITTER "."
  REMARKS "pnpMPA Teststructure"
  TIMEDATE "Fri Oct 21 12:47:07     2022"
END_HEADER

BEGIN_DB
 ICCAP_VAR ve         0              
 ICCAP_VAR vc         -1             

 #vb                    ie                    ib                    ic                   
  -0.4                  3.54e-12              2e-13                 7.54e-11             
  -0.42                 7.24e-12              -1.44e-12             6.76e-11             
  -0.44                 1.502e-11             -4.72e-12             4.6e-11              
  -0.46                 3.194e-11             -1.134e-11            -4e-12               
  -0.48                 6.778e-11             -2.546e-11            8.3e-11              
  -0.5                  1.452e-10             -5.556e-11            -2.42e-11            
  -0.52                 3.0974e-10            -1.1852e-10           -1.124e-10           
  -0.54                 6.6614e-10            -2.5358e-10           -3.994e-10           
  -0.56                 1.4236e-09            -5.4078e-10           -8.324e-10           
  -0.58                 3.063e-09             -1.1522e-09           -1.959e-09           
  -0.6                  6.6178e-09            -2.4762e-09           -3.66e-09            
  -0.62                 1.4178e-08            -5.2866e-09           -8.248e-09           
  -0.64                 3.0556e-08            -1.13556e-08          -1.8058e-08          
  -0.66                 6.6048e-08            -2.4448e-08           -4.0656e-08          
  -0.68                 1.4128e-07            -5.2278e-08           -8.8558e-08          
  -0.7                  3.0204e-07            -1.11862e-07          -1.902e-07           
  -0.72                 6.3444e-07            -2.3416e-07           -4.0008e-07          
  -0.74                 1.2972e-06            -4.7976e-07           -8.1848e-07          
  -0.76                 2.5422e-06            -9.4294e-07           -1.5974e-06          
  -0.78                 4.6688e-06            -1.7282e-06           -2.919e-06           
  -0.8                  7.836e-06             -2.899e-06            -4.8884e-06          
  -0.82                 1.1998e-05            -4.5208e-06           -7.45e-06            
  -0.84                 1.7252e-05            -6.5536e-06           -1.07198e-05         
  -0.86                 2.3306e-05            -8.9042e-06           -1.4392e-05          
  -0.88                 3.0094e-05            -1.1612e-05           -1.8574e-05          
  -0.9                  3.7472e-05            -1.4648e-05           -2.3078e-05          
  -0.92                 4.5336e-05            -1.7776e-05           -2.7598e-05          
  -0.94                 5.368e-05             -2.0496e-05           -3.262e-05           
  -0.96                 6.127e-05             -2.369e-05            -3.664e-05           
  -0.98                 6.9436e-05            -2.821e-05            -4.2164e-05          
  -1                    8.0612e-05            -3.279e-05            -4.8572e-05          
END_DB

BEGIN_DB
 ICCAP_VAR ve         0              
 ICCAP_VAR vc         -2             

 #vb                    ie                    ib                    ic                   
  -0.4                  3.5e-12               4.8e-13               1.108e-10            
  -0.42                 7.18e-12              -1.1e-12              1.8e-12              
  -0.44                 1.518e-11             -4.26e-12             -1.634e-10           
  -0.46                 3.202e-11             -1.108e-11            -6.2e-12             
  -0.48                 6.786e-11             -2.508e-11            9.1e-11              
  -0.5                  1.4498e-10            -5.486e-11            -8.4e-11             
  -0.52                 3.1018e-10            -1.1766e-10           -1.102e-10           
  -0.54                 6.6722e-10            -2.521e-10            -4.49e-10            
  -0.56                 1.4268e-09            -5.3828e-10           -8.368e-10           
  -0.58                 3.0814e-09            -1.1476e-09           -2.0364e-09          
  -0.6                  6.6308e-09            -2.467e-09            -4.1588e-09          
  -0.62                 1.4198e-08            -5.263e-09            -9.104e-09           
  -0.64                 3.061e-08             -1.13112e-08          -1.9122e-08          
  -0.66                 6.6108e-08            -2.4344e-08           -4.1734e-08          
  -0.68                 1.4158e-07            -5.204e-08            -8.904e-08           
  -0.7                  3.026e-07             -1.11236e-07          -1.8774e-07          
  -0.72                 6.355e-07             -2.332e-07            -4.0144e-07          
  -0.74                 1.299e-06             -4.7714e-07           -8.217e-07           
  -0.76                 2.5452e-06            -9.3722e-07           -1.6152e-06          
  -0.78                 4.64e-06              -1.7166e-06           -2.9296e-06          
  -0.8                  7.8484e-06            -2.9164e-06           -4.932e-06           
  -0.82                 1.2242e-05            -4.5852e-06           -7.6314e-06          
  -0.84                 1.7576e-05            -6.689e-06            -1.09672e-05         
  -0.86                 2.4018e-05            -9.0884e-06           -1.4886e-05          
  -0.88                 3.074e-05             -1.1748e-05           -1.9096e-05          
  -0.9                  3.702e-05             -1.403e-05            -2.235e-05           
  -0.92                 4.421e-05             -1.7068e-05           -2.7706e-05          
  -0.94                 5.168e-05             -2.0058e-05           -3.1292e-05          
  -0.96                 5.9802e-05            -2.3976e-05           -3.6618e-05          
  -0.98                 7.1086e-05            -2.838e-05            -4.3294e-05          
  -1                    8.057e-05             -3.1876e-05           -4.8478e-05          
END_DB

BEGIN_DB
 ICCAP_VAR ve         0              
 ICCAP_VAR vc         -3             

 #vb                    ie                    ib                    ic                   
  -0.4                  3.58e-12              6.4e-13               -5.74e-11            
  -0.42                 7.16e-12              -9.4e-13              3.38e-11             
  -0.44                 1.508e-11             -4.14e-12             -2.48e-11            
  -0.46                 3.196e-11             -1.086e-11            -5.52e-11            
  -0.48                 6.78e-11              -2.472e-11            -1.466e-10           
  -0.5                  1.452e-10             -5.442e-11            -9.64e-11            
  -0.52                 3.1012e-10            -1.17e-10             -1.324e-10           
  -0.54                 6.6784e-10            -2.5086e-10           -3.884e-10           
  -0.56                 1.4292e-09            -5.3588e-10           -7.492e-10           
  -0.58                 3.0738e-09            -1.1422e-09           -1.8522e-09          
  -0.6                  6.6382e-09            -2.4562e-09           -4.1324e-09          
  -0.62                 1.4212e-08            -5.2432e-09           -8.986e-09           
  -0.64                 3.064e-08             -1.1264e-08           -1.9052e-08          
  -0.66                 6.6234e-08            -2.4232e-08           -4.1704e-08          
  -0.68                 1.4168e-07            -5.1834e-08           -8.9664e-08          
  -0.7                  3.031e-07             -1.1066e-07           -1.9236e-07          
  -0.72                 6.3632e-07            -2.3312e-07           -4.0232e-07          
  -0.74                 1.2988e-06            -4.7456e-07           -8.2248e-07          
  -0.76                 2.5494e-06            -9.3712e-07           -1.6192e-06          
  -0.78                 4.6884e-06            -1.729e-06            -2.976e-06           
  -0.8                  7.9234e-06            -2.9228e-06           -4.993e-06           
  -0.82                 1.2308e-05            -4.6156e-06           -7.7568e-06          
  -0.84                 1.7836e-05            -6.6746e-06           -1.11686e-05         
  -0.86                 2.4212e-05            -9.238e-06            -1.5074e-05          
  -0.88                 3.1234e-05            -1.1936e-05           -1.9338e-05          
  -0.9                  3.8896e-05            -1.4946e-05           -2.397e-05           
  -0.92                 4.6936e-05            -1.835e-05            -2.9044e-05          
  -0.94                 5.4738e-05            -2.1466e-05           -3.3442e-05          
  -0.96                 6.402e-05             -2.4268e-05           -3.7928e-05          
  -0.98                 7.3672e-05            -2.9178e-05           -4.4698e-05          
  -1                    8.3984e-05            -3.2808e-05           -5.0078e-05          
END_DB

BEGIN_DB
 ICCAP_VAR ve         0              
 ICCAP_VAR vc         -4             

 #vb                    ie                    ib                    ic                   
  -0.4                  3.46e-12              7.8e-13               -5.24e-11            
  -0.42                 7.22e-12              -7.6e-13              -2.48e-11            
  -0.44                 1.518e-11             -3.94e-12             -3.08e-11            
  -0.46                 3.214e-11             -1.066e-11            -7.4e-11             
  -0.48                 6.81e-11              -2.452e-11            3.54e-11             
  -0.5                  1.4536e-10            -5.406e-11            -1.432e-10           
  -0.52                 3.1076e-10            -1.163e-10            -2.074e-10           
  -0.54                 6.6888e-10            -2.497e-10            -5.12e-10            
  -0.56                 1.4306e-09            -5.3318e-10           -8.438e-10           
  -0.58                 3.0776e-09            -1.1378e-09           -1.9616e-09          
  -0.6                  6.6494e-09            -2.4458e-09           -3.584e-09           
  -0.62                 1.425e-08             -5.2228e-09           -8.724e-09           
  -0.64                 3.0718e-08            -1.12244e-08          -1.925e-08           
  -0.66                 6.6354e-08            -2.413e-08            -4.1964e-08          
  -0.68                 1.4242e-07            -5.182e-08            -9.0288e-08          
  -0.7                  3.037e-07             -1.10198e-07          -1.895e-07           
  -0.72                 6.3742e-07            -2.3122e-07           -3.9998e-07          
  -0.74                 1.3026e-06            -4.7304e-07           -8.2706e-07          
  -0.76                 2.5506e-06            -9.3138e-07           -1.626e-06           
  -0.78                 4.6746e-06            -1.7102e-06           -2.958e-06           
  -0.8                  7.92e-06              -2.9016e-06           -4.9982e-06          
  -0.82                 1.2272e-05            -4.5428e-06           -7.7064e-06          
  -0.84                 1.7632e-05            -6.5928e-06           -1.10738e-05         
  -0.86                 2.3964e-05            -8.9862e-06           -1.4932e-05          
  -0.88                 3.0946e-05            -1.1646e-05           -1.9094e-05          
  -0.9                  3.8112e-05            -1.4608e-05           -2.368e-05           
  -0.92                 4.6182e-05            -1.776e-05            -2.8424e-05          
  -0.94                 5.4042e-05            -2.1104e-05           -3.3402e-05          
  -0.96                 6.2822e-05            -2.4678e-05           -3.815e-05           
  -0.98                 7.2824e-05            -2.8604e-05           -4.4018e-05          
  -1                    8.2238e-05            -3.3198e-05           -5.0838e-05          
END_DB

