! VERSION = 6.00
BEGIN_HEADER
 ICCAP_INPUTS
  vb         V  B GROUND SMU_B 0.01 LIN        1    -0.4       -1         31   -0.02     
  ve         V  E GROUND SMU_E 0.1 CON        0
  vc         V  C GROUND SMU_C 0.1 LIN        2    -1         -4         4    -1        
 ICCAP_OUTPUTS
  ie         I  E GROUND SMU_E M
  ib         I  B GROUND SMU_B M
  ic         I  C GROUND SMU_C M
 ICCAP_VALUES
  TNOM "27"
  TEMP "27"
  TECHNO "SG13S"
  LOT "PQA701"
  WAFER "17"
  CHIP "d0406"
  MODULE "T323_pnpMPA"
  DEV_NAME "DUT13"
  DEV_GEOM_L "."
  DEV_GEOM_W "."
  NF_EMITTER "."
  REMARKS "pnpMPA Teststructure"
  TIMEDATE "Fri Oct 21 12:47:07     2022"
END_HEADER

BEGIN_DB
 ICCAP_VAR ve         0              
 ICCAP_VAR vc         -1             

 #vb                    ie                    ib                    ic                   
  -0.4                  1.56e-12              7.8e-13               3.76e-11             
  -0.42                 3.34e-12              0                     1.6e-12              
  -0.44                 7.1e-12               -1.58e-12             1.88e-11             
  -0.46                 1.526e-11             -4.96e-12             4.46e-11             
  -0.48                 3.248e-11             -1.216e-11            2.56e-11             
  -0.5                  6.984e-11             -2.744e-11            -1.46e-11            
  -0.52                 1.5006e-10            -5.984e-11            -9.3e-11             
  -0.54                 3.2222e-10            -1.2878e-10           -2.372e-10           
  -0.56                 6.9228e-10            -2.7594e-10           -4.57e-10            
  -0.58                 1.4834e-09            -5.9196e-10           -9.284e-10           
  -0.6                  3.2098e-09            -1.2698e-09           -1.8818e-09          
  -0.62                 6.8696e-09            -2.7088e-09           -4.2176e-09          
  -0.64                 1.4804e-08            -5.834e-09            -8.458e-09           
  -0.66                 3.209e-08             -1.258e-08            -1.871e-08           
  -0.68                 6.89e-08              -2.7012e-08           -4.1058e-08          
  -0.7                  1.484e-07             -5.818e-08            -9.0314e-08          
  -0.72                 3.1762e-07            -1.2424e-07           -1.9222e-07          
  -0.74                 6.6908e-07            -2.6232e-07           -4.0202e-07          
  -0.76                 1.3876e-06            -5.4718e-07           -8.3898e-07          
  -0.78                 2.7614e-06            -1.09306e-06          -1.6682e-06          
  -0.8                  5.1952e-06            -2.075e-06            -3.1204e-06          
  -0.82                 9.076e-06             -3.659e-06            -5.3946e-06          
  -0.84                 1.4584e-05            -5.985e-06            -8.6048e-06          
  -0.86                 2.1532e-05            -8.9764e-06           -1.2606e-05          
  -0.88                 3.0036e-05            -1.2782e-05           -1.753e-05           
  -0.9                  3.9962e-05            -1.6958e-05           -2.2812e-05          
  -0.92                 5.0152e-05            -2.1964e-05           -2.8558e-05          
  -0.94                 6.1872e-05            -2.7098e-05           -3.4496e-05          
  -0.96                 7.3754e-05            -3.2878e-05           -4.0978e-05          
  -0.98                 8.7484e-05            -3.9266e-05           -4.8314e-05          
  -1                    0.000101118           -4.5668e-05           -5.4642e-05          
END_DB

BEGIN_DB
 ICCAP_VAR ve         0              
 ICCAP_VAR vc         -2             

 #vb                    ie                    ib                    ic                   
  -0.4                  1.62e-12              1e-12                 8.02e-11             
  -0.42                 3.38e-12              1.8e-13               5.4e-12              
  -0.44                 7.12e-12              -1.42e-12             2.2e-11              
  -0.46                 1.516e-11             -4.8e-12              2.74e-11             
  -0.48                 3.254e-11             -1.186e-11            -8.6e-12             
  -0.5                  6.992e-11             -2.704e-11            -1.35e-10            
  -0.52                 1.496e-10             -5.912e-11            -2.66e-11            
  -0.54                 3.2272e-10            -1.2794e-10           -2.024e-10           
  -0.56                 6.933e-10             -2.7446e-10           -4.268e-10           
  -0.58                 1.487e-09             -5.892e-10            -8.872e-10           
  -0.6                  3.215e-09             -1.2636e-09           -2.0188e-09          
  -0.62                 6.894e-09             -2.6976e-09           -4.1786e-09          
  -0.64                 1.4826e-08            -5.8026e-09           -8.674e-09           
  -0.66                 3.2092e-08            -1.251e-08            -1.8872e-08          
  -0.68                 6.9168e-08            -2.6882e-08           -4.195e-08           
  -0.7                  1.4878e-07            -5.79e-08             -9.0796e-08          
  -0.72                 3.1778e-07            -1.2386e-07           -1.9306e-07          
  -0.74                 6.6974e-07            -2.612e-07            -4.0486e-07          
  -0.76                 1.3886e-06            -5.4394e-07           -8.4282e-07          
  -0.78                 2.7614e-06            -1.08922e-06          -1.6776e-06          
  -0.8                  5.1964e-06            -2.0658e-06           -3.1318e-06          
  -0.82                 9.0998e-06            -3.6612e-06           -5.4362e-06          
  -0.84                 1.4556e-05            -5.9486e-06           -8.658e-06           
  -0.86                 2.1722e-05            -9.01e-06             -1.2832e-05          
  -0.88                 3.0562e-05            -1.2756e-05           -1.768e-05           
  -0.9                  4.0056e-05            -1.7192e-05           -2.3014e-05          
  -0.92                 5.0984e-05            -2.1968e-05           -2.8982e-05          
  -0.94                 6.2532e-05            -2.7328e-05           -3.524e-05           
  -0.96                 7.4658e-05            -3.3226e-05           -4.167e-05           
  -0.98                 8.7666e-05            -3.9224e-05           -4.8414e-05          
  -1                    0.000100688           -4.5362e-05           -5.4896e-05          
END_DB

BEGIN_DB
 ICCAP_VAR ve         0              
 ICCAP_VAR vc         -3             

 #vb                    ie                    ib                    ic                   
  -0.4                  1.64e-12              1.12e-12              -2.78e-11            
  -0.42                 3.36e-12              3.8e-13               -3.06e-11            
  -0.44                 7.18e-12              -1.2e-12              1.2e-11              
  -0.46                 1.514e-11             -4.5e-12              4.64e-11             
  -0.48                 3.248e-11             -1.166e-11            -1.134e-10           
  -0.5                  6.988e-11             -2.676e-11            -2.96e-11            
  -0.52                 1.4984e-10            -5.858e-11            -1.186e-10           
  -0.54                 3.2244e-10            -1.2718e-10           -1.27e-10            
  -0.56                 6.9348e-10            -2.7394e-10           -4.628e-10           
  -0.58                 1.4862e-09            -5.857e-10            -8.86e-10            
  -0.6                  3.214e-09             -1.2566e-09           -2.0588e-09          
  -0.62                 6.8808e-09            -2.6832e-09           -4.074e-09           
  -0.64                 1.4846e-08            -5.7738e-09           -8.706e-09           
  -0.66                 3.2148e-08            -1.2452e-08           -1.949e-08           
  -0.68                 6.9062e-08            -2.6772e-08           -4.1654e-08          
  -0.7                  1.4886e-07            -5.7616e-08           -9.0086e-08          
  -0.72                 3.1764e-07            -1.2282e-07           -1.9316e-07          
  -0.74                 6.6936e-07            -2.6008e-07           -4.1102e-07          
  -0.76                 1.3886e-06            -5.4054e-07           -8.474e-07           
  -0.78                 2.7664e-06            -1.08522e-06          -1.6826e-06          
  -0.8                  5.203e-06             -2.0468e-06           -3.1464e-06          
  -0.82                 9.0686e-06            -3.6214e-06           -5.4174e-06          
  -0.84                 1.4676e-05            -5.9246e-06           -8.7188e-06          
  -0.86                 2.1694e-05            -8.9766e-06           -1.2786e-05          
  -0.88                 3.0718e-05            -1.285e-05            -1.7796e-05          
  -0.9                  4.0466e-05            -1.7188e-05           -2.339e-05           
  -0.92                 5.1274e-05            -2.2054e-05           -2.8992e-05          
  -0.94                 6.3308e-05            -2.749e-05            -3.5592e-05          
  -0.96                 7.5248e-05            -3.292e-05            -4.1796e-05          
  -0.98                 8.786e-05             -3.9194e-05           -4.8456e-05          
  -1                    0.000101188           -4.5252e-05           -5.5612e-05          
END_DB

BEGIN_DB
 ICCAP_VAR ve         0              
 ICCAP_VAR vc         -4             

 #vb                    ie                    ib                    ic                   
  -0.4                  1.6e-12               1.22e-12              -5.54e-11            
  -0.42                 3.4e-12               4.6e-13               -1.306e-10           
  -0.44                 7.2e-12               -1.12e-12             -1.4e-10             
  -0.46                 1.522e-11             -4.38e-12             6.84e-11             
  -0.48                 3.27e-11              -1.158e-11            5.88e-11             
  -0.5                  6.996e-11             -2.648e-11            5.8e-12              
  -0.52                 1.4998e-10            -5.826e-11            -1.212e-10           
  -0.54                 3.2302e-10            -1.2634e-10           -2.782e-10           
  -0.56                 6.9366e-10            -2.7126e-10           -4.502e-10           
  -0.58                 1.4906e-09            -5.8362e-10           -8.612e-10           
  -0.6                  3.2218e-09            -1.2518e-09           -1.9452e-09          
  -0.62                 6.8924e-09            -2.6724e-09           -4.2174e-09          
  -0.64                 1.4856e-08            -5.7462e-09           -8.802e-09           
  -0.66                 3.214e-08             -1.2388e-08           -1.9644e-08          
  -0.68                 6.9084e-08            -2.6602e-08           -4.2812e-08          
  -0.7                  1.4882e-07            -5.7324e-08           -9.1134e-08          
  -0.72                 3.1798e-07            -1.2246e-07           -1.9484e-07          
  -0.74                 6.7312e-07            -2.5848e-07           -4.098e-07           
  -0.76                 1.3938e-06            -5.3934e-07           -8.546e-07           
  -0.78                 2.769e-06             -1.07526e-06          -1.6904e-06          
  -0.8                  5.199e-06             -2.0454e-06           -3.1544e-06          
  -0.82                 9.0448e-06            -3.6014e-06           -5.4324e-06          
  -0.84                 1.449e-05             -5.862e-06            -8.6638e-06          
  -0.86                 2.1574e-05            -8.8074e-06           -1.274e-05           
  -0.88                 3.0072e-05            -1.245e-05            -1.7512e-05          
  -0.9                  3.955e-05             -1.6768e-05           -2.3012e-05          
  -0.92                 5.005e-05             -2.1404e-05           -2.8714e-05          
  -0.94                 6.158e-05             -2.6696e-05           -3.492e-05           
  -0.96                 7.314e-05             -3.2468e-05           -4.1072e-05          
  -0.98                 8.721e-05             -3.867e-05            -4.8698e-05          
  -1                    9.9736e-05            -4.3712e-05           -5.4492e-05          
END_DB

