! VERSION = 6.00
BEGIN_HEADER
 ICCAP_INPUTS
  vb         V  B GROUND SMU_B 0.01 LIN        1    -0.4       -1         31   -0.02     
  ve         V  E GROUND SMU_E 0.1 CON        0
  vc         V  C GROUND SMU_C 0.1 SYNC       1 0 vb
 ICCAP_OUTPUTS
  ib         I  B GROUND SMU_B M
  ic         I  C GROUND SMU_C M
 ICCAP_VALUES
  TNOM "27"
  TEMP "27"
  TECHNO "SG13S"
  LOT "PQA701"
  WAFER "17"
  CHIP "d0406"
  MODULE "T323_pnpMPA"
  DEV_NAME "DUT9"
  DEV_GEOM_L "."
  DEV_GEOM_W "."
  NF_EMITTER "."
  REMARKS "pnpMPA Teststructure"
  TIMEDATE "Fri Oct 21 12:47:07     2022"
END_HEADER

BEGIN_DB
 ICCAP_VAR ve         0              

 #vb                    vc                    ib                    ic                   
  -0.4                  -0.4                  0                     -1.6e-11             
  -0.42                 -0.42                 -1.62e-12             8e-13                
  -0.44                 -0.44                 -4.98e-12             -4.68e-11            
  -0.46                 -0.46                 -1.166e-11            1.596e-10            
  -0.48                 -0.48                 -2.578e-11            -9.58e-11            
  -0.5                  -0.5                  -5.564e-11            -1.374e-10           
  -0.52                 -0.52                 -1.1868e-10           -5.16e-11            
  -0.54                 -0.54                 -2.5396e-10           -4.9e-10             
  -0.56                 -0.56                 -5.4142e-10           -9.242e-10           
  -0.58                 -0.58                 -1.1544e-09           -1.8392e-09          
  -0.6                  -0.6                  -2.4806e-09           -4.0392e-09          
  -0.62                 -0.62                 -5.2922e-09           -8.25e-09            
  -0.64                 -0.64                 -1.13694e-08          -1.8884e-08          
  -0.66                 -0.66                 -2.4464e-08           -4.1592e-08          
  -0.68                 -0.68                 -5.2356e-08           -8.8702e-08          
  -0.7                  -0.7                  -1.11756e-07          -1.8918e-07          
  -0.72                 -0.72                 -2.3438e-07           -3.9258e-07          
  -0.74                 -0.74                 -4.7958e-07           -8.0994e-07          
  -0.76                 -0.76                 -9.4318e-07           -1.6034e-06          
  -0.78                 -0.78                 -1.7248e-06           -2.8942e-06          
  -0.8                  -0.8                  -2.9156e-06           -4.8838e-06          
  -0.82                 -0.82                 -4.5758e-06           -7.58e-06            
  -0.84                 -0.84                 -6.5586e-06           -1.0721e-05          
  -0.86                 -0.86                 -8.9908e-06           -1.4626e-05          
  -0.88                 -0.88                 -1.1646e-05           -1.8718e-05          
  -0.9                  -0.9                  -1.4602e-05           -2.2882e-05          
  -0.92                 -0.92                 -1.7766e-05           -2.758e-05           
  -0.94                 -0.94                 -2.0742e-05           -3.2434e-05          
  -0.96                 -0.96                 -2.5038e-05           -3.6546e-05          
  -0.98                 -0.98                 -2.8174e-05           -4.2676e-05          
  -1                    -1                    -3.2412e-05           -4.804e-05           
END_DB

