! VERSION = 6.00
BEGIN_HEADER
 ICCAP_INPUTS
  vb         V  B GROUND SMU_B 0.01 LIN        1    -0.4       -1         31   -0.02     
  ve         V  E GROUND SMU_E 0.1 CON        0
  vc         V  C GROUND SMU_C 0.1 SYNC       1 0 vb
 ICCAP_OUTPUTS
  ib         I  B GROUND SMU_B M
  ic         I  C GROUND SMU_C M
 ICCAP_VALUES
  TNOM "27"
  TEMP "27"
  TECHNO "SG13S"
  LOT "PQA701"
  WAFER "17"
  CHIP "d0406"
  MODULE "T323_pnpMPA"
  DEV_NAME "DUT6"
  DEV_GEOM_L "."
  DEV_GEOM_W "."
  NF_EMITTER "."
  REMARKS "pnpMPA Teststructure"
  TIMEDATE "Fri Oct 21 12:47:07     2022"
END_HEADER

BEGIN_DB
 ICCAP_VAR ve         0              

 #vb                    vc                    ib                    ic                   
  -0.4                  -0.4                  4.4e-13               8.46e-11             
  -0.42                 -0.42                 -2.04e-12             8.6e-12              
  -0.44                 -0.44                 -7.34e-12             -1.28e-11            
  -0.46                 -0.46                 -1.87e-11             -7.82e-11            
  -0.48                 -0.48                 -4.264e-11            7.62e-11             
  -0.5                  -0.5                  -9.466e-11            8.6e-12              
  -0.52                 -0.52                 -2.0492e-10           -1.952e-10           
  -0.54                 -0.54                 -4.4428e-10           -4.294e-10           
  -0.56                 -0.56                 -9.5612e-10           -8.88e-10            
  -0.58                 -0.58                 -2.0532e-09           -2.1138e-09          
  -0.6                  -0.6                  -4.4422e-09           -4.5064e-09          
  -0.62                 -0.62                 -9.5274e-09           -9.4e-09             
  -0.64                 -0.64                 -2.0556e-08           -2.0112e-08          
  -0.66                 -0.66                 -4.4518e-08           -4.504e-08           
  -0.68                 -0.68                 -9.6058e-08           -9.77e-08            
  -0.7                  -0.7                  -2.0804e-07           -2.1062e-07          
  -0.72                 -0.72                 -4.4792e-07           -4.5798e-07          
  -0.74                 -0.74                 -9.629e-07            -9.7836e-07          
  -0.76                 -0.76                 -2.0686e-06           -2.0932e-06          
  -0.78                 -0.78                 -4.385e-06            -4.3954e-06          
  -0.8                  -0.8                  -9.207e-06            -9.1206e-06          
  -0.82                 -0.82                 -1.8814e-05           -1.8274e-05          
  -0.84                 -0.84                 -3.7036e-05           -3.4896e-05          
  -0.86                 -0.86                 -6.9208e-05           -6.272e-05           
  -0.88                 -0.88                 -0.00012074           -0.000104686         
  -0.9                  -0.9                  -0.00019666           -0.0001625           
  -0.92                 -0.92                 -0.00029872           -0.00023512          
  -0.94                 -0.94                 -0.00042806           -0.00032164          
  -0.96                 -0.96                 -0.00058364           -0.00041988          
  -0.98                 -0.98                 -0.0007652            -0.00052876          
  -1                    -1                    -0.00096946           -0.00064558          
END_DB

