! VERSION = 6.00
BEGIN_HEADER
 ICCAP_INPUTS
  vb         V  B GROUND SMU_B 0.01 LIN        1    -0.4       -1         31   -0.02     
  ve         V  E GROUND SMU_E 0.1 CON        0
  vc         V  C GROUND SMU_C 0.1 LIN        2    -1         -4         4    -1        
 ICCAP_OUTPUTS
  ie         I  E GROUND SMU_E M
  ib         I  B GROUND SMU_B M
  ic         I  C GROUND SMU_C M
 ICCAP_VALUES
  TNOM "27"
  TEMP "27"
  TECHNO "SG13S"
  LOT "PQA701"
  WAFER "17"
  CHIP "d0406"
  MODULE "T323_pnpMPA"
  DEV_NAME "DUT3"
  DEV_GEOM_L "."
  DEV_GEOM_W "."
  NF_EMITTER "."
  REMARKS "pnpMPA Teststructure"
  TIMEDATE "Fri Oct 21 12:47:07     2022"
END_HEADER

BEGIN_DB
 ICCAP_VAR ve         0              
 ICCAP_VAR vc         -1             

 #vb                    ie                    ib                    ic                   
  -0.4                  8.72e-12              -2.3e-12              -1.3066e-10          
  -0.42                 1.828e-11             -7.42e-12             -1.299e-10           
  -0.44                 3.908e-11             -1.844e-11            -1.2476e-10          
  -0.46                 8.364e-11             -4.188e-11            -1.4814e-10          
  -0.48                 1.7896e-10            -9.198e-11            -1.9468e-10          
  -0.5                  3.8594e-10            -1.9976e-10           -2.8738e-10          
  -0.52                 8.3056e-10            -4.306e-10            -4.645e-10           
  -0.54                 1.7892e-09            -9.3114e-10           -9.868e-10           
  -0.56                 3.8596e-09            -1.997e-09            -1.8944e-09          
  -0.58                 8.3196e-09            -4.3054e-09           -3.8544e-09          
  -0.6                  1.8018e-08            -9.3144e-09           -8.7616e-09          
  -0.62                 3.869e-08             -2.0006e-08           -1.875e-08           
  -0.64                 8.3484e-08            -5.5368e-08           -2.75e-08            
  -0.66                 1.8126e-07            -1.475e-07            -3.0206e-08          
  -0.68                 3.9228e-07            -3.6298e-07           -3.2222e-08          
  -0.7                  8.4996e-07            -8.1706e-07           -3.3638e-08          
  -0.72                 1.7802e-06            -1.75e-06             -3.35e-08            
  -0.74                 3.7454e-06            -3.7106e-06           -3.4232e-08          
  -0.76                 7.6714e-06            -7.6352e-06           -3.4338e-08          
  -0.78                 1.4892e-05            -1.488e-05            -3.4428e-08          
  -0.8                  2.7134e-05            -2.7114e-05           -3.3414e-08          
  -0.82                 4.5502e-05            -4.5448e-05           -3.4094e-08          
  -0.84                 7.0016e-05            -6.993e-05            -3.3928e-08          
  -0.86                 0.000100316           -0.000100128          -3.4214e-08          
  -0.88                 0.00013324            -0.0001332            -3.4284e-08          
  -0.9                  0.0001714             -0.0001703            -3.3394e-08          
  -0.92                 0.00021214            -0.0002095            -3.2442e-08          
  -0.94                 0.00025166            -0.00025216           -3.19e-08            
  -0.96                 0.00029372            -0.00029364           -3.1426e-08          
  -0.98                 0.00034124            -0.00034406           -3.09e-08            
  -1                    0.00039072            -0.00039338           -2.9816e-08          
END_DB

BEGIN_DB
 ICCAP_VAR ve         0              
 ICCAP_VAR vc         -2             

 #vb                    ie                    ib                    ic                   
  -0.4                  8.8e-12               -1.94e-12             -2.662e-10           
  -0.42                 1.828e-11             -7.12e-12             -2.5048e-10          
  -0.44                 3.924e-11             -1.824e-11            -2.5948e-10          
  -0.46                 8.382e-11             -4.16e-11             -2.5952e-10          
  -0.48                 1.7952e-10            -9.168e-11            -3.0872e-10          
  -0.5                  3.8644e-10            -1.9962e-10           -3.8492e-10          
  -0.52                 8.3146e-10            -4.3058e-10           -6.0692e-10          
  -0.54                 1.7916e-09            -9.3104e-10           -1.1482e-09          
  -0.56                 3.8626e-09            -1.9968e-09           -2.0292e-09          
  -0.58                 8.3286e-09            -4.303e-09            -3.9472e-09          
  -0.6                  1.803e-08             -9.3084e-09           -8.842e-09           
  -0.62                 3.8714e-08            -1.9934e-08           -1.8996e-08          
  -0.64                 8.3512e-08            -4.3058e-08           -3.9176e-08          
  -0.66                 1.8078e-07            -9.3202e-08           -8.4204e-08          
  -0.68                 3.89e-07              -2.003e-07            -1.9104e-07          
  -0.7                  8.3858e-07            -4.3058e-07           -4.0838e-07          
  -0.72                 1.7824e-06            -9.16e-07             -8.6826e-07          
  -0.74                 3.7414e-06            -1.9236e-06           -1.8182e-06          
  -0.76                 7.6524e-06            -3.942e-06            -3.703e-06           
  -0.78                 1.4866e-05            -7.695e-06            -7.185e-06           
  -0.8                  2.7062e-05            -1.4072e-05           -1.311e-05           
  -0.82                 4.5592e-05            -2.3714e-05           -2.18e-05            
  -0.84                 6.981e-05             -3.6458e-05           -3.301e-05           
  -0.86                 9.9702e-05            -5.2636e-05           -4.708e-05           
  -0.88                 0.00013296            -7.09e-05             -6.255e-05           
  -0.9                  0.00017134            -9.1916e-05           -7.9816e-05          
  -0.92                 0.00021264            -0.00011434           -9.8224e-05          
  -0.94                 0.00025276            -0.00013876           -0.0001164           
  -0.96                 0.00030328            -0.00016416           -0.00013798          
  -0.98                 0.00034848            -0.00018956           -0.00015726          
  -1                    0.0003948             -0.00021624           -0.00017808          
END_DB

BEGIN_DB
 ICCAP_VAR ve         0              
 ICCAP_VAR vc         -3             

 #vb                    ie                    ib                    ic                   
  -0.4                  8.66e-12              -1.64e-12             -4.416e-10           
  -0.42                 1.842e-11             -6.84e-12             -4.582e-10           
  -0.44                 3.934e-11             -1.796e-11            -2.402e-10           
  -0.46                 8.382e-11             -4.132e-11            -2.766e-10           
  -0.48                 1.7952e-10            -9.124e-11            -5.168e-10           
  -0.5                  3.87e-10              -1.9918e-10           -4.822e-10           
  -0.52                 8.3246e-10            -4.3014e-10           -6.246e-10           
  -0.54                 1.7936e-09            -9.2974e-10           -1.1532e-09          
  -0.56                 3.8668e-09            -1.9944e-09           -2.1938e-09          
  -0.58                 8.3382e-09            -4.3008e-09           -4.359e-09           
  -0.6                  1.8032e-08            -9.2898e-09           -8.048e-09           
  -0.62                 3.8758e-08            -1.9898e-08           -1.834e-08           
  -0.64                 8.361e-08             -4.2984e-08           -4.0966e-08          
  -0.66                 1.8096e-07            -9.2968e-08           -8.712e-08           
  -0.68                 3.8966e-07            -1.9998e-07           -1.8794e-07          
  -0.7                  8.3894e-07            -4.3012e-07           -4.0754e-07          
  -0.72                 1.783e-06             -9.1534e-07           -8.6742e-07          
  -0.74                 3.748e-06             -1.9232e-06           -1.815e-06           
  -0.76                 7.6736e-06            -3.9464e-06           -3.7262e-06          
  -0.78                 1.4936e-05            -7.7032e-06           -7.2336e-06          
  -0.8                  2.7252e-05            -1.411e-05            -1.3168e-05          
  -0.82                 4.5794e-05            -2.3748e-05           -2.192e-05           
  -0.84                 7.0604e-05            -3.6972e-05           -3.3598e-05          
  -0.86                 0.000101326           -5.3248e-05           -4.7874e-05          
  -0.88                 0.00013592            -7.2072e-05           -6.381e-05           
  -0.9                  0.0001747             -9.2776e-05           -8.168e-05           
  -0.92                 0.0002167             -0.00011562           -0.00010008          
  -0.94                 0.0002597             -0.00013982           -0.00011964          
  -0.96                 0.00030514            -0.00016742           -0.00014008          
  -0.98                 0.00035784            -0.00019536           -0.00016322          
  -1                    0.00040414            -0.00022388           -0.00018314          
END_DB

BEGIN_DB
 ICCAP_VAR ve         0              
 ICCAP_VAR vc         -4             

 #vb                    ie                    ib                    ic                   
  -0.4                  8.64e-12              -1.42e-12             -2.486e-10           
  -0.42                 1.838e-11             -6.6e-12              -2.866e-10           
  -0.44                 3.92e-11              -1.77e-11             -3.3e-10             
  -0.46                 8.38e-11              -4.094e-11            -3.806e-10           
  -0.48                 1.7944e-10            -9.086e-11            -5.246e-10           
  -0.5                  3.8686e-10            -1.9838e-10           -6.012e-10           
  -0.52                 8.3244e-10            -4.2888e-10           -7.27e-10            
  -0.54                 1.7938e-09            -9.275e-10            -1.2172e-09          
  -0.56                 3.8668e-09            -1.9904e-09           -1.83e-09            
  -0.58                 8.338e-09             -4.2922e-09           -4.2638e-09          
  -0.6                  1.8032e-08            -9.2824e-09           -9.038e-09           
  -0.62                 3.8744e-08            -1.9882e-08           -1.8654e-08          
  -0.64                 8.3654e-08            -4.2922e-08           -4.0278e-08          
  -0.66                 1.8098e-07            -9.2856e-08           -8.8358e-08          
  -0.68                 3.8974e-07            -1.9966e-07           -1.8944e-07          
  -0.7                  8.3898e-07            -4.293e-07            -4.0866e-07          
  -0.72                 1.7828e-06            -9.1336e-07           -8.7186e-07          
  -0.74                 3.7456e-06            -1.9196e-06           -1.8288e-06          
  -0.76                 7.6634e-06            -3.9328e-06           -3.7274e-06          
  -0.78                 1.4894e-05            -7.6588e-06           -7.211e-06           
  -0.8                  2.713e-05             -1.4024e-05           -1.3122e-05          
  -0.82                 4.544e-05             -2.364e-05            -2.1892e-05          
  -0.84                 7.0002e-05            -3.6454e-05           -3.3326e-05          
  -0.86                 0.000100162           -5.2818e-05           -4.7692e-05          
  -0.88                 0.00013484            -7.1606e-05           -6.3626e-05          
  -0.9                  0.0001739             -9.2168e-05           -8.1506e-05          
  -0.92                 0.00021328            -0.00011354           -9.9052e-05          
  -0.94                 0.00025694            -0.0001384            -0.00011786          
  -0.96                 0.00030244            -0.00016286           -0.00013862          
  -0.98                 0.00034852            -0.00018918           -0.00015822          
  -1                    0.00039642            -0.0002174            -0.00018             
END_DB

