! VERSION = 6.00
BEGIN_HEADER
 ICCAP_INPUTS
  vc         V  C GROUND SMU_C 0.1 LIN        1    0          -5         101  -0.05     
  ib         I  B GROUND SMU_B 2 LIN        2    -1e-06     -5e-05     5    -1.225e-05
  ve         V  E GROUND SMU_E 0.1 CON        0
 ICCAP_OUTPUTS
  ic         I  C GROUND SMU_C B
  vb         V  B GROUND SMU_B B
  ie         I  E GROUND SMU_E B
 ICCAP_VALUES
  TNOM "27"
  TEMP "27"
  TECHNO "SG13S"
  LOT "PQA701"
  WAFER "17"
  CHIP "d0406"
  MODULE "T323_pnpMPA"
  DEV_NAME "DUT14"
  DEV_GEOM_L "."
  DEV_GEOM_W "."
  NF_EMITTER "."
  REMARKS "pnpMPA Teststructure"
  TIMEDATE "Fri Oct 21 12:47:07     2022"
END_HEADER

BEGIN_DB
 ICCAP_VAR ib         -1e-06         
 ICCAP_VAR ve         0              

 #vc                    ic                    vb                    ie                   
  0                     1.0003e-06            -0.53                 3.586e-11            
  -0.05                 1.0001e-06            -0.57936              6.98e-10             
  -0.1                  9.9658e-07            -0.62968              5.7382e-09           
  -0.15                 9.638e-07             -0.6786               3.8138e-08           
  -0.2                  7.596e-07             -0.72676              2.4038e-07           
  -0.25                 5.184e-09             -0.76424              9.9908e-07           
  -0.3                  -1.0626e-06           -0.78412              2.044e-06            
  -0.35                 -1.5488e-06           -0.78996              2.5556e-06           
  -0.4                  -1.6714e-06           -0.79108              2.6644e-06           
  -0.45                 -1.6852e-06           -0.79128              2.6834e-06           
  -0.5                  -1.691e-06            -0.79132              2.6866e-06           
  -0.55                 -1.69e-06             -0.79136              2.6874e-06           
  -0.6                  -1.6894e-06           -0.79132              2.6888e-06           
  -0.65                 -1.6888e-06           -0.79136              2.6898e-06           
  -0.7                  -1.6902e-06           -0.79136              2.6906e-06           
  -0.75                 -1.6916e-06           -0.7914               2.6914e-06           
  -0.8                  -1.688e-06            -0.79136              2.6918e-06           
  -0.85                 -1.686e-06            -0.79136              2.693e-06            
  -0.9                  -1.6954e-06           -0.79136              2.6936e-06           
  -0.95                 -1.696e-06            -0.7914               2.6948e-06           
  -1                    -1.6898e-06           -0.7914               2.6956e-06           
  -1.05                 -1.703e-06            -0.7914               2.697e-06            
  -1.1                  -1.703e-06            -0.7914               2.697e-06            
  -1.15                 -1.6984e-06           -0.7914               2.6978e-06           
  -1.2                  -1.696e-06            -0.79144              2.6992e-06           
  -1.25                 -1.6958e-06           -0.7914               2.6996e-06           
  -1.3                  -1.7046e-06           -0.79144              2.6998e-06           
  -1.35                 -1.7006e-06           -0.79144              2.7012e-06           
  -1.4                  -1.7048e-06           -0.79144              2.7014e-06           
  -1.45                 -1.7016e-06           -0.79144              2.7028e-06           
  -1.5                  -1.7074e-06           -0.79148              2.703e-06            
  -1.55                 -1.7066e-06           -0.79144              2.7044e-06           
  -1.6                  -1.7126e-06           -0.79148              2.706e-06            
  -1.65                 -1.696e-06            -0.79148              2.7064e-06           
  -1.7                  -1.7052e-06           -0.79148              2.7078e-06           
  -1.75                 -1.7032e-06           -0.79148              2.7086e-06           
  -1.8                  -1.7126e-06           -0.79148              2.7094e-06           
  -1.85                 -1.7098e-06           -0.79148              2.7092e-06           
  -1.9                  -1.7092e-06           -0.79152              2.7106e-06           
  -1.95                 -1.7148e-06           -0.79152              2.7116e-06           
  -2                    -1.7154e-06           -0.79152              2.7128e-06           
  -2.05                 -1.706e-06            -0.79152              2.7132e-06           
  -2.1                  -1.7192e-06           -0.79152              2.714e-06            
  -2.15                 -1.7202e-06           -0.79152              2.7146e-06           
  -2.2                  -1.711e-06            -0.79152              2.7158e-06           
  -2.25                 -1.7158e-06           -0.79156              2.7166e-06           
  -2.3                  -1.7084e-06           -0.79156              2.717e-06            
  -2.35                 -1.714e-06            -0.79156              2.7172e-06           
  -2.4                  -1.7216e-06           -0.79152              2.719e-06            
  -2.45                 -1.712e-06            -0.79148              2.7184e-06           
  -2.5                  -1.724e-06            -0.79156              2.7196e-06           
  -2.55                 -1.7298e-06           -0.7916               2.7204e-06           
  -2.6                  -1.726e-06            -0.7916               2.7212e-06           
  -2.65                 -1.719e-06            -0.7916               2.723e-06            
  -2.7                  -1.72e-06             -0.7916               2.7238e-06           
  -2.75                 -1.7278e-06           -0.79164              2.7238e-06           
  -2.8                  -1.7244e-06           -0.7916               2.7252e-06           
  -2.85                 -1.7222e-06           -0.79164              2.7254e-06           
  -2.9                  -1.7338e-06           -0.79164              2.7266e-06           
  -2.95                 -1.73e-06             -0.79164              2.7274e-06           
  -3                    -1.7314e-06           -0.79164              2.7274e-06           
  -3.05                 -1.7316e-06           -0.79168              2.7288e-06           
  -3.1                  -1.7216e-06           -0.79168              2.7298e-06           
  -3.15                 -1.7312e-06           -0.79164              2.7306e-06           
  -3.2                  -1.726e-06            -0.79168              2.7306e-06           
  -3.25                 -1.7298e-06           -0.79168              2.7322e-06           
  -3.3                  -1.7262e-06           -0.79168              2.733e-06            
  -3.35                 -1.7316e-06           -0.79168              2.7332e-06           
  -3.4                  -1.7346e-06           -0.79172              2.735e-06            
  -3.45                 -1.7376e-06           -0.79168              2.7354e-06           
  -3.5                  -1.7378e-06           -0.79172              2.7356e-06           
  -3.55                 -1.7362e-06           -0.79172              2.737e-06            
  -3.6                  -1.7294e-06           -0.79172              2.7384e-06           
  -3.65                 -1.746e-06            -0.79172              2.7386e-06           
  -3.7                  -1.731e-06            -0.79176              2.7396e-06           
  -3.75                 -1.7396e-06           -0.79172              2.7406e-06           
  -3.8                  -1.7406e-06           -0.79176              2.7408e-06           
  -3.85                 -1.7388e-06           -0.79176              2.7424e-06           
  -3.9                  -1.748e-06            -0.79176              2.7428e-06           
  -3.95                 -1.7448e-06           -0.7918               2.744e-06            
  -4                    -1.7432e-06           -0.7918               2.7448e-06           
  -4.05                 -1.7498e-06           -0.7918               2.745e-06            
  -4.1                  -1.75e-06             -0.7918               2.7466e-06           
  -4.15                 -1.7488e-06           -0.79184              2.7472e-06           
  -4.2                  -1.7536e-06           -0.7918               2.7484e-06           
  -4.25                 -1.753e-06            -0.79184              2.7498e-06           
  -4.3                  -1.7442e-06           -0.79184              2.7508e-06           
  -4.35                 -1.7478e-06           -0.7918               2.7512e-06           
  -4.4                  -1.7534e-06           -0.79184              2.7526e-06           
  -4.45                 -1.751e-06            -0.79188              2.7534e-06           
  -4.5                  -1.752e-06            -0.79188              2.7542e-06           
  -4.55                 -1.7518e-06           -0.79188              2.7556e-06           
  -4.6                  -1.7538e-06           -0.79188              2.7562e-06           
  -4.65                 -1.759e-06            -0.79188              2.7578e-06           
  -4.7                  -1.751e-06            -0.79192              2.7586e-06           
  -4.75                 -1.7594e-06           -0.79192              2.7598e-06           
  -4.8                  -1.7566e-06           -0.79192              2.761e-06            
  -4.85                 -1.7622e-06           -0.79196              2.7622e-06           
  -4.9                  -1.759e-06            -0.792                2.7634e-06           
  -4.95                 -1.7618e-06           -0.79196              2.7648e-06           
  -5                    -1.7664e-06           -0.792                2.766e-06            
END_DB

BEGIN_DB
 ICCAP_VAR ib         -1.325e-05     
 ICCAP_VAR ve         0              

 #vc                    ic                    vb                    ie                   
  0                     1.325e-05             -0.63096              1.8282e-09           
  -0.05                 1.3194e-05            -0.68028              3.4492e-08           
  -0.1                  1.2998e-05            -0.73036              2.639e-07            
  -0.15                 1.1702e-05            -0.7776               1.5742e-06           
  -0.2                  6.4502e-06            -0.81892              6.8072e-06           
  -0.25                 -2.9686e-06           -0.84608              1.6222e-05           
  -0.3                  -1.1738e-05           -0.86096              2.4974e-05           
  -0.35                 -1.6548e-05           -0.86744              2.9794e-05           
  -0.4                  -1.8328e-05           -0.86956              3.1556e-05           
  -0.45                 -1.8734e-05           -0.87008              3.1978e-05           
  -0.5                  -1.8806e-05           -0.87016              3.2066e-05           
  -0.55                 -1.8846e-05           -0.8702               3.2086e-05           
  -0.6                  -1.886e-05            -0.8702               3.2096e-05           
  -0.65                 -1.8852e-05           -0.8702               3.2104e-05           
  -0.7                  -1.8854e-05           -0.8702               3.2114e-05           
  -0.75                 -1.8906e-05           -0.87024              3.2122e-05           
  -0.8                  -1.8862e-05           -0.87024              3.2128e-05           
  -0.85                 -1.8874e-05           -0.8702               3.2136e-05           
  -0.9                  -1.8894e-05           -0.8702               3.2144e-05           
  -0.95                 -1.8872e-05           -0.87028              3.2154e-05           
  -1                    -1.8892e-05           -0.87024              3.2158e-05           
  -1.05                 -1.8936e-05           -0.87024              3.2166e-05           
  -1.1                  -1.892e-05            -0.87024              3.2178e-05           
  -1.15                 -1.893e-05            -0.8702               3.2186e-05           
  -1.2                  -1.8962e-05           -0.8702               3.219e-05            
  -1.25                 -1.8928e-05           -0.87024              3.22e-05             
  -1.3                  -1.8964e-05           -0.87024              3.221e-05            
  -1.35                 -1.8956e-05           -0.87028              3.2214e-05           
  -1.4                  -1.8962e-05           -0.87028              3.2222e-05           
  -1.45                 -1.8952e-05           -0.87028              3.223e-05            
  -1.5                  -1.9e-05              -0.87028              3.2234e-05           
  -1.55                 -1.9002e-05           -0.87024              3.224e-05            
  -1.6                  -1.902e-05            -0.87028              3.225e-05            
  -1.65                 -1.8994e-05           -0.87024              3.2254e-05           
  -1.7                  -1.9052e-05           -0.87028              3.2262e-05           
  -1.75                 -1.9002e-05           -0.87028              3.227e-05            
  -1.8                  -1.9014e-05           -0.87028              3.2278e-05           
  -1.85                 -1.903e-05            -0.87028              3.2284e-05           
  -1.9                  -1.9016e-05           -0.87032              3.2292e-05           
  -1.95                 -1.905e-05            -0.87028              3.2298e-05           
  -2                    -1.9072e-05           -0.87028              3.2308e-05           
  -2.05                 -1.9062e-05           -0.87032              3.2312e-05           
  -2.1                  -1.9096e-05           -0.87032              3.2314e-05           
  -2.15                 -1.9062e-05           -0.87032              3.2328e-05           
  -2.2                  -1.9092e-05           -0.87032              3.2336e-05           
  -2.25                 -1.9084e-05           -0.87032              3.2346e-05           
  -2.3                  -1.9104e-05           -0.87032              3.2348e-05           
  -2.35                 -1.9134e-05           -0.87032              3.2356e-05           
  -2.4                  -1.9116e-05           -0.87036              3.2364e-05           
  -2.45                 -1.9134e-05           -0.87036              3.237e-05            
  -2.5                  -1.9146e-05           -0.87036              3.238e-05            
  -2.55                 -1.9152e-05           -0.8704               3.2386e-05           
  -2.6                  -1.9158e-05           -0.8704               3.2394e-05           
  -2.65                 -1.9152e-05           -0.8704               3.2398e-05           
  -2.7                  -1.9162e-05           -0.87044              3.241e-05            
  -2.75                 -1.9146e-05           -0.87044              3.2412e-05           
  -2.8                  -1.9192e-05           -0.87044              3.2422e-05           
  -2.85                 -1.9194e-05           -0.87044              3.2426e-05           
  -2.9                  -1.918e-05            -0.87044              3.2434e-05           
  -2.95                 -1.9188e-05           -0.87048              3.2442e-05           
  -3                    -1.9168e-05           -0.87048              3.2446e-05           
  -3.05                 -1.9208e-05           -0.87044              3.2456e-05           
  -3.1                  -1.923e-05            -0.87048              3.2464e-05           
  -3.15                 -1.925e-05            -0.87048              3.247e-05            
  -3.2                  -1.9234e-05           -0.87052              3.2482e-05           
  -3.25                 -1.92e-05             -0.87048              3.2488e-05           
  -3.3                  -1.9218e-05           -0.87052              3.2492e-05           
  -3.35                 -1.927e-05            -0.87052              3.2504e-05           
  -3.4                  -1.9268e-05           -0.87048              3.2508e-05           
  -3.45                 -1.931e-05            -0.87052              3.2516e-05           
  -3.5                  -1.927e-05            -0.87052              3.2522e-05           
  -3.55                 -1.924e-05            -0.87052              3.253e-05            
  -3.6                  -1.9272e-05           -0.87056              3.254e-05            
  -3.65                 -1.9302e-05           -0.87056              3.2542e-05           
  -3.7                  -1.9322e-05           -0.87056              3.2554e-05           
  -3.75                 -1.9306e-05           -0.8706               3.256e-05            
  -3.8                  -1.9324e-05           -0.87056              3.2564e-05           
  -3.85                 -1.9332e-05           -0.8706               3.2578e-05           
  -3.9                  -1.9326e-05           -0.8706               3.2586e-05           
  -3.95                 -1.934e-05            -0.8706               3.259e-05            
  -4                    -1.9326e-05           -0.8706               3.2602e-05           
  -4.05                 -1.933e-05            -0.8706               3.2606e-05           
  -4.1                  -1.9364e-05           -0.87064              3.2612e-05           
  -4.15                 -1.939e-05            -0.87064              3.262e-05            
  -4.2                  -1.938e-05            -0.87064              3.263e-05            
  -4.25                 -1.9378e-05           -0.87064              3.2638e-05           
  -4.3                  -1.9414e-05           -0.87064              3.2648e-05           
  -4.35                 -1.9362e-05           -0.87064              3.2656e-05           
  -4.4                  -1.9434e-05           -0.87068              3.2664e-05           
  -4.45                 -1.9444e-05           -0.87068              3.2674e-05           
  -4.5                  -1.944e-05            -0.87068              3.2686e-05           
  -4.55                 -1.9464e-05           -0.87068              3.2694e-05           
  -4.6                  -1.9444e-05           -0.87068              3.2704e-05           
  -4.65                 -1.9474e-05           -0.87068              3.2716e-05           
  -4.7                  -1.9438e-05           -0.87072              3.2722e-05           
  -4.75                 -1.948e-05            -0.87072              3.2732e-05           
  -4.8                  -1.948e-05            -0.87072              3.2744e-05           
  -4.85                 -1.9526e-05           -0.87072              3.2752e-05           
  -4.9                  -1.954e-05            -0.87076              3.2762e-05           
  -4.95                 -1.9516e-05           -0.87076              3.2778e-05           
  -5                    -1.9516e-05           -0.87076              3.2788e-05           
END_DB

BEGIN_DB
 ICCAP_VAR ib         -2.55e-05      
 ICCAP_VAR ve         0              

 #vc                    ic                    vb                    ie                   
  0                     2.551e-05             -0.6644               6.9458e-09           
  -0.05                 2.5376e-05            -0.71368              1.2098e-07           
  -0.1                  2.464e-05             -0.7634               8.8928e-07           
  -0.15                 2.0766e-05            -0.809                4.699e-06            
  -0.2                  9.4686e-06            -0.84652              1.6014e-05           
  -0.25                 -6.4882e-06           -0.87084              3.1988e-05           
