! VERSION = 6.00
BEGIN_HEADER
 ICCAP_INPUTS
  vc         V  C GROUND SMU_C 0.1 LIN        1    0          -5         101  -0.05     
  ib         I  B GROUND SMU_B 2 LIN        2    -1e-06     -5e-05     5    -1.225e-05
  ve         V  E GROUND SMU_E 0.1 CON        0
 ICCAP_OUTPUTS
  ic         I  C GROUND SMU_C B
  vb         V  B GROUND SMU_B B
  ie         I  E GROUND SMU_E B
 ICCAP_VALUES
  TNOM "27"
  TEMP "27"
  TECHNO "SG13S"
  LOT "PQA701"
  WAFER "17"
  CHIP "d0406"
  MODULE "T323_pnpMPA"
  DEV_NAME "DUT8"
  DEV_GEOM_L "."
  DEV_GEOM_W "."
  NF_EMITTER "."
  REMARKS "pnpMPA Teststructure"
  TIMEDATE "Fri Oct 21 12:47:07     2022"
END_HEADER

BEGIN_DB
 ICCAP_VAR ib         -1e-06         
 ICCAP_VAR ve         0              

 #vc                    ic                    vb                    ie                   
  0                     1.00426e-06           -0.51748              9.958e-11            
  -0.05                 9.9852e-07            -0.56692              1.418e-09            
  -0.1                  9.9088e-07            -0.61712              1.10218e-08          
  -0.15                 9.2854e-07            -0.66548              7.2002e-08           
  -0.2                  5.9118e-07            -0.7106               4.0826e-07           
  -0.25                 -2.5164e-07           -0.73992              1.2546e-06           
  -0.3                  -9.1606e-07           -0.75108              1.92e-06             
  -0.35                 -1.10596e-06          -0.75348              2.1054e-06           
  -0.4                  -1.1322e-06           -0.75392              2.1386e-06           
  -0.45                 -1.1474e-06           -0.75396              2.1442e-06           
  -0.5                  -1.148e-06            -0.754                2.1458e-06           
  -0.55                 -1.1492e-06           -0.754                2.1462e-06           
  -0.6                  -1.1476e-06           -0.754                2.1466e-06           
  -0.65                 -1.1494e-06           -0.754                2.1468e-06           
  -0.7                  -1.1448e-06           -0.754                2.148e-06            
  -0.75                 -1.1504e-06           -0.754                2.1476e-06           
  -0.8                  -1.1486e-06           -0.754                2.1486e-06           
  -0.85                 -1.1502e-06           -0.754                2.1488e-06           
  -0.9                  -1.152e-06            -0.754                2.1492e-06           
  -0.95                 -1.156e-06            -0.754                2.1494e-06           
  -1                    -1.1516e-06           -0.75404              2.1504e-06           
  -1.05                 -1.1492e-06           -0.754                2.15e-06             
  -1.1                  -1.1468e-06           -0.75404              2.1508e-06           
  -1.15                 -1.148e-06            -0.75404              2.1512e-06           
  -1.2                  -1.1588e-06           -0.75404              2.1512e-06           
  -1.25                 -1.1506e-06           -0.754                2.152e-06            
  -1.3                  -1.152e-06            -0.75404              2.152e-06            
  -1.35                 -1.149e-06            -0.75404              2.1524e-06           
  -1.4                  -1.154e-06            -0.75404              2.1532e-06           
  -1.45                 -1.1554e-06           -0.75404              2.1526e-06           
  -1.5                  -1.1562e-06           -0.75408              2.1536e-06           
  -1.55                 -1.1582e-06           -0.75404              2.1538e-06           
  -1.6                  -1.1534e-06           -0.75408              2.1538e-06           
  -1.65                 -1.1528e-06           -0.75404              2.1546e-06           
  -1.7                  -1.1648e-06           -0.75408              2.1546e-06           
  -1.75                 -1.1478e-06           -0.75404              2.1552e-06           
  -1.8                  -1.1528e-06           -0.75408              2.1556e-06           
  -1.85                 -1.1574e-06           -0.75408              2.1558e-06           
  -1.9                  -1.1532e-06           -0.75408              2.1556e-06           
  -1.95                 -1.1562e-06           -0.75408              2.1566e-06           
  -2                    -1.161e-06            -0.75408              2.1568e-06           
  -2.05                 -1.1554e-06           -0.75412              2.1574e-06           
  -2.1                  -1.1596e-06           -0.75408              2.1576e-06           
  -2.15                 -1.1636e-06           -0.75408              2.1582e-06           
  -2.2                  -1.1644e-06           -0.75412              2.1582e-06           
  -2.25                 -1.1568e-06           -0.75412              2.1588e-06           
  -2.3                  -1.1664e-06           -0.75408              2.1586e-06           
  -2.35                 -1.1612e-06           -0.75416              2.1594e-06           
  -2.4                  -1.1592e-06           -0.75412              2.1596e-06           
  -2.45                 -1.1636e-06           -0.75412              2.16e-06             
  -2.5                  -1.1622e-06           -0.75412              2.1604e-06           
  -2.55                 -1.155e-06            -0.75416              2.1606e-06           
  -2.6                  -1.1636e-06           -0.75412              2.161e-06            
  -2.65                 -1.158e-06            -0.75412              2.1614e-06           
  -2.7                  -1.163e-06            -0.75416              2.1612e-06           
  -2.75                 -1.165e-06            -0.75416              2.1622e-06           
  -2.8                  -1.1684e-06           -0.75412              2.1624e-06           
  -2.85                 -1.162e-06            -0.75416              2.1628e-06           
  -2.9                  -1.1556e-06           -0.75416              2.1632e-06           
  -2.95                 -1.161e-06            -0.75416              2.1634e-06           
  -3                    -1.156e-06            -0.75416              2.1636e-06           
  -3.05                 -1.1678e-06           -0.75416              2.1642e-06           
  -3.1                  -1.1672e-06           -0.75416              2.1638e-06           
  -3.15                 -1.1712e-06           -0.7542               2.1644e-06           
  -3.2                  -1.1632e-06           -0.75416              2.1648e-06           
  -3.25                 -1.1664e-06           -0.7542               2.165e-06            
  -3.3                  -1.1662e-06           -0.7542               2.1656e-06           
  -3.35                 -1.1676e-06           -0.7542               2.1656e-06           
  -3.4                  -1.1646e-06           -0.7542               2.1666e-06           
  -3.45                 -1.1706e-06           -0.75416              2.1668e-06           
  -3.5                  -1.166e-06            -0.7542               2.1672e-06           
  -3.55                 -1.1728e-06           -0.7542               2.1676e-06           
  -3.6                  -1.167e-06            -0.7542               2.1674e-06           
  -3.65                 -1.1612e-06           -0.7542               2.1678e-06           
  -3.7                  -1.169e-06            -0.7542               2.1686e-06           
  -3.75                 -1.1668e-06           -0.7542               2.169e-06            
  -3.8                  -1.1682e-06           -0.7542               2.169e-06            
  -3.85                 -1.1768e-06           -0.7542               2.1688e-06           
  -3.9                  -1.167e-06            -0.75424              2.1696e-06           
  -3.95                 -1.1708e-06           -0.7542               2.1704e-06           
  -4                    -1.1748e-06           -0.75424              2.1704e-06           
  -4.05                 -1.171e-06            -0.7542               2.1708e-06           
  -4.1                  -1.1688e-06           -0.75424              2.171e-06            
  -4.15                 -1.1644e-06           -0.75424              2.1716e-06           
  -4.2                  -1.1698e-06           -0.75424              2.172e-06            
  -4.25                 -1.1736e-06           -0.75412              2.1728e-06           
  -4.3                  -1.1742e-06           -0.75412              2.1724e-06           
  -4.35                 -1.1708e-06           -0.75416              2.173e-06            
  -4.4                  -1.1734e-06           -0.75424              2.1736e-06           
  -4.45                 -1.1792e-06           -0.75428              2.1742e-06           
  -4.5                  -1.1678e-06           -0.75408              2.1744e-06           
  -4.55                 -1.1698e-06           -0.75412              2.1744e-06           
  -4.6                  -1.1742e-06           -0.75428              2.175e-06            
  -4.65                 -1.1724e-06           -0.75412              2.1758e-06           
  -4.7                  -1.1752e-06           -0.7542               2.1756e-06           
  -4.75                 -1.1768e-06           -0.7542               2.1762e-06           
  -4.8                  -1.1792e-06           -0.75428              2.1768e-06           
  -4.85                 -1.182e-06            -0.75412              2.177e-06            
  -4.9                  -1.1786e-06           -0.75428              2.1774e-06           
  -4.95                 -1.1758e-06           -0.75428              2.1788e-06           
  -5                    -1.1838e-06           -0.75412              2.179e-06            
END_DB

BEGIN_DB
 ICCAP_VAR ib         -1.325e-05     
 ICCAP_VAR ve         0              

 #vc                    ic                    vb                    ie                   
  0                     1.321e-05             -0.611                3.8028e-09           
  -0.05                 1.3228e-05            -0.66028              5.2346e-08           
  -0.1                  1.2828e-05            -0.71008              3.8906e-07           
  -0.15                 1.1002e-05            -0.75596              2.2664e-06           
  -0.2                  4.436e-06             -0.79216              8.8148e-06           
  -0.25                 -4.7288e-06           -0.81172              1.7978e-05           
  -0.3                  -1.10402e-05          -0.82016              2.4286e-05           
  -0.35                 -1.3582e-05           -0.82292              2.676e-05            
  -0.4                  -1.4196e-05           -0.8236               2.7442e-05           
  -0.45                 -1.434e-05            -0.82372              2.7566e-05           
  -0.5                  -1.4376e-05           -0.82376              2.7594e-05           
  -0.55                 -1.4362e-05           -0.82372              2.7604e-05           
  -0.6                  -1.436e-05            -0.82376              2.761e-05            
  -0.65                 -1.4368e-05           -0.82376              2.7606e-05           
  -0.7                  -1.4384e-05           -0.82372              2.7616e-05           
  -0.75                 -1.436e-05            -0.8238               2.7618e-05           
  -0.8                  -1.4374e-05           -0.82376              2.7628e-05           
  -0.85                 -1.4376e-05           -0.8238               2.7628e-05           
  -0.9                  -1.4352e-05           -0.8238               2.7638e-05           
  -0.95                 -1.4404e-05           -0.8238               2.7644e-05           
  -1                    -1.44e-05             -0.8238               2.765e-05            
  -1.05                 -1.4392e-05           -0.8238               2.765e-05            
  -1.1                  -1.4402e-05           -0.8238               2.7654e-05           
  -1.15                 -1.4398e-05           -0.8238               2.766e-05            
  -1.2                  -1.4434e-05           -0.8238               2.7662e-05           
  -1.25                 -1.4376e-05           -0.8238               2.7666e-05           
  -1.3                  -1.4394e-05           -0.8238               2.7672e-05           
  -1.35                 -1.442e-05            -0.8238               2.7676e-05           
  -1.4                  -1.4464e-05           -0.8238               2.7682e-05           
  -1.45                 -1.4466e-05           -0.8238               2.7688e-05           
  -1.5                  -1.4446e-05           -0.82384              2.7696e-05           
  -1.55                 -1.4424e-05           -0.8238               2.7692e-05           
  -1.6                  -1.446e-05            -0.82384              2.7696e-05           
  -1.65                 -1.4478e-05           -0.82384              2.77e-05             
  -1.7                  -1.4464e-05           -0.82384              2.7704e-05           
  -1.75                 -1.4502e-05           -0.82384              2.7708e-05           
  -1.8                  -1.444e-05            -0.82384              2.7712e-05           
  -1.85                 -1.4424e-05           -0.82384              2.7716e-05           
  -1.9                  -1.4488e-05           -0.82384              2.772e-05            
  -1.95                 -1.4518e-05           -0.82384              2.7728e-05           
  -2                    -1.4464e-05           -0.82384              2.7732e-05           
  -2.05                 -1.4474e-05           -0.82384              2.7732e-05           
  -2.1                  -1.446e-05            -0.8238               2.7732e-05           
  -2.15                 -1.4462e-05           -0.82384              2.774e-05            
  -2.2                  -1.4486e-05           -0.82384              2.7746e-05           
  -2.25                 -1.4512e-05           -0.82384              2.7748e-05           
  -2.3                  -1.4538e-05           -0.82384              2.7752e-05           
  -2.35                 -1.4512e-05           -0.82384              2.776e-05            
  -2.4                  -1.4502e-05           -0.82388              2.7764e-05           
  -2.45                 -1.4544e-05           -0.82388              2.7766e-05           
  -2.5                  -1.4534e-05           -0.82388              2.7772e-05           
  -2.55                 -1.4536e-05           -0.82388              2.7774e-05           
  -2.6                  -1.4524e-05           -0.82388              2.7778e-05           
  -2.65                 -1.452e-05            -0.82388              2.778e-05            
  -2.7                  -1.4568e-05           -0.82388              2.7786e-05           
  -2.75                 -1.4554e-05           -0.82388              2.779e-05            
  -2.8                  -1.4542e-05           -0.82388              2.7798e-05           
  -2.85                 -1.4566e-05           -0.82388              2.7798e-05           
  -2.9                  -1.4576e-05           -0.82388              2.7806e-05           
  -2.95                 -1.4532e-05           -0.82388              2.7808e-05           
  -3                    -1.4564e-05           -0.82388              2.781e-05            
  -3.05                 -1.4552e-05           -0.82388              2.7812e-05           
  -3.1                  -1.459e-05            -0.82392              2.7818e-05           
  -3.15                 -1.46e-05             -0.82392              2.7822e-05           
  -3.2                  -1.459e-05            -0.82392              2.7826e-05           
  -3.25                 -1.4544e-05           -0.82392              2.7832e-05           
  -3.3                  -1.463e-05            -0.82392              2.7832e-05           
  -3.35                 -1.4588e-05           -0.82392              2.7836e-05           
  -3.4                  -1.4626e-05           -0.82396              2.784e-05            
  -3.45                 -1.4622e-05           -0.82396              2.7848e-05           
  -3.5                  -1.4598e-05           -0.82392              2.7852e-05           
  -3.55                 -1.4632e-05           -0.82396              2.7854e-05           
  -3.6                  -1.4606e-05           -0.82396              2.7858e-05           
  -3.65                 -1.4614e-05           -0.82392              2.786e-05            
  -3.7                  -1.4588e-05           -0.82396              2.7866e-05           
  -3.75                 -1.4622e-05           -0.82396              2.7872e-05           
  -3.8                  -1.46e-05             -0.82396              2.7874e-05           
  -3.85                 -1.4644e-05           -0.82396              2.788e-05            
  -3.9                  -1.4652e-05           -0.82396              2.7886e-05           
  -3.95                 -1.4648e-05           -0.82396              2.7886e-05           
  -4                    -1.4676e-05           -0.82396              2.7894e-05           
  -4.05                 -1.466e-05            -0.824                2.7896e-05           
  -4.1                  -1.465e-05            -0.824                2.7898e-05           
  -4.15                 -1.4662e-05           -0.824                2.7902e-05           
  -4.2                  -1.4646e-05           -0.824                2.7908e-05           
  -4.25                 -1.4656e-05           -0.824                2.7912e-05           
  -4.3                  -1.4668e-05           -0.824                2.7918e-05           
  -4.35                 -1.4692e-05           -0.824                2.7926e-05           
  -4.4                  -1.4676e-05           -0.824                2.7928e-05           
  -4.45                 -1.47e-05             -0.824                2.7932e-05           
  -4.5                  -1.4718e-05           -0.824                2.794e-05            
  -4.55                 -1.4686e-05           -0.824                2.794e-05            
  -4.6                  -1.4734e-05           -0.824                2.7946e-05           
  -4.65                 -1.4682e-05           -0.824                2.795e-05            
  -4.7                  -1.473e-05            -0.82404              2.7956e-05           
  -4.75                 -1.4742e-05           -0.824                2.7964e-05           
  -4.8                  -1.4718e-05           -0.824                2.7964e-05           
  -4.85                 -1.4726e-05           -0.82404              2.7974e-05           
  -4.9                  -1.4732e-05           -0.824                2.7976e-05           
  -4.95                 -1.4734e-05           -0.824                2.7982e-05           
  -5                    -1.4768e-05           -0.82404              2.799e-05            
END_DB

BEGIN_DB
 ICCAP_VAR ib         -2.55e-05      
 ICCAP_VAR ve         0              

 #vc                    ic                    vb                    ie                   
  0                     2.546e-05             -0.64116              1.209e-08            
  -0.05                 2.53e-05              -0.69032              1.6352e-07           
  -0.1                  2.4276e-05            -0.73964              1.1872e-06           
  -0.15                 1.9258e-05            -0.78324              6.2336e-06           
  -0.2                  5.6768e-06            -0.81488              1.9838e-05           
  -0.25                 -9.885e-06            -0.8314               3.5382e-05           
