! VERSION = 6.00
BEGIN_HEADER
 ICCAP_INPUTS
  vc         V  C GROUND SMU_C 0.1 LIN        1    0          -5         101  -0.05     
  ib         I  B GROUND SMU_B 2 LIN        2    -1e-06     -5e-05     5    -1.225e-05
  ve         V  E GROUND SMU_E 0.1 CON        0
 ICCAP_OUTPUTS
  ic         I  C GROUND SMU_C B
  vb         V  B GROUND SMU_B B
  ie         I  E GROUND SMU_E B
 ICCAP_VALUES
  TNOM "27"
  TEMP "27"
  TECHNO "SG13S"
  LOT "PQA701"
  WAFER "17"
  CHIP "d0406"
  MODULE "T323_pnpMPA"
  DEV_NAME "DUT4"
  DEV_GEOM_L "."
  DEV_GEOM_W "."
  NF_EMITTER "."
  REMARKS "pnpMPA Teststructure"
  TIMEDATE "Fri Oct 21 12:47:07     2022"
END_HEADER

BEGIN_DB
 ICCAP_VAR ib         -1e-06         
 ICCAP_VAR ve         0              

 #vc                    ic                    vb                    ie                   
  0                     1.00272e-06           -0.51156              1.8374e-10           
  -0.05                 9.9666e-07            -0.56088              2.4468e-09           
  -0.1                  9.827e-07             -0.61108              1.8902e-08           
  -0.15                 8.824e-07             -0.6588               1.1982e-07           
  -0.2                  4.0552e-07            -0.7004               5.9762e-07           
  -0.25                 -4.4388e-07           -0.72348              1.4434e-06           
  -0.3                  -8.9938e-07           -0.73064              1.9012e-06           
  -0.35                 -9.9684e-07           -0.732                2.0032e-06           
  -0.4                  -1.01774e-06          -0.7322               2.0208e-06           
  -0.45                 -1.02068e-06          -0.73228              2.0232e-06           
  -0.5                  -1.02188e-06          -0.73228              2.024e-06            
  -0.55                 -1.02182e-06          -0.73228              2.0244e-06           
  -0.6                  -1.02318e-06          -0.73228              2.0246e-06           
  -0.65                 -1.02294e-06          -0.73224              2.0252e-06           
  -0.7                  -1.02604e-06          -0.73228              2.0252e-06           
  -0.75                 -1.02082e-06          -0.73228              2.0256e-06           
  -0.8                  -1.02426e-06          -0.73232              2.026e-06            
  -0.85                 -1.02238e-06          -0.73232              2.0262e-06           
  -0.9                  -1.02846e-06          -0.73212              2.027e-06            
  -0.95                 -1.02414e-06          -0.73228              2.0266e-06           
  -1                    -1.02748e-06          -0.73224              2.027e-06            
  -1.05                 -1.02578e-06          -0.73228              2.0272e-06           
  -1.1                  -1.0245e-06           -0.73228              2.0272e-06           
  -1.15                 -1.02598e-06          -0.73232              2.0278e-06           
  -1.2                  -1.02344e-06          -0.73228              2.0278e-06           
  -1.25                 -1.02706e-06          -0.73232              2.0284e-06           
  -1.3                  -1.0282e-06           -0.73228              2.0288e-06           
  -1.35                 -1.02744e-06          -0.73232              2.0286e-06           
  -1.4                  -1.03028e-06          -0.73236              2.0292e-06           
  -1.45                 -1.03058e-06          -0.73232              2.0292e-06           
  -1.5                  -1.03014e-06          -0.73232              2.0298e-06           
  -1.55                 -1.0283e-06           -0.73232              2.03e-06             
  -1.6                  -1.02866e-06          -0.73232              2.0302e-06           
  -1.65                 -1.02956e-06          -0.73232              2.0306e-06           
  -1.7                  -1.02992e-06          -0.7324               2.0306e-06           
  -1.75                 -1.03314e-06          -0.73236              2.031e-06            
  -1.8                  -1.03038e-06          -0.73236              2.0314e-06           
  -1.85                 -1.03012e-06          -0.73232              2.0308e-06           
  -1.9                  -1.03e-06             -0.73232              2.0318e-06           
  -1.95                 -1.03006e-06          -0.73236              2.0322e-06           
  -2                    -1.03038e-06          -0.73236              2.032e-06            
  -2.05                 -1.0335e-06           -0.73236              2.0326e-06           
  -2.1                  -1.03026e-06          -0.73232              2.033e-06            
  -2.15                 -1.03178e-06          -0.73232              2.0334e-06           
  -2.2                  -1.03326e-06          -0.73236              2.0336e-06           
  -2.25                 -1.03104e-06          -0.73236              2.034e-06            
  -2.3                  -1.03108e-06          -0.73236              2.0344e-06           
  -2.35                 -1.0335e-06           -0.73236              2.0344e-06           
  -2.4                  -1.03322e-06          -0.73236              2.0346e-06           
  -2.45                 -1.03624e-06          -0.73236              2.0346e-06           
  -2.5                  -1.0327e-06           -0.73236              2.0352e-06           
  -2.55                 -1.035e-06            -0.73236              2.0356e-06           
  -2.6                  -1.03002e-06          -0.7324               2.0356e-06           
  -2.65                 -1.0331e-06           -0.7324               2.0358e-06           
  -2.7                  -1.0341e-06           -0.73236              2.0362e-06           
  -2.75                 -1.03484e-06          -0.7324               2.036e-06            
  -2.8                  -1.035e-06            -0.7324               2.0364e-06           
  -2.85                 -1.03564e-06          -0.73236              2.0366e-06           
  -2.9                  -1.0373e-06           -0.7324               2.0372e-06           
  -2.95                 -1.0356e-06           -0.73244              2.0372e-06           
  -3                    -1.03744e-06          -0.7324               2.0374e-06           
  -3.05                 -1.03558e-06          -0.73236              2.0382e-06           
  -3.1                  -1.0356e-06           -0.7324               2.0386e-06           
  -3.15                 -1.03984e-06          -0.7324               2.0384e-06           
  -3.2                  -1.0401e-06           -0.73244              2.0384e-06           
  -3.25                 -1.03862e-06          -0.73244              2.039e-06            
  -3.3                  -1.03786e-06          -0.73244              2.0394e-06           
  -3.35                 -1.0374e-06           -0.7324               2.0394e-06           
  -3.4                  -1.03618e-06          -0.73244              2.0402e-06           
  -3.45                 -1.03674e-06          -0.73244              2.0402e-06           
  -3.5                  -1.03844e-06          -0.73248              2.04e-06             
  -3.55                 -1.0375e-06           -0.73244              2.0402e-06           
  -3.6                  -1.0393e-06           -0.73244              2.0404e-06           
  -3.65                 -1.03866e-06          -0.73244              2.041e-06            
  -3.7                  -1.03606e-06          -0.73244              2.0418e-06           
  -3.75                 -1.03902e-06          -0.73244              2.0416e-06           
  -3.8                  -1.04216e-06          -0.73244              2.0418e-06           
  -3.85                 -1.04146e-06          -0.73244              2.0426e-06           
  -3.9                  -1.04168e-06          -0.73244              2.0426e-06           
  -3.95                 -1.04044e-06          -0.73244              2.043e-06            
  -4                    -1.04332e-06          -0.73244              2.043e-06            
  -4.05                 -1.0403e-06           -0.73248              2.0432e-06           
  -4.1                  -1.04022e-06          -0.7324               2.0438e-06           
  -4.15                 -1.04366e-06          -0.73248              2.044e-06            
  -4.2                  -1.0427e-06           -0.73248              2.0444e-06           
  -4.25                 -1.04326e-06          -0.73236              2.045e-06            
  -4.3                  -1.04294e-06          -0.73236              2.0448e-06           
  -4.35                 -1.04402e-06          -0.73244              2.0446e-06           
  -4.4                  -1.04412e-06          -0.73244              2.0454e-06           
  -4.45                 -1.04616e-06          -0.73252              2.0456e-06           
  -4.5                  -1.04354e-06          -0.73232              2.0462e-06           
  -4.55                 -1.04754e-06          -0.73244              2.0464e-06           
  -4.6                  -1.04522e-06          -0.73248              2.0464e-06           
  -4.65                 -1.0489e-06           -0.73244              2.0466e-06           
  -4.7                  -1.04782e-06          -0.73252              2.0474e-06           
  -4.75                 -1.04218e-06          -0.73252              2.0476e-06           
  -4.8                  -1.04622e-06          -0.73252              2.0482e-06           
  -4.85                 -1.04746e-06          -0.73252              2.0486e-06           
  -4.9                  -1.0481e-06           -0.73252              2.0486e-06           
  -4.95                 -1.04912e-06          -0.73252              2.049e-06            
  -5                    -1.04712e-06          -0.73256              2.0494e-06           
END_DB

BEGIN_DB
 ICCAP_VAR ib         -1.325e-05     
 ICCAP_VAR ve         0              

 #vc                    ic                    vb                    ie                   
  0                     1.3246e-05            -0.60288              6.3856e-09           
  -0.05                 1.3192e-05            -0.65204              8.263e-08            
  -0.1                  1.2642e-05            -0.70152              6.0828e-07           
  -0.15                 9.9476e-06            -0.74544              3.2998e-06           
  -0.2                  2.3224e-06            -0.77716              1.09338e-05          
  -0.25                 -6.1754e-06           -0.79268              1.9418e-05           
  -0.3                  -1.108e-05            -0.79876              2.4324e-05           
  -0.35                 -1.27e-05             -0.8006               2.5958e-05           
  -0.4                  -1.312e-05            -0.80104              2.6358e-05           
  -0.45                 -1.3146e-05           -0.80108              2.6424e-05           
  -0.5                  -1.3176e-05           -0.80108              2.6442e-05           
  -0.55                 -1.32e-05             -0.80108              2.6444e-05           
  -0.6                  -1.3208e-05           -0.80112              2.6458e-05           
  -0.65                 -1.3222e-05           -0.80112              2.6456e-05           
  -0.7                  -1.3226e-05           -0.80108              2.6462e-05           
  -0.75                 -1.3226e-05           -0.80112              2.6468e-05           
  -0.8                  -1.3222e-05           -0.80112              2.6468e-05           
  -0.85                 -1.3212e-05           -0.80112              2.6472e-05           
  -0.9                  -1.3232e-05           -0.80112              2.6478e-05           
  -0.95                 -1.3218e-05           -0.80112              2.648e-05            
  -1                    -1.3264e-05           -0.80112              2.6484e-05           
  -1.05                 -1.3228e-05           -0.80112              2.6488e-05           
  -1.1                  -1.328e-05            -0.80112              2.649e-05            
  -1.15                 -1.3234e-05           -0.80112              2.6496e-05           
  -1.2                  -1.325e-05            -0.80112              2.6498e-05           
  -1.25                 -1.3232e-05           -0.80112              2.65e-05             
  -1.3                  -1.3266e-05           -0.80112              2.6504e-05           
  -1.35                 -1.3222e-05           -0.80116              2.6508e-05           
  -1.4                  -1.3272e-05           -0.80116              2.6512e-05           
  -1.45                 -1.3246e-05           -0.80116              2.6514e-05           
  -1.5                  -1.329e-05            -0.80116              2.6522e-05           
  -1.55                 -1.327e-05            -0.80116              2.6524e-05           
  -1.6                  -1.3336e-05           -0.80116              2.6528e-05           
  -1.65                 -1.3284e-05           -0.80116              2.6528e-05           
  -1.7                  -1.3276e-05           -0.80116              2.6532e-05           
  -1.75                 -1.3262e-05           -0.80116              2.6536e-05           
  -1.8                  -1.3286e-05           -0.80116              2.654e-05            
  -1.85                 -1.3272e-05           -0.80116              2.6544e-05           
  -1.9                  -1.331e-05            -0.80112              2.6544e-05           
  -1.95                 -1.327e-05            -0.80116              2.6548e-05           
  -2                    -1.332e-05            -0.80116              2.6552e-05           
  -2.05                 -1.3298e-05           -0.80116              2.6554e-05           
  -2.1                  -1.3338e-05           -0.80116              2.6558e-05           
  -2.15                 -1.3322e-05           -0.80116              2.6562e-05           
  -2.2                  -1.3322e-05           -0.80116              2.6564e-05           
  -2.25                 -1.3308e-05           -0.80116              2.657e-05            
  -2.3                  -1.3308e-05           -0.80116              2.6574e-05           
  -2.35                 -1.3332e-05           -0.80116              2.6572e-05           
  -2.4                  -1.3362e-05           -0.80116              2.6578e-05           
  -2.45                 -1.3358e-05           -0.80116              2.6586e-05           
  -2.5                  -1.333e-05            -0.80116              2.6584e-05           
  -2.55                 -1.338e-05            -0.80116              2.6588e-05           
  -2.6                  -1.332e-05            -0.8012               2.6592e-05           
  -2.65                 -1.3366e-05           -0.8012               2.6596e-05           
  -2.7                  -1.3376e-05           -0.8012               2.6598e-05           
  -2.75                 -1.3356e-05           -0.80116              2.66e-05             
  -2.8                  -1.3382e-05           -0.80116              2.6602e-05           
  -2.85                 -1.3358e-05           -0.8012               2.6602e-05           
  -2.9                  -1.3346e-05           -0.80116              2.6608e-05           
  -2.95                 -1.341e-05            -0.8012               2.6614e-05           
  -3                    -1.3324e-05           -0.8012               2.662e-05            
  -3.05                 -1.3384e-05           -0.8012               2.662e-05            
  -3.1                  -1.3376e-05           -0.8012               2.6626e-05           
  -3.15                 -1.3386e-05           -0.8012               2.6628e-05           
  -3.2                  -1.3358e-05           -0.8012               2.6628e-05           
  -3.25                 -1.3398e-05           -0.8012               2.6636e-05           
  -3.3                  -1.3376e-05           -0.8012               2.6638e-05           
  -3.35                 -1.34e-05             -0.8012               2.6636e-05           
  -3.4                  -1.3412e-05           -0.8012               2.6642e-05           
  -3.45                 -1.3394e-05           -0.8012               2.6642e-05           
  -3.5                  -1.3402e-05           -0.8012               2.665e-05            
  -3.55                 -1.3448e-05           -0.8012               2.6656e-05           
  -3.6                  -1.3436e-05           -0.8012               2.6658e-05           
  -3.65                 -1.3436e-05           -0.8012               2.6658e-05           
  -3.7                  -1.343e-05            -0.80124              2.6666e-05           
  -3.75                 -1.3386e-05           -0.8012               2.667e-05            
  -3.8                  -1.3432e-05           -0.80124              2.667e-05            
  -3.85                 -1.3408e-05           -0.80124              2.6672e-05           
  -3.9                  -1.3414e-05           -0.80124              2.6674e-05           
  -3.95                 -1.3438e-05           -0.80124              2.668e-05            
  -4                    -1.3422e-05           -0.80124              2.6684e-05           
  -4.05                 -1.341e-05            -0.80124              2.669e-05            
  -4.1                  -1.3434e-05           -0.80124              2.6692e-05           
  -4.15                 -1.3444e-05           -0.80124              2.6696e-05           
  -4.2                  -1.3482e-05           -0.80124              2.6698e-05           
  -4.25                 -1.3456e-05           -0.80124              2.67e-05             
  -4.3                  -1.3482e-05           -0.80124              2.6706e-05           
  -4.35                 -1.3432e-05           -0.80124              2.671e-05            
  -4.4                  -1.3468e-05           -0.80128              2.6712e-05           
  -4.45                 -1.3514e-05           -0.80128              2.672e-05            
  -4.5                  -1.3498e-05           -0.80128              2.672e-05            
  -4.55                 -1.3478e-05           -0.80124              2.6724e-05           
  -4.6                  -1.3486e-05           -0.80128              2.6726e-05           
  -4.65                 -1.348e-05            -0.80128              2.6732e-05           
  -4.7                  -1.3472e-05           -0.80128              2.6738e-05           
  -4.75                 -1.351e-05            -0.80128              2.6742e-05           
  -4.8                  -1.348e-05            -0.80128              2.6746e-05           
  -4.85                 -1.3482e-05           -0.80128              2.675e-05            
  -4.9                  -1.3482e-05           -0.80128              2.6754e-05           
  -4.95                 -1.3512e-05           -0.80132              2.676e-05            
  -5                    -1.3528e-05           -0.80132              2.6762e-05           
END_DB

BEGIN_DB
 ICCAP_VAR ib         -2.55e-05      
 ICCAP_VAR ve         0              

 #vc                    ic                    vb                    ie                   
  0                     2.5548e-05            -0.63216              2.0112e-08           
  -0.05                 2.5252e-05            -0.68124              2.5272e-07           
  -0.1                  2.3704e-05            -0.72996              1.7888e-06           
  -0.15                 1.6956e-05            -0.77096              8.5436e-06           
  -0.2                  2.0902e-06            -0.79808              2.3418e-05           
  -0.25                 -1.211e-05            -0.81124              3.7518e-05           
