! VERSION = 6.00
BEGIN_HEADER
 ICCAP_INPUTS
  vc         V  C GROUND SMU_C 0.1 LIN        1    0          -5         101  -0.05     
  ib         I  B GROUND SMU_B 2 LIN        2    -1e-06     -5e-05     5    -1.225e-05
  ve         V  E GROUND SMU_E 0.1 CON        0
 ICCAP_OUTPUTS
  ic         I  C GROUND SMU_C B
  vb         V  B GROUND SMU_B B
  ie         I  E GROUND SMU_E B
 ICCAP_VALUES
  TNOM "27"
  TEMP "27"
  TECHNO "SG13S"
  LOT "PQA701"
  WAFER "17"
  CHIP "d0406"
  MODULE "T323_pnpMPA"
  DEV_NAME "DUT12"
  DEV_GEOM_L "."
  DEV_GEOM_W "."
  NF_EMITTER "."
  REMARKS "pnpMPA Teststructure"
  TIMEDATE "Fri Oct 21 12:47:07     2022"
END_HEADER

BEGIN_DB
 ICCAP_VAR ib         -1e-06         
 ICCAP_VAR ve         0              

 #vc                    ic                    vb                    ie                   
  0                     9.986e-07             -0.52624              5.964e-11            
  -0.05                 1.0014e-06            -0.57556              9.4848e-10           
  -0.1                  9.9046e-07            -0.62592              7.7568e-09           
  -0.15                 9.4968e-07            -0.6746               5.1204e-08           
  -0.2                  6.9486e-07            -0.7214               3.079e-07            
  -0.25                 -9.752e-08            -0.755                1.09914e-06          
  -0.3                  -9.3602e-07           -0.77052              1.9194e-06           
  -0.35                 -1.2358e-06           -0.77436              2.229e-06            
  -0.4                  -1.2996e-06           -0.77516              2.2938e-06           
  -0.45                 -1.305e-06            -0.77516              2.3034e-06           
  -0.5                  -1.3008e-06           -0.77528              2.306e-06            
  -0.55                 -1.3066e-06           -0.77528              2.3064e-06           
  -0.6                  -1.3076e-06           -0.77524              2.3074e-06           
  -0.65                 -1.305e-06            -0.77528              2.3082e-06           
  -0.7                  -1.3038e-06           -0.77524              2.3084e-06           
  -0.75                 -1.3104e-06           -0.77532              2.309e-06            
  -0.8                  -1.3062e-06           -0.77524              2.3096e-06           
  -0.85                 -1.3146e-06           -0.77536              2.31e-06             
  -0.9                  -1.3106e-06           -0.77524              2.3108e-06           
  -0.95                 -1.3084e-06           -0.7754               2.3108e-06           
  -1                    -1.3116e-06           -0.7754               2.3116e-06           
  -1.05                 -1.3164e-06           -0.77544              2.3124e-06           
  -1.1                  -1.3072e-06           -0.7754               2.3128e-06           
  -1.15                 -1.3144e-06           -0.7754               2.3134e-06           
  -1.2                  -1.3184e-06           -0.7754               2.314e-06            
  -1.25                 -1.3116e-06           -0.7754               2.315e-06            
  -1.3                  -1.3122e-06           -0.77544              2.3152e-06           
  -1.35                 -1.3232e-06           -0.7754               2.3156e-06           
  -1.4                  -1.318e-06            -0.77544              2.3162e-06           
  -1.45                 -1.3156e-06           -0.77544              2.3166e-06           
  -1.5                  -1.3136e-06           -0.77544              2.3166e-06           
  -1.55                 -1.3158e-06           -0.7754               2.3172e-06           
  -1.6                  -1.3118e-06           -0.77544              2.3174e-06           
  -1.65                 -1.3226e-06           -0.7754               2.3182e-06           
  -1.7                  -1.3216e-06           -0.77548              2.3194e-06           
  -1.75                 -1.328e-06            -0.77544              2.3194e-06           
  -1.8                  -1.3232e-06           -0.77544              2.3198e-06           
  -1.85                 -1.3202e-06           -0.77544              2.32e-06             
  -1.9                  -1.3226e-06           -0.77548              2.3208e-06           
  -1.95                 -1.3238e-06           -0.77544              2.3212e-06           
  -2                    -1.3148e-06           -0.77548              2.3214e-06           
  -2.05                 -1.3212e-06           -0.77548              2.322e-06            
  -2.1                  -1.318e-06            -0.77548              2.323e-06            
  -2.15                 -1.3308e-06           -0.77548              2.3232e-06           
  -2.2                  -1.3222e-06           -0.77548              2.3234e-06           
  -2.25                 -1.3156e-06           -0.77548              2.3238e-06           
  -2.3                  -1.3238e-06           -0.77548              2.3244e-06           
  -2.35                 -1.3242e-06           -0.77548              2.3248e-06           
  -2.4                  -1.327e-06            -0.77552              2.3248e-06           
  -2.45                 -1.3236e-06           -0.77552              2.3262e-06           
  -2.5                  -1.3316e-06           -0.77548              2.3268e-06           
  -2.55                 -1.329e-06            -0.77552              2.327e-06            
  -2.6                  -1.3276e-06           -0.77552              2.3272e-06           
  -2.65                 -1.3226e-06           -0.77548              2.3278e-06           
  -2.7                  -1.33e-06             -0.77552              2.3282e-06           
  -2.75                 -1.3314e-06           -0.77552              2.3284e-06           
  -2.8                  -1.3312e-06           -0.77552              2.3286e-06           
  -2.85                 -1.3304e-06           -0.77552              2.3298e-06           
  -2.9                  -1.3318e-06           -0.77556              2.33e-06             
  -2.95                 -1.3326e-06           -0.77544              2.3304e-06           
  -3                    -1.3278e-06           -0.77552              2.331e-06            
  -3.05                 -1.3392e-06           -0.77556              2.3312e-06           
  -3.1                  -1.332e-06            -0.77556              2.3314e-06           
  -3.15                 -1.331e-06            -0.77548              2.3324e-06           
  -3.2                  -1.3356e-06           -0.77556              2.3332e-06           
  -3.25                 -1.335e-06            -0.77556              2.3332e-06           
  -3.3                  -1.3322e-06           -0.77556              2.3336e-06           
  -3.35                 -1.332e-06            -0.77556              2.3344e-06           
  -3.4                  -1.3332e-06           -0.77556              2.335e-06            
  -3.45                 -1.336e-06            -0.77556              2.3356e-06           
  -3.5                  -1.3354e-06           -0.77556              2.3358e-06           
  -3.55                 -1.3402e-06           -0.7756               2.3362e-06           
  -3.6                  -1.3438e-06           -0.7756               2.3368e-06           
  -3.65                 -1.3372e-06           -0.77552              2.337e-06            
  -3.7                  -1.3322e-06           -0.77556              2.3376e-06           
  -3.75                 -1.3428e-06           -0.77556              2.3382e-06           
  -3.8                  -1.337e-06            -0.7756               2.3392e-06           
  -3.85                 -1.3304e-06           -0.7756               2.34e-06             
  -3.9                  -1.3388e-06           -0.77564              2.3398e-06           
  -3.95                 -1.332e-06            -0.7756               2.3402e-06           
  -4                    -1.3442e-06           -0.77564              2.3414e-06           
  -4.05                 -1.3436e-06           -0.77564              2.3416e-06           
  -4.1                  -1.3352e-06           -0.7756               2.3424e-06           
  -4.15                 -1.3394e-06           -0.77568              2.3432e-06           
  -4.2                  -1.3464e-06           -0.77564              2.3434e-06           
  -4.25                 -1.3468e-06           -0.77568              2.3446e-06           
  -4.3                  -1.346e-06            -0.77568              2.3448e-06           
  -4.35                 -1.3488e-06           -0.77568              2.345e-06            
  -4.4                  -1.3414e-06           -0.77568              2.346e-06            
  -4.45                 -1.345e-06            -0.77572              2.3464e-06           
  -4.5                  -1.3488e-06           -0.77568              2.3468e-06           
  -4.55                 -1.3468e-06           -0.77568              2.3476e-06           
  -4.6                  -1.3464e-06           -0.77572              2.3484e-06           
  -4.65                 -1.345e-06            -0.77572              2.3484e-06           
  -4.7                  -1.3492e-06           -0.77572              2.3494e-06           
  -4.75                 -1.3426e-06           -0.77572              2.3502e-06           
  -4.8                  -1.3628e-06           -0.77576              2.3506e-06           
  -4.85                 -1.3554e-06           -0.77572              2.352e-06            
  -4.9                  -1.3486e-06           -0.77576              2.3524e-06           
  -4.95                 -1.3532e-06           -0.77576              2.3528e-06           
  -5                    -1.357e-06            -0.77576              2.3544e-06           
END_DB

BEGIN_DB
 ICCAP_VAR ib         -1.325e-05     
 ICCAP_VAR ve         0              

 #vc                    ic                    vb                    ie                   
  0                     1.3218e-05            -0.62424              2.7686e-09           
  -0.05                 1.3228e-05            -0.67352              4.2568e-08           
  -0.1                  1.2918e-05            -0.72348              3.1942e-07           
  -0.15                 1.1366e-05            -0.77004              1.852e-06            
  -0.2                  5.961e-06             -0.80956              7.2936e-06           
  -0.25                 -2.594e-06            -0.8352               1.5854e-05           
  -0.3                  -9.9642e-06           -0.8496               2.321e-05            
  -0.35                 -1.379e-05            -0.85588              2.7028e-05           
  -0.4                  -1.514e-05            -0.85792              2.8408e-05           
  -0.45                 -1.5462e-05           -0.85824              2.8708e-05           
  -0.5                  -1.5504e-05           -0.85852              2.8766e-05           
  -0.55                 -1.5512e-05           -0.85848              2.878e-05            
  -0.6                  -1.5532e-05           -0.85852              2.879e-05            
  -0.65                 -1.555e-05            -0.85848              2.8798e-05           
  -0.7                  -1.5536e-05           -0.85856              2.8804e-05           
  -0.75                 -1.556e-05            -0.85852              2.881e-05            
  -0.8                  -1.5584e-05           -0.85856              2.8816e-05           
  -0.85                 -1.5568e-05           -0.85864              2.8824e-05           
  -0.9                  -1.5562e-05           -0.8586               2.8828e-05           
  -0.95                 -1.5574e-05           -0.8586               2.8834e-05           
  -1                    -1.5632e-05           -0.85864              2.8842e-05           
  -1.05                 -1.5606e-05           -0.85856              2.8842e-05           
  -1.1                  -1.5584e-05           -0.85864              2.8852e-05           
  -1.15                 -1.5598e-05           -0.85856              2.8858e-05           
  -1.2                  -1.5606e-05           -0.85852              2.886e-05            
  -1.25                 -1.5644e-05           -0.85856              2.887e-05            
  -1.3                  -1.563e-05            -0.85864              2.8872e-05           
  -1.35                 -1.564e-05            -0.85856              2.8878e-05           
  -1.4                  -1.5614e-05           -0.8586               2.8886e-05           
  -1.45                 -1.5636e-05           -0.85856              2.889e-05            
  -1.5                  -1.5648e-05           -0.85864              2.89e-05             
  -1.55                 -1.5628e-05           -0.8586               2.8902e-05           
  -1.6                  -1.5666e-05           -0.85868              2.8904e-05           
  -1.65                 -1.568e-05            -0.85868              2.8908e-05           
  -1.7                  -1.5644e-05           -0.85868              2.8914e-05           
  -1.75                 -1.5674e-05           -0.85872              2.892e-05            
  -1.8                  -1.5676e-05           -0.85872              2.8926e-05           
  -1.85                 -1.5688e-05           -0.85872              2.8934e-05           
  -1.9                  -1.566e-05            -0.85868              2.8938e-05           
  -1.95                 -1.5684e-05           -0.85868              2.8944e-05           
  -2                    -1.5686e-05           -0.85872              2.8948e-05           
  -2.05                 -1.569e-05            -0.85864              2.8952e-05           
  -2.1                  -1.5692e-05           -0.85872              2.8956e-05           
  -2.15                 -1.5688e-05           -0.85868              2.896e-05            
  -2.2                  -1.5748e-05           -0.85872              2.8968e-05           
  -2.25                 -1.5734e-05           -0.85876              2.897e-05            
  -2.3                  -1.5716e-05           -0.85872              2.8974e-05           
  -2.35                 -1.575e-05            -0.85876              2.898e-05            
  -2.4                  -1.5754e-05           -0.85876              2.8984e-05           
  -2.45                 -1.5718e-05           -0.85876              2.8996e-05           
  -2.5                  -1.5758e-05           -0.85872              2.8998e-05           
  -2.55                 -1.575e-05            -0.85876              2.9002e-05           
  -2.6                  -1.5742e-05           -0.85876              2.901e-05            
  -2.65                 -1.5788e-05           -0.85876              2.9012e-05           
  -2.7                  -1.5774e-05           -0.85876              2.9018e-05           
  -2.75                 -1.5762e-05           -0.85876              2.9022e-05           
  -2.8                  -1.5818e-05           -0.85876              2.903e-05            
  -2.85                 -1.5784e-05           -0.85876              2.9036e-05           
  -2.9                  -1.58e-05             -0.85884              2.904e-05            
  -2.95                 -1.5822e-05           -0.8588               2.9044e-05           
  -3                    -1.5856e-05           -0.8588               2.9048e-05           
  -3.05                 -1.5776e-05           -0.85884              2.9052e-05           
  -3.1                  -1.585e-05            -0.8588               2.906e-05            
  -3.15                 -1.5798e-05           -0.8588               2.9066e-05           
  -3.2                  -1.5836e-05           -0.8588               2.907e-05            
  -3.25                 -1.5798e-05           -0.85888              2.9072e-05           
  -3.3                  -1.584e-05            -0.85884              2.908e-05            
  -3.35                 -1.5804e-05           -0.85884              2.9086e-05           
  -3.4                  -1.585e-05            -0.85888              2.9086e-05           
  -3.45                 -1.5828e-05           -0.85892              2.909e-05            
  -3.5                  -1.5904e-05           -0.85888              2.91e-05             
  -3.55                 -1.586e-05            -0.85888              2.9106e-05           
  -3.6                  -1.5866e-05           -0.85888              2.9108e-05           
  -3.65                 -1.5878e-05           -0.85884              2.912e-05            
  -3.7                  -1.5892e-05           -0.85888              2.912e-05            
  -3.75                 -1.5866e-05           -0.85896              2.913e-05            
  -3.8                  -1.589e-05            -0.85888              2.9132e-05           
  -3.85                 -1.5876e-05           -0.85896              2.9138e-05           
  -3.9                  -1.5864e-05           -0.85892              2.9146e-05           
  -3.95                 -1.5924e-05           -0.85896              2.915e-05            
  -4                    -1.5892e-05           -0.85896              2.915e-05            
  -4.05                 -1.591e-05            -0.859                2.916e-05            
  -4.1                  -1.592e-05            -0.85896              2.9162e-05           
  -4.15                 -1.592e-05            -0.85904              2.917e-05            
  -4.2                  -1.5894e-05           -0.859                2.9176e-05           
  -4.25                 -1.596e-05            -0.859                2.9182e-05           
  -4.3                  -1.596e-05            -0.85888              2.9188e-05           
  -4.35                 -1.593e-05            -0.85888              2.9194e-05           
  -4.4                  -1.5962e-05           -0.859                2.9202e-05           
  -4.45                 -1.5936e-05           -0.85896              2.9206e-05           
  -4.5                  -1.5984e-05           -0.85896              2.9218e-05           
  -4.55                 -1.5972e-05           -0.859                2.9218e-05           
  -4.6                  -1.5978e-05           -0.859                2.9228e-05           
  -4.65                 -1.599e-05            -0.859                2.9236e-05           
  -4.7                  -1.5998e-05           -0.859                2.924e-05            
  -4.75                 -1.6048e-05           -0.85904              2.9248e-05           
  -4.8                  -1.6028e-05           -0.85904              2.9254e-05           
  -4.85                 -1.5976e-05           -0.85904              2.9262e-05           
  -4.9                  -1.6002e-05           -0.859                2.927e-05            
  -4.95                 -1.605e-05            -0.85908              2.9276e-05           
  -5                    -1.601e-05            -0.85904              2.9286e-05           
END_DB

BEGIN_DB
 ICCAP_VAR ib         -2.55e-05      
 ICCAP_VAR ve         0              

 #vc                    ic                    vb                    ie                   
  0                     2.5482e-05            -0.65636              9.764e-09            
  -0.05                 2.5354e-05            -0.70556              1.4258e-07           
  -0.1                  2.4456e-05            -0.75508              1.0258e-06           
  -0.15                 2.0306e-05            -0.79988              5.1648e-06           
  -0.2                  9.4456e-06            -0.8364               1.6076e-05           
  -0.25                 -4.6456e-06           -0.86108              3.0126e-05           
