! VERSION = 6.00
BEGIN_HEADER
 ICCAP_INPUTS
  vc         V  C GROUND SMU_C 0.1 LIN        1    0          -5         101  -0.05     
  ib         I  B GROUND SMU_B 2 LIN        2    -1e-06     -5e-05     5    -1.225e-05
  ve         V  E GROUND SMU_E 0.1 CON        0
 ICCAP_OUTPUTS
  ic         I  C GROUND SMU_C B
  vb         V  B GROUND SMU_B B
  ie         I  E GROUND SMU_E B
 ICCAP_VALUES
  TNOM "27"
  TEMP "27"
  TECHNO "SG13S"
  LOT "PQA701"
  WAFER "17"
  CHIP "d0406"
  MODULE "T323_pnpMPA"
  DEV_NAME "DUT6"
  DEV_GEOM_L "."
  DEV_GEOM_W "."
  NF_EMITTER "."
  REMARKS "pnpMPA Teststructure"
  TIMEDATE "Fri Oct 21 12:47:07     2022"
END_HEADER

BEGIN_DB
 ICCAP_VAR ib         -1e-06         
 ICCAP_VAR ve         0              

 #vc                    ic                    vb                    ie                   
  0                     1.00256e-06           -0.51376              1.4634e-10           
  -0.05                 9.981e-07             -0.56308              1.9164e-09           
  -0.1                  9.827e-07             -0.6134               1.4696e-08           
  -0.15                 9.0556e-07            -0.6614               9.4608e-08           
  -0.2                  5.0384e-07            -0.7046               4.997e-07            
  -0.25                 -3.36e-07             -0.73024              1.3348e-06           
  -0.3                  -8.63e-07             -0.73896              1.8656e-06           
  -0.35                 -9.9432e-07           -0.74068              1.995e-06            
  -0.4                  -1.0155e-06           -0.741                2.017e-06            
  -0.45                 -1.0224e-06           -0.74108              2.021e-06            
  -0.5                  -1.0186e-06           -0.74108              2.0222e-06           
  -0.55                 -1.01792e-06          -0.74104              2.0226e-06           
  -0.6                  -1.0233e-06           -0.74104              2.0226e-06           
  -0.65                 -1.0223e-06           -0.74108              2.0226e-06           
  -0.7                  -1.01966e-06          -0.74108              2.0232e-06           
  -0.75                 -1.01878e-06          -0.74108              2.0236e-06           
  -0.8                  -1.0216e-06           -0.74108              2.0238e-06           
  -0.85                 -1.02064e-06          -0.74108              2.0242e-06           
  -0.9                  -1.02106e-06          -0.74112              2.0242e-06           
  -0.95                 -1.01828e-06          -0.74112              2.0248e-06           
  -1                    -1.02196e-06          -0.74108              2.0244e-06           
  -1.05                 -1.02486e-06          -0.74108              2.0252e-06           
  -1.1                  -1.0203e-06           -0.74112              2.0254e-06           
  -1.15                 -1.02598e-06          -0.74112              2.0254e-06           
  -1.2                  -1.02676e-06          -0.741                2.0256e-06           
  -1.25                 -1.02486e-06          -0.74108              2.0256e-06           
  -1.3                  -1.02426e-06          -0.74108              2.026e-06            
  -1.35                 -1.02108e-06          -0.74112              2.0264e-06           
  -1.4                  -1.0246e-06           -0.74108              2.0262e-06           
  -1.45                 -1.02486e-06          -0.74108              2.0264e-06           
  -1.5                  -1.02844e-06          -0.74108              2.027e-06            
  -1.55                 -1.02642e-06          -0.74112              2.0272e-06           
  -1.6                  -1.02784e-06          -0.74096              2.0274e-06           
  -1.65                 -1.02446e-06          -0.74096              2.028e-06            
  -1.7                  -1.0256e-06           -0.74092              2.0286e-06           
  -1.75                 -1.02516e-06          -0.74096              2.0282e-06           
  -1.8                  -1.02758e-06          -0.74108              2.0286e-06           
  -1.85                 -1.0281e-06           -0.74092              2.0288e-06           
  -1.9                  -1.02824e-06          -0.74096              2.0292e-06           
  -1.95                 -1.02936e-06          -0.74112              2.0292e-06           
  -2                    -1.02656e-06          -0.74116              2.0294e-06           
  -2.05                 -1.02642e-06          -0.74116              2.03e-06             
  -2.1                  -1.0282e-06           -0.74112              2.0302e-06           
  -2.15                 -1.02446e-06          -0.74112              2.0302e-06           
  -2.2                  -1.03036e-06          -0.74116              2.0304e-06           
  -2.25                 -1.02918e-06          -0.74116              2.0304e-06           
  -2.3                  -1.02714e-06          -0.74112              2.0308e-06           
  -2.35                 -1.02996e-06          -0.74112              2.0314e-06           
  -2.4                  -1.0305e-06           -0.74116              2.0316e-06           
  -2.45                 -1.03002e-06          -0.74116              2.0316e-06           
  -2.5                  -1.0308e-06           -0.74116              2.032e-06            
  -2.55                 -1.03162e-06          -0.74112              2.0322e-06           
  -2.6                  -1.03198e-06          -0.74116              2.0324e-06           
  -2.65                 -1.0304e-06           -0.7412               2.0328e-06           
  -2.7                  -1.03446e-06          -0.74116              2.0328e-06           
  -2.75                 -1.03334e-06          -0.74116              2.033e-06            
  -2.8                  -1.03328e-06          -0.74116              2.0332e-06           
  -2.85                 -1.03198e-06          -0.74116              2.0338e-06           
  -2.9                  -1.03398e-06          -0.7412               2.034e-06            
  -2.95                 -1.03016e-06          -0.74116              2.0342e-06           
  -3                    -1.031e-06            -0.74116              2.0344e-06           
  -3.05                 -1.0334e-06           -0.74112              2.0346e-06           
  -3.1                  -1.03116e-06          -0.7412               2.0344e-06           
  -3.15                 -1.03246e-06          -0.7412               2.0352e-06           
  -3.2                  -1.033e-06            -0.7412               2.0354e-06           
  -3.25                 -1.03408e-06          -0.7412               2.0356e-06           
  -3.3                  -1.03366e-06          -0.7412               2.0358e-06           
  -3.35                 -1.03448e-06          -0.7412               2.036e-06            
  -3.4                  -1.03648e-06          -0.7412               2.036e-06            
  -3.45                 -1.03522e-06          -0.7412               2.0364e-06           
  -3.5                  -1.0346e-06           -0.7412               2.0366e-06           
  -3.55                 -1.03512e-06          -0.7412               2.0372e-06           
  -3.6                  -1.03222e-06          -0.7412               2.0372e-06           
  -3.65                 -1.03718e-06          -0.7412               2.0376e-06           
  -3.7                  -1.03638e-06          -0.7412               2.0378e-06           
  -3.75                 -1.03834e-06          -0.74124              2.0378e-06           
  -3.8                  -1.03758e-06          -0.7412               2.0382e-06           
  -3.85                 -1.03666e-06          -0.7412               2.0388e-06           
  -3.9                  -1.03988e-06          -0.7412               2.0388e-06           
  -3.95                 -1.0388e-06           -0.7412               2.0388e-06           
  -4                    -1.03786e-06          -0.74124              2.0388e-06           
  -4.05                 -1.03768e-06          -0.7412               2.0396e-06           
  -4.1                  -1.03606e-06          -0.7412               2.0398e-06           
  -4.15                 -1.03476e-06          -0.74124              2.0404e-06           
  -4.2                  -1.03838e-06          -0.74124              2.0404e-06           
  -4.25                 -1.03926e-06          -0.74124              2.0408e-06           
  -4.3                  -1.043e-06            -0.74124              2.0408e-06           
  -4.35                 -1.04098e-06          -0.74124              2.0404e-06           
  -4.4                  -1.03802e-06          -0.74124              2.0406e-06           
  -4.45                 -1.0395e-06           -0.74124              2.0416e-06           
  -4.5                  -1.04026e-06          -0.74124              2.042e-06            
  -4.55                 -1.0421e-06           -0.74124              2.0422e-06           
  -4.6                  -1.04356e-06          -0.74124              2.0422e-06           
  -4.65                 -1.03764e-06          -0.74124              2.043e-06            
  -4.7                  -1.04098e-06          -0.74124              2.043e-06            
  -4.75                 -1.04156e-06          -0.74124              2.0432e-06           
  -4.8                  -1.04438e-06          -0.74124              2.0438e-06           
  -4.85                 -1.04424e-06          -0.74128              2.0438e-06           
  -4.9                  -1.04304e-06          -0.74128              2.044e-06            
  -4.95                 -1.04348e-06          -0.74124              2.045e-06            
  -5                    -1.04418e-06          -0.74128              2.045e-06            
END_DB

BEGIN_DB
 ICCAP_VAR ib         -1.325e-05     
 ICCAP_VAR ve         0              

 #vc                    ic                    vb                    ie                   
  0                     1.3252e-05            -0.60568              5.1136e-09           
  -0.05                 1.3144e-05            -0.65488              6.5862e-08           
  -0.1                  1.276e-05             -0.70452              4.8566e-07           
  -0.15                 1.053e-05             -0.74932              2.722e-06            
  -0.2                  3.59e-06              -0.78288              9.6686e-06           
  -0.25                 -4.9814e-06           -0.80008              1.823e-05            
  -0.3                  -1.0423e-05           -0.80728              2.3662e-05           
  -0.35                 -1.245e-05            -0.80956              2.5674e-05           
  -0.4                  -1.2946e-05           -0.81012              2.6198e-05           
  -0.45                 -1.307e-05            -0.8102               2.6288e-05           
  -0.5                  -1.3052e-05           -0.81024              2.6308e-05           
  -0.55                 -1.3076e-05           -0.81024              2.6318e-05           
  -0.6                  -1.3088e-05           -0.81024              2.6318e-05           
  -0.65                 -1.304e-05            -0.81024              2.6324e-05           
  -0.7                  -1.3106e-05           -0.81024              2.6326e-05           
  -0.75                 -1.3078e-05           -0.81024              2.633e-05            
  -0.8                  -1.3062e-05           -0.81024              2.6336e-05           
  -0.85                 -1.3122e-05           -0.81024              2.6338e-05           
  -0.9                  -1.3058e-05           -0.81024              2.6342e-05           
  -0.95                 -1.311e-05            -0.81024              2.6346e-05           
  -1                    -1.3098e-05           -0.81024              2.6346e-05           
  -1.05                 -1.3102e-05           -0.81024              2.6354e-05           
  -1.1                  -1.3122e-05           -0.81024              2.6356e-05           
  -1.15                 -1.311e-05            -0.81024              2.6356e-05           
  -1.2                  -1.31e-05             -0.81024              2.636e-05            
  -1.25                 -1.3116e-05           -0.81024              2.636e-05            
  -1.3                  -1.3106e-05           -0.81024              2.6368e-05           
  -1.35                 -1.3108e-05           -0.81024              2.637e-05            
  -1.4                  -1.3124e-05           -0.81028              2.6376e-05           
  -1.45                 -1.3144e-05           -0.81024              2.6376e-05           
  -1.5                  -1.3144e-05           -0.81024              2.638e-05            
  -1.55                 -1.3148e-05           -0.81024              2.6382e-05           
  -1.6                  -1.3136e-05           -0.81028              2.6384e-05           
  -1.65                 -1.3172e-05           -0.81028              2.6388e-05           
  -1.7                  -1.3136e-05           -0.81028              2.6392e-05           
  -1.75                 -1.3132e-05           -0.81028              2.6392e-05           
  -1.8                  -1.3134e-05           -0.81028              2.6398e-05           
  -1.85                 -1.3146e-05           -0.81028              2.6402e-05           
  -1.9                  -1.317e-05            -0.81028              2.6404e-05           
  -1.95                 -1.3216e-05           -0.81028              2.6404e-05           
  -2                    -1.3126e-05           -0.81028              2.6408e-05           
  -2.05                 -1.3176e-05           -0.81028              2.6412e-05           
  -2.1                  -1.3166e-05           -0.81028              2.6412e-05           
  -2.15                 -1.315e-05            -0.81028              2.642e-05            
  -2.2                  -1.318e-05            -0.81028              2.6422e-05           
  -2.25                 -1.3172e-05           -0.81028              2.6424e-05           
  -2.3                  -1.3236e-05           -0.81028              2.6426e-05           
  -2.35                 -1.3166e-05           -0.81028              2.643e-05            
  -2.4                  -1.3186e-05           -0.81028              2.6432e-05           
  -2.45                 -1.3202e-05           -0.81028              2.6436e-05           
  -2.5                  -1.3188e-05           -0.81028              2.6436e-05           
  -2.55                 -1.3214e-05           -0.81028              2.6444e-05           
  -2.6                  -1.3226e-05           -0.81028              2.6444e-05           
  -2.65                 -1.32e-05             -0.81032              2.645e-05            
  -2.7                  -1.319e-05            -0.81032              2.6452e-05           
  -2.75                 -1.3192e-05           -0.81032              2.6454e-05           
  -2.8                  -1.32e-05             -0.81032              2.6456e-05           
  -2.85                 -1.3204e-05           -0.81028              2.6458e-05           
  -2.9                  -1.321e-05            -0.81028              2.6462e-05           
  -2.95                 -1.319e-05            -0.81032              2.6462e-05           
  -3                    -1.3214e-05           -0.81032              2.647e-05            
  -3.05                 -1.323e-05            -0.81032              2.6472e-05           
  -3.1                  -1.3206e-05           -0.81032              2.6474e-05           
  -3.15                 -1.325e-05            -0.81032              2.6478e-05           
  -3.2                  -1.3224e-05           -0.81032              2.648e-05            
  -3.25                 -1.3268e-05           -0.81032              2.6484e-05           
  -3.3                  -1.3224e-05           -0.81032              2.6486e-05           
  -3.35                 -1.3248e-05           -0.81032              2.649e-05            
  -3.4                  -1.3238e-05           -0.81032              2.6492e-05           
  -3.45                 -1.326e-05            -0.81032              2.6492e-05           
  -3.5                  -1.3282e-05           -0.81032              2.6498e-05           
  -3.55                 -1.3292e-05           -0.81036              2.6498e-05           
  -3.6                  -1.3248e-05           -0.81032              2.6504e-05           
  -3.65                 -1.3228e-05           -0.81036              2.6506e-05           
  -3.7                  -1.326e-05            -0.81036              2.6508e-05           
  -3.75                 -1.3258e-05           -0.81036              2.6512e-05           
  -3.8                  -1.3278e-05           -0.81036              2.6516e-05           
  -3.85                 -1.3292e-05           -0.81036              2.6518e-05           
  -3.9                  -1.326e-05            -0.81036              2.652e-05            
  -3.95                 -1.3302e-05           -0.81036              2.6528e-05           
  -4                    -1.3266e-05           -0.81036              2.6528e-05           
  -4.05                 -1.3306e-05           -0.81036              2.6532e-05           
  -4.1                  -1.3282e-05           -0.81036              2.6538e-05           
  -4.15                 -1.3288e-05           -0.8104               2.6536e-05           
  -4.2                  -1.3314e-05           -0.8104               2.6542e-05           
  -4.25                 -1.3326e-05           -0.8104               2.6546e-05           
  -4.3                  -1.3308e-05           -0.8104               2.6548e-05           
  -4.35                 -1.327e-05            -0.8104               2.6554e-05           
  -4.4                  -1.331e-05            -0.8104               2.6556e-05           
  -4.45                 -1.33e-05             -0.8104               2.6556e-05           
  -4.5                  -1.3282e-05           -0.8104               2.6562e-05           
  -4.55                 -1.3326e-05           -0.8104               2.6564e-05           
  -4.6                  -1.3348e-05           -0.8104               2.6568e-05           
  -4.65                 -1.3362e-05           -0.8104               2.6574e-05           
  -4.7                  -1.3336e-05           -0.8104               2.6576e-05           
  -4.75                 -1.3316e-05           -0.8104               2.658e-05            
  -4.8                  -1.3332e-05           -0.8104               2.6584e-05           
  -4.85                 -1.3322e-05           -0.8104               2.6584e-05           
  -4.9                  -1.3386e-05           -0.8104               2.659e-05            
  -4.95                 -1.3378e-05           -0.81044              2.6596e-05           
  -5                    -1.3376e-05           -0.81044              2.6596e-05           
END_DB

BEGIN_DB
 ICCAP_VAR ib         -2.55e-05      
 ICCAP_VAR ve         0              

 #vc                    ic                    vb                    ie                   
  0                     2.5514e-05            -0.63504              1.5986e-08           
  -0.05                 2.5308e-05            -0.6842               2.0138e-07           
  -0.1                  2.4074e-05            -0.73324              1.4382e-06           
  -0.15                 1.83e-05              -0.77536              7.1874e-06           
  -0.2                  4.4404e-06            -0.80444              2.107e-05            
  -0.25                 -9.9984e-06           -0.81904              3.5484e-05           
