! VERSION = 6.00
BEGIN_HEADER
 ICCAP_INPUTS
  vc         V  C GROUND SMU_C 0.1 LIN        1    0          -5         101  -0.05     
  ib         I  B GROUND SMU_B 2 LIN        2    -1e-06     -5e-05     5    -1.225e-05
  ve         V  E GROUND SMU_E 0.1 CON        0
 ICCAP_OUTPUTS
  ic         I  C GROUND SMU_C B
  vb         V  B GROUND SMU_B B
  ie         I  E GROUND SMU_E B
 ICCAP_VALUES
  TNOM "27"
  TEMP "27"
  TECHNO "SG13S"
  LOT "PQA701"
  WAFER "17"
  CHIP "d0406"
  MODULE "T323_pnpMPA"
  DEV_NAME "DUT7"
  DEV_GEOM_L "."
  DEV_GEOM_W "."
  NF_EMITTER "."
  REMARKS "pnpMPA Teststructure"
  TIMEDATE "Fri Oct 21 12:47:07     2022"
END_HEADER

BEGIN_DB
 ICCAP_VAR ib         -1e-06         
 ICCAP_VAR ve         0              

 #vc                    ic                    vb                    ie                   
  0                     9.9846e-07            -0.5204               1.0526e-10           
  -0.05                 9.9674e-07            -0.56976              1.5728e-09           
  -0.1                  9.8852e-07            -0.62                 1.2302e-08           
  -0.15                 9.241e-07             -0.66824              8e-08                
  -0.2                  5.5874e-07            -0.71276              4.415e-07            
  -0.25                 -2.9428e-07           -0.74084              1.293e-06            
  -0.3                  -9.2536e-07           -0.7514               1.9276e-06           
  -0.35                 -1.10128e-06          -0.75372              2.1016e-06           
  -0.4                  -1.1352e-06           -0.75408              2.1322e-06           
  -0.45                 -1.1386e-06           -0.75412              2.1388e-06           
  -0.5                  -1.1452e-06           -0.75416              2.1392e-06           
  -0.55                 -1.1346e-06           -0.75416              2.1402e-06           
  -0.6                  -1.1428e-06           -0.75416              2.1404e-06           
  -0.65                 -1.1396e-06           -0.75412              2.1408e-06           
  -0.7                  -1.1414e-06           -0.75416              2.1412e-06           
  -0.75                 -1.1464e-06           -0.75416              2.1418e-06           
  -0.8                  -1.133e-06            -0.7542               2.142e-06            
  -0.85                 -1.146e-06            -0.7542               2.1424e-06           
  -0.9                  -1.1466e-06           -0.7542               2.1428e-06           
  -0.95                 -1.1418e-06           -0.75416              2.1438e-06           
  -1                    -1.151e-06            -0.7542               2.144e-06            
  -1.05                 -1.145e-06            -0.7542               2.1442e-06           
  -1.1                  -1.1432e-06           -0.7542               2.1446e-06           
  -1.15                 -1.1542e-06           -0.75424              2.145e-06            
  -1.2                  -1.1442e-06           -0.7542               2.1456e-06           
  -1.25                 -1.1418e-06           -0.75424              2.1458e-06           
  -1.3                  -1.1406e-06           -0.75424              2.1456e-06           
  -1.35                 -1.1434e-06           -0.75424              2.146e-06            
  -1.4                  -1.1384e-06           -0.75428              2.1464e-06           
  -1.45                 -1.1436e-06           -0.75424              2.147e-06            
  -1.5                  -1.1442e-06           -0.75424              2.1474e-06           
  -1.55                 -1.1364e-06           -0.75424              2.1478e-06           
  -1.6                  -1.1508e-06           -0.75424              2.148e-06            
  -1.65                 -1.1498e-06           -0.75424              2.1484e-06           
  -1.7                  -1.1434e-06           -0.75424              2.1486e-06           
  -1.75                 -1.1472e-06           -0.75424              2.1492e-06           
  -1.8                  -1.1582e-06           -0.75424              2.1494e-06           
  -1.85                 -1.147e-06            -0.75428              2.15e-06             
  -1.9                  -1.1506e-06           -0.75428              2.1502e-06           
  -1.95                 -1.1504e-06           -0.75428              2.1506e-06           
  -2                    -1.1496e-06           -0.75428              2.151e-06            
  -2.05                 -1.152e-06            -0.75428              2.151e-06            
  -2.1                  -1.1526e-06           -0.75428              2.1518e-06           
  -2.15                 -1.1456e-06           -0.75428              2.1514e-06           
  -2.2                  -1.1484e-06           -0.75428              2.1522e-06           
  -2.25                 -1.1584e-06           -0.75432              2.1526e-06           
  -2.3                  -1.1488e-06           -0.75432              2.1528e-06           
  -2.35                 -1.151e-06            -0.75428              2.1536e-06           
  -2.4                  -1.158e-06            -0.75432              2.1538e-06           
  -2.45                 -1.1556e-06           -0.75432              2.1542e-06           
  -2.5                  -1.1556e-06           -0.75432              2.1544e-06           
  -2.55                 -1.1576e-06           -0.75432              2.1544e-06           
  -2.6                  -1.1546e-06           -0.75436              2.1548e-06           
  -2.65                 -1.153e-06            -0.75432              2.155e-06            
  -2.7                  -1.1546e-06           -0.75432              2.156e-06            
  -2.75                 -1.1594e-06           -0.75436              2.1556e-06           
  -2.8                  -1.156e-06            -0.75436              2.156e-06            
  -2.85                 -1.15e-06             -0.75432              2.157e-06            
  -2.9                  -1.1662e-06           -0.75432              2.1568e-06           
  -2.95                 -1.1526e-06           -0.75432              2.1574e-06           
  -3                    -1.1576e-06           -0.75436              2.1578e-06           
  -3.05                 -1.1522e-06           -0.75432              2.1582e-06           
  -3.1                  -1.157e-06            -0.75436              2.1586e-06           
  -3.15                 -1.1536e-06           -0.75436              2.1584e-06           
  -3.2                  -1.1534e-06           -0.75436              2.1586e-06           
  -3.25                 -1.1566e-06           -0.75436              2.1596e-06           
  -3.3                  -1.1508e-06           -0.75436              2.16e-06             
  -3.35                 -1.1624e-06           -0.75436              2.1596e-06           
  -3.4                  -1.1592e-06           -0.75436              2.1606e-06           
  -3.45                 -1.1616e-06           -0.7544               2.161e-06            
  -3.5                  -1.1598e-06           -0.75436              2.161e-06            
  -3.55                 -1.1612e-06           -0.75436              2.1612e-06           
  -3.6                  -1.1602e-06           -0.7544               2.1618e-06           
  -3.65                 -1.1642e-06           -0.75436              2.1622e-06           
  -3.7                  -1.162e-06            -0.7544               2.1622e-06           
  -3.75                 -1.1676e-06           -0.7544               2.163e-06            
  -3.8                  -1.1638e-06           -0.75436              2.163e-06            
  -3.85                 -1.1628e-06           -0.7544               2.1632e-06           
  -3.9                  -1.1652e-06           -0.7544               2.1638e-06           
  -3.95                 -1.154e-06            -0.7544               2.1642e-06           
  -4                    -1.1636e-06           -0.7544               2.1646e-06           
  -4.05                 -1.1684e-06           -0.7544               2.1652e-06           
  -4.1                  -1.1654e-06           -0.75444              2.165e-06            
  -4.15                 -1.1738e-06           -0.7544               2.1658e-06           
  -4.2                  -1.16e-06             -0.7544               2.1658e-06           
  -4.25                 -1.1606e-06           -0.7544               2.167e-06            
  -4.3                  -1.1702e-06           -0.7544               2.1668e-06           
  -4.35                 -1.1718e-06           -0.75444              2.1676e-06           
  -4.4                  -1.1638e-06           -0.75444              2.1674e-06           
  -4.45                 -1.1702e-06           -0.75444              2.1684e-06           
  -4.5                  -1.1638e-06           -0.75444              2.1692e-06           
  -4.55                 -1.168e-06            -0.75444              2.1684e-06           
  -4.6                  -1.1662e-06           -0.75444              2.1694e-06           
  -4.65                 -1.172e-06            -0.7544               2.1702e-06           
  -4.7                  -1.1668e-06           -0.75448              2.1704e-06           
  -4.75                 -1.1746e-06           -0.7544               2.1706e-06           
  -4.8                  -1.1642e-06           -0.75444              2.1708e-06           
  -4.85                 -1.169e-06            -0.75448              2.1714e-06           
  -4.9                  -1.1754e-06           -0.7544               2.1726e-06           
  -4.95                 -1.17e-06             -0.75444              2.1726e-06           
  -5                    -1.1796e-06           -0.7544               2.1728e-06           
END_DB

BEGIN_DB
 ICCAP_VAR ib         -1.325e-05     
 ICCAP_VAR ve         0              

 #vc                    ic                    vb                    ie                   
  0                     1.3244e-05            -0.61536              4.3384e-09           
  -0.05                 1.3138e-05            -0.66464              6.1156e-08           
  -0.1                  1.2762e-05            -0.71436              4.5576e-07           
  -0.15                 1.0676e-05            -0.75952              2.5614e-06           
  -0.2                  4.0086e-06            -0.79464              9.244e-06            
  -0.25                 -4.7378e-06           -0.81404              1.7998e-05           
  -0.3                  -1.08494e-05          -0.823                2.4086e-05           
  -0.35                 -1.3386e-05           -0.82616              2.6602e-05           
  -0.4                  -1.4104e-05           -0.827                2.7338e-05           
  -0.45                 -1.4214e-05           -0.8272               2.7478e-05           
  -0.5                  -1.4256e-05           -0.8272               2.7502e-05           
  -0.55                 -1.4256e-05           -0.8272               2.7508e-05           
  -0.6                  -1.4252e-05           -0.8272               2.7516e-05           
  -0.65                 -1.4252e-05           -0.8272               2.7522e-05           
  -0.7                  -1.4304e-05           -0.8272               2.7526e-05           
  -0.75                 -1.4268e-05           -0.8272               2.7532e-05           
  -0.8                  -1.429e-05            -0.82724              2.7538e-05           
  -0.85                 -1.4282e-05           -0.82724              2.7544e-05           
  -0.9                  -1.4286e-05           -0.8272               2.7548e-05           
  -0.95                 -1.4296e-05           -0.8272               2.755e-05            
  -1                    -1.4282e-05           -0.8272               2.7558e-05           
  -1.05                 -1.426e-05            -0.82724              2.7558e-05           
  -1.1                  -1.4354e-05           -0.82724              2.7564e-05           
  -1.15                 -1.4338e-05           -0.82724              2.7568e-05           
  -1.2                  -1.432e-05            -0.82724              2.7576e-05           
  -1.25                 -1.4344e-05           -0.82724              2.758e-05            
  -1.3                  -1.4314e-05           -0.82724              2.758e-05            
  -1.35                 -1.431e-05            -0.82724              2.759e-05            
  -1.4                  -1.4372e-05           -0.82724              2.7596e-05           
  -1.45                 -1.4346e-05           -0.82728              2.7598e-05           
  -1.5                  -1.4346e-05           -0.82724              2.76e-05             
  -1.55                 -1.4354e-05           -0.82724              2.7604e-05           
  -1.6                  -1.4346e-05           -0.82728              2.7606e-05           
  -1.65                 -1.4352e-05           -0.82728              2.7612e-05           
  -1.7                  -1.4348e-05           -0.82728              2.7618e-05           
  -1.75                 -1.4382e-05           -0.82728              2.7622e-05           
  -1.8                  -1.439e-05            -0.82728              2.7626e-05           
  -1.85                 -1.4364e-05           -0.82728              2.763e-05            
  -1.9                  -1.44e-05             -0.82728              2.7634e-05           
  -1.95                 -1.435e-05            -0.82732              2.7636e-05           
  -2                    -1.4388e-05           -0.82732              2.7644e-05           
  -2.05                 -1.439e-05            -0.82732              2.7648e-05           
  -2.1                  -1.4364e-05           -0.82732              2.765e-05            
  -2.15                 -1.4392e-05           -0.82732              2.765e-05            
  -2.2                  -1.4368e-05           -0.82732              2.7656e-05           
  -2.25                 -1.4406e-05           -0.82732              2.7658e-05           
  -2.3                  -1.4442e-05           -0.82732              2.7664e-05           
  -2.35                 -1.4426e-05           -0.82732              2.7668e-05           
  -2.4                  -1.4432e-05           -0.82732              2.7672e-05           
  -2.45                 -1.439e-05            -0.82732              2.7678e-05           
  -2.5                  -1.4408e-05           -0.82732              2.7678e-05           
  -2.55                 -1.4424e-05           -0.82732              2.7676e-05           
  -2.6                  -1.4454e-05           -0.82732              2.7686e-05           
  -2.65                 -1.4446e-05           -0.82732              2.7688e-05           
  -2.7                  -1.4452e-05           -0.82732              2.769e-05            
  -2.75                 -1.4446e-05           -0.82732              2.7696e-05           
  -2.8                  -1.4486e-05           -0.82732              2.7704e-05           
  -2.85                 -1.4452e-05           -0.82732              2.7708e-05           
  -2.9                  -1.4462e-05           -0.82732              2.7712e-05           
  -2.95                 -1.4482e-05           -0.82736              2.7714e-05           
  -3                    -1.4496e-05           -0.82736              2.7718e-05           
  -3.05                 -1.448e-05            -0.82736              2.772e-05            
  -3.1                  -1.4488e-05           -0.82736              2.7726e-05           
  -3.15                 -1.4454e-05           -0.82736              2.7732e-05           
  -3.2                  -1.45e-05             -0.82736              2.7736e-05           
  -3.25                 -1.447e-05            -0.82736              2.774e-05            
  -3.3                  -1.4498e-05           -0.82736              2.7744e-05           
  -3.35                 -1.451e-05            -0.82736              2.7746e-05           
  -3.4                  -1.4528e-05           -0.82736              2.7752e-05           
  -3.45                 -1.4478e-05           -0.82736              2.7754e-05           
  -3.5                  -1.4486e-05           -0.82736              2.7758e-05           
  -3.55                 -1.4506e-05           -0.82736              2.7764e-05           
  -3.6                  -1.4508e-05           -0.82736              2.7764e-05           
  -3.65                 -1.453e-05            -0.82736              2.7774e-05           
  -3.7                  -1.4548e-05           -0.82736              2.778e-05            
  -3.75                 -1.4506e-05           -0.8274               2.7786e-05           
  -3.8                  -1.455e-05            -0.8274               2.7786e-05           
  -3.85                 -1.453e-05            -0.8274               2.7788e-05           
  -3.9                  -1.4558e-05           -0.8274               2.7796e-05           
  -3.95                 -1.4544e-05           -0.8274               2.78e-05             
  -4                    -1.4554e-05           -0.8274               2.7806e-05           
  -4.05                 -1.4578e-05           -0.8274               2.7814e-05           
  -4.1                  -1.4584e-05           -0.8274               2.7814e-05           
  -4.15                 -1.4586e-05           -0.8274               2.7822e-05           
  -4.2                  -1.459e-05            -0.8274               2.7828e-05           
  -4.25                 -1.4582e-05           -0.82744              2.7828e-05           
  -4.3                  -1.454e-05            -0.8274               2.7834e-05           
  -4.35                 -1.4572e-05           -0.8274               2.783e-05            
  -4.4                  -1.4588e-05           -0.8274               2.7836e-05           
  -4.45                 -1.4574e-05           -0.82744              2.7846e-05           
  -4.5                  -1.4588e-05           -0.82744              2.7848e-05           
  -4.55                 -1.4602e-05           -0.82744              2.7852e-05           
  -4.6                  -1.4624e-05           -0.82744              2.7858e-05           
  -4.65                 -1.4632e-05           -0.82744              2.786e-05            
  -4.7                  -1.4646e-05           -0.82748              2.787e-05            
  -4.75                 -1.4598e-05           -0.82748              2.7876e-05           
  -4.8                  -1.4652e-05           -0.82748              2.7882e-05           
  -4.85                 -1.4638e-05           -0.82752              2.7888e-05           
  -4.9                  -1.4636e-05           -0.82748              2.7892e-05           
  -4.95                 -1.468e-05            -0.82748              2.79e-05             
  -5                    -1.467e-05            -0.82752              2.79e-05             
END_DB

BEGIN_DB
 ICCAP_VAR ib         -2.55e-05      
 ICCAP_VAR ve         0              

 #vc                    ic                    vb                    ie                   
  0                     2.5492e-05            -0.6462               1.456e-08            
  -0.05                 2.5252e-05            -0.69536              1.9688e-07           
  -0.1                  2.4122e-05            -0.74444              1.4064e-06           
  -0.15                 1.8554e-05            -0.78716              6.9212e-06           
  -0.2                  5.283e-06             -0.81812              2.0232e-05           
  -0.25                 -9.3458e-06           -0.83548              3.4826e-05           
