! VERSION = 6.00
BEGIN_HEADER
 ICCAP_INPUTS
  vc         V  C GROUND SMU_C 0.1 LIN        1    0          -5         101  -0.05     
  ib         I  B GROUND SMU_B 2 LIN        2    -1e-06     -5e-05     5    -1.225e-05
  ve         V  E GROUND SMU_E 0.1 CON        0
 ICCAP_OUTPUTS
  ic         I  C GROUND SMU_C B
  vb         V  B GROUND SMU_B B
  ie         I  E GROUND SMU_E B
 ICCAP_VALUES
  TNOM "27"
  TEMP "27"
  TECHNO "SG13S"
  LOT "PQA701"
  WAFER "17"
  CHIP "d0406"
  MODULE "T323_pnpMPA"
  DEV_NAME "DUT13"
  DEV_GEOM_L "."
  DEV_GEOM_W "."
  NF_EMITTER "."
  REMARKS "pnpMPA Teststructure"
  TIMEDATE "Fri Oct 21 12:47:07     2022"
END_HEADER

BEGIN_DB
 ICCAP_VAR ib         -1e-06         
 ICCAP_VAR ve         0              

 #vc                    ic                    vb                    ie                   
  0                     1.0028e-06            -0.5256               5.654e-11            
  -0.05                 1.00348e-06           -0.57492              1.00796e-09          
  -0.1                  9.8874e-07            -0.62528              8.2904e-09           
  -0.15                 9.4496e-07            -0.674                5.46e-08             
  -0.2                  6.747e-07             -0.721                3.2678e-07           
  -0.25                 -1.6882e-07           -0.75528              1.1696e-06           
  -0.3                  -1.09326e-06          -0.7718               2.0954e-06           
  -0.35                 -1.4346e-06           -0.77624              2.4344e-06           
  -0.4                  -1.511e-06            -0.77708              2.5128e-06           
  -0.45                 -1.5254e-06           -0.77724              2.5248e-06           
  -0.5                  -1.5376e-06           -0.77732              2.5278e-06           
  -0.55                 -1.529e-06            -0.77736              2.5296e-06           
  -0.6                  -1.5326e-06           -0.77732              2.5302e-06           
  -0.65                 -1.5424e-06           -0.77732              2.5306e-06           
  -0.7                  -1.532e-06            -0.77732              2.5318e-06           
  -0.75                 -1.53e-06             -0.77736              2.5324e-06           
  -0.8                  -1.5394e-06           -0.77736              2.5332e-06           
  -0.85                 -1.533e-06            -0.77736              2.534e-06            
  -0.9                  -1.5312e-06           -0.77736              2.5342e-06           
  -0.95                 -1.5348e-06           -0.77736              2.5352e-06           
  -1                    -1.5366e-06           -0.77736              2.536e-06            
  -1.05                 -1.5372e-06           -0.77736              2.537e-06            
  -1.1                  -1.5326e-06           -0.77736              2.5376e-06           
  -1.15                 -1.5422e-06           -0.7774               2.5382e-06           
  -1.2                  -1.5392e-06           -0.7774               2.5388e-06           
  -1.25                 -1.542e-06            -0.77744              2.5396e-06           
  -1.3                  -1.5382e-06           -0.77744              2.5404e-06           
  -1.35                 -1.5398e-06           -0.7774               2.5406e-06           
  -1.4                  -1.5422e-06           -0.7774               2.5418e-06           
  -1.45                 -1.5398e-06           -0.77744              2.543e-06            
  -1.5                  -1.5452e-06           -0.7774               2.5434e-06           
  -1.55                 -1.543e-06            -0.77744              2.544e-06            
  -1.6                  -1.5442e-06           -0.77744              2.545e-06            
  -1.65                 -1.5406e-06           -0.77744              2.5446e-06           
  -1.7                  -1.5482e-06           -0.77748              2.5458e-06           
  -1.75                 -1.548e-06            -0.77748              2.5462e-06           
  -1.8                  -1.5438e-06           -0.77748              2.5468e-06           
  -1.85                 -1.5534e-06           -0.77748              2.5478e-06           
  -1.9                  -1.5628e-06           -0.77752              2.5474e-06           
  -1.95                 -1.5482e-06           -0.77748              2.5488e-06           
  -2                    -1.5506e-06           -0.77748              2.5498e-06           
  -2.05                 -1.5534e-06           -0.77748              2.5506e-06           
  -2.1                  -1.553e-06            -0.77752              2.5508e-06           
  -2.15                 -1.5386e-06           -0.77752              2.5518e-06           
  -2.2                  -1.5542e-06           -0.77748              2.5526e-06           
  -2.25                 -1.5528e-06           -0.77752              2.5534e-06           
  -2.3                  -1.5474e-06           -0.77752              2.554e-06            
  -2.35                 -1.5576e-06           -0.77756              2.555e-06            
  -2.4                  -1.5548e-06           -0.77752              2.555e-06            
  -2.45                 -1.5604e-06           -0.77756              2.5562e-06           
  -2.5                  -1.5592e-06           -0.77756              2.5568e-06           
  -2.55                 -1.563e-06            -0.77756              2.5572e-06           
  -2.6                  -1.5524e-06           -0.77756              2.5584e-06           
  -2.65                 -1.5582e-06           -0.77756              2.5588e-06           
  -2.7                  -1.5584e-06           -0.77756              2.5594e-06           
  -2.75                 -1.5562e-06           -0.77756              2.56e-06             
  -2.8                  -1.5588e-06           -0.77756              2.5604e-06           
  -2.85                 -1.5642e-06           -0.7776               2.561e-06            
  -2.9                  -1.5582e-06           -0.77756              2.5622e-06           
  -2.95                 -1.5594e-06           -0.7776               2.5628e-06           
  -3                    -1.5654e-06           -0.7776               2.5634e-06           
  -3.05                 -1.5608e-06           -0.7776               2.5642e-06           
  -3.1                  -1.5674e-06           -0.77764              2.5648e-06           
  -3.15                 -1.5742e-06           -0.7776               2.5654e-06           
  -3.2                  -1.5644e-06           -0.77768              2.5658e-06           
  -3.25                 -1.5606e-06           -0.77768              2.567e-06            
  -3.3                  -1.5732e-06           -0.77768              2.5676e-06           
  -3.35                 -1.568e-06            -0.77776              2.568e-06            
  -3.4                  -1.5682e-06           -0.77772              2.569e-06            
  -3.45                 -1.5654e-06           -0.77776              2.57e-06             
  -3.5                  -1.578e-06            -0.77772              2.5698e-06           
  -3.55                 -1.5744e-06           -0.77776              2.5708e-06           
  -3.6                  -1.5736e-06           -0.77776              2.5718e-06           
  -3.65                 -1.578e-06            -0.77776              2.5726e-06           
  -3.7                  -1.5634e-06           -0.7778               2.5728e-06           
  -3.75                 -1.5638e-06           -0.77776              2.574e-06            
  -3.8                  -1.5802e-06           -0.7778               2.5748e-06           
  -3.85                 -1.5668e-06           -0.77776              2.5754e-06           
  -3.9                  -1.568e-06            -0.7778               2.5762e-06           
  -3.95                 -1.5752e-06           -0.7778               2.5768e-06           
  -4                    -1.5772e-06           -0.7778               2.5776e-06           
  -4.05                 -1.5744e-06           -0.77776              2.5786e-06           
  -4.1                  -1.577e-06            -0.77776              2.5792e-06           
  -4.15                 -1.5782e-06           -0.7778               2.5796e-06           
  -4.2                  -1.5784e-06           -0.77784              2.5808e-06           
  -4.25                 -1.5816e-06           -0.77784              2.581e-06            
  -4.3                  -1.5858e-06           -0.77784              2.582e-06            
  -4.35                 -1.585e-06            -0.77784              2.583e-06            
  -4.4                  -1.584e-06            -0.77788              2.5836e-06           
  -4.45                 -1.5864e-06           -0.77792              2.585e-06            
  -4.5                  -1.5794e-06           -0.77792              2.5858e-06           
  -4.55                 -1.5858e-06           -0.77788              2.5862e-06           
  -4.6                  -1.5874e-06           -0.77792              2.5872e-06           
  -4.65                 -1.59e-06             -0.77788              2.5888e-06           
  -4.7                  -1.5826e-06           -0.77792              2.5898e-06           
  -4.75                 -1.589e-06            -0.77792              2.5902e-06           
  -4.8                  -1.5822e-06           -0.77792              2.5914e-06           
  -4.85                 -1.5886e-06           -0.77796              2.5922e-06           
  -4.9                  -1.592e-06            -0.77796              2.5932e-06           
  -4.95                 -1.5946e-06           -0.77796              2.5944e-06           
  -5                    -1.6016e-06           -0.77796              2.595e-06            
END_DB

BEGIN_DB
 ICCAP_VAR ib         -1.325e-05     
 ICCAP_VAR ve         0              

 #vc                    ic                    vb                    ie                   
  0                     1.3244e-05            -0.62368              2.6068e-09           
  -0.05                 1.316e-05             -0.67296              4.5062e-08           
  -0.1                  1.2848e-05            -0.72296              3.3876e-07           
  -0.15                 1.1332e-05            -0.76972              1.8948e-06           
  -0.2                  6.2182e-06            -0.81092              7.029e-06            
  -0.25                 -1.8238e-06           -0.84136              1.5058e-05           
  -0.3                  -9.7144e-06           -0.8624               2.2972e-05           
  -0.35                 -1.4936e-05           -0.8742               2.8124e-05           
  -0.4                  -1.732e-05            -0.87924              3.0546e-05           
  -0.45                 -1.7948e-05           -0.88108              3.1204e-05           
  -0.5                  -1.81e-05             -0.88116              3.1338e-05           
  -0.55                 -1.8128e-05           -0.88124              3.1376e-05           
  -0.6                  -1.8194e-05           -0.8814               3.1394e-05           
  -0.65                 -1.8176e-05           -0.88124              3.1398e-05           
  -0.7                  -1.8194e-05           -0.88128              3.1404e-05           
  -0.75                 -1.818e-05            -0.88164              3.1418e-05           
  -0.8                  -1.8168e-05           -0.88128              3.1422e-05           
  -0.85                 -1.818e-05            -0.88172              3.1434e-05           
  -0.9                  -1.8158e-05           -0.88168              3.1434e-05           
  -0.95                 -1.8208e-05           -0.8814               3.1446e-05           
  -1                    -1.8212e-05           -0.88176              3.1468e-05           
  -1.05                 -1.8218e-05           -0.88176              3.146e-05            
  -1.1                  -1.822e-05            -0.88152              3.1484e-05           
  -1.15                 -1.8212e-05           -0.88172              3.1492e-05           
  -1.2                  -1.8212e-05           -0.8818               3.149e-05            
  -1.25                 -1.8236e-05           -0.8814               3.1486e-05           
  -1.3                  -1.8268e-05           -0.8816               3.1498e-05           
  -1.35                 -1.8256e-05           -0.8816               3.1496e-05           
  -1.4                  -1.8246e-05           -0.8816               3.1514e-05           
  -1.45                 -1.8282e-05           -0.88164              3.1516e-05           
  -1.5                  -1.8256e-05           -0.8816               3.1528e-05           
  -1.55                 -1.8264e-05           -0.8816               3.153e-05            
  -1.6                  -1.8276e-05           -0.88184              3.1534e-05           
  -1.65                 -1.8324e-05           -0.88156              3.1522e-05           
  -1.7                  -1.831e-05            -0.88124              3.1554e-05           
  -1.75                 -1.8342e-05           -0.88148              3.1566e-05           
  -1.8                  -1.829e-05            -0.88184              3.1562e-05           
  -1.85                 -1.8304e-05           -0.88192              3.1572e-05           
  -1.9                  -1.8328e-05           -0.88176              3.1584e-05           
  -1.95                 -1.8324e-05           -0.88188              3.1598e-05           
  -2                    -1.8334e-05           -0.88188              3.1596e-05           
  -2.05                 -1.8378e-05           -0.88184              3.1606e-05           
  -2.1                  -1.8348e-05           -0.88196              3.1602e-05           
  -2.15                 -1.8344e-05           -0.882                3.1624e-05           
  -2.2                  -1.8376e-05           -0.88192              3.1622e-05           
  -2.25                 -1.8376e-05           -0.88204              3.1634e-05           
  -2.3                  -1.8374e-05           -0.88212              3.1636e-05           
  -2.35                 -1.843e-05            -0.88212              3.1634e-05           
  -2.4                  -1.8414e-05           -0.88196              3.1656e-05           
  -2.45                 -1.8436e-05           -0.8816               3.1654e-05           
  -2.5                  -1.844e-05            -0.88176              3.1676e-05           
  -2.55                 -1.8448e-05           -0.88168              3.1674e-05           
  -2.6                  -1.8444e-05           -0.88172              3.1686e-05           
  -2.65                 -1.8466e-05           -0.88176              3.169e-05            
  -2.7                  -1.848e-05            -0.8818               3.17e-05             
  -2.75                 -1.8446e-05           -0.88176              3.1702e-05           
  -2.8                  -1.8478e-05           -0.88188              3.1724e-05           
  -2.85                 -1.8446e-05           -0.88188              3.1724e-05           
  -2.9                  -1.8496e-05           -0.88188              3.1732e-05           
  -2.95                 -1.8506e-05           -0.88196              3.1732e-05           
  -3                    -1.8496e-05           -0.88204              3.174e-05            
  -3.05                 -1.8508e-05           -0.88196              3.1734e-05           
  -3.1                  -1.8502e-05           -0.88152              3.1744e-05           
  -3.15                 -1.8562e-05           -0.8816               3.1762e-05           
  -3.2                  -1.8524e-05           -0.88124              3.1782e-05           
  -3.25                 -1.85e-05             -0.88136              3.1778e-05           
  -3.3                  -1.8562e-05           -0.88164              3.1784e-05           
  -3.35                 -1.8534e-05           -0.88164              3.179e-05            
  -3.4                  -1.8576e-05           -0.88224              3.1794e-05           
  -3.45                 -1.8534e-05           -0.88188              3.1802e-05           
  -3.5                  -1.8562e-05           -0.88212              3.18e-05             
  -3.55                 -1.854e-05            -0.88236              3.1818e-05           
  -3.6                  -1.8564e-05           -0.8824               3.1816e-05           
  -3.65                 -1.8602e-05           -0.88216              3.1818e-05           
  -3.7                  -1.8596e-05           -0.88184              3.1834e-05           
  -3.75                 -1.8598e-05           -0.88196              3.1842e-05           
  -3.8                  -1.8608e-05           -0.88144              3.1852e-05           
  -3.85                 -1.8596e-05           -0.88136              3.185e-05            
  -3.9                  -1.8652e-05           -0.88256              3.1864e-05           
  -3.95                 -1.8628e-05           -0.8822               3.1876e-05           
  -4                    -1.8638e-05           -0.88076              3.1884e-05           
  -4.05                 -1.8684e-05           -0.88224              3.1896e-05           
  -4.1                  -1.8632e-05           -0.88248              3.1906e-05           
  -4.15                 -1.8672e-05           -0.88284              3.1908e-05           
  -4.2                  -1.8658e-05           -0.88296              3.191e-05            
  -4.25                 -1.868e-05            -0.8826               3.193e-05            
  -4.3                  -1.8692e-05           -0.88268              3.1936e-05           
  -4.35                 -1.8686e-05           -0.88264              3.1944e-05           
  -4.4                  -1.8682e-05           -0.88268              3.195e-05            
  -4.45                 -1.87e-05             -0.88264              3.1962e-05           
  -4.5                  -1.873e-05            -0.88264              3.1974e-05           
  -4.55                 -1.8736e-05           -0.88248              3.1984e-05           
  -4.6                  -1.8764e-05           -0.88288              3.1988e-05           
  -4.65                 -1.876e-05            -0.88288              3.1998e-05           
  -4.7                  -1.8742e-05           -0.8828               3.2002e-05           
  -4.75                 -1.876e-05            -0.88252              3.2006e-05           
  -4.8                  -1.8758e-05           -0.88276              3.2026e-05           
  -4.85                 -1.8828e-05           -0.88296              3.2032e-05           
  -4.9                  -1.8806e-05           -0.88296              3.2046e-05           
  -4.95                 -1.8778e-05           -0.88276              3.205e-05            
  -5                    -1.8808e-05           -0.88312              3.2056e-05           
END_DB

BEGIN_DB
 ICCAP_VAR ib         -2.55e-05      
 ICCAP_VAR ve         0              

 #vc                    ic                    vb                    ie                   
  0                     2.5486e-05            -0.6558               9.2942e-09           
  -0.05                 2.532e-05             -0.70504              1.506e-07            
  -0.1                  2.441e-05             -0.7546               1.06692e-06          
  -0.15                 2.0564e-05            -0.8                  4.9876e-06           
  -0.2                  1.1146e-05            -0.83996              1.4352e-05           
  -0.25                 -1.1242e-06           -0.87184              2.658e-05            
