! VERSION = 6.00
BEGIN_HEADER
 ICCAP_INPUTS
  vc         V  C GROUND SMU_C 0.1 LIN        1    0          -5         101  -0.05     
  ib         I  B GROUND SMU_B 2 LIN        2    -1e-06     -5e-05     5    -1.225e-05
  ve         V  E GROUND SMU_E 0.1 CON        0
 ICCAP_OUTPUTS
  ic         I  C GROUND SMU_C B
  vb         V  B GROUND SMU_B B
  ie         I  E GROUND SMU_E B
 ICCAP_VALUES
  TNOM "27"
  TEMP "27"
  TECHNO "SG13S"
  LOT "PQA701"
  WAFER "17"
  CHIP "d0406"
  MODULE "T323_pnpMPA"
  DEV_NAME "DUT3"
  DEV_GEOM_L "."
  DEV_GEOM_W "."
  NF_EMITTER "."
  REMARKS "pnpMPA Teststructure"
  TIMEDATE "Fri Oct 21 12:47:07     2022"
END_HEADER

BEGIN_DB
 ICCAP_VAR ib         -1e-06         
 ICCAP_VAR ve         0              

 #vc                    ic                    vb                    ie                   
  0                     9.9906e-07            -0.50528              2.0706e-10           
  -0.05                 9.965e-07             -0.55468              2.7442e-09           
  -0.1                  9.8178e-07            -0.6048               2.134e-08            
  -0.15                 8.6718e-07            -0.65236              1.3386e-07           
  -0.2                  3.6364e-07            -0.69276              6.3648e-07           
  -0.25                 -4.4002e-07           -0.71432              1.4408e-06           
  -0.3                  -8.3972e-07           -0.7208               1.8386e-06           
  -0.35                 -9.2588e-07           -0.72204              1.9246e-06           
  -0.4                  -9.385e-07            -0.72224              1.939e-06            
  -0.45                 -9.3988e-07           -0.72228              1.941e-06            
  -0.5                  -9.4016e-07           -0.72228              1.9416e-06           
  -0.55                 -9.3866e-07           -0.72228              1.942e-06            
  -0.6                  -9.4226e-07           -0.72228              1.9418e-06           
  -0.65                 -9.4004e-07           -0.72228              1.9424e-06           
  -0.7                  -9.4016e-07           -0.72228              1.9426e-06           
  -0.75                 -9.4418e-07           -0.72228              1.9424e-06           
  -0.8                  -9.438e-07            -0.72228              1.943e-06            
  -0.85                 -9.4226e-07           -0.72228              1.9428e-06           
  -0.9                  -9.418e-07            -0.72228              1.9434e-06           
  -0.95                 -9.4254e-07           -0.72228              1.9434e-06           
  -1                    -9.3916e-07           -0.72228              1.9438e-06           
  -1.05                 -9.4616e-07           -0.72232              1.9438e-06           
  -1.1                  -9.4392e-07           -0.72232              1.944e-06            
  -1.15                 -9.4298e-07           -0.72228              1.9442e-06           
  -1.2                  -9.4292e-07           -0.72228              1.944e-06            
  -1.25                 -9.4662e-07           -0.72228              1.9444e-06           
  -1.3                  -9.4416e-07           -0.72232              1.9448e-06           
  -1.35                 -9.4316e-07           -0.72232              1.9446e-06           
  -1.4                  -9.4156e-07           -0.72228              1.945e-06            
  -1.45                 -9.4528e-07           -0.72228              1.9452e-06           
  -1.5                  -9.4764e-07           -0.72232              1.9452e-06           
  -1.55                 -9.4472e-07           -0.72232              1.9454e-06           
  -1.6                  -9.466e-07            -0.72232              1.9458e-06           
  -1.65                 -9.4516e-07           -0.72228              1.9458e-06           
  -1.7                  -9.4182e-07           -0.72232              1.9462e-06           
  -1.75                 -9.4488e-07           -0.72232              1.9462e-06           
  -1.8                  -9.4534e-07           -0.72232              1.9462e-06           
  -1.85                 -9.449e-07            -0.72228              1.9466e-06           
  -1.9                  -9.4764e-07           -0.72228              1.9466e-06           
  -1.95                 -9.439e-07            -0.72232              1.9466e-06           
  -2                    -9.4606e-07           -0.72236              1.9468e-06           
  -2.05                 -9.4684e-07           -0.72228              1.947e-06            
  -2.1                  -9.4358e-07           -0.72232              1.9472e-06           
  -2.15                 -9.5092e-07           -0.72236              1.9472e-06           
  -2.2                  -9.485e-07            -0.72232              1.9478e-06           
  -2.25                 -9.4824e-07           -0.72236              1.9474e-06           
  -2.3                  -9.4906e-07           -0.72232              1.9478e-06           
  -2.35                 -9.4878e-07           -0.72232              1.948e-06            
  -2.4                  -9.4736e-07           -0.72232              1.9484e-06           
  -2.45                 -9.5144e-07           -0.72236              1.9486e-06           
  -2.5                  -9.4856e-07           -0.72236              1.9486e-06           
  -2.55                 -9.5062e-07           -0.72232              1.9486e-06           
  -2.6                  -9.4942e-07           -0.72236              1.9486e-06           
  -2.65                 -9.4784e-07           -0.72236              1.949e-06            
  -2.7                  -9.4698e-07           -0.72236              1.949e-06            
  -2.75                 -9.4822e-07           -0.72236              1.949e-06            
  -2.8                  -9.4626e-07           -0.72236              1.9496e-06           
  -2.85                 -9.4856e-07           -0.72236              1.9498e-06           
  -2.9                  -9.4498e-07           -0.72236              1.9494e-06           
  -2.95                 -9.4606e-07           -0.72236              1.9498e-06           
  -3                    -9.513e-07            -0.72236              1.9504e-06           
  -3.05                 -9.4942e-07           -0.72236              1.9502e-06           
  -3.1                  -9.4792e-07           -0.72236              1.9502e-06           
  -3.15                 -9.4744e-07           -0.7224               1.9504e-06           
  -3.2                  -9.4794e-07           -0.7224               1.9508e-06           
  -3.25                 -9.5192e-07           -0.72236              1.951e-06            
  -3.3                  -9.5014e-07           -0.7224               1.951e-06            
  -3.35                 -9.5156e-07           -0.7224               1.951e-06            
  -3.4                  -9.471e-07            -0.7224               1.9516e-06           
  -3.45                 -9.4698e-07           -0.72236              1.9514e-06           
  -3.5                  -9.5226e-07           -0.72236              1.9516e-06           
  -3.55                 -9.5336e-07           -0.7224               1.9518e-06           
  -3.6                  -9.5118e-07           -0.7224               1.9518e-06           
  -3.65                 -9.52e-07             -0.7224               1.9524e-06           
  -3.7                  -9.4932e-07           -0.7224               1.9522e-06           
  -3.75                 -9.4666e-07           -0.7224               1.9524e-06           
  -3.8                  -9.5292e-07           -0.7224               1.9526e-06           
  -3.85                 -9.531e-07            -0.7224               1.953e-06            
  -3.9                  -9.549e-07            -0.7224               1.953e-06            
  -3.95                 -9.4894e-07           -0.7224               1.953e-06            
  -4                    -9.532e-07            -0.7224               1.9532e-06           
  -4.05                 -9.538e-07            -0.7224               1.9532e-06           
  -4.1                  -9.5474e-07           -0.7224               1.9534e-06           
  -4.15                 -9.4982e-07           -0.72236              1.954e-06            
  -4.2                  -9.5328e-07           -0.7224               1.954e-06            
  -4.25                 -9.5146e-07           -0.7224               1.954e-06            
  -4.3                  -9.5224e-07           -0.7224               1.9544e-06           
  -4.35                 -9.5476e-07           -0.7224               1.9544e-06           
  -4.4                  -9.541e-07            -0.7224               1.9544e-06           
  -4.45                 -9.549e-07            -0.7224               1.9546e-06           
  -4.5                  -9.5086e-07           -0.7224               1.9548e-06           
  -4.55                 -9.5686e-07           -0.72244              1.9552e-06           
  -4.6                  -9.5254e-07           -0.7224               1.9552e-06           
  -4.65                 -9.567e-07            -0.7224               1.955e-06            
  -4.7                  -9.5584e-07           -0.72244              1.9558e-06           
  -4.75                 -9.5268e-07           -0.72244              1.9556e-06           
  -4.8                  -9.5824e-07           -0.7224               1.9564e-06           
  -4.85                 -9.545e-07            -0.7224               1.9558e-06           
  -4.9                  -9.5496e-07           -0.72244              1.9562e-06           
  -4.95                 -9.5558e-07           -0.72244              1.9562e-06           
  -5                    -9.5306e-07           -0.7224               1.9572e-06           
END_DB

BEGIN_DB
 ICCAP_VAR ib         -1.325e-05     
 ICCAP_VAR ve         0              

 #vc                    ic                    vb                    ie                   
  0                     1.3244e-05            -0.59444              6.8946e-09           
  -0.05                 1.3176e-05            -0.64364              8.6438e-08           
  -0.1                  1.2612e-05            -0.69296              6.287e-07            
  -0.15                 9.9886e-06            -0.73656              3.2664e-06           
  -0.2                  3.0082e-06            -0.76884              1.0247e-05           
  -0.25                 -4.8328e-06           -0.78648              1.8084e-05           
  -0.3                  -9.8334e-06           -0.79452              2.3072e-05           
  -0.35                 -1.1694e-05           -0.79728              2.4918e-05           
  -0.4                  -1.2142e-05           -0.79792              2.54e-05             
  -0.45                 -1.2236e-05           -0.79804              2.5482e-05           
  -0.5                  -1.228e-05            -0.798                2.5502e-05           
  -0.55                 -1.2256e-05           -0.79804              2.5504e-05           
  -0.6                  -1.2226e-05           -0.79804              2.5506e-05           
  -0.65                 -1.228e-05            -0.79808              2.551e-05            
  -0.7                  -1.2268e-05           -0.79808              2.5514e-05           
  -0.75                 -1.228e-05            -0.79804              2.5518e-05           
  -0.8                  -1.2262e-05           -0.79804              2.552e-05            
  -0.85                 -1.23e-05             -0.79804              2.552e-05            
  -0.9                  -1.2296e-05           -0.79804              2.5526e-05           
  -0.95                 -1.2312e-05           -0.79804              2.5526e-05           
  -1                    -1.2272e-05           -0.79816              2.5526e-05           
  -1.05                 -1.2316e-05           -0.79812              2.5532e-05           
  -1.1                  -1.231e-05            -0.79808              2.553e-05            
  -1.15                 -1.2304e-05           -0.79808              2.5536e-05           
  -1.2                  -1.2312e-05           -0.79804              2.5538e-05           
  -1.25                 -1.2296e-05           -0.79812              2.5542e-05           
  -1.3                  -1.2302e-05           -0.79808              2.5542e-05           
  -1.35                 -1.2314e-05           -0.79812              2.5548e-05           
  -1.4                  -1.2276e-05           -0.79812              2.5548e-05           
  -1.45                 -1.23e-05             -0.798                2.5548e-05           
  -1.5                  -1.2304e-05           -0.798                2.5552e-05           
  -1.55                 -1.2316e-05           -0.798                2.5554e-05           
  -1.6                  -1.2332e-05           -0.798                2.5558e-05           
  -1.65                 -1.2322e-05           -0.798                2.5558e-05           
  -1.7                  -1.2328e-05           -0.798                2.5558e-05           
  -1.75                 -1.2316e-05           -0.798                2.5564e-05           
  -1.8                  -1.2338e-05           -0.79804              2.5568e-05           
  -1.85                 -1.233e-05            -0.79808              2.5566e-05           
  -1.9                  -1.2324e-05           -0.798                2.5568e-05           
  -1.95                 -1.2316e-05           -0.798                2.557e-05            
  -2                    -1.2342e-05           -0.798                2.5572e-05           
  -2.05                 -1.2312e-05           -0.798                2.5574e-05           
  -2.1                  -1.2338e-05           -0.798                2.5578e-05           
  -2.15                 -1.233e-05            -0.798                2.558e-05            
  -2.2                  -1.2306e-05           -0.79796              2.5582e-05           
  -2.25                 -1.2336e-05           -0.798                2.5582e-05           
  -2.3                  -1.235e-05            -0.798                2.5584e-05           
  -2.35                 -1.2302e-05           -0.798                2.5586e-05           
  -2.4                  -1.2334e-05           -0.79796              2.559e-05            
  -2.45                 -1.237e-05            -0.79804              2.559e-05            
  -2.5                  -1.2362e-05           -0.798                2.5594e-05           
  -2.55                 -1.2386e-05           -0.79796              2.5598e-05           
  -2.6                  -1.2334e-05           -0.798                2.5596e-05           
  -2.65                 -1.2316e-05           -0.79796              2.56e-05             
  -2.7                  -1.2372e-05           -0.79804              2.56e-05             
  -2.75                 -1.2358e-05           -0.79804              2.5602e-05           
  -2.8                  -1.236e-05            -0.79808              2.5606e-05           
  -2.85                 -1.2366e-05           -0.79808              2.5608e-05           
  -2.9                  -1.2358e-05           -0.79804              2.5608e-05           
  -2.95                 -1.2352e-05           -0.79812              2.561e-05            
  -3                    -1.2382e-05           -0.79808              2.5612e-05           
  -3.05                 -1.2372e-05           -0.798                2.5616e-05           
  -3.1                  -1.2368e-05           -0.79804              2.5616e-05           
  -3.15                 -1.2334e-05           -0.79804              2.5618e-05           
  -3.2                  -1.2386e-05           -0.79804              2.562e-05            
  -3.25                 -1.2394e-05           -0.798                2.5622e-05           
  -3.3                  -1.2366e-05           -0.79804              2.5624e-05           
  -3.35                 -1.238e-05            -0.798                2.5628e-05           
  -3.4                  -1.2418e-05           -0.79796              2.563e-05            
  -3.45                 -1.2406e-05           -0.798                2.5632e-05           
  -3.5                  -1.238e-05            -0.79808              2.5632e-05           
  -3.55                 -1.2362e-05           -0.79808              2.5636e-05           
  -3.6                  -1.2408e-05           -0.79808              2.5638e-05           
  -3.65                 -1.2388e-05           -0.79808              2.564e-05            
  -3.7                  -1.2408e-05           -0.79808              2.564e-05            
  -3.75                 -1.2412e-05           -0.79808              2.5642e-05           
  -3.8                  -1.2412e-05           -0.79812              2.5644e-05           
  -3.85                 -1.2396e-05           -0.79812              2.5648e-05           
  -3.9                  -1.241e-05            -0.79808              2.5648e-05           
  -3.95                 -1.2412e-05           -0.79808              2.565e-05            
  -4                    -1.2422e-05           -0.79812              2.5652e-05           
  -4.05                 -1.243e-05            -0.79816              2.5656e-05           
  -4.1                  -1.2388e-05           -0.79812              2.5656e-05           
  -4.15                 -1.2418e-05           -0.79812              2.5656e-05           
  -4.2                  -1.2404e-05           -0.79808              2.5662e-05           
  -4.25                 -1.2386e-05           -0.79812              2.5664e-05           
  -4.3                  -1.2406e-05           -0.79812              2.5664e-05           
  -4.35                 -1.2432e-05           -0.79816              2.5668e-05           
  -4.4                  -1.2402e-05           -0.79816              2.5672e-05           
  -4.45                 -1.2404e-05           -0.79812              2.5674e-05           
  -4.5                  -1.2414e-05           -0.79808              2.5674e-05           
  -4.55                 -1.2382e-05           -0.79812              2.5678e-05           
  -4.6                  -1.2456e-05           -0.79812              2.5682e-05           
  -4.65                 -1.2414e-05           -0.79816              2.5682e-05           
  -4.7                  -1.2444e-05           -0.79816              2.5684e-05           
  -4.75                 -1.2422e-05           -0.79816              2.5688e-05           
  -4.8                  -1.2484e-05           -0.79816              2.5692e-05           
  -4.85                 -1.243e-05            -0.79816              2.5694e-05           
  -4.9                  -1.2402e-05           -0.79816              2.5696e-05           
  -4.95                 -1.2446e-05           -0.7982               2.5696e-05           
  -5                    -1.243e-05            -0.79812              2.57e-05             
END_DB

BEGIN_DB
 ICCAP_VAR ib         -2.55e-05      
 ICCAP_VAR ve         0              

 #vc                    ic                    vb                    ie                   
  0                     2.5442e-05            -0.6228               2.1136e-08           
  -0.05                 2.5244e-05            -0.67184              2.5522e-07           
  -0.1                  2.3764e-05            -0.72044              1.761e-06            
  -0.15                 1.7568e-05            -0.7616               7.9238e-06           
  -0.2                  4.784e-06             -0.79112              2.0696e-05           
  -0.25                 -8.309e-06            -0.80848              3.3796e-05           
