! VERSION = 6.00
BEGIN_HEADER
 ICCAP_INPUTS
  vc         V  C GROUND SMU_C 0.1 LIN        1    0          -5         101  -0.05     
  ib         I  B GROUND SMU_B 2 LIN        2    -1e-06     -5e-05     5    -1.225e-05
  ve         V  E GROUND SMU_E 0.1 CON        0
 ICCAP_OUTPUTS
  ic         I  C GROUND SMU_C B
  vb         V  B GROUND SMU_B B
  ie         I  E GROUND SMU_E B
 ICCAP_VALUES
  TNOM "27"
  TEMP "27"
  TECHNO "SG13S"
  LOT "PQA701"
  WAFER "17"
  CHIP "d0406"
  MODULE "T323_pnpMPA"
  DEV_NAME "DUT9"
  DEV_GEOM_L "."
  DEV_GEOM_W "."
  NF_EMITTER "."
  REMARKS "pnpMPA Teststructure"
  TIMEDATE "Fri Oct 21 12:47:07     2022"
END_HEADER

BEGIN_DB
 ICCAP_VAR ib         -1e-06         
 ICCAP_VAR ve         0              

 #vc                    ic                    vb                    ie                   
  0                     1.0036e-06            -0.516                7.41e-11             
  -0.05                 1.0028e-06            -0.56532              1.4806e-09           
  -0.1                  9.8628e-07            -0.61568              1.184e-08            
  -0.15                 9.26e-07              -0.6642               7.7244e-08           
  -0.2                  5.6278e-07            -0.71016              4.4016e-07           
  -0.25                 -4.143e-07            -0.74248              1.415e-06            
  -0.3                  -1.3254e-06           -0.7572               2.3006e-06           
  -0.35                 -1.6252e-06           -0.76092              2.6274e-06           
  -0.4                  -1.6792e-06           -0.76164              2.6862e-06           
  -0.45                 -1.694e-06            -0.76192              2.696e-06            
  -0.5                  -1.689e-06            -0.76192              2.698e-06            
  -0.55                 -1.6988e-06           -0.76196              2.6996e-06           
  -0.6                  -1.7022e-06           -0.762                2.7002e-06           
  -0.65                 -1.706e-06            -0.76192              2.7006e-06           
  -0.7                  -1.6992e-06           -0.762                2.7018e-06           
  -0.75                 -1.7058e-06           -0.762                2.7028e-06           
  -0.8                  -1.7068e-06           -0.762                2.7036e-06           
  -0.85                 -1.7014e-06           -0.762                2.7044e-06           
  -0.9                  -1.7148e-06           -0.762                2.7058e-06           
  -0.95                 -1.703e-06            -0.76204              2.7064e-06           
  -1                    -1.7132e-06           -0.76204              2.7076e-06           
  -1.05                 -1.704e-06            -0.76208              2.7082e-06           
  -1.1                  -1.7092e-06           -0.76208              2.7084e-06           
  -1.15                 -1.7112e-06           -0.76208              2.7096e-06           
  -1.2                  -1.714e-06            -0.76208              2.7104e-06           
  -1.25                 -1.7114e-06           -0.76208              2.7112e-06           
  -1.3                  -1.7136e-06           -0.76208              2.7118e-06           
  -1.35                 -1.7048e-06           -0.76208              2.7128e-06           
  -1.4                  -1.7058e-06           -0.76212              2.7132e-06           
  -1.45                 -1.7206e-06           -0.76212              2.7144e-06           
  -1.5                  -1.7136e-06           -0.76212              2.7148e-06           
  -1.55                 -1.7214e-06           -0.76212              2.7158e-06           
  -1.6                  -1.7176e-06           -0.7622               2.7166e-06           
  -1.65                 -1.7192e-06           -0.76216              2.7176e-06           
  -1.7                  -1.72e-06             -0.76216              2.7178e-06           
  -1.75                 -1.7254e-06           -0.7622               2.7192e-06           
  -1.8                  -1.7196e-06           -0.7622               2.719e-06            
  -1.85                 -1.7194e-06           -0.7622               2.7202e-06           
  -1.9                  -1.716e-06            -0.7622               2.7212e-06           
  -1.95                 -1.718e-06            -0.7622               2.7216e-06           
  -2                    -1.7208e-06           -0.76224              2.7222e-06           
  -2.05                 -1.7292e-06           -0.76224              2.723e-06            
  -2.1                  -1.7164e-06           -0.76224              2.724e-06            
  -2.15                 -1.7254e-06           -0.7622               2.7246e-06           
  -2.2                  -1.7278e-06           -0.76224              2.7252e-06           
  -2.25                 -1.7254e-06           -0.7622               2.726e-06            
  -2.3                  -1.7246e-06           -0.76224              2.7264e-06           
  -2.35                 -1.7352e-06           -0.76224              2.7274e-06           
  -2.4                  -1.7238e-06           -0.76224              2.728e-06            
  -2.45                 -1.7224e-06           -0.76224              2.729e-06            
  -2.5                  -1.7264e-06           -0.76228              2.7294e-06           
  -2.55                 -1.7308e-06           -0.76228              2.7308e-06           
  -2.6                  -1.7304e-06           -0.76228              2.731e-06            
  -2.65                 -1.726e-06            -0.76228              2.7318e-06           
  -2.7                  -1.7328e-06           -0.76228              2.7328e-06           
  -2.75                 -1.7356e-06           -0.76228              2.7332e-06           
  -2.8                  -1.7272e-06           -0.76228              2.7342e-06           
  -2.85                 -1.7374e-06           -0.76232              2.7354e-06           
  -2.9                  -1.7328e-06           -0.76232              2.7354e-06           
  -2.95                 -1.7402e-06           -0.76232              2.7368e-06           
  -3                    -1.7334e-06           -0.76232              2.7368e-06           
  -3.05                 -1.7376e-06           -0.76232              2.738e-06            
  -3.1                  -1.7378e-06           -0.76232              2.7388e-06           
  -3.15                 -1.7364e-06           -0.76232              2.739e-06            
  -3.2                  -1.7406e-06           -0.76232              2.7398e-06           
  -3.25                 -1.7392e-06           -0.76236              2.7412e-06           
  -3.3                  -1.7404e-06           -0.76236              2.7412e-06           
  -3.35                 -1.7442e-06           -0.76236              2.7422e-06           
  -3.4                  -1.7432e-06           -0.76236              2.7426e-06           
  -3.45                 -1.734e-06            -0.76236              2.7432e-06           
  -3.5                  -1.7452e-06           -0.76236              2.7442e-06           
  -3.55                 -1.741e-06            -0.76236              2.745e-06            
  -3.6                  -1.748e-06            -0.7624               2.745e-06            
  -3.65                 -1.75e-06             -0.7624               2.7468e-06           
  -3.7                  -1.736e-06            -0.7624               2.747e-06            
  -3.75                 -1.7432e-06           -0.76244              2.748e-06            
  -3.8                  -1.7452e-06           -0.7624               2.7486e-06           
  -3.85                 -1.745e-06            -0.7624               2.7494e-06           
  -3.9                  -1.7528e-06           -0.7624               2.7504e-06           
  -3.95                 -1.7526e-06           -0.7624               2.7506e-06           
  -4                    -1.747e-06            -0.76236              2.7516e-06           
  -4.05                 -1.7512e-06           -0.7624               2.7524e-06           
  -4.1                  -1.7552e-06           -0.76244              2.7536e-06           
  -4.15                 -1.7586e-06           -0.76248              2.7546e-06           
  -4.2                  -1.7598e-06           -0.76248              2.7556e-06           
  -4.25                 -1.7562e-06           -0.76248              2.7564e-06           
  -4.3                  -1.7582e-06           -0.76248              2.7566e-06           
  -4.35                 -1.7536e-06           -0.76252              2.758e-06            
  -4.4                  -1.7624e-06           -0.76248              2.7588e-06           
  -4.45                 -1.7544e-06           -0.76252              2.7594e-06           
  -4.5                  -1.7622e-06           -0.76248              2.7606e-06           
  -4.55                 -1.759e-06            -0.76248              2.7616e-06           
  -4.6                  -1.7646e-06           -0.76252              2.7626e-06           
  -4.65                 -1.7646e-06           -0.76256              2.7634e-06           
  -4.7                  -1.7672e-06           -0.7626               2.7642e-06           
  -4.75                 -1.7642e-06           -0.7626               2.7658e-06           
  -4.8                  -1.766e-06            -0.76256              2.7666e-06           
  -4.85                 -1.7692e-06           -0.7626               2.7674e-06           
  -4.9                  -1.769e-06            -0.76264              2.7686e-06           
  -4.95                 -1.7672e-06           -0.76264              2.7702e-06           
  -5                    -1.7744e-06           -0.76264              2.771e-06            
END_DB

BEGIN_DB
 ICCAP_VAR ib         -1.325e-05     
 ICCAP_VAR ve         0              

 #vc                    ic                    vb                    ie                   
  0                     1.329e-05             -0.6094               2.9122e-09           
  -0.05                 1.3196e-05            -0.65872              5.4176e-08           
  -0.1                  1.287e-05             -0.70864              4.0372e-07           
  -0.15                 1.1122e-05            -0.7554               2.1542e-06           
  -0.2                  5.957e-06             -0.79764              7.305e-06            
  -0.25                 -1.7378e-06           -0.83172              1.4972e-05           
  -0.3                  -9.8986e-06           -0.85816              2.302e-05            
  -0.35                 -1.6064e-05           -0.87608              2.9244e-05           
  -0.4                  -1.9492e-05           -0.8874               3.2742e-05           
  -0.45                 -2.0702e-05           -0.89048              3.392e-05            
  -0.5                  -2.0952e-05           -0.89184              3.421e-05            
  -0.55                 -2.1006e-05           -0.89224              3.4272e-05           
  -0.6                  -2.1028e-05           -0.89132              3.4278e-05           
  -0.65                 -2.1038e-05           -0.8918               3.4292e-05           
  -0.7                  -2.1048e-05           -0.894                3.4304e-05           
  -0.75                 -2.1054e-05           -0.89504              3.4306e-05           
  -0.8                  -2.1068e-05           -0.8962               3.4306e-05           
  -0.85                 -2.1074e-05           -0.89096              3.4332e-05           
  -0.9                  -2.1086e-05           -0.89204              3.4342e-05           
  -0.95                 -2.1108e-05           -0.89104              3.4354e-05           
  -1                    -2.1092e-05           -0.89216              3.4364e-05           
  -1.05                 -2.1138e-05           -0.8932               3.4372e-05           
  -1.1                  -2.1118e-05           -0.8932               3.4386e-05           
  -1.15                 -2.1138e-05           -0.89284              3.4374e-05           
  -1.2                  -2.116e-05            -0.892                3.4408e-05           
  -1.25                 -2.1192e-05           -0.8922               3.4416e-05           
  -1.3                  -2.1182e-05           -0.89316              3.4428e-05           
  -1.35                 -2.1218e-05           -0.8938               3.4426e-05           
  -1.4                  -2.12e-05             -0.89476              3.443e-05            
  -1.45                 -2.12e-05             -0.89256              3.444e-05            
  -1.5                  -2.1208e-05           -0.89236              3.4444e-05           
  -1.55                 -2.1244e-05           -0.89248              3.447e-05            
  -1.6                  -2.1222e-05           -0.8926               3.4466e-05           
  -1.65                 -2.1214e-05           -0.89304              3.4492e-05           
  -1.7                  -2.1298e-05           -0.89284              3.4488e-05           
  -1.75                 -2.1228e-05           -0.89252              3.45e-05             
  -1.8                  -2.1262e-05           -0.89328              3.4506e-05           
  -1.85                 -2.1236e-05           -0.89228              3.4514e-05           
  -1.9                  -2.1252e-05           -0.89244              3.452e-05            
  -1.95                 -2.1268e-05           -0.89416              3.4528e-05           
  -2                    -2.1278e-05           -0.89344              3.453e-05            
  -2.05                 -2.1292e-05           -0.89196              3.4568e-05           
  -2.1                  -2.128e-05            -0.89324              3.4554e-05           
  -2.15                 -2.1344e-05           -0.89816              3.454e-05            
  -2.2                  -2.1328e-05           -0.8974               3.4576e-05           
  -2.25                 -2.1304e-05           -0.89764              3.4596e-05           
  -2.3                  -2.1358e-05           -0.89756              3.46e-05             
  -2.35                 -2.1348e-05           -0.89716              3.4598e-05           
  -2.4                  -2.1356e-05           -0.89596              3.4606e-05           
  -2.45                 -2.1372e-05           -0.89564              3.461e-05            
  -2.5                  -2.142e-05            -0.89628              3.4594e-05           
  -2.55                 -2.138e-05            -0.89312              3.4644e-05           
  -2.6                  -2.141e-05            -0.89372              3.464e-05            
  -2.65                 -2.1384e-05           -0.89352              3.466e-05            
  -2.7                  -2.1408e-05           -0.8938               3.4654e-05           
  -2.75                 -2.1434e-05           -0.89316              3.4668e-05           
  -2.8                  -2.145e-05            -0.8934               3.4674e-05           
  -2.85                 -2.1464e-05           -0.8932               3.4676e-05           
  -2.9                  -2.1434e-05           -0.89328              3.469e-05            
  -2.95                 -2.1452e-05           -0.89276              3.4704e-05           
  -3                    -2.1456e-05           -0.89208              3.4712e-05           
  -3.05                 -2.1444e-05           -0.89224              3.4732e-05           
  -3.1                  -2.1488e-05           -0.8938               3.4732e-05           
  -3.15                 -2.1478e-05           -0.89308              3.4728e-05           
  -3.2                  -2.1498e-05           -0.89188              3.4726e-05           
  -3.25                 -2.1536e-05           -0.89244              3.4736e-05           
  -3.3                  -2.15e-05             -0.89396              3.4744e-05           
  -3.35                 -2.151e-05            -0.89436              3.4758e-05           
  -3.4                  -2.1526e-05           -0.89384              3.4788e-05           
  -3.45                 -2.1544e-05           -0.89144              3.478e-05            
  -3.5                  -2.1506e-05           -0.89144              3.4794e-05           
  -3.55                 -2.1522e-05           -0.89148              3.4802e-05           
  -3.6                  -2.1556e-05           -0.89152              3.4814e-05           
  -3.65                 -2.1562e-05           -0.89152              3.4818e-05           
  -3.7                  -2.1598e-05           -0.89156              3.4832e-05           
  -3.75                 -2.1588e-05           -0.89148              3.4824e-05           
  -3.8                  -2.1582e-05           -0.89152              3.4832e-05           
  -3.85                 -2.1586e-05           -0.89116              3.485e-05            
  -3.9                  -2.1598e-05           -0.89096              3.4852e-05           
  -3.95                 -2.1644e-05           -0.89104              3.4862e-05           
  -4                    -2.1654e-05           -0.89128              3.4872e-05           
  -4.05                 -2.161e-05            -0.89132              3.4884e-05           
  -4.1                  -2.1652e-05           -0.89264              3.4896e-05           
  -4.15                 -2.1646e-05           -0.89144              3.4906e-05           
  -4.2                  -2.1658e-05           -0.89172              3.4914e-05           
  -4.25                 -2.167e-05            -0.8918               3.4922e-05           
  -4.3                  -2.1712e-05           -0.89176              3.493e-05            
  -4.35                 -2.1702e-05           -0.89152              3.4948e-05           
  -4.4                  -2.1704e-05           -0.8918               3.495e-05            
  -4.45                 -2.1716e-05           -0.8912               3.4958e-05           
  -4.5                  -2.1694e-05           -0.89128              3.4972e-05           
  -4.55                 -2.1712e-05           -0.89184              3.4972e-05           
  -4.6                  -2.1764e-05           -0.89128              3.5e-05              
  -4.65                 -2.1756e-05           -0.89108              3.5002e-05           
  -4.7                  -2.1746e-05           -0.89152              3.5008e-05           
  -4.75                 -2.1786e-05           -0.89132              3.5024e-05           
  -4.8                  -2.1796e-05           -0.89164              3.5034e-05           
  -4.85                 -2.182e-05            -0.89164              3.505e-05            
  -4.9                  -2.1808e-05           -0.89168              3.5062e-05           
  -4.95                 -2.1852e-05           -0.8914               3.5048e-05           
  -5                    -2.1852e-05           -0.89332              3.5088e-05           
END_DB

BEGIN_DB
 ICCAP_VAR ib         -2.55e-05      
 ICCAP_VAR ve         0              

 #vc                    ic                    vb                    ie                   
  0                     2.5516e-05            -0.63964              9.8588e-09           
  -0.05                 2.5316e-05            -0.68888              1.699e-07            
  -0.1                  2.4314e-05            -0.73848              1.1746e-06           
  -0.15                 2.039e-05             -0.78432              5.0906e-06           
  -0.2                  1.2044e-05            -0.8266               1.346e-05            
  -0.25                 8.9476e-07            -0.86328              2.439e-05            
