! VERSION = 6.00
BEGIN_HEADER
 ICCAP_INPUTS
  vc         V  C GROUND SMU_C 0.1 LIN        1    0          -5         101  -0.05     
  ib         I  B GROUND SMU_B 2 LIN        2    -1e-06     -5e-05     5    -1.225e-05
  ve         V  E GROUND SMU_E 0.1 CON        0
 ICCAP_OUTPUTS
  ic         I  C GROUND SMU_C B
  vb         V  B GROUND SMU_B B
  ie         I  E GROUND SMU_E B
 ICCAP_VALUES
  TNOM "27"
  TEMP "27"
  TECHNO "SG13S"
  LOT "PQA701"
  WAFER "17"
  CHIP "d0406"
  MODULE "T323_pnpMPA"
  DEV_NAME "DUT2"
  DEV_GEOM_L "."
  DEV_GEOM_W "."
  NF_EMITTER "."
  REMARKS "pnpMPA Teststructure"
  TIMEDATE "Fri Oct 21 12:47:07     2022"
END_HEADER

BEGIN_DB
 ICCAP_VAR ib         -1e-06         
 ICCAP_VAR ve         0              

 #vc                    ic                    vb                    ie                   
  0                     1.00064e-06           -0.50204              2.4108e-10           
  -0.05                 9.9882e-07            -0.55148              3.127e-09            
  -0.1                  9.7302e-07            -0.6016               2.3934e-08           
  -0.15                 8.5206e-07            -0.64896              1.4988e-07           
  -0.2                  2.9022e-07            -0.68916              7.07e-07             
  -0.25                 -5.6332e-07           -0.70984              1.5618e-06           
  -0.3                  -9.5246e-07           -0.71568              1.9548e-06           
  -0.35                 -1.03582e-06          -0.71672              2.0346e-06           
  -0.4                  -1.04716e-06          -0.71688              2.048e-06            
  -0.45                 -1.04848e-06          -0.71692              2.0502e-06           
  -0.5                  -1.04818e-06          -0.71692              2.0508e-06           
  -0.55                 -1.04706e-06          -0.71692              2.0512e-06           
  -0.6                  -1.05036e-06          -0.71692              2.0514e-06           
  -0.65                 -1.04688e-06          -0.71692              2.0516e-06           
  -0.7                  -1.05162e-06          -0.71696              2.0518e-06           
  -0.75                 -1.04994e-06          -0.71692              2.0524e-06           
  -0.8                  -1.05232e-06          -0.71692              2.0528e-06           
  -0.85                 -1.04946e-06          -0.71692              2.0532e-06           
  -0.9                  -1.05364e-06          -0.71692              2.0536e-06           
  -0.95                 -1.05408e-06          -0.71696              2.0536e-06           
  -1                    -1.0542e-06           -0.71696              2.0542e-06           
  -1.05                 -1.0549e-06           -0.71692              2.0546e-06           
  -1.1                  -1.05478e-06          -0.71692              2.055e-06            
  -1.15                 -1.05602e-06          -0.71696              2.055e-06            
  -1.2                  -1.05406e-06          -0.71696              2.0556e-06           
  -1.25                 -1.05388e-06          -0.71696              2.0556e-06           
  -1.3                  -1.05642e-06          -0.71696              2.056e-06            
  -1.35                 -1.0568e-06           -0.71688              2.0564e-06           
  -1.4                  -1.05446e-06          -0.71696              2.0564e-06           
  -1.45                 -1.05726e-06          -0.71696              2.0566e-06           
  -1.5                  -1.05378e-06          -0.71696              2.0572e-06           
  -1.55                 -1.05544e-06          -0.717                2.0574e-06           
  -1.6                  -1.05292e-06          -0.71696              2.0578e-06           
  -1.65                 -1.05588e-06          -0.71696              2.0578e-06           
  -1.7                  -1.05576e-06          -0.71696              2.0578e-06           
  -1.75                 -1.05742e-06          -0.71692              2.0584e-06           
  -1.8                  -1.05884e-06          -0.71696              2.0588e-06           
  -1.85                 -1.0579e-06           -0.71696              2.0586e-06           
  -1.9                  -1.05608e-06          -0.71696              2.0596e-06           
  -1.95                 -1.05704e-06          -0.71696              2.0598e-06           
  -2                    -1.05978e-06          -0.71696              2.0602e-06           
  -2.05                 -1.06014e-06          -0.71696              2.0598e-06           
  -2.1                  -1.05876e-06          -0.717                2.0604e-06           
  -2.15                 -1.05762e-06          -0.717                2.0604e-06           
  -2.2                  -1.06122e-06          -0.717                2.0612e-06           
  -2.25                 -1.0545e-06           -0.717                2.0612e-06           
  -2.3                  -1.06094e-06          -0.717                2.0612e-06           
  -2.35                 -1.06016e-06          -0.717                2.0618e-06           
  -2.4                  -1.06312e-06          -0.71704              2.0618e-06           
  -2.45                 -1.06082e-06          -0.717                2.062e-06            
  -2.5                  -1.06284e-06          -0.71696              2.0622e-06           
  -2.55                 -1.05872e-06          -0.717                2.0624e-06           
  -2.6                  -1.0589e-06           -0.71696              2.0624e-06           
  -2.65                 -1.05904e-06          -0.71692              2.0626e-06           
  -2.7                  -1.05956e-06          -0.71696              2.0628e-06           
  -2.75                 -1.06142e-06          -0.71704              2.0628e-06           
  -2.8                  -1.06144e-06          -0.71704              2.0634e-06           
  -2.85                 -1.06214e-06          -0.717                2.0636e-06           
  -2.9                  -1.0638e-06           -0.71704              2.0644e-06           
  -2.95                 -1.0596e-06           -0.71704              2.0646e-06           
  -3                    -1.06118e-06          -0.71704              2.0648e-06           
  -3.05                 -1.06626e-06          -0.71704              2.065e-06            
  -3.1                  -1.06134e-06          -0.71708              2.0652e-06           
  -3.15                 -1.0642e-06           -0.71704              2.0656e-06           
  -3.2                  -1.06512e-06          -0.71704              2.0662e-06           
  -3.25                 -1.06642e-06          -0.71704              2.0662e-06           
  -3.3                  -1.06396e-06          -0.717                2.0664e-06           
  -3.35                 -1.0654e-06           -0.71704              2.0664e-06           
  -3.4                  -1.06568e-06          -0.71704              2.0668e-06           
  -3.45                 -1.06428e-06          -0.71704              2.0666e-06           
  -3.5                  -1.06584e-06          -0.71704              2.0674e-06           
  -3.55                 -1.06432e-06          -0.71704              2.0674e-06           
  -3.6                  -1.06634e-06          -0.717                2.0676e-06           
  -3.65                 -1.06286e-06          -0.71704              2.0684e-06           
  -3.7                  -1.06908e-06          -0.71704              2.0684e-06           
  -3.75                 -1.06916e-06          -0.71708              2.0686e-06           
  -3.8                  -1.06846e-06          -0.71704              2.0692e-06           
  -3.85                 -1.0673e-06           -0.71708              2.0688e-06           
  -3.9                  -1.06788e-06          -0.71708              2.0694e-06           
  -3.95                 -1.06952e-06          -0.71708              2.07e-06             
  -4                    -1.06942e-06          -0.71712              2.0702e-06           
  -4.05                 -1.06928e-06          -0.71712              2.0702e-06           
  -4.1                  -1.06864e-06          -0.71708              2.0706e-06           
  -4.15                 -1.0684e-06           -0.71708              2.0704e-06           
  -4.2                  -1.0702e-06           -0.71708              2.071e-06            
  -4.25                 -1.06664e-06          -0.71708              2.0706e-06           
  -4.3                  -1.0699e-06           -0.71712              2.0714e-06           
  -4.35                 -1.06878e-06          -0.71712              2.0716e-06           
  -4.4                  -1.07324e-06          -0.71704              2.0728e-06           
  -4.45                 -1.07238e-06          -0.71708              2.0724e-06           
  -4.5                  -1.07026e-06          -0.71704              2.0728e-06           
  -4.55                 -1.07264e-06          -0.71712              2.073e-06            
  -4.6                  -1.06974e-06          -0.71712              2.0732e-06           
  -4.65                 -1.07294e-06          -0.71712              2.0742e-06           
  -4.7                  -1.07276e-06          -0.71712              2.074e-06            
  -4.75                 -1.0726e-06           -0.71712              2.0744e-06           
  -4.8                  -1.07988e-06          -0.71712              2.0746e-06           
  -4.85                 -1.07394e-06          -0.71716              2.0752e-06           
  -4.9                  -1.07356e-06          -0.71712              2.0754e-06           
  -4.95                 -1.07574e-06          -0.71716              2.076e-06            
  -5                    -1.07568e-06          -0.71712              2.0766e-06           
END_DB

BEGIN_DB
 ICCAP_VAR ib         -1.325e-05     
 ICCAP_VAR ve         0              

 #vc                    ic                    vb                    ie                   
  0                     1.3244e-05            -0.58996              7.101e-09            
  -0.05                 1.3108e-05            -0.63912              9.2316e-08           
  -0.1                  1.2534e-05            -0.68856              6.7638e-07           
  -0.15                 9.6048e-06            -0.73232              3.6612e-06           
  -0.2                  1.3022e-06            -0.76348              1.195e-05            
  -0.25                 -7.4484e-06           -0.77816              2.0706e-05           
  -0.3                  -1.1982e-05           -0.78352              2.523e-05            
  -0.35                 -1.3364e-05           -0.78492              2.6616e-05           
  -0.4                  -1.3652e-05           -0.7852               2.6894e-05           
  -0.45                 -1.3688e-05           -0.78524              2.694e-05            
  -0.5                  -1.371e-05            -0.78524              2.6952e-05           
  -0.55                 -1.3716e-05           -0.78524              2.6958e-05           
  -0.6                  -1.3708e-05           -0.78524              2.6966e-05           
  -0.65                 -1.3706e-05           -0.78524              2.6968e-05           
  -0.7                  -1.3748e-05           -0.78524              2.6968e-05           
  -0.75                 -1.3704e-05           -0.78524              2.6974e-05           
  -0.8                  -1.373e-05            -0.78524              2.6982e-05           
  -0.85                 -1.3724e-05           -0.78524              2.6986e-05           
  -0.9                  -1.374e-05            -0.78524              2.6988e-05           
  -0.95                 -1.3742e-05           -0.78524              2.6992e-05           
  -1                    -1.3742e-05           -0.78528              2.6994e-05           
  -1.05                 -1.3734e-05           -0.78524              2.6996e-05           
  -1.1                  -1.3722e-05           -0.78524              2.7e-05              
  -1.15                 -1.3748e-05           -0.78524              2.7006e-05           
  -1.2                  -1.3788e-05           -0.78528              2.701e-05            
  -1.25                 -1.3766e-05           -0.78528              2.7014e-05           
  -1.3                  -1.3764e-05           -0.78528              2.7016e-05           
  -1.35                 -1.38e-05             -0.78528              2.702e-05            
  -1.4                  -1.3766e-05           -0.78528              2.7024e-05           
  -1.45                 -1.3766e-05           -0.78528              2.703e-05            
  -1.5                  -1.3796e-05           -0.78528              2.703e-05            
  -1.55                 -1.3762e-05           -0.78528              2.7034e-05           
  -1.6                  -1.3764e-05           -0.78528              2.7038e-05           
  -1.65                 -1.376e-05            -0.78528              2.7042e-05           
  -1.7                  -1.3778e-05           -0.78528              2.7046e-05           
  -1.75                 -1.3792e-05           -0.78528              2.705e-05            
  -1.8                  -1.3804e-05           -0.78528              2.705e-05            
  -1.85                 -1.381e-05            -0.78532              2.7056e-05           
  -1.9                  -1.3838e-05           -0.78532              2.706e-05            
  -1.95                 -1.384e-05            -0.78532              2.7064e-05           
  -2                    -1.3824e-05           -0.78532              2.7064e-05           
  -2.05                 -1.3826e-05           -0.78532              2.7066e-05           
  -2.1                  -1.384e-05            -0.78532              2.707e-05            
  -2.15                 -1.3804e-05           -0.78532              2.7076e-05           
  -2.2                  -1.3834e-05           -0.78532              2.7078e-05           
  -2.25                 -1.38e-05             -0.78532              2.7082e-05           
  -2.3                  -1.3834e-05           -0.78532              2.7086e-05           
  -2.35                 -1.3844e-05           -0.78532              2.7088e-05           
  -2.4                  -1.383e-05            -0.78532              2.709e-05            
  -2.45                 -1.385e-05            -0.78532              2.7092e-05           
  -2.5                  -1.3858e-05           -0.78532              2.7098e-05           
  -2.55                 -1.3876e-05           -0.78532              2.7102e-05           
  -2.6                  -1.3872e-05           -0.78532              2.7102e-05           
  -2.65                 -1.3852e-05           -0.78532              2.7108e-05           
  -2.7                  -1.3882e-05           -0.78532              2.7112e-05           
  -2.75                 -1.386e-05            -0.78532              2.7114e-05           
  -2.8                  -1.3918e-05           -0.78532              2.7118e-05           
  -2.85                 -1.3866e-05           -0.78532              2.7122e-05           
  -2.9                  -1.3868e-05           -0.78532              2.7126e-05           
  -2.95                 -1.3888e-05           -0.78532              2.7128e-05           
  -3                    -1.3902e-05           -0.78536              2.7128e-05           
  -3.05                 -1.3884e-05           -0.78536              2.7134e-05           
  -3.1                  -1.3866e-05           -0.78536              2.7136e-05           
  -3.15                 -1.3864e-05           -0.78532              2.7138e-05           
  -3.2                  -1.3848e-05           -0.78536              2.7144e-05           
  -3.25                 -1.388e-05            -0.78532              2.7146e-05           
  -3.3                  -1.393e-05            -0.78536              2.7152e-05           
  -3.35                 -1.3898e-05           -0.78536              2.7154e-05           
  -3.4                  -1.3906e-05           -0.78536              2.7154e-05           
  -3.45                 -1.3924e-05           -0.78536              2.716e-05            
  -3.5                  -1.3928e-05           -0.78536              2.7162e-05           
  -3.55                 -1.3928e-05           -0.78536              2.7166e-05           
  -3.6                  -1.392e-05            -0.78536              2.7174e-05           
  -3.65                 -1.397e-05            -0.78536              2.7174e-05           
  -3.7                  -1.3908e-05           -0.78536              2.7174e-05           
  -3.75                 -1.397e-05            -0.78536              2.718e-05            
  -3.8                  -1.3962e-05           -0.78536              2.7182e-05           
  -3.85                 -1.3952e-05           -0.78536              2.7182e-05           
  -3.9                  -1.3894e-05           -0.78536              2.719e-05            
  -3.95                 -1.3942e-05           -0.78536              2.7192e-05           
  -4                    -1.3968e-05           -0.78536              2.7196e-05           
  -4.05                 -1.3968e-05           -0.78536              2.7202e-05           
  -4.1                  -1.3964e-05           -0.7854               2.7204e-05           
  -4.15                 -1.3964e-05           -0.78536              2.7206e-05           
  -4.2                  -1.4002e-05           -0.78536              2.7208e-05           
  -4.25                 -1.3974e-05           -0.78536              2.7218e-05           
  -4.3                  -1.3996e-05           -0.78536              2.7218e-05           
  -4.35                 -1.4e-05              -0.7854               2.7224e-05           
  -4.4                  -1.3972e-05           -0.78536              2.7224e-05           
  -4.45                 -1.399e-05            -0.7854               2.7226e-05           
  -4.5                  -1.3972e-05           -0.7854               2.7236e-05           
  -4.55                 -1.396e-05            -0.7854               2.7236e-05           
  -4.6                  -1.3978e-05           -0.7854               2.7238e-05           
  -4.65                 -1.4024e-05           -0.7854               2.7248e-05           
  -4.7                  -1.3992e-05           -0.7854               2.725e-05            
  -4.75                 -1.4018e-05           -0.7854               2.7252e-05           
  -4.8                  -1.3996e-05           -0.7854               2.7258e-05           
  -4.85                 -1.4016e-05           -0.7854               2.726e-05            
  -4.9                  -1.403e-05            -0.78544              2.7268e-05           
  -4.95                 -1.3998e-05           -0.7854               2.7272e-05           
  -5                    -1.4026e-05           -0.78544              2.7274e-05           
END_DB

BEGIN_DB
 ICCAP_VAR ib         -2.55e-05      
 ICCAP_VAR ve         0              

 #vc                    ic                    vb                    ie                   
  0                     2.5482e-05            -0.61776              2.1054e-08           
  -0.05                 2.5244e-05            -0.66688              2.6858e-07           
  -0.1                  2.3586e-05            -0.71564              1.8974e-06           
  -0.15                 1.636e-05             -0.75672              9.1644e-06           
  -0.2                  3.5508e-07            -0.7836               2.5142e-05           
  -0.25                 -1.437e-05            -0.79616              3.9788e-05           
