! VERSION = 6.00
BEGIN_HEADER
 ICCAP_INPUTS
  vc         V  C GROUND SMU_C 0.1 LIN        1    0          -5         101  -0.05     
  vb         V  B GROUND SMU_B 0.01 LIN        2    -0.6       -1         9    -0.05     
  ve         V  E GROUND SMU_E 0.1 CON        0
 ICCAP_OUTPUTS
  ic         I  C GROUND SMU_C B
  ib         I  B GROUND SMU_B M
  ie         I  E GROUND SMU_E M
 ICCAP_VALUES
  TNOM "27"
  TEMP "27"
  TECHNO "SG13S"
  LOT "PQA701"
  WAFER "17"
  CHIP "d0406"
  MODULE "T323_pnpMPA"
  DEV_NAME "DUT1"
  DEV_GEOM_L "."
  DEV_GEOM_W "."
  NF_EMITTER "."
  REMARKS "pnpMPA Teststructure"
  TIMEDATE "Fri Oct 21 12:47:07     2022"
END_HEADER

BEGIN_DB
 ICCAP_VAR vb         -0.6           
 ICCAP_VAR ve         0              

 #vc                    ic                    ib                    ie                   
  0                     2.017e-05             -2.021e-05            1.7746e-08           
  -0.05                 5.5376e-06            -5.566e-06            3.1246e-08           
  -0.1                  1.1154e-06            -1.1434e-06           3.3442e-08           
  -0.15                 1.769e-07             -2.1046e-07           3.375e-08            
  -0.2                  1.2248e-08            -4.7202e-08           3.3792e-08           
  -0.25                 -1.324e-08            -2.2518e-08           3.3776e-08           
  -0.3                  -1.7194e-08           -1.8748e-08           3.3782e-08           
  -0.35                 -1.7914e-08           -1.8204e-08           3.378e-08            
  -0.4                  -1.782e-08            -1.8104e-08           3.3782e-08           
  -0.45                 -1.7674e-08           -1.81e-08             3.379e-08            
  -0.5                  -1.8298e-08           -1.8098e-08           3.3776e-08           
  -0.55                 -1.7986e-08           -1.8084e-08           3.3798e-08           
  -0.6                  -1.8452e-08           -1.8096e-08           3.3782e-08           
  -0.65                 -1.7912e-08           -1.8086e-08           3.378e-08            
  -0.7                  -1.8838e-08           -1.8088e-08           3.3806e-08           
  -0.75                 -1.8148e-08           -1.809e-08            3.3778e-08           
  -0.8                  -1.8018e-08           -1.8084e-08           3.3784e-08           
  -0.85                 -1.8212e-08           -1.809e-08            3.3792e-08           
  -0.9                  -1.806e-08            -1.8068e-08           3.378e-08            
  -0.95                 -1.7744e-08           -1.8078e-08           3.3792e-08           
  -1                    -1.8482e-08           -1.8082e-08           3.3766e-08           
  -1.05                 -1.787e-08            -1.8064e-08           3.379e-08            
  -1.1                  -1.8208e-08           -1.8072e-08           3.3786e-08           
  -1.15                 -1.9016e-08           -1.8074e-08           3.3772e-08           
  -1.2                  -1.8106e-08           -1.807e-08            3.3798e-08           
  -1.25                 -1.7626e-08           -1.8078e-08           3.379e-08            
  -1.3                  -1.8512e-08           -1.8066e-08           3.3776e-08           
  -1.35                 -1.7924e-08           -1.8076e-08           3.3804e-08           
  -1.4                  -1.8064e-08           -1.8064e-08           3.3776e-08           
  -1.45                 -1.8284e-08           -1.8066e-08           3.3788e-08           
  -1.5                  -1.8776e-08           -1.8074e-08           3.3784e-08           
  -1.55                 -1.7668e-08           -1.8056e-08           3.379e-08            
  -1.6                  -1.833e-08            -1.806e-08            3.3802e-08           
  -1.65                 -1.8278e-08           -1.8074e-08           3.379e-08            
  -1.7                  -1.809e-08            -1.8052e-08           3.3792e-08           
  -1.75                 -1.8138e-08           -1.8068e-08           3.38e-08             
  -1.8                  -1.851e-08            -1.8054e-08           3.377e-08            
  -1.85                 -1.8558e-08           -1.8064e-08           3.3802e-08           
  -1.9                  -1.867e-08            -1.8062e-08           3.3798e-08           
  -1.95                 -1.9058e-08           -1.805e-08            3.3804e-08           
  -2                    -1.851e-08            -1.8064e-08           3.3798e-08           
  -2.05                 -1.8004e-08           -1.805e-08            3.3802e-08           
  -2.1                  -1.8624e-08           -1.8048e-08           3.3812e-08           
  -2.15                 -1.7732e-08           -1.8064e-08           3.3794e-08           
  -2.2                  -1.8152e-08           -1.8052e-08           3.381e-08            
  -2.25                 -1.86e-08             -1.806e-08            3.3806e-08           
  -2.3                  -1.7802e-08           -1.8062e-08           3.379e-08            
  -2.35                 -1.8662e-08           -1.8058e-08           3.3816e-08           
  -2.4                  -1.8508e-08           -1.8054e-08           3.3804e-08           
  -2.45                 -1.835e-08            -1.804e-08            3.381e-08            
  -2.5                  -1.8586e-08           -1.8052e-08           3.3802e-08           
  -2.55                 -1.853e-08            -1.804e-08            3.3794e-08           
  -2.6                  -1.8172e-08           -1.8034e-08           3.3816e-08           
  -2.65                 -1.8542e-08           -1.805e-08            3.3796e-08           
  -2.7                  -1.8248e-08           -1.8034e-08           3.38e-08             
  -2.75                 -1.809e-08            -1.8042e-08           3.3816e-08           
  -2.8                  -1.8754e-08           -1.8042e-08           3.3784e-08           
  -2.85                 -1.9054e-08           -1.8044e-08           3.3804e-08           
  -2.9                  -1.8858e-08           -1.8046e-08           3.3812e-08           
  -2.95                 -1.7814e-08           -1.804e-08            3.3812e-08           
  -3                    -1.8286e-08           -1.8038e-08           3.3826e-08           
  -3.05                 -1.8204e-08           -1.8044e-08           3.38e-08             
  -3.1                  -1.851e-08            -1.8036e-08           3.3822e-08           
  -3.15                 -1.784e-08            -1.805e-08            3.3824e-08           
  -3.2                  -1.845e-08            -1.8034e-08           3.3818e-08           
  -3.25                 -1.7842e-08           -1.8036e-08           3.3832e-08           
  -3.3                  -1.7644e-08           -1.8036e-08           3.3804e-08           
  -3.35                 -1.8248e-08           -1.8034e-08           3.3806e-08           
  -3.4                  -1.8288e-08           -1.8046e-08           3.382e-08            
  -3.45                 -1.785e-08            -1.8028e-08           3.3826e-08           
  -3.5                  -1.8344e-08           -1.8032e-08           3.3834e-08           
  -3.55                 -1.8382e-08           -1.8032e-08           3.3808e-08           
  -3.6                  -1.8096e-08           -1.8026e-08           3.3834e-08           
  -3.65                 -1.8166e-08           -1.8034e-08           3.3838e-08           
  -3.7                  -1.8056e-08           -1.8028e-08           3.3814e-08           
  -3.75                 -1.8228e-08           -1.8024e-08           3.3828e-08           
  -3.8                  -1.8766e-08           -1.8026e-08           3.3802e-08           
  -3.85                 -1.7786e-08           -1.8014e-08           3.3812e-08           
  -3.9                  -1.8484e-08           -1.8026e-08           3.38e-08             
  -3.95                 -1.784e-08            -1.8006e-08           3.3808e-08           
  -4                    -1.899e-08            -1.8012e-08           3.3826e-08           
  -4.05                 -1.8478e-08           -1.8016e-08           3.3796e-08           
  -4.1                  -1.833e-08            -1.8008e-08           3.3816e-08           
  -4.15                 -1.854e-08            -1.8014e-08           3.3802e-08           
  -4.2                  -1.8274e-08           -1.8016e-08           3.3798e-08           
  -4.25                 -1.776e-08            -1.8006e-08           3.3842e-08           
  -4.3                  -1.8622e-08           -1.8012e-08           3.38e-08             
  -4.35                 -1.8606e-08           -1.7998e-08           3.381e-08            
  -4.4                  -1.838e-08            -1.8016e-08           3.3808e-08           
  -4.45                 -1.8934e-08           -1.8e-08              3.3806e-08           
  -4.5                  -1.821e-08            -1.8004e-08           3.3828e-08           
  -4.55                 -1.8408e-08           -1.801e-08            3.381e-08            
  -4.6                  -1.8714e-08           -1.8004e-08           3.3836e-08           
  -4.65                 -1.8386e-08           -1.801e-08            3.3822e-08           
  -4.7                  -1.8292e-08           -1.8e-08              3.3814e-08           
  -4.75                 -1.8264e-08           -1.8006e-08           3.3842e-08           
  -4.8                  -1.7888e-08           -1.8002e-08           3.3818e-08           
  -4.85                 -1.7932e-08           -1.7992e-08           3.3834e-08           
  -4.9                  -1.8528e-08           -1.8008e-08           3.3826e-08           
  -4.95                 -1.8212e-08           -1.7992e-08           3.3834e-08           
  -5                    -1.8138e-08           -1.7992e-08           3.384e-08            
END_DB

BEGIN_DB
 ICCAP_VAR vb         -0.65          
 ICCAP_VAR ve         0              

 #vc                    ic                    ib                    ie                   
  0                     5.9768e-05            -5.9926e-05           1.2512e-07           
  -0.05                 2.0402e-05            -2.0616e-05           2.1238e-07           
  -0.1                  5.3714e-06            -5.5948e-06           2.2808e-07           
  -0.15                 1.0454e-06            -1.2768e-06           2.3062e-07           
  -0.2                  8.1568e-08            -3.136e-07            2.3112e-07           
  -0.25                 -7.9264e-08           -1.532e-07            2.3078e-07           
  -0.3                  -1.0656e-07           -1.279e-07            2.309e-07            
  -0.35                 -1.0498e-07           -1.2406e-07           2.31e-07             
  -0.4                  -1.0728e-07           -1.236e-07            2.3078e-07           
  -0.45                 -1.0706e-07           -1.2336e-07           2.3106e-07           
  -0.5                  -1.086e-07            -1.2334e-07           2.309e-07            
  -0.55                 -1.0956e-07           -1.2346e-07           2.311e-07            
  -0.6                  -1.0972e-07           -1.234e-07            2.3082e-07           
  -0.65                 -1.0876e-07           -1.2346e-07           2.3102e-07           
  -0.7                  -1.0708e-07           -1.2336e-07           2.3106e-07           
  -0.75                 -1.0914e-07           -1.2342e-07           2.3082e-07           
  -0.8                  -1.0778e-07           -1.2332e-07           2.3114e-07           
  -0.85                 -1.0946e-07           -1.2346e-07           2.3098e-07           
  -0.9                  -1.1218e-07           -1.236e-07            2.3142e-07           
  -0.95                 -1.1256e-07           -1.2328e-07           2.3106e-07           
  -1                    -1.1092e-07           -1.2344e-07           2.3108e-07           
  -1.05                 -1.0824e-07           -1.2326e-07           2.3122e-07           
  -1.1                  -1.086e-07            -1.2334e-07           2.308e-07            
  -1.15                 -1.131e-07            -1.233e-07            2.3112e-07           
  -1.2                  -1.115e-07            -1.233e-07            2.3092e-07           
  -1.25                 -1.0738e-07           -1.2324e-07           2.3108e-07           
  -1.3                  -1.051e-07            -1.232e-07            2.3082e-07           
  -1.35                 -1.0974e-07           -1.2334e-07           2.3114e-07           
  -1.4                  -1.1028e-07           -1.2322e-07           2.3092e-07           
  -1.45                 -1.0864e-07           -1.2332e-07           2.3094e-07           
  -1.5                  -1.105e-07            -1.2316e-07           2.3108e-07           
  -1.55                 -1.1294e-07           -1.233e-07            2.3074e-07           
  -1.6                  -1.0506e-07           -1.2316e-07           2.3112e-07           
  -1.65                 -1.0666e-07           -1.2314e-07           2.3082e-07           
  -1.7                  -1.1348e-07           -1.2328e-07           2.3104e-07           
  -1.75                 -1.091e-07            -1.231e-07            2.309e-07            
  -1.8                  -1.087e-07            -1.2324e-07           2.3096e-07           
  -1.85                 -1.1418e-07           -1.2312e-07           2.3112e-07           
  -1.9                  -1.083e-07            -1.2324e-07           2.3074e-07           
  -1.95                 -1.1282e-07           -1.2312e-07           2.3102e-07           
  -2                    -1.1038e-07           -1.2318e-07           2.3084e-07           
  -2.05                 -1.0988e-07           -1.2324e-07           2.3114e-07           
  -2.1                  -1.1214e-07           -1.231e-07            2.3082e-07           
  -2.15                 -1.1472e-07           -1.2324e-07           2.3108e-07           
  -2.2                  -1.0932e-07           -1.2308e-07           2.3096e-07           
  -2.25                 -1.0766e-07           -1.232e-07            2.308e-07            
  -2.3                  -1.1238e-07           -1.2306e-07           2.3108e-07           
  -2.35                 -1.0872e-07           -1.2314e-07           2.308e-07            
  -2.4                  -1.0982e-07           -1.2316e-07           2.312e-07            
  -2.45                 -1.106e-07            -1.23e-07             2.3098e-07           
  -2.5                  -1.1098e-07           -1.232e-07            2.311e-07            
  -2.55                 -1.0986e-07           -1.2304e-07           2.3102e-07           
  -2.6                  -1.112e-07            -1.2314e-07           2.3088e-07           
  -2.65                 -1.064e-07            -1.2306e-07           2.312e-07            
  -2.7                  -1.0942e-07           -1.2312e-07           2.3086e-07           
  -2.75                 -1.0686e-07           -1.2314e-07           2.3128e-07           
  -2.8                  -1.0906e-07           -1.2304e-07           2.31e-07             
  -2.85                 -1.1144e-07           -1.2312e-07           2.3114e-07           
  -2.9                  -1.0982e-07           -1.23e-07             2.311e-07            
  -2.95                 -1.1048e-07           -1.2314e-07           2.3096e-07           
  -3                    -1.1174e-07           -1.2304e-07           2.3156e-07           
  -3.05                 -1.132e-07            -1.2306e-07           2.3096e-07           
  -3.1                  -1.0902e-07           -1.2314e-07           2.3128e-07           
  -3.15                 -1.0876e-07           -1.2298e-07           2.3112e-07           
  -3.2                  -1.1308e-07           -1.2306e-07           2.3122e-07           
  -3.25                 -1.0956e-07           -1.2302e-07           2.3102e-07           
  -3.3                  -1.0758e-07           -1.231e-07            2.3094e-07           
  -3.35                 -1.1226e-07           -1.2298e-07           2.313e-07            
  -3.4                  -1.1306e-07           -1.2306e-07           2.3102e-07           
  -3.45                 -1.094e-07            -1.2302e-07           2.3126e-07           
  -3.5                  -1.0738e-07           -1.2294e-07           2.3106e-07           
  -3.55                 -1.0828e-07           -1.2312e-07           2.3128e-07           
  -3.6                  -1.1264e-07           -1.2288e-07           2.3114e-07           
  -3.65                 -1.1202e-07           -1.2304e-07           2.3118e-07           
  -3.7                  -1.105e-07            -1.2294e-07           2.3128e-07           
  -3.75                 -1.1008e-07           -1.2306e-07           2.3102e-07           
  -3.8                  -1.0748e-07           -1.2286e-07           2.3134e-07           
  -3.85                 -1.0944e-07           -1.23e-07             2.3102e-07           
  -3.9                  -1.135e-07            -1.2294e-07           2.3134e-07           
  -3.95                 -1.0988e-07           -1.229e-07            2.3096e-07           
  -4                    -1.1086e-07           -1.23e-07             2.3118e-07           
  -4.05                 -1.1098e-07           -1.228e-07            2.3112e-07           
  -4.1                  -1.1186e-07           -1.2294e-07           2.31e-07             
  -4.15                 -1.0934e-07           -1.2282e-07           2.3132e-07           
  -4.2                  -1.1064e-07           -1.2296e-07           2.3102e-07           
  -4.25                 -1.0712e-07           -1.2282e-07           2.313e-07            
  -4.3                  -1.0686e-07           -1.2292e-07           2.3088e-07           
  -4.35                 -1.0948e-07           -1.229e-07            2.3112e-07           
  -4.4                  -1.0752e-07           -1.2272e-07           2.3098e-07           
  -4.45                 -1.0976e-07           -1.2288e-07           2.312e-07            
  -4.5                  -1.076e-07            -1.227e-07            2.3102e-07           
  -4.55                 -1.0588e-07           -1.2288e-07           2.3104e-07           
  -4.6                  -1.1204e-07           -1.2274e-07           2.3106e-07           
  -4.65                 -1.137e-07            -1.2282e-07           2.3098e-07           
  -4.7                  -1.089e-07            -1.2266e-07           2.3118e-07           
  -4.75                 -1.1072e-07           -1.2274e-07           2.3092e-07           
  -4.8                  -1.102e-07            -1.2274e-07           2.3118e-07           
  -4.85                 -1.103e-07            -1.2266e-07           2.309e-07            
  -4.9                  -1.1294e-07           -1.2278e-07           2.3116e-07           
  -4.95                 -1.1122e-07           -1.2266e-07           2.3098e-07           
  -5                    -1.0998e-07           -1.2274e-07           2.3106e-07           
END_DB

BEGIN_DB
 ICCAP_VAR vb         -0.7           
 ICCAP_VAR ve         0              

 #vc                    ic                    ib                    ie                   
  0                     0.00014968            -0.00015058           8.8524e-07           
  -0.05                 6.0192e-05            -6.162e-05            1.4216e-06           
  -0.1                  1.974e-05             -2.1224e-05           1.5376e-06           
  -0.15                 4.9614e-06            -6.5308e-06           1.5634e-06           
  -0.2                  4.399e-07             -2.0128e-06           1.5696e-06           
  -0.25                 -5.332e-07            -1.0414e-06           1.5716e-06           
