! VERSION = 6.00
BEGIN_HEADER
 ICCAP_INPUTS
  vc         V  C GROUND SMU_C 0.1 LIN        1    0          -5         101  -0.05     
  vb         V  B GROUND SMU_B 0.01 LIN        2    -0.6       -1         9    -0.05     
  ve         V  E GROUND SMU_E 0.1 CON        0
 ICCAP_OUTPUTS
  ic         I  C GROUND SMU_C B
  ib         I  B GROUND SMU_B M
  ie         I  E GROUND SMU_E M
 ICCAP_VALUES
  TNOM "27"
  TEMP "27"
  TECHNO "SG13S"
  LOT "PQA701"
  WAFER "17"
  CHIP "d0406"
  MODULE "T323_pnpMPA"
  DEV_NAME "DUT4"
  DEV_GEOM_L "."
  DEV_GEOM_W "."
  NF_EMITTER "."
  REMARKS "pnpMPA Teststructure"
  TIMEDATE "Fri Oct 21 12:47:07     2022"
END_HEADER

BEGIN_DB
 ICCAP_VAR vb         -0.6           
 ICCAP_VAR ve         0              

 #vc                    ic                    ib                    ie                   
  0                     1.24e-05              -1.2398e-05           5.8938e-09           
  -0.05                 3.3808e-06            -3.3978e-06           1.149e-08            
  -0.1                  6.7766e-07            -6.9012e-07           1.2396e-08           
  -0.15                 1.097e-07             -1.2402e-07           1.2522e-08           
  -0.2                  1.1682e-08            -2.4196e-08           1.2548e-08           
  -0.25                 -3.4406e-09           -9.045e-09            1.2552e-08           
  -0.3                  -6.048e-09            -6.6604e-09           1.2556e-08           
  -0.35                 -5.556e-09            -6.3134e-09           1.2558e-08           
  -0.4                  -6.2844e-09           -6.2558e-09           1.2574e-08           
  -0.45                 -6.204e-09            -6.2526e-09           1.2554e-08           
  -0.5                  -6.052e-09            -6.2518e-09           1.2552e-08           
  -0.55                 -6.342e-09            -6.2488e-09           1.2554e-08           
  -0.6                  -5.812e-09            -6.2472e-09           1.2556e-08           
  -0.65                 -5.234e-09            -6.2478e-09           1.256e-08            
  -0.7                  -6.166e-09            -6.2522e-09           1.2554e-08           
  -0.75                 -5.572e-09            -6.2578e-09           1.2648e-08           
  -0.8                  -6.29e-09             -6.2596e-09           1.2562e-08           
  -0.85                 -5.826e-09            -6.2768e-09           1.2554e-08           
  -0.9                  -6.062e-09            -6.2544e-09           1.2572e-08           
  -0.95                 -6.239e-09            -6.2468e-09           1.2644e-08           
  -1                    -5.92e-09             -6.275e-09            1.2582e-08           
  -1.05                 -6.016e-09            -6.2556e-09           1.2568e-08           
  -1.1                  -5.946e-09            -6.2638e-09           1.2562e-08           
  -1.15                 -6.342e-09            -6.2462e-09           1.257e-08            
  -1.2                  -6.106e-09            -6.238e-09            1.2558e-08           
  -1.25                 -6.2628e-09           -6.236e-09            1.256e-08            
  -1.3                  -6.382e-09            -6.2368e-09           1.2568e-08           
  -1.35                 -6.4332e-09           -6.2388e-09           1.256e-08            
  -1.4                  -6.334e-09            -6.237e-09            1.2568e-08           
  -1.45                 -6.3188e-09           -6.2344e-09           1.2562e-08           
  -1.5                  -6.366e-09            -6.2378e-09           1.258e-08            
  -1.55                 -6.312e-09            -6.233e-09            1.2572e-08           
  -1.6                  -6.296e-09            -6.2328e-09           1.2556e-08           
  -1.65                 -6.3962e-09           -6.2366e-09           1.2566e-08           
  -1.7                  -6.696e-09            -6.234e-09            1.2568e-08           
  -1.75                 -6.2298e-09           -6.2304e-09           1.2568e-08           
  -1.8                  -6.29e-09             -6.23e-09             1.2562e-08           
  -1.85                 -6.357e-09            -6.2272e-09           1.2562e-08           
  -1.9                  -6.458e-09            -6.2288e-09           1.2576e-08           
  -1.95                 -6.356e-09            -6.227e-09            1.2566e-08           
  -2                    -6.3e-09              -6.2264e-09           1.2564e-08           
  -2.05                 -6.392e-09            -6.2296e-09           1.2558e-08           
  -2.1                  -5.856e-09            -6.229e-09            1.2578e-08           
  -2.15                 -5.85e-09             -6.2262e-09           1.257e-08            
  -2.2                  -6.3942e-09           -6.2228e-09           1.256e-08            
  -2.25                 -6.3562e-09           -6.2218e-09           1.2576e-08           
  -2.3                  -5.888e-09            -6.2244e-09           1.2564e-08           
  -2.35                 -6.796e-09            -6.2234e-09           1.2576e-08           
  -2.4                  -6.16e-09             -6.223e-09            1.2562e-08           
  -2.45                 -5.796e-09            -6.2234e-09           1.2568e-08           
  -2.5                  -6.068e-09            -6.2254e-09           1.2578e-08           
  -2.55                 -5.698e-09            -6.2202e-09           1.2602e-08           
  -2.6                  -5.632e-09            -6.2216e-09           1.2562e-08           
  -2.65                 -5.942e-09            -6.2538e-09           1.2576e-08           
  -2.7                  -6.3648e-09           -6.2174e-09           1.2584e-08           
  -2.75                 -6.4718e-09           -6.2178e-09           1.2666e-08           
  -2.8                  -6.396e-09            -6.218e-09            1.2578e-08           
  -2.85                 -6.296e-09            -6.2224e-09           1.257e-08            
  -2.9                  -6.124e-09            -6.2194e-09           1.258e-08            
  -2.95                 -6.062e-09            -6.217e-09            1.2582e-08           
  -3                    -5.584e-09            -6.2148e-09           1.258e-08            
  -3.05                 -6.26e-09             -6.2128e-09           1.2566e-08           
  -3.1                  -6.3052e-09           -6.2148e-09           1.2574e-08           
  -3.15                 -6.902e-09            -6.2192e-09           1.2622e-08           
  -3.2                  -5.732e-09            -6.2124e-09           1.2574e-08           
  -3.25                 -6.018e-09            -6.2126e-09           1.257e-08            
  -3.3                  -6.692e-09            -6.2104e-09           1.2566e-08           
  -3.35                 -6.21e-09             -6.2168e-09           1.2578e-08           
  -3.4                  -5.634e-09            -6.2106e-09           1.2574e-08           
  -3.45                 -6.062e-09            -6.21e-09             1.2584e-08           
  -3.5                  -6.332e-09            -6.2062e-09           1.2578e-08           
  -3.55                 -5.97e-09             -6.2062e-09           1.258e-08            
  -3.6                  -5.904e-09            -6.2098e-09           1.2582e-08           
  -3.65                 -5.954e-09            -6.2054e-09           1.2574e-08           
  -3.7                  -6.05e-09             -6.2068e-09           1.2574e-08           
  -3.75                 -6.3156e-09           -6.209e-09            1.258e-08            
  -3.8                  -6.046e-09            -6.208e-09            1.2574e-08           
  -3.85                 -6.3356e-09           -6.2068e-09           1.258e-08            
  -3.9                  -6.824e-09            -6.205e-09            1.2592e-08           
  -3.95                 -5.92e-09             -6.2076e-09           1.2598e-08           
  -4                    -5.502e-09            -6.207e-09            1.2592e-08           
  -4.05                 -6.206e-09            -6.2062e-09           1.2588e-08           
  -4.1                  -6.152e-09            -6.2036e-09           1.2596e-08           
  -4.15                 -6.3842e-09           -6.2014e-09           1.2582e-08           
  -4.2                  -5.818e-09            -6.1984e-09           1.2586e-08           
  -4.25                 -6.536e-09            -6.2e-09              1.2582e-08           
  -4.3                  -6.2612e-09           -6.1992e-09           1.2588e-08           
  -4.35                 -5.98e-09             -6.1984e-09           1.2592e-08           
  -4.4                  -6.012e-09            -6.1968e-09           1.2592e-08           
  -4.45                 -5.932e-09            -6.1946e-09           1.2582e-08           
  -4.5                  -6.694e-09            -6.1956e-09           1.259e-08            
  -4.55                 -6.482e-09            -6.1964e-09           1.2596e-08           
  -4.6                  -6.09e-09             -6.1956e-09           1.2584e-08           
  -4.65                 -6.3502e-09           -6.189e-09            1.2582e-08           
  -4.7                  -6.3438e-09           -6.1916e-09           1.2596e-08           
  -4.75                 -5.826e-09            -6.192e-09            1.2584e-08           
  -4.8                  -5.624e-09            -6.1912e-09           1.2586e-08           
  -4.85                 -6.196e-09            -6.19e-09             1.2588e-08           
  -4.9                  -6.282e-09            -6.188e-09            1.259e-08            
  -4.95                 -5.95e-09             -6.1898e-09           1.2606e-08           
  -5                    -6.4208e-09           -6.1904e-09           1.2594e-08           
END_DB

BEGIN_DB
 ICCAP_VAR vb         -0.65          
 ICCAP_VAR ve         0              

 #vc                    ic                    ib                    ie                   
  0                     3.679e-05             -3.6826e-05           4.1194e-08           
  -0.05                 1.2526e-05            -1.261e-05            7.7878e-08           
  -0.1                  3.2942e-06            -3.3808e-06           8.4622e-08           
  -0.15                 6.6008e-07            -7.4174e-07           8.542e-08            
  -0.2                  7.2644e-08            -1.5816e-07           8.556e-08            
  -0.25                 -2.5212e-08           -6.0708e-08           8.5608e-08           
  -0.3                  -4.012e-08            -4.521e-08            8.5626e-08           
  -0.35                 -4.3188e-08           -4.2898e-08           8.5636e-08           
  -0.4                  -4.3296e-08           -4.2528e-08           8.5658e-08           
  -0.45                 -4.3362e-08           -4.2488e-08           8.5636e-08           
  -0.5                  -4.273e-08            -4.2456e-08           8.5678e-08           
  -0.55                 -4.3282e-08           -4.2466e-08           8.5654e-08           
  -0.6                  -4.3392e-08           -4.2436e-08           8.5686e-08           
  -0.65                 -4.3562e-08           -4.2446e-08           8.5748e-08           
  -0.7                  -4.3324e-08           -4.245e-08            8.5678e-08           
  -0.75                 -4.2954e-08           -4.2436e-08           8.5736e-08           
  -0.8                  -4.305e-08            -4.2444e-08           8.5698e-08           
  -0.85                 -4.2914e-08           -4.2474e-08           8.5668e-08           
  -0.9                  -4.3052e-08           -4.2436e-08           8.5744e-08           
  -0.95                 -4.3122e-08           -4.2432e-08           8.5682e-08           
  -1                    -4.3168e-08           -4.2472e-08           8.581e-08            
  -1.05                 -4.321e-08            -4.2442e-08           8.5718e-08           
  -1.1                  -4.2616e-08           -4.2396e-08           8.5708e-08           
  -1.15                 -4.316e-08            -4.2434e-08           8.58e-08             
  -1.2                  -4.3182e-08           -4.2408e-08           8.569e-08            
  -1.25                 -4.2516e-08           -4.2402e-08           8.5818e-08           
  -1.3                  -4.302e-08            -4.2398e-08           8.573e-08            
  -1.35                 -4.3012e-08           -4.2384e-08           8.573e-08            
  -1.4                  -4.2162e-08           -4.239e-08            8.5748e-08           
  -1.45                 -4.273e-08            -4.2376e-08           8.5738e-08           
  -1.5                  -4.27e-08             -4.2478e-08           8.5768e-08           
  -1.55                 -4.3384e-08           -4.2382e-08           8.5884e-08           
  -1.6                  -4.3622e-08           -4.235e-08            8.5728e-08           
  -1.65                 -4.3338e-08           -4.2458e-08           8.5974e-08           
  -1.7                  -4.2682e-08           -4.2372e-08           8.575e-08            
  -1.75                 -4.3584e-08           -4.2336e-08           8.5788e-08           
  -1.8                  -4.3664e-08           -4.2364e-08           8.5762e-08           
  -1.85                 -4.3068e-08           -4.2352e-08           8.5724e-08           
  -1.9                  -4.3262e-08           -4.2456e-08           8.581e-08            
  -1.95                 -4.3836e-08           -4.2332e-08           8.5762e-08           
  -2                    -4.3278e-08           -4.2318e-08           8.5736e-08           
  -2.05                 -4.3576e-08           -4.2362e-08           8.5792e-08           
  -2.1                  -4.2698e-08           -4.2352e-08           8.579e-08            
  -2.15                 -4.2694e-08           -4.2322e-08           8.5822e-08           
  -2.2                  -4.2374e-08           -4.2376e-08           8.5746e-08           
  -2.25                 -4.386e-08            -4.2368e-08           8.5914e-08           
  -2.3                  -4.3182e-08           -4.2332e-08           8.5798e-08           
  -2.35                 -4.335e-08            -4.2298e-08           8.576e-08            
  -2.4                  -4.299e-08            -4.2302e-08           8.5808e-08           
  -2.45                 -4.3276e-08           -4.2296e-08           8.577e-08            
  -2.5                  -4.343e-08            -4.2274e-08           8.5814e-08           
  -2.55                 -4.312e-08            -4.24e-08             8.5828e-08           
  -2.6                  -4.3404e-08           -4.2374e-08           8.5802e-08           
  -2.65                 -4.2466e-08           -4.2498e-08           8.6178e-08           
  -2.7                  -4.363e-08            -4.2414e-08           8.6132e-08           
  -2.75                 -4.3314e-08           -4.2332e-08           8.6012e-08           
  -2.8                  -4.3094e-08           -4.2372e-08           8.597e-08            
  -2.85                 -4.2886e-08           -4.2318e-08           8.59e-08             
  -2.9                  -4.3218e-08           -4.2338e-08           8.595e-08            
  -2.95                 -4.349e-08            -4.2298e-08           8.586e-08            
  -3                    -4.2834e-08           -4.2294e-08           8.593e-08            
  -3.05                 -4.3526e-08           -4.2326e-08           8.5976e-08           
  -3.1                  -4.3332e-08           -4.2294e-08           8.593e-08            
  -3.15                 -4.4064e-08           -4.2316e-08           8.6002e-08           
  -3.2                  -4.2682e-08           -4.2332e-08           8.5978e-08           
  -3.25                 -4.3408e-08           -4.225e-08            8.5964e-08           
  -3.3                  -4.3636e-08           -4.2316e-08           8.5906e-08           
  -3.35                 -4.3722e-08           -4.2246e-08           8.5846e-08           
  -3.4                  -4.296e-08            -4.222e-08            8.5902e-08           
  -3.45                 -4.352e-08            -4.2236e-08           8.5856e-08           
  -3.5                  -4.2408e-08           -4.2306e-08           8.6184e-08           
  -3.55                 -4.397e-08            -4.2396e-08           8.5904e-08           
  -3.6                  -4.347e-08            -4.2212e-08           8.5882e-08           
  -3.65                 -4.3736e-08           -4.2206e-08           8.5934e-08           
  -3.7                  -4.3768e-08           -4.2214e-08           8.5882e-08           
  -3.75                 -4.3578e-08           -4.2184e-08           8.5894e-08           
  -3.8                  -4.393e-08            -4.2224e-08           8.5904e-08           
  -3.85                 -4.3212e-08           -4.2194e-08           8.587e-08            
  -3.9                  -4.279e-08            -4.2194e-08           8.5928e-08           
  -3.95                 -4.3508e-08           -4.219e-08            8.5912e-08           
  -4                    -4.301e-08            -4.2176e-08           8.5896e-08           
  -4.05                 -4.3314e-08           -4.2198e-08           8.5936e-08           
  -4.1                  -4.3134e-08           -4.217e-08            8.6034e-08           
  -4.15                 -4.2808e-08           -4.2284e-08           8.643e-08            
  -4.2                  -4.376e-08            -4.2252e-08           8.6026e-08           
  -4.25                 -4.2966e-08           -4.2234e-08           8.6362e-08           
  -4.3                  -4.391e-08            -4.2242e-08           8.5998e-08           
  -4.35                 -4.3048e-08           -4.2124e-08           8.5898e-08           
  -4.4                  -4.3302e-08           -4.2164e-08           8.5932e-08           
  -4.45                 -4.328e-08            -4.2122e-08           8.5934e-08           
  -4.5                  -4.2922e-08           -4.2122e-08           8.5946e-08           
  -4.55                 -4.4188e-08           -4.2156e-08           8.5964e-08           
  -4.6                  -4.3456e-08           -4.2098e-08           8.5952e-08           
  -4.65                 -4.3838e-08           -4.2136e-08           8.5978e-08           
  -4.7                  -4.3596e-08           -4.213e-08            8.5906e-08           
  -4.75                 -4.346e-08            -4.2112e-08           8.605e-08            
  -4.8                  -4.4344e-08           -4.2126e-08           8.609e-08            
  -4.85                 -4.3458e-08           -4.21e-08             8.599e-08            
  -4.9                  -4.3622e-08           -4.2114e-08           8.5974e-08           
  -4.95                 -4.4004e-08           -4.208e-08            8.598e-08            
  -5                    -4.38e-08             -4.2066e-08           8.597e-08            
END_DB

BEGIN_DB
 ICCAP_VAR vb         -0.7           
 ICCAP_VAR ve         0              

 #vc                    ic                    ib                    ie                   
  0                     9.2658e-05            -9.3022e-05           2.8718e-07           
  -0.05                 3.7056e-05            -3.7618e-05           5.2074e-07           
  -0.1                  1.2166e-05            -1.279e-05            5.7418e-07           
  -0.15                 3.1386e-06            -3.7216e-06           5.8412e-07           
  -0.2                  3.9798e-07            -9.8562e-07           5.8728e-07           
  -0.25                 -1.776e-07            -4.1124e-07           5.9008e-07           
