! VERSION = 6.00
BEGIN_HEADER
 ICCAP_INPUTS
  vc         V  C GROUND SMU_C 0.1 LIN        1    0          -5         101  -0.05     
  vb         V  B GROUND SMU_B 0.01 LIN        2    -0.6       -1         9    -0.05     
  ve         V  E GROUND SMU_E 0.1 CON        0
 ICCAP_OUTPUTS
  ic         I  C GROUND SMU_C B
  ib         I  B GROUND SMU_B M
  ie         I  E GROUND SMU_E M
 ICCAP_VALUES
  TNOM "27"
  TEMP "27"
  TECHNO "SG13S"
  LOT "PQA701"
  WAFER "17"
  CHIP "d0406"
  MODULE "T323_pnpMPA"
  DEV_NAME "DUT6"
  DEV_GEOM_L "."
  DEV_GEOM_W "."
  NF_EMITTER "."
  REMARKS "pnpMPA Teststructure"
  TIMEDATE "Fri Oct 21 12:47:07     2022"
END_HEADER

BEGIN_DB
 ICCAP_VAR vb         -0.6           
 ICCAP_VAR ve         0              

 #vc                    ic                    ib                    ie                   
  0                     1.1644e-05            -1.1606e-05           4.248e-09            
  -0.05                 3.1538e-06            -3.1586e-06           8.1972e-09           
  -0.1                  6.3268e-07            -6.398e-07            8.8346e-09           
  -0.15                 1.0816e-07            -1.138e-07            8.9174e-09           
  -0.2                  1.2406e-08            -2.1104e-08           8.9324e-09           
  -0.25                 -1.7934e-09           -7.0216e-09           8.9284e-09           
  -0.3                  -3.978e-09            -4.8336e-09           8.9352e-09           
  -0.35                 -4.4218e-09           -4.496e-09            8.9476e-09           
  -0.4                  -4.97e-09             -4.4468e-09           8.9438e-09           
  -0.45                 -4.298e-09            -4.4402e-09           8.9424e-09           
  -0.5                  -4.536e-09            -4.4356e-09           8.9424e-09           
  -0.55                 -4.172e-09            -4.4448e-09           8.9382e-09           
  -0.6                  -4.562e-09            -4.4358e-09           9.0098e-09           
  -0.65                 -4.5156e-09           -4.4344e-09           8.9388e-09           
  -0.7                  -4.3646e-09           -4.432e-09            8.9418e-09           
  -0.75                 -4.548e-09            -4.4334e-09           8.9374e-09           
  -0.8                  -4.6024e-09           -4.4318e-09           8.943e-09            
  -0.85                 -4.3694e-09           -4.431e-09            8.938e-09            
  -0.9                  -4.4782e-09           -4.4312e-09           8.9388e-09           
  -0.95                 -4.449e-09            -4.43e-09             8.9384e-09           
  -1                    -4.52e-09             -4.4348e-09           8.94e-09             
  -1.05                 -4.4422e-09           -4.4286e-09           8.9416e-09           
  -1.1                  -4.5446e-09           -4.4316e-09           8.939e-09            
  -1.15                 -4.448e-09            -4.4316e-09           8.9396e-09           
  -1.2                  -3.87e-09             -4.4306e-09           8.9406e-09           
  -1.25                 -4.4966e-09           -4.4276e-09           8.9406e-09           
  -1.3                  -4.196e-09            -4.4264e-09           8.9388e-09           
  -1.35                 -4.234e-09            -4.4258e-09           8.9392e-09           
  -1.4                  -3.284e-09            -4.427e-09            8.936e-09            
  -1.45                 -4.3e-09              -4.4254e-09           8.942e-09            
  -1.5                  -3.992e-09            -4.425e-09            8.9404e-09           
  -1.55                 -4.4692e-09           -4.424e-09            8.9404e-09           
  -1.6                  -4.5006e-09           -4.4236e-09           8.9446e-09           
  -1.65                 -4.4764e-09           -4.426e-09            8.9432e-09           
  -1.7                  -4.451e-09            -4.422e-09            8.9458e-09           
  -1.75                 -4.515e-09            -4.4228e-09           8.9406e-09           
  -1.8                  -4.13e-09             -4.4268e-09           8.9444e-09           
  -1.85                 -4.064e-09            -4.421e-09            8.944e-09            
  -1.9                  -4.792e-09            -4.4202e-09           8.962e-09            
  -1.95                 -4.5072e-09           -4.4208e-09           8.9418e-09           
  -2                    -4.5306e-09           -4.4222e-09           8.9616e-09           
  -2.05                 -4.563e-09            -4.4226e-09           8.9648e-09           
  -2.1                  -4.5362e-09           -4.4192e-09           8.9446e-09           
  -2.15                 -4.4048e-09           -4.4204e-09           8.945e-09            
  -2.2                  -4.5372e-09           -4.418e-09            8.9454e-09           
  -2.25                 -4.5888e-09           -4.4164e-09           8.9454e-09           
  -2.3                  -4.5254e-09           -4.4174e-09           8.9414e-09           
  -2.35                 -4.7032e-09           -4.4162e-09           8.945e-09            
  -2.4                  -4.456e-09            -4.4162e-09           8.9514e-09           
  -2.45                 -4.4854e-09           -4.4238e-09           8.9506e-09           
  -2.5                  -4.5264e-09           -4.415e-09            8.9456e-09           
  -2.55                 -4.66e-09             -4.4142e-09           8.944e-09            
  -2.6                  -4.5378e-09           -4.4154e-09           8.9456e-09           
  -2.65                 -4.491e-09            -4.4136e-09           8.9446e-09           
  -2.7                  -4.538e-09            -4.4142e-09           8.9458e-09           
  -2.75                 -3.5e-09              -4.4142e-09           8.9426e-09           
  -2.8                  -4.876e-09            -4.4134e-09           8.951e-09            
  -2.85                 -4.314e-09            -4.4142e-09           8.9504e-09           
  -2.9                  -4.4522e-09           -4.4122e-09           8.9454e-09           
  -2.95                 -4.5804e-09           -4.4134e-09           8.9522e-09           
  -3                    -4.54e-09             -4.4094e-09           8.9492e-09           
  -3.05                 -4.418e-09            -4.4124e-09           8.9458e-09           
  -3.1                  -4.44e-09             -4.4114e-09           8.9536e-09           
  -3.15                 -4.294e-09            -4.4114e-09           8.9574e-09           
  -3.2                  -4.252e-09            -4.4094e-09           8.9502e-09           
  -3.25                 -4.4768e-09           -4.4124e-09           8.95e-09             
  -3.3                  -4.39e-09             -4.4134e-09           8.9502e-09           
  -3.35                 -4.5e-09              -4.4116e-09           8.9596e-09           
  -3.4                  -4.188e-09            -4.419e-09            8.962e-09            
  -3.45                 -4.5004e-09           -4.4102e-09           8.9562e-09           
  -3.5                  -4.5032e-09           -4.409e-09            8.9528e-09           
  -3.55                 -4.5618e-09           -4.4104e-09           8.9576e-09           
  -3.6                  -4.639e-09            -4.4462e-09           8.9574e-09           
  -3.65                 -4.6056e-09           -4.4466e-09           9.0254e-09           
  -3.7                  -4.586e-09            -4.4118e-09           9.027e-09            
  -3.75                 -4.4478e-09           -4.4082e-09           8.9614e-09           
  -3.8                  -4.4884e-09           -4.4052e-09           8.9558e-09           
  -3.85                 -4.4856e-09           -4.4074e-09           8.956e-09            
  -3.9                  -4.112e-09            -4.4094e-09           8.9536e-09           
  -3.95                 -3.934e-09            -4.4074e-09           8.9584e-09           
  -4                    -4.242e-09            -4.4058e-09           8.9548e-09           
  -4.05                 -4.628e-09            -4.4044e-09           8.9544e-09           
  -4.1                  -4.4574e-09           -4.4056e-09           8.9598e-09           
  -4.15                 -4.5472e-09           -4.4064e-09           8.955e-09            
  -4.2                  -4.4956e-09           -4.4042e-09           8.9604e-09           
  -4.25                 -4.5696e-09           -4.4034e-09           8.955e-09            
  -4.3                  -4.5624e-09           -4.4064e-09           8.958e-09            
  -4.35                 -4.5652e-09           -4.4052e-09           8.969e-09            
  -4.4                  -4.551e-09            -4.4024e-09           8.9588e-09           
  -4.45                 -4.5478e-09           -4.4042e-09           8.9582e-09           
  -4.5                  -4.587e-09            -4.4012e-09           8.9602e-09           
  -4.55                 -4.543e-09            -4.4016e-09           8.9608e-09           
  -4.6                  -4.6764e-09           -4.4008e-09           8.9616e-09           
  -4.65                 -4.612e-09            -4.4008e-09           8.956e-09            
  -4.7                  -4.5714e-09           -4.3998e-09           8.9724e-09           
  -4.75                 -4.23e-09             -4.401e-09            8.962e-09            
  -4.8                  -4.506e-09            -4.3972e-09           8.966e-09            
  -4.85                 -4.5722e-09           -4.4002e-09           8.969e-09            
  -4.9                  -4.5148e-09           -4.4022e-09           8.9686e-09           
  -4.95                 -4.5658e-09           -4.3962e-09           8.9642e-09           
  -5                    -4.26e-09             -4.3962e-09           8.9622e-09           
END_DB

BEGIN_DB
 ICCAP_VAR vb         -0.65          
 ICCAP_VAR ve         0              

 #vc                    ic                    ib                    ie                   
  0                     3.4646e-05            -3.47e-05             2.8998e-08           
  -0.05                 1.168e-05             -1.181e-05            5.5476e-08           
  -0.1                  3.0754e-06            -3.1352e-06           6.0238e-08           
  -0.15                 6.177e-07             -6.7898e-07           6.0992e-08           
  -0.2                  7.6996e-08            -1.3752e-07           6.1094e-08           
  -0.25                 -1.328e-08            -4.7178e-08           6.11e-08             
  -0.3                  -2.8022e-08           -3.2826e-08           6.1102e-08           
  -0.35                 -2.9978e-08           -3.065e-08            6.1122e-08           
  -0.4                  -3.0868e-08           -3.034e-08            6.1118e-08           
  -0.45                 -3.0736e-08           -3.0264e-08           6.1072e-08           
  -0.5                  -3.1016e-08           -3.026e-08            6.1134e-08           
  -0.55                 -3.0692e-08           -3.0274e-08           6.1122e-08           
  -0.6                  -3.082e-08            -3.0256e-08           6.1144e-08           
  -0.65                 -3.1026e-08           -3.0304e-08           6.116e-08            
  -0.7                  -3.0402e-08           -3.0286e-08           6.1134e-08           
  -0.75                 -3.1464e-08           -3.0246e-08           6.1172e-08           
  -0.8                  -3.077e-08            -3.0246e-08           6.1136e-08           
  -0.85                 -3.0724e-08           -3.0252e-08           6.1108e-08           
  -0.9                  -3.0034e-08           -3.0236e-08           6.1146e-08           
  -0.95                 -3.0322e-08           -3.023e-08            6.1114e-08           
  -1                    -3.0346e-08           -3.022e-08            6.115e-08            
  -1.05                 -3.077e-08            -3.0228e-08           6.1138e-08           
  -1.1                  -3.0492e-08           -3.021e-08            6.1126e-08           
  -1.15                 -3.0734e-08           -3.0234e-08           6.113e-08            
  -1.2                  -3.0818e-08           -3.025e-08            6.1122e-08           
  -1.25                 -3.092e-08            -3.0262e-08           6.1162e-08           
  -1.3                  -3.1132e-08           -3.0224e-08           6.1184e-08           
  -1.35                 -3.0314e-08           -3.0198e-08           6.1166e-08           
  -1.4                  -3.0532e-08           -3.0198e-08           6.117e-08            
  -1.45                 -3.0724e-08           -3.0224e-08           6.1116e-08           
  -1.5                  -3.0108e-08           -3.0194e-08           6.1156e-08           
  -1.55                 -3.119e-08            -3.0196e-08           6.1162e-08           
  -1.6                  -3.1136e-08           -3.0184e-08           6.1134e-08           
  -1.65                 -3.0772e-08           -3.0184e-08           6.1154e-08           
  -1.7                  -3.1472e-08           -3.0206e-08           6.1172e-08           
  -1.75                 -3.0014e-08           -3.0166e-08           6.1132e-08           
  -1.8                  -3.0974e-08           -3.0198e-08           6.1192e-08           
  -1.85                 -3.0926e-08           -3.0184e-08           6.1126e-08           
  -1.9                  -3.1166e-08           -3.016e-08            6.1228e-08           
  -1.95                 -3.0458e-08           -3.0172e-08           6.1148e-08           
  -2                    -3.0762e-08           -3.0176e-08           6.116e-08            
  -2.05                 -3.0548e-08           -3.0162e-08           6.1206e-08           
  -2.1                  -3.0608e-08           -3.0166e-08           6.1152e-08           
  -2.15                 -2.963e-08            -3.0158e-08           6.1166e-08           
  -2.2                  -3.0518e-08           -3.0176e-08           6.1232e-08           
  -2.25                 -3.084e-08            -3.0144e-08           6.1154e-08           
  -2.3                  -3.0732e-08           -3.0164e-08           6.1186e-08           
  -2.35                 -3.0206e-08           -3.015e-08            6.1192e-08           
  -2.4                  -3.1056e-08           -3.0136e-08           6.1182e-08           
  -2.45                 -3.0508e-08           -3.0162e-08           6.1172e-08           
  -2.5                  -3.072e-08            -3.0412e-08           6.1624e-08           
  -2.55                 -3.036e-08            -3.0158e-08           6.1756e-08           
  -2.6                  -3.0902e-08           -3.018e-08            6.1272e-08           
  -2.65                 -3.0638e-08           -3.013e-08            6.1234e-08           
  -2.7                  -3.099e-08            -3.014e-08            6.1236e-08           
  -2.75                 -3.0458e-08           -3.0128e-08           6.1198e-08           
  -2.8                  -3.0856e-08           -3.0122e-08           6.1198e-08           
  -2.85                 -3.1584e-08           -3.0176e-08           6.1192e-08           
  -2.9                  -3.0688e-08           -3.0142e-08           6.126e-08            
  -2.95                 -3.0168e-08           -3.0152e-08           6.1212e-08           
  -3                    -3.1466e-08           -3.017e-08            6.1276e-08           
  -3.05                 -3.0456e-08           -3.01e-08             6.13e-08             
  -3.1                  -3.1046e-08           -3.0122e-08           6.1254e-08           
  -3.15                 -3.0654e-08           -3.0122e-08           6.1206e-08           
  -3.2                  -3.1252e-08           -3.0116e-08           6.1252e-08           
  -3.25                 -3.062e-08            -3.0114e-08           6.121e-08            
  -3.3                  -3.0818e-08           -3.0098e-08           6.1254e-08           
  -3.35                 -3.0748e-08           -3.0128e-08           6.1196e-08           
  -3.4                  -3.1614e-08           -3.009e-08            6.1238e-08           
  -3.45                 -3.0314e-08           -3.009e-08            6.124e-08            
  -3.5                  -3.065e-08            -3.0114e-08           6.125e-08            
  -3.55                 -3.0814e-08           -3.009e-08            6.1244e-08           
  -3.6                  -3.1354e-08           -3.0098e-08           6.1254e-08           
  -3.65                 -3.1004e-08           -3.008e-08            6.1204e-08           
  -3.7                  -3.0716e-08           -3.0144e-08           6.1296e-08           
  -3.75                 -3.114e-08            -3.008e-08            6.1228e-08           
  -3.8                  -3.113e-08            -3.0072e-08           6.1276e-08           
  -3.85                 -3.1156e-08           -3.0082e-08           6.126e-08            
  -3.9                  -3.1014e-08           -3.0142e-08           6.1276e-08           
  -3.95                 -3.0548e-08           -3.0066e-08           6.1324e-08           
  -4                    -3.0906e-08           -3.008e-08            6.1234e-08           
  -4.05                 -3.1412e-08           -3.0052e-08           6.131e-08            
  -4.1                  -3.0526e-08           -3.008e-08            6.1288e-08           
  -4.15                 -3.109e-08            -3.0054e-08           6.1232e-08           
  -4.2                  -3.0512e-08           -3.0088e-08           6.13e-08             
  -4.25                 -3.08e-08             -3.0056e-08           6.1296e-08           
  -4.3                  -3.0218e-08           -3.0048e-08           6.1262e-08           
  -4.35                 -3.0776e-08           -3.006e-08            6.1254e-08           
  -4.4                  -3.1484e-08           -3.0056e-08           6.1268e-08           
  -4.45                 -3.1018e-08           -3.0036e-08           6.1286e-08           
  -4.5                  -3.098e-08            -3.0042e-08           6.1258e-08           
  -4.55                 -3.1174e-08           -3.0016e-08           6.13e-08             
  -4.6                  -3.1008e-08           -3.0044e-08           6.129e-08            
  -4.65                 -3.0862e-08           -3.0022e-08           6.1274e-08           
  -4.7                  -3.1314e-08           -3.0034e-08           6.1298e-08           
  -4.75                 -3.0856e-08           -3.0008e-08           6.126e-08            
  -4.8                  -3.0816e-08           -3.0004e-08           6.13e-08             
  -4.85                 -3.1136e-08           -3.0012e-08           6.128e-08            
  -4.9                  -3.1586e-08           -2.9996e-08           6.1282e-08           
  -4.95                 -3.066e-08            -2.9996e-08           6.1298e-08           
  -5                    -3.0902e-08           -3.001e-08            6.1254e-08           
END_DB

BEGIN_DB
 ICCAP_VAR vb         -0.7           
 ICCAP_VAR ve         0              

 #vc                    ic                    ib                    ie                   
  0                     8.8386e-05            -8.8608e-05           1.9908e-07           
  -0.05                 3.5018e-05            -3.5396e-05           3.7152e-07           
  -0.1                  1.1496e-05            -1.1864e-05           4.0878e-07           
  -0.15                 2.9716e-06            -3.3922e-06           4.1722e-07           
  -0.2                  4.3156e-07            -8.4844e-07           4.192e-07            
  -0.25                 -1.01056e-07          -3.176e-07            4.1942e-07           
