! VERSION = 6.00
BEGIN_HEADER
 ICCAP_INPUTS
  vc         V  C GROUND SMU_C 0.1 LIN        1    0          -5         101  -0.05     
  vb         V  B GROUND SMU_B 0.01 LIN        2    -0.6       -1         9    -0.05     
  ve         V  E GROUND SMU_E 0.1 CON        0
 ICCAP_OUTPUTS
  ic         I  C GROUND SMU_C B
  ib         I  B GROUND SMU_B M
  ie         I  E GROUND SMU_E M
 ICCAP_VALUES
  TNOM "27"
  TEMP "27"
  TECHNO "SG13S"
  LOT "PQA701"
  WAFER "17"
  CHIP "d0406"
  MODULE "T323_pnpMPA"
  DEV_NAME "DUT14"
  DEV_GEOM_L "."
  DEV_GEOM_W "."
  NF_EMITTER "."
  REMARKS "pnpMPA Teststructure"
  TIMEDATE "Fri Oct 21 12:47:07     2022"
END_HEADER

BEGIN_DB
 ICCAP_VAR vb         -0.6           
 ICCAP_VAR ve         0              

 #vc                    ic                    ib                    ie                   
  0                     6.6994e-06            -6.7046e-06           4.1852e-10           
  -0.05                 1.9336e-06            -1.9346e-06           1.6172e-09           
  -0.1                  4.1554e-07            -4.1692e-07           1.8378e-09           
  -0.15                 7.7352e-08            -7.915e-08            1.8664e-09           
  -0.2                  1.1752e-08            -1.367e-08            1.8706e-09           
  -0.25                 1.0128e-09            -2.8554e-09           1.8716e-09           
  -0.3                  -7.388e-10            -1.0222e-09           1.8726e-09           
  -0.35                 -9.284e-10            -7.4844e-10           1.8728e-09           
  -0.4                  -1.108e-09            -7.045e-10            1.873e-09            
  -0.45                 -1.2444e-09           -6.9814e-10           1.8726e-09           
  -0.5                  -1.1078e-09           -6.9632e-10           1.8728e-09           
  -0.55                 -1.1484e-09           -6.9636e-10           1.8728e-09           
  -0.6                  -1.2074e-09           -6.9602e-10           1.8724e-09           
  -0.65                 -1.2396e-09           -6.9612e-10           1.8738e-09           
  -0.7                  -1.2228e-09           -6.9562e-10           1.873e-09            
  -0.75                 -1.1424e-09           -6.9526e-10           1.8736e-09           
  -0.8                  -1.0892e-09           -6.9514e-10           1.8728e-09           
  -0.85                 -1.1334e-09           -6.952e-10            1.8738e-09           
  -0.9                  -1.1518e-09           -6.947e-10            1.8738e-09           
  -0.95                 -1.1668e-09           -6.946e-10            1.874e-09            
  -1                    -1.0642e-09           -6.943e-10            1.874e-09            
  -1.05                 -1.235e-09            -6.9466e-10           1.8752e-09           
  -1.1                  -1.207e-09            -6.9392e-10           1.8736e-09           
  -1.15                 -1.1286e-09           -6.9382e-10           1.8746e-09           
  -1.2                  -1.2738e-09           -6.9358e-10           1.8746e-09           
  -1.25                 -1.0814e-09           -6.9366e-10           1.874e-09            
  -1.3                  -1.193e-09            -6.9312e-10           1.8746e-09           
  -1.35                 -1.2252e-09           -6.931e-10            1.8736e-09           
  -1.4                  -1.067e-09            -6.9282e-10           1.8746e-09           
  -1.45                 -1.187e-09            -6.9256e-10           1.874e-09            
  -1.5                  -1.103e-09            -6.9288e-10           1.8752e-09           
  -1.55                 -1.1432e-09           -6.9214e-10           1.875e-09            
  -1.6                  -1.16e-09             -6.9328e-10           1.8762e-09           
  -1.65                 -1.1222e-09           -6.9312e-10           1.8764e-09           
  -1.7                  -1.123e-09            -6.922e-10            1.8764e-09           
  -1.75                 -1.2238e-09           -6.9146e-10           1.8776e-09           
  -1.8                  -1.2514e-09           -6.918e-10            1.876e-09            
  -1.85                 -1.184e-09            -6.9118e-10           1.8756e-09           
  -1.9                  -1.2418e-09           -6.9082e-10           1.8758e-09           
  -1.95                 -1.1196e-09           -6.904e-10            1.8752e-09           
  -2                    -1.2042e-09           -6.9042e-10           1.8752e-09           
  -2.05                 -1.09e-09             -6.9144e-10           1.8778e-09           
  -2.1                  -1.217e-09            -6.9042e-10           1.8784e-09           
  -2.15                 -1.2954e-09           -6.908e-10            1.8776e-09           
  -2.2                  -1.115e-09            -6.9026e-10           1.8776e-09           
  -2.25                 -1.104e-09            -6.8976e-10           1.877e-09            
  -2.3                  -1.0946e-09           -6.8922e-10           1.876e-09            
  -2.35                 -1.0758e-09           -6.8882e-10           1.8762e-09           
  -2.4                  -1.1304e-09           -6.895e-10            1.8766e-09           
  -2.45                 -1.11e-09             -6.8862e-10           1.876e-09            
  -2.5                  -1.2568e-09           -6.8932e-10           1.878e-09            
  -2.55                 -1.2918e-09           -6.8888e-10           1.8782e-09           
  -2.6                  -1.1702e-09           -6.889e-10            1.8774e-09           
  -2.65                 -1.1328e-09           -6.881e-10            1.8778e-09           
  -2.7                  -1.216e-09            -6.881e-10            1.8766e-09           
  -2.75                 -1.2088e-09           -6.8788e-10           1.8772e-09           
  -2.8                  -1.1036e-09           -6.8788e-10           1.8766e-09           
  -2.85                 -1.2684e-09           -6.8824e-10           1.8776e-09           
  -2.9                  -1.1658e-09           -6.8852e-10           1.8782e-09           
  -2.95                 -1.2178e-09           -6.8816e-10           1.8788e-09           
  -3                    -1.1288e-09           -6.8762e-10           1.8788e-09           
  -3.05                 -1.1048e-09           -6.8678e-10           1.8792e-09           
  -3.1                  -1.1334e-09           -6.8698e-10           1.8776e-09           
  -3.15                 -1.2364e-09           -6.8684e-10           1.8798e-09           
  -3.2                  -1.2124e-09           -6.871e-10            1.8786e-09           
  -3.25                 -1.2142e-09           -6.8768e-10           1.8794e-09           
  -3.3                  -1.2518e-09           -6.869e-10            1.8798e-09           
  -3.35                 -1.2892e-09           -6.8678e-10           1.8794e-09           
  -3.4                  -1.2494e-09           -6.8626e-10           1.8798e-09           
  -3.45                 -1.222e-09            -6.8554e-10           1.8798e-09           
  -3.5                  -1.168e-09            -6.8626e-10           1.8798e-09           
  -3.55                 -1.1466e-09           -6.8506e-10           1.8798e-09           
  -3.6                  -1.1108e-09           -6.857e-10            1.8792e-09           
  -3.65                 -1.1372e-09           -6.8498e-10           1.8792e-09           
  -3.7                  -1.1976e-09           -6.8454e-10           1.8804e-09           
  -3.75                 -1.309e-09            -6.8518e-10           1.8808e-09           
  -3.8                  -1.2654e-09           -6.8458e-10           1.8802e-09           
  -3.85                 -1.1918e-09           -6.8406e-10           1.8808e-09           
  -3.9                  -1.0506e-09           -6.8376e-10           1.8814e-09           
  -3.95                 -1.2522e-09           -6.8382e-10           1.8802e-09           
  -4                    -1.1656e-09           -6.832e-10            1.8816e-09           
  -4.05                 -1.1444e-09           -6.8352e-10           1.881e-09            
  -4.1                  -1.1432e-09           -6.8324e-10           1.8808e-09           
  -4.15                 -1.3282e-09           -6.8274e-10           1.8822e-09           
  -4.2                  -1.1516e-09           -6.8186e-10           1.8816e-09           
  -4.25                 -1.1822e-09           -6.826e-10            1.8796e-09           
  -4.3                  -1.085e-09            -6.8184e-10           1.88e-09             
  -4.35                 -1.1706e-09           -6.8174e-10           1.8806e-09           
  -4.4                  -1.1242e-09           -6.8178e-10           1.882e-09            
  -4.45                 -1.0492e-09           -6.8192e-10           1.8818e-09           
  -4.5                  -1.2086e-09           -6.8044e-10           1.8818e-09           
  -4.55                 -1.0826e-09           -6.7982e-10           1.8806e-09           
  -4.6                  -1.1598e-09           -6.8062e-10           1.8818e-09           
  -4.65                 -1.2452e-09           -6.8e-10              1.882e-09            
  -4.7                  -1.1736e-09           -6.8006e-10           1.8812e-09           
  -4.75                 -1.11e-09             -6.805e-10            1.8832e-09           
  -4.8                  -1.198e-09            -6.7976e-10           1.8824e-09           
  -4.85                 -1.172e-09            -6.798e-10            1.8828e-09           
  -4.9                  -1.2686e-09           -6.7928e-10           1.8828e-09           
  -4.95                 -1.17e-09             -6.787e-10            1.8828e-09           
  -5                    -1.1114e-09           -6.7824e-10           1.8844e-09           
END_DB

BEGIN_DB
 ICCAP_VAR vb         -0.65          
 ICCAP_VAR ve         0              

 #vc                    ic                    ib                    ie                   
  0                     1.8634e-05            -1.863e-05            4.3302e-09           
  -0.05                 6.7742e-06            -6.7894e-06           1.10952e-08          
  -0.1                  1.8842e-06            -1.9008e-06           1.2454e-08           
  -0.15                 4.126e-07             -4.1982e-07           1.2688e-08           
  -0.2                  6.6002e-08            -7.8408e-08           1.2718e-08           
  -0.25                 4.7656e-09            -1.7284e-08           1.2736e-08           
  -0.3                  -6.16e-09             -6.611e-09            1.2742e-08           
  -0.35                 -7.192e-09            -4.9806e-09           1.2752e-08           
  -0.4                  -7.71e-09             -4.7242e-09           1.2748e-08           
  -0.45                 -8.074e-09            -4.6826e-09           1.2748e-08           
  -0.5                  -7.758e-09            -4.677e-09            1.2744e-08           
  -0.55                 -8.138e-09            -4.6748e-09           1.2744e-08           
  -0.6                  -7.932e-09            -4.6716e-09           1.2744e-08           
  -0.65                 -8.156e-09            -4.6706e-09           1.2746e-08           
  -0.7                  -7.798e-09            -4.6706e-09           1.2742e-08           
  -0.75                 -7.692e-09            -4.6668e-09           1.2748e-08           
  -0.8                  -7.834e-09            -4.6666e-09           1.2738e-08           
  -0.85                 -7.116e-09            -4.6666e-09           1.274e-08            
  -0.9                  -8.276e-09            -4.6634e-09           1.2738e-08           
  -0.95                 -8.01e-09             -4.6622e-09           1.2746e-08           
  -1                    -7.924e-09            -4.6622e-09           1.2748e-08           
  -1.05                 -7.32e-09             -4.66e-09             1.275e-08            
  -1.1                  -7.594e-09            -4.6578e-09           1.2748e-08           
  -1.15                 -8.432e-09            -4.6578e-09           1.2746e-08           
  -1.2                  -8.37e-09             -4.6554e-09           1.275e-08            
  -1.25                 -8.172e-09            -4.6512e-09           1.2736e-08           
  -1.3                  -8.218e-09            -4.6496e-09           1.273e-08            
  -1.35                 -7.742e-09            -4.6506e-09           1.2734e-08           
  -1.4                  -7.982e-09            -4.6504e-09           1.2738e-08           
  -1.45                 -7.47e-09             -4.6498e-09           1.276e-08            
  -1.5                  -8.332e-09            -4.645e-09            1.2754e-08           
  -1.55                 -7.224e-09            -4.643e-09            1.2742e-08           
  -1.6                  -7.194e-09            -4.6426e-09           1.2734e-08           
  -1.65                 -8.23e-09             -4.6418e-09           1.2748e-08           
  -1.7                  -8.056e-09            -4.6436e-09           1.2738e-08           
  -1.75                 -7.846e-09            -4.6396e-09           1.2754e-08           
  -1.8                  -7.126e-09            -4.6398e-09           1.2744e-08           
  -1.85                 -7.964e-09            -4.6372e-09           1.2746e-08           
  -1.9                  -7.756e-09            -4.6364e-09           1.2744e-08           
  -1.95                 -7.408e-09            -4.634e-09            1.2746e-08           
  -2                    -7.686e-09            -4.6344e-09           1.2752e-08           
  -2.05                 -7.596e-09            -4.6328e-09           1.2746e-08           
  -2.1                  -8.592e-09            -4.6302e-09           1.2744e-08           
  -2.15                 -7.942e-09            -4.6358e-09           1.2766e-08           
  -2.2                  -7.72e-09             -4.6312e-09           1.2764e-08           
  -2.25                 -7.86e-09             -4.6282e-09           1.2766e-08           
  -2.3                  -7.864e-09            -4.6244e-09           1.276e-08            
  -2.35                 -8.358e-09            -4.6264e-09           1.276e-08            
  -2.4                  -7.972e-09            -4.6262e-09           1.2758e-08           
  -2.45                 -7.672e-09            -4.6226e-09           1.276e-08            
  -2.5                  -7.998e-09            -4.6214e-09           1.2754e-08           
  -2.55                 -7.442e-09            -4.6208e-09           1.2768e-08           
  -2.6                  -8.346e-09            -4.619e-09            1.2762e-08           
  -2.65                 -7.856e-09            -4.62e-09             1.2766e-08           
  -2.7                  -8.22e-09             -4.616e-09            1.277e-08            
  -2.75                 -7.72e-09             -4.617e-09            1.2758e-08           
  -2.8                  -7.108e-09            -4.6144e-09           1.2758e-08           
  -2.85                 -7.682e-09            -4.614e-09            1.275e-08            
  -2.9                  -7.798e-09            -4.614e-09            1.277e-08            
  -2.95                 -7.77e-09             -4.6094e-09           1.276e-08            
  -3                    -7.696e-09            -4.6082e-09           1.2766e-08           
  -3.05                 -8.424e-09            -4.6084e-09           1.2752e-08           
  -3.1                  -7.288e-09            -4.6102e-09           1.2766e-08           
  -3.15                 -7.538e-09            -4.6084e-09           1.277e-08            
  -3.2                  -7.908e-09            -4.6058e-09           1.2774e-08           
  -3.25                 -7.38e-09             -4.6038e-09           1.2772e-08           
  -3.3                  -8.268e-09            -4.6026e-09           1.2772e-08           
  -3.35                 -6.858e-09            -4.6002e-09           1.2774e-08           
  -3.4                  -8.298e-09            -4.5992e-09           1.2766e-08           
  -3.45                 -8.416e-09            -4.6002e-09           1.2772e-08           
  -3.5                  -7.338e-09            -4.597e-09            1.2772e-08           
  -3.55                 -8.362e-09            -4.5976e-09           1.2774e-08           
  -3.6                  -7.784e-09            -4.5962e-09           1.2766e-08           
  -3.65                 -8.218e-09            -4.597e-09            1.2772e-08           
  -3.7                  -7.784e-09            -4.5916e-09           1.277e-08            
  -3.75                 -7.794e-09            -4.5922e-09           1.2774e-08           
  -3.8                  -8.082e-09            -4.5904e-09           1.2768e-08           
  -3.85                 -7.846e-09            -4.5834e-09           1.2768e-08           
  -3.9                  -7.918e-09            -4.585e-09            1.2776e-08           
  -3.95                 -8.136e-09            -4.581e-09            1.2774e-08           
  -4                    -8.386e-09            -4.5822e-09           1.2768e-08           
  -4.05                 -7.912e-09            -4.5906e-09           1.2764e-08           
  -4.1                  -7.95e-09             -4.5908e-09           1.2806e-08           
  -4.15                 -8.468e-09            -4.5878e-09           1.281e-08            
  -4.2                  -8.096e-09            -4.5782e-09           1.283e-08            
  -4.25                 -7.848e-09            -4.5794e-09           1.2826e-08           
  -4.3                  -8.258e-09            -4.5934e-09           1.286e-08            
  -4.35                 -7.61e-09             -4.5844e-09           1.2822e-08           
  -4.4                  -7.944e-09            -4.5814e-09           1.2808e-08           
  -4.45                 -8.294e-09            -4.5672e-09           1.2812e-08           
  -4.5                  -8.086e-09            -4.5648e-09           1.2774e-08           
  -4.55                 -7.712e-09            -4.5652e-09           1.2784e-08           
  -4.6                  -7.706e-09            -4.5614e-09           1.2782e-08           
  -4.65                 -7.682e-09            -4.5612e-09           1.2786e-08           
  -4.7                  -8.734e-09            -4.5586e-09           1.279e-08            
  -4.75                 -7.506e-09            -4.5586e-09           1.2786e-08           
  -4.8                  -7.452e-09            -4.5546e-09           1.2788e-08           
  -4.85                 -8.194e-09            -4.5512e-09           1.2788e-08           
  -4.9                  -7.762e-09            -4.5508e-09           1.2788e-08           
  -4.95                 -8.172e-09            -4.549e-09            1.2788e-08           
  -5                    -7.696e-09            -4.547e-09            1.2782e-08           
END_DB

BEGIN_DB
 ICCAP_VAR vb         -0.7           
 ICCAP_VAR ve         0              

 #vc                    ic                    ib                    ie                   
  0                     4.3276e-05            -4.3312e-05           3.7252e-08           
  -0.05                 1.8844e-05            -1.8922e-05           7.445e-08            
  -0.1                  6.668e-06             -6.757e-06            8.4044e-08           
  -0.15                 1.875e-06             -1.9556e-06           8.621e-08            
  -0.2                  3.5154e-07            -4.3776e-07           8.683e-08            
  -0.25                 1.9384e-08            -1.058e-07            8.6974e-08           
