! VERSION = 6.00
BEGIN_HEADER
 ICCAP_INPUTS
  vc         V  C GROUND SMU_C 0.1 LIN        1    0          -5         101  -0.05     
  vb         V  B GROUND SMU_B 0.01 LIN        2    -0.6       -1         9    -0.05     
  ve         V  E GROUND SMU_E 0.1 CON        0
 ICCAP_OUTPUTS
  ic         I  C GROUND SMU_C B
  ib         I  B GROUND SMU_B M
  ie         I  E GROUND SMU_E M
 ICCAP_VALUES
  TNOM "27"
  TEMP "27"
  TECHNO "SG13S"
  LOT "PQA701"
  WAFER "17"
  CHIP "d0406"
  MODULE "T323_pnpMPA"
  DEV_NAME "DUT11"
  DEV_GEOM_L "."
  DEV_GEOM_W "."
  NF_EMITTER "."
  REMARKS "pnpMPA Teststructure"
  TIMEDATE "Fri Oct 21 12:47:07     2022"
END_HEADER

BEGIN_DB
 ICCAP_VAR vb         -0.6           
 ICCAP_VAR ve         0              

 #vc                    ic                    ib                    ie                   
  0                     9.808e-06             -9.8176e-06           2.052e-09            
  -0.05                 2.682e-06             -2.6872e-06           4.4296e-09           
  -0.1                  5.4312e-07            -5.4634e-07           4.8032e-09           
  -0.15                 9.3228e-08            -9.7672e-08           4.8528e-09           
  -0.2                  1.2166e-08            -1.6764e-08           4.8626e-09           
  -0.25                 -3.046e-10            -4.4998e-09           4.8586e-09           
  -0.3                  -2.4042e-09           -2.5586e-09           4.8718e-09           
  -0.35                 -2.4538e-09           -2.2672e-09           4.8694e-09           
  -0.4                  -2.6566e-09           -2.221e-09            4.8618e-09           
  -0.45                 -2.6114e-09           -2.22e-09             4.8634e-09           
  -0.5                  -2.6598e-09           -2.2214e-09           4.8706e-09           
  -0.55                 -2.6218e-09           -2.2188e-09           4.8756e-09           
  -0.6                  -2.656e-09            -2.2186e-09           4.8708e-09           
  -0.65                 -2.6482e-09           -2.216e-09            4.874e-09            
  -0.7                  -2.5904e-09           -2.2166e-09           4.8778e-09           
  -0.75                 -2.7288e-09           -2.2188e-09           4.8744e-09           
  -0.8                  -2.7704e-09           -2.2854e-09           4.933e-09            
  -0.85                 -2.636e-09            -2.2212e-09           4.8848e-09           
  -0.9                  -2.7116e-09           -2.2172e-09           4.8826e-09           
  -0.95                 -2.7138e-09           -2.2152e-09           4.878e-09            
  -1                    -2.628e-09            -2.2132e-09           4.8768e-09           
  -1.05                 -2.7064e-09           -2.2116e-09           4.8666e-09           
  -1.1                  -2.6862e-09           -2.2128e-09           4.8678e-09           
  -1.15                 -2.6706e-09           -2.2096e-09           4.8748e-09           
  -1.2                  -2.5944e-09           -2.2116e-09           4.863e-09            
  -1.25                 -2.606e-09            -2.2094e-09           4.8664e-09           
  -1.3                  -2.6242e-09           -2.2114e-09           4.869e-09            
  -1.35                 -2.6038e-09           -2.2066e-09           4.8658e-09           
  -1.4                  -2.6856e-09           -2.208e-09            4.8602e-09           
  -1.45                 -2.5856e-09           -2.2048e-09           4.8606e-09           
  -1.5                  -2.6128e-09           -2.202e-09            4.8624e-09           
  -1.55                 -2.6376e-09           -2.2012e-09           4.8528e-09           
  -1.6                  -2.7978e-09           -2.203e-09            4.8526e-09           
  -1.65                 -2.64e-09             -2.1988e-09           4.8514e-09           
  -1.7                  -2.6206e-09           -2.1986e-09           4.8508e-09           
  -1.75                 -2.6636e-09           -2.2028e-09           4.8584e-09           
  -1.8                  -2.5292e-09           -2.2144e-09           4.857e-09            
  -1.85                 -2.6718e-09           -2.2036e-09           4.861e-09            
  -1.9                  -2.7094e-09           -2.2092e-09           4.8758e-09           
  -1.95                 -2.6528e-09           -2.201e-09            4.8706e-09           
  -2                    -2.6316e-09           -2.2014e-09           4.8614e-09           
  -2.05                 -2.6176e-09           -2.22e-09             4.8624e-09           
  -2.1                  -2.511e-09            -2.2202e-09           4.8644e-09           
  -2.15                 -2.6344e-09           -2.2038e-09           4.8878e-09           
  -2.2                  -2.6134e-09           -2.1966e-09           4.9166e-09           
  -2.25                 -2.5462e-09           -2.201e-09            4.8588e-09           
  -2.3                  -2.6678e-09           -2.1972e-09           4.866e-09            
  -2.35                 -2.5996e-09           -2.1986e-09           4.8626e-09           
  -2.4                  -2.575e-09            -2.1978e-09           4.8632e-09           
  -2.45                 -2.7282e-09           -2.197e-09            4.8616e-09           
  -2.5                  -2.631e-09            -2.1962e-09           4.861e-09            
  -2.55                 -2.6696e-09           -2.1958e-09           4.8604e-09           
  -2.6                  -2.568e-09            -2.195e-09            4.8582e-09           
  -2.65                 -2.749e-09            -2.1966e-09           4.8588e-09           
  -2.7                  -2.5772e-09           -2.197e-09            4.8672e-09           
  -2.75                 -2.7126e-09           -2.1946e-09           4.864e-09            
  -2.8                  -2.7678e-09           -2.194e-09            4.8656e-09           
  -2.85                 -2.6542e-09           -2.1944e-09           4.8618e-09           
  -2.9                  -2.671e-09            -2.1986e-09           4.8658e-09           
  -2.95                 -2.6068e-09           -2.1968e-09           4.862e-09            
  -3                    -2.8546e-09           -2.194e-09            4.869e-09            
  -3.05                 -2.611e-09            -2.1936e-09           4.8638e-09           
  -3.1                  -2.6564e-09           -2.1928e-09           4.8774e-09           
  -3.15                 -2.683e-09            -2.1946e-09           4.8698e-09           
  -3.2                  -2.7602e-09           -2.1936e-09           4.8614e-09           
  -3.25                 -2.61e-09             -2.1936e-09           4.8654e-09           
  -3.3                  -2.6902e-09           -2.1918e-09           4.8672e-09           
  -3.35                 -2.7216e-09           -2.1898e-09           4.8684e-09           
  -3.4                  -2.701e-09            -2.1914e-09           4.8626e-09           
  -3.45                 -2.6674e-09           -2.1898e-09           4.8658e-09           
  -3.5                  -2.7238e-09           -2.1916e-09           4.873e-09            
  -3.55                 -2.7518e-09           -2.1912e-09           4.864e-09            
  -3.6                  -2.7086e-09           -2.189e-09            4.894e-09            
  -3.65                 -2.7738e-09           -2.1932e-09           4.8664e-09           
  -3.7                  -2.7274e-09           -2.191e-09            4.875e-09            
  -3.75                 -2.332e-09            -2.189e-09            4.8716e-09           
  -3.8                  -2.5808e-09           -2.191e-09            4.8644e-09           
  -3.85                 -2.484e-09            -2.1898e-09           4.8704e-09           
  -3.9                  -2.6584e-09           -2.186e-09            4.8708e-09           
  -3.95                 -2.338e-09            -2.191e-09            4.8824e-09           
  -4                    -2.6994e-09           -2.2134e-09           4.8716e-09           
  -4.05                 -2.7478e-09           -2.1852e-09           4.8684e-09           
  -4.1                  -2.5762e-09           -2.195e-09            4.8666e-09           
  -4.15                 -2.6828e-09           -2.1854e-09           4.8916e-09           
  -4.2                  -2.6462e-09           -2.186e-09            4.8742e-09           
  -4.25                 -2.6782e-09           -2.1868e-09           4.8652e-09           
  -4.3                  -2.734e-09            -2.1846e-09           4.871e-09            
  -4.35                 -2.7382e-09           -2.1858e-09           4.869e-09            
  -4.4                  -2.5998e-09           -2.185e-09            4.8764e-09           
  -4.45                 -2.7912e-09           -2.1854e-09           4.8752e-09           
  -4.5                  -2.432e-09            -2.2524e-09           4.8784e-09           
  -4.55                 -2.7152e-09           -2.1882e-09           5.0176e-09           
  -4.6                  -2.774e-09            -2.184e-09            4.8812e-09           
  -4.65                 -2.664e-09            -2.182e-09            4.8714e-09           
  -4.7                  -2.458e-09            -2.1802e-09           4.875e-09            
  -4.75                 -2.888e-09            -2.182e-09            4.8764e-09           
  -4.8                  -2.6288e-09           -2.1794e-09           4.8692e-09           
  -4.85                 -2.8016e-09           -2.182e-09            4.876e-09            
  -4.9                  -2.6078e-09           -2.1772e-09           4.8712e-09           
  -4.95                 -2.6332e-09           -2.1806e-09           4.87e-09             
  -5                    -2.6812e-09           -2.1774e-09           4.874e-09            
END_DB

BEGIN_DB
 ICCAP_VAR vb         -0.65          
 ICCAP_VAR ve         0              

 #vc                    ic                    ib                    ie                   
  0                     2.89e-05              -2.895e-05            1.4326e-08           
  -0.05                 9.9296e-06            -9.9528e-06           2.9784e-08           
  -0.1                  2.6246e-06            -2.6582e-06           3.2642e-08           
  -0.15                 5.3732e-07            -5.7062e-07           3.304e-08            
  -0.2                  7.5552e-08            -1.0782e-07           3.3042e-08           
  -0.25                 -2.995e-09            -2.996e-08            3.309e-08            
  -0.3                  -1.5772e-08           -1.7256e-08           3.3098e-08           
  -0.35                 -1.8e-08              -1.5406e-08           3.3102e-08           
  -0.4                  -1.7144e-08           -1.5102e-08           3.3084e-08           
  -0.45                 -1.7986e-08           -1.5062e-08           3.3154e-08           
  -0.5                  -1.7656e-08           -1.5426e-08           3.3142e-08           
  -0.55                 -1.7678e-08           -1.5036e-08           3.352e-08            
  -0.6                  -1.73e-08             -1.5306e-08           3.315e-08            
  -0.65                 -1.7806e-08           -1.5022e-08           3.324e-08            
  -0.7                  -1.8246e-08           -1.5058e-08           3.309e-08            
  -0.75                 -1.7846e-08           -1.5016e-08           3.312e-08            
  -0.8                  -1.855e-08            -1.5218e-08           3.3102e-08           
  -0.85                 -1.7448e-08           -1.5046e-08           3.3786e-08           
  -0.9                  -1.7622e-08           -1.5014e-08           3.3086e-08           
  -0.95                 -1.7694e-08           -1.4996e-08           3.3142e-08           
  -1                    -1.804e-08            -1.5008e-08           3.313e-08            
  -1.05                 -1.682e-08            -1.4994e-08           3.3134e-08           
  -1.1                  -1.794e-08            -1.4998e-08           3.3076e-08           
  -1.15                 -1.793e-08            -1.4982e-08           3.3154e-08           
  -1.2                  -1.7982e-08           -1.4974e-08           3.3098e-08           
  -1.25                 -1.766e-08            -1.499e-08            3.3056e-08           
  -1.3                  -1.8002e-08           -1.4982e-08           3.3082e-08           
  -1.35                 -1.8266e-08           -1.4986e-08           3.3112e-08           
  -1.4                  -1.7536e-08           -1.4998e-08           3.307e-08            
  -1.45                 -1.7442e-08           -1.4986e-08           3.3106e-08           
  -1.5                  -1.819e-08            -1.4982e-08           3.3092e-08           
  -1.55                 -1.7364e-08           -1.498e-08            3.3096e-08           
  -1.6                  -1.8086e-08           -1.499e-08            3.3124e-08           
  -1.65                 -1.8232e-08           -1.4966e-08           3.3094e-08           
  -1.7                  -1.7604e-08           -1.4972e-08           3.3118e-08           
  -1.75                 -1.7992e-08           -1.4986e-08           3.3148e-08           
  -1.8                  -1.7918e-08           -1.4976e-08           3.3154e-08           
  -1.85                 -1.8274e-08           -1.496e-08            3.3144e-08           
  -1.9                  -1.8362e-08           -1.5004e-08           3.3122e-08           
  -1.95                 -1.8102e-08           -1.4984e-08           3.3222e-08           
  -2                    -1.773e-08            -1.4988e-08           3.3188e-08           
  -2.05                 -1.7698e-08           -1.4962e-08           3.315e-08            
  -2.1                  -1.9112e-08           -1.4962e-08           3.3166e-08           
  -2.15                 -1.816e-08            -1.4974e-08           3.3172e-08           
  -2.2                  -1.7472e-08           -1.4958e-08           3.3224e-08           
  -2.25                 -1.7576e-08           -1.4968e-08           3.3176e-08           
  -2.3                  -1.808e-08            -1.4962e-08           3.3144e-08           
  -2.35                 -1.7948e-08           -1.495e-08            3.3184e-08           
  -2.4                  -1.7888e-08           -1.4956e-08           3.3154e-08           
  -2.45                 -1.8106e-08           -1.495e-08            3.315e-08            
  -2.5                  -1.8244e-08           -1.4942e-08           3.3188e-08           
  -2.55                 -1.8368e-08           -1.4954e-08           3.3148e-08           
  -2.6                  -1.7044e-08           -1.4944e-08           3.318e-08            
  -2.65                 -1.8364e-08           -1.4958e-08           3.3162e-08           
  -2.7                  -1.872e-08            -1.495e-08            3.3192e-08           
  -2.75                 -1.845e-08            -1.4946e-08           3.3198e-08           
  -2.8                  -1.7518e-08           -1.4954e-08           3.3226e-08           
  -2.85                 -1.7776e-08           -1.4956e-08           3.3228e-08           
  -2.9                  -1.8282e-08           -1.494e-08            3.3218e-08           
  -2.95                 -1.785e-08            -1.496e-08            3.3176e-08           
  -3                    -1.8228e-08           -1.4928e-08           3.324e-08            
  -3.05                 -1.82e-08             -1.4932e-08           3.3238e-08           
  -3.1                  -1.7404e-08           -1.4934e-08           3.3154e-08           
  -3.15                 -1.806e-08            -1.4914e-08           3.318e-08            
  -3.2                  -1.7816e-08           -1.4918e-08           3.3236e-08           
  -3.25                 -1.8284e-08           -1.4908e-08           3.3168e-08           
  -3.3                  -1.8498e-08           -1.492e-08            3.3224e-08           
  -3.35                 -1.8196e-08           -1.4918e-08           3.3154e-08           
  -3.4                  -1.8102e-08           -1.4896e-08           3.3206e-08           
  -3.45                 -1.8494e-08           -1.493e-08            3.3196e-08           
  -3.5                  -1.797e-08            -1.491e-08            3.3158e-08           
  -3.55                 -1.7738e-08           -1.4888e-08           3.3196e-08           
  -3.6                  -1.7822e-08           -1.4892e-08           3.3178e-08           
  -3.65                 -1.7608e-08           -1.4906e-08           3.3182e-08           
  -3.7                  -1.7554e-08           -1.489e-08            3.3192e-08           
  -3.75                 -1.7248e-08           -1.4894e-08           3.3196e-08           
  -3.8                  -1.7778e-08           -1.4884e-08           3.3204e-08           
  -3.85                 -1.7778e-08           -1.49e-08             3.3282e-08           
  -3.9                  -1.861e-08            -1.4958e-08           3.3258e-08           
  -3.95                 -1.8492e-08           -1.4904e-08           3.3202e-08           
  -4                    -1.8594e-08           -1.4882e-08           3.3352e-08           
  -4.05                 -1.7526e-08           -1.4868e-08           3.3326e-08           
  -4.1                  -1.8004e-08           -1.4884e-08           3.3194e-08           
  -4.15                 -1.8282e-08           -1.4876e-08           3.3202e-08           
  -4.2                  -1.757e-08            -1.4868e-08           3.323e-08            
  -4.25                 -1.7558e-08           -1.488e-08            3.3224e-08           
  -4.3                  -1.7822e-08           -1.4874e-08           3.3238e-08           
  -4.35                 -1.8554e-08           -1.4884e-08           3.328e-08            
  -4.4                  -1.8274e-08           -1.4866e-08           3.322e-08            
  -4.45                 -1.8806e-08           -1.4866e-08           3.3316e-08           
  -4.5                  -1.8488e-08           -1.4912e-08           3.3212e-08           
  -4.55                 -1.74e-08             -1.486e-08            3.327e-08            
  -4.6                  -1.8388e-08           -1.4854e-08           3.3242e-08           
  -4.65                 -1.8334e-08           -1.5332e-08           3.3226e-08           
  -4.7                  -1.819e-08            -1.4856e-08           3.4348e-08           
  -4.75                 -1.827e-08            -1.4866e-08           3.3256e-08           
  -4.8                  -1.8624e-08           -1.4844e-08           3.3256e-08           
  -4.85                 -1.8194e-08           -1.485e-08            3.3288e-08           
  -4.9                  -1.8102e-08           -1.4858e-08           3.3244e-08           
  -4.95                 -1.8354e-08           -1.4868e-08           3.3342e-08           
  -5                    -1.769e-08            -1.4902e-08           3.3598e-08           
END_DB

BEGIN_DB
 ICCAP_VAR vb         -0.7           
 ICCAP_VAR ve         0              

 #vc                    ic                    ib                    ie                   
  0                     7.2426e-05            -7.2528e-05           1.0235e-07           
  -0.05                 2.9202e-05            -2.9412e-05           1.9902e-07           
  -0.1                  9.7176e-06            -9.9518e-06           2.2164e-07           
  -0.15                 2.5778e-06            -2.8026e-06           2.2546e-07           
  -0.2                  4.2228e-07            -6.4902e-07           2.2674e-07           
  -0.25                 -2.877e-08            -1.9772e-07           2.2696e-07           
