! VERSION = 6.00
BEGIN_HEADER
 ICCAP_INPUTS
  vc         V  C GROUND SMU_C 0.1 LIN        1    0          -5         101  -0.05     
  vb         V  B GROUND SMU_B 0.01 LIN        2    -0.6       -1         9    -0.05     
  ve         V  E GROUND SMU_E 0.1 CON        0
 ICCAP_OUTPUTS
  ic         I  C GROUND SMU_C B
  ib         I  B GROUND SMU_B M
  ie         I  E GROUND SMU_E M
 ICCAP_VALUES
  TNOM "27"
  TEMP "27"
  TECHNO "SG13S"
  LOT "PQA701"
  WAFER "17"
  CHIP "d0406"
  MODULE "T323_pnpMPA"
  DEV_NAME "DUT8"
  DEV_GEOM_L "."
  DEV_GEOM_W "."
  NF_EMITTER "."
  REMARKS "pnpMPA Teststructure"
  TIMEDATE "Fri Oct 21 12:47:07     2022"
END_HEADER

BEGIN_DB
 ICCAP_VAR vb         -0.6           
 ICCAP_VAR ve         0              

 #vc                    ic                    ib                    ie                   
  0                     1.0224e-05            -1.02642e-05          2.5232e-09           
  -0.05                 2.7788e-06            -2.7918e-06           5.283e-09            
  -0.1                  5.5982e-07            -5.6462e-07           5.731e-09            
  -0.15                 9.4574e-08            -1.00372e-07          5.7864e-09           
  -0.2                  1.2182e-08            -1.7532e-08           5.795e-09            
  -0.25                 -6.824e-10            -5.0112e-09           5.7958e-09           
  -0.3                  -2.6812e-09           -3.0502e-09           5.799e-09            
  -0.35                 -3.0756e-09           -2.7594e-09           5.7996e-09           
  -0.4                  -2.964e-09            -2.716e-09            5.7982e-09           
  -0.45                 -3.0806e-09           -2.7092e-09           5.802e-09            
  -0.5                  -3.1418e-09           -2.7084e-09           5.802e-09            
  -0.55                 -3.0642e-09           -2.7092e-09           5.7998e-09           
  -0.6                  -3.0922e-09           -2.7082e-09           5.8016e-09           
  -0.65                 -3.124e-09            -2.7286e-09           5.8428e-09           
  -0.7                  -3.1878e-09           -2.7298e-09           5.8498e-09           
  -0.75                 -3.0796e-09           -2.7078e-09           5.8066e-09           
  -0.8                  -3.0214e-09           -2.7068e-09           5.8046e-09           
  -0.85                 -3.0956e-09           -2.7066e-09           5.8046e-09           
  -0.9                  -3.0284e-09           -2.7052e-09           5.8046e-09           
  -0.95                 -3.1118e-09           -2.7054e-09           5.8058e-09           
  -1                    -3.1942e-09           -2.7054e-09           5.8068e-09           
  -1.05                 -3.0592e-09           -2.704e-09            5.806e-09            
  -1.1                  -3.2388e-09           -2.7036e-09           5.8096e-09           
  -1.15                 -3.0548e-09           -2.7034e-09           5.8066e-09           
  -1.2                  -3.098e-09            -2.7064e-09           5.808e-09            
  -1.25                 -3.1632e-09           -2.7032e-09           5.8088e-09           
  -1.3                  -3.2214e-09           -2.7028e-09           5.8074e-09           
  -1.35                 -3.0762e-09           -2.7012e-09           5.8084e-09           
  -1.4                  -3.1342e-09           -2.7056e-09           5.8076e-09           
  -1.45                 -3.1138e-09           -2.7012e-09           5.8144e-09           
  -1.5                  -3.111e-09            -2.701e-09            5.8092e-09           
  -1.55                 -3.1306e-09           -2.7006e-09           5.8064e-09           
  -1.6                  -3.1744e-09           -2.7002e-09           5.8074e-09           
  -1.65                 -3.0636e-09           -2.6994e-09           5.809e-09            
  -1.7                  -3.174e-09            -2.6996e-09           5.8104e-09           
  -1.75                 -3.1478e-09           -2.699e-09            5.8098e-09           
  -1.8                  -3.075e-09            -2.6982e-09           5.8082e-09           
  -1.85                 -3.1348e-09           -2.6958e-09           5.8266e-09           
  -1.9                  -3.0276e-09           -2.697e-09            5.8212e-09           
  -1.95                 -3.0222e-09           -2.695e-09            5.8074e-09           
  -2                    -3.1832e-09           -2.6946e-09           5.8068e-09           
  -2.05                 -2.948e-09            -2.6948e-09           5.8078e-09           
  -2.1                  -3.1736e-09           -2.6948e-09           5.8104e-09           
  -2.15                 -3.095e-09            -2.6952e-09           5.808e-09            
  -2.2                  -3.0374e-09           -2.6958e-09           5.8098e-09           
  -2.25                 -3.1426e-09           -2.6968e-09           5.8128e-09           
  -2.3                  -3.125e-09            -2.695e-09            5.8122e-09           
  -2.35                 -3.0798e-09           -2.6956e-09           5.8108e-09           
  -2.4                  -3.1078e-09           -2.694e-09            5.815e-09            
  -2.45                 -3.0572e-09           -2.6934e-09           5.8116e-09           
  -2.5                  -2.9912e-09           -2.6932e-09           5.8118e-09           
  -2.55                 -3.197e-09            -2.6954e-09           5.8118e-09           
  -2.6                  -2.966e-09            -2.6936e-09           5.8148e-09           
  -2.65                 -3.066e-09            -2.693e-09            5.812e-09            
  -2.7                  -3.1764e-09           -2.6918e-09           5.8148e-09           
  -2.75                 -3.0508e-09           -2.6922e-09           5.8144e-09           
  -2.8                  -3.0468e-09           -2.6918e-09           5.8138e-09           
  -2.85                 -3.228e-09            -2.6918e-09           5.8156e-09           
  -2.9                  -3.0882e-09           -2.6914e-09           5.8164e-09           
  -2.95                 -3.1498e-09           -2.6916e-09           5.8144e-09           
  -3                    -3.1464e-09           -2.6906e-09           5.8188e-09           
  -3.05                 -3.1634e-09           -2.69e-09             5.8162e-09           
  -3.1                  -3.0504e-09           -2.6908e-09           5.8152e-09           
  -3.15                 -3.157e-09            -2.69e-09             5.8182e-09           
  -3.2                  -3.2634e-09           -2.6906e-09           5.8178e-09           
  -3.25                 -3.145e-09            -2.689e-09            5.8186e-09           
  -3.3                  -3.0974e-09           -2.6898e-09           5.8188e-09           
  -3.35                 -2.988e-09            -2.6876e-09           5.8184e-09           
  -3.4                  -3.0994e-09           -2.6896e-09           5.8208e-09           
  -3.45                 -3.228e-09            -2.6878e-09           5.82e-09             
  -3.5                  -3.0106e-09           -2.6892e-09           5.8184e-09           
  -3.55                 -3.0366e-09           -2.6872e-09           5.8216e-09           
  -3.6                  -3.16e-09             -2.6886e-09           5.8206e-09           
  -3.65                 -3.183e-09            -2.6886e-09           5.8218e-09           
  -3.7                  -3.1028e-09           -2.6878e-09           5.8198e-09           
  -3.75                 -3.1222e-09           -2.687e-09            5.826e-09            
  -3.8                  -3.1414e-09           -2.6868e-09           5.8206e-09           
  -3.85                 -3.0936e-09           -2.6872e-09           5.8234e-09           
  -3.9                  -3.0736e-09           -2.6866e-09           5.8232e-09           
  -3.95                 -3.1808e-09           -2.6852e-09           5.8256e-09           
  -4                    -3.1594e-09           -2.6862e-09           5.8262e-09           
  -4.05                 -3.2668e-09           -2.6864e-09           5.823e-09            
  -4.1                  -3.0684e-09           -2.6838e-09           5.825e-09            
  -4.15                 -3.2122e-09           -2.6842e-09           5.8224e-09           
  -4.2                  -3.262e-09            -2.6824e-09           5.8232e-09           
  -4.25                 -3.0734e-09           -2.6832e-09           5.822e-09            
  -4.3                  -3.1444e-09           -2.6814e-09           5.823e-09            
  -4.35                 -2.53e-09             -2.6822e-09           5.824e-09            
  -4.4                  -3.1148e-09           -2.6822e-09           5.824e-09            
  -4.45                 -3.2014e-09           -2.682e-09            5.8648e-09           
  -4.5                  -3.0362e-09           -2.6818e-09           5.8254e-09           
  -4.55                 -3.1828e-09           -2.6802e-09           5.827e-09            
  -4.6                  -3.0998e-09           -2.6808e-09           5.8248e-09           
  -4.65                 -2.882e-09            -2.6804e-09           5.8248e-09           
  -4.7                  -3.1444e-09           -2.6798e-09           5.828e-09            
  -4.75                 -3.1866e-09           -2.6778e-09           5.8272e-09           
  -4.8                  -2.854e-09            -2.6778e-09           5.8264e-09           
  -4.85                 -3.1978e-09           -2.6778e-09           5.8296e-09           
  -4.9                  -3.0514e-09           -2.6776e-09           5.8288e-09           
  -4.95                 -3.1876e-09           -2.6762e-09           5.8286e-09           
  -5                    -3.1394e-09           -2.6772e-09           5.8276e-09           
END_DB

BEGIN_DB
 ICCAP_VAR vb         -0.65          
 ICCAP_VAR ve         0              

 #vc                    ic                    ib                    ie                   
  0                     3.0534e-05            -3.0534e-05           1.7506e-08           
  -0.05                 1.0386e-05            -1.0406e-05           3.5792e-08           
  -0.1                  2.7236e-06            -2.7606e-06           3.9054e-08           
  -0.15                 5.5342e-07            -5.908e-07            3.9576e-08           
  -0.2                  7.3624e-08            -1.1364e-07           3.966e-08            
  -0.25                 -5.9106e-09           -3.367e-08            3.9672e-08           
  -0.3                  -1.921e-08            -2.0732e-08           3.9664e-08           
  -0.35                 -2.0526e-08           -1.8826e-08           3.9644e-08           
  -0.4                  -2.0938e-08           -1.8528e-08           3.9644e-08           
  -0.45                 -2.1408e-08           -1.8498e-08           3.966e-08            
  -0.5                  -2.0578e-08           -1.8478e-08           3.9634e-08           
  -0.55                 -2.1364e-08           -1.8458e-08           3.9658e-08           
  -0.6                  -2.1376e-08           -1.846e-08            3.9638e-08           
  -0.65                 -2.087e-08            -1.8452e-08           3.9642e-08           
  -0.7                  -2.1246e-08           -1.846e-08            3.9644e-08           
  -0.75                 -2.0956e-08           -1.8452e-08           3.963e-08            
  -0.8                  -2.0974e-08           -1.8438e-08           3.9656e-08           
  -0.85                 -2.1132e-08           -1.8464e-08           3.9634e-08           
  -0.9                  -2.098e-08            -1.8442e-08           3.967e-08            
  -0.95                 -2.1222e-08           -1.8464e-08           3.967e-08            
  -1                    -2.0892e-08           -1.844e-08            3.9642e-08           
  -1.05                 -2.1752e-08           -1.8454e-08           3.9704e-08           
  -1.1                  -2.0582e-08           -1.8442e-08           3.9664e-08           
  -1.15                 -2.0858e-08           -1.8434e-08           3.9684e-08           
  -1.2                  -2.061e-08            -1.8448e-08           3.9668e-08           
  -1.25                 -2.1536e-08           -1.8428e-08           3.9678e-08           
  -1.3                  -2.0244e-08           -1.8472e-08           3.9688e-08           
  -1.35                 -2.0156e-08           -1.844e-08            3.965e-08            
  -1.4                  -2.0902e-08           -1.8452e-08           3.9706e-08           
  -1.45                 -2.1122e-08           -1.8448e-08           3.976e-08            
  -1.5                  -2.1254e-08           -1.8418e-08           3.971e-08            
  -1.55                 -2.122e-08            -1.8436e-08           3.97e-08             
  -1.6                  -2.1058e-08           -1.8422e-08           3.9694e-08           
  -1.65                 -2.094e-08            -1.8424e-08           3.9722e-08           
  -1.7                  -2.0814e-08           -1.8416e-08           3.9694e-08           
  -1.75                 -2.0678e-08           -1.8404e-08           3.9708e-08           
  -1.8                  -2.1204e-08           -1.842e-08            3.9708e-08           
  -1.85                 -2.0852e-08           -1.8416e-08           3.9724e-08           
  -1.9                  -2.0756e-08           -1.8416e-08           3.9742e-08           
  -1.95                 -2.0254e-08           -1.8408e-08           3.971e-08            
  -2                    -2.0772e-08           -1.8404e-08           3.971e-08            
  -2.05                 -2.0592e-08           -1.8424e-08           3.9714e-08           
  -2.1                  -2.1098e-08           -1.8396e-08           3.9726e-08           
  -2.15                 -2.1036e-08           -1.8394e-08           3.9728e-08           
  -2.2                  -2.0436e-08           -1.8396e-08           3.9688e-08           
  -2.25                 -2.0366e-08           -1.8376e-08           3.9724e-08           
  -2.3                  -2.1318e-08           -1.8388e-08           3.9764e-08           
  -2.35                 -2.0708e-08           -1.838e-08            3.97e-08             
  -2.4                  -2.102e-08            -1.8378e-08           3.9714e-08           
  -2.45                 -2.1346e-08           -1.8382e-08           3.9718e-08           
  -2.5                  -2.0818e-08           -1.8368e-08           3.972e-08            
  -2.55                 -2.1172e-08           -1.8388e-08           3.973e-08            
  -2.6                  -2.0884e-08           -1.8376e-08           3.971e-08            
  -2.65                 -2.0786e-08           -1.8376e-08           3.9724e-08           
  -2.7                  -2.1412e-08           -1.8372e-08           3.9702e-08           
  -2.75                 -2.2082e-08           -1.8364e-08           3.9742e-08           
  -2.8                  -2.1376e-08           -1.8364e-08           3.973e-08            
  -2.85                 -2.0872e-08           -1.8366e-08           3.973e-08            
  -2.9                  -2.1054e-08           -1.837e-08            3.978e-08            
  -2.95                 -2.1488e-08           -1.8356e-08           3.9842e-08           
  -3                    -2.1382e-08           -1.8382e-08           3.9762e-08           
  -3.05                 -2.0678e-08           -1.8382e-08           3.976e-08            
  -3.1                  -2.1312e-08           -1.8344e-08           3.9742e-08           
  -3.15                 -2.1072e-08           -1.8356e-08           3.977e-08            
  -3.2                  -2.127e-08            -1.8352e-08           3.9744e-08           
  -3.25                 -2.1486e-08           -1.834e-08            3.9754e-08           
  -3.3                  -2.1218e-08           -1.8344e-08           3.975e-08            
  -3.35                 -2.1348e-08           -1.8342e-08           3.9736e-08           
  -3.4                  -2.0886e-08           -1.8336e-08           3.9766e-08           
  -3.45                 -2.1336e-08           -1.834e-08            3.9736e-08           
  -3.5                  -2.0994e-08           -1.8334e-08           3.9762e-08           
  -3.55                 -2.0736e-08           -1.8354e-08           3.9774e-08           
  -3.6                  -2.104e-08            -1.8324e-08           3.9762e-08           
  -3.65                 -2.0842e-08           -1.8346e-08           3.9764e-08           
  -3.7                  -2.109e-08            -1.8336e-08           3.9756e-08           
  -3.75                 -2.147e-08            -1.8318e-08           3.9776e-08           
  -3.8                  -2.1254e-08           -1.8326e-08           3.9774e-08           
  -3.85                 -2.1028e-08           -1.8322e-08           3.9754e-08           
  -3.9                  -2.128e-08            -1.8316e-08           3.9782e-08           
  -3.95                 -2.1232e-08           -1.8318e-08           3.9798e-08           
  -4                    -2.172e-08            -1.8316e-08           3.9776e-08           
  -4.05                 -2.0928e-08           -1.8324e-08           3.9796e-08           
  -4.1                  -2.1114e-08           -1.831e-08            3.9782e-08           
  -4.15                 -2.1286e-08           -1.8316e-08           3.9818e-08           
  -4.2                  -2.094e-08            -1.8324e-08           3.9786e-08           
  -4.25                 -2.146e-08            -1.8296e-08           3.9816e-08           
  -4.3                  -2.128e-08            -1.8296e-08           3.9792e-08           
  -4.35                 -2.164e-08            -1.8296e-08           3.9768e-08           
  -4.4                  -2.0942e-08           -1.8286e-08           3.9786e-08           
  -4.45                 -2.1676e-08           -1.8302e-08           3.9794e-08           
  -4.5                  -2.1248e-08           -1.8288e-08           3.977e-08            
  -4.55                 -2.1342e-08           -1.8296e-08           3.9814e-08           
  -4.6                  -2.1156e-08           -1.8288e-08           3.9788e-08           
  -4.65                 -2.0922e-08           -1.8422e-08           3.9818e-08           
  -4.7                  -2.126e-08            -1.83e-08             4.0044e-08           
  -4.75                 -2.157e-08            -1.8286e-08           3.9824e-08           
  -4.8                  -2.1274e-08           -1.8282e-08           3.986e-08            
  -4.85                 -2.1824e-08           -1.8292e-08           3.9838e-08           
  -4.9                  -2.1372e-08           -1.8268e-08           3.983e-08            
  -4.95                 -2.1006e-08           -1.8274e-08           3.9846e-08           
  -5                    -2.101e-08            -1.8266e-08           3.985e-08            
END_DB

BEGIN_DB
 ICCAP_VAR vb         -0.7           
 ICCAP_VAR ve         0              

 #vc                    ic                    ib                    ie                   
  0                     7.721e-05             -7.7336e-05           1.203e-07            
  -0.05                 3.0784e-05            -3.1018e-05           2.397e-07            
  -0.1                  1.013e-05             -1.0416e-05           2.6492e-07           
  -0.15                 2.6564e-06            -2.9326e-06           2.705e-07            
  -0.2                  4.2034e-07            -6.908e-07            2.7196e-07           
  -0.25                 -4.8468e-08           -2.2354e-07           2.72e-07             
