! VERSION = 6.00
BEGIN_HEADER
 ICCAP_INPUTS
  vc         V  C GROUND SMU_C 0.1 LIN        1    0          -5         101  -0.05     
  vb         V  B GROUND SMU_B 0.01 LIN        2    -0.6       -1         9    -0.05     
  ve         V  E GROUND SMU_E 0.1 CON        0
 ICCAP_OUTPUTS
  ic         I  C GROUND SMU_C B
  ib         I  B GROUND SMU_B M
  ie         I  E GROUND SMU_E M
 ICCAP_VALUES
  TNOM "27"
  TEMP "27"
  TECHNO "SG13S"
  LOT "PQA701"
  WAFER "17"
  CHIP "d0406"
  MODULE "T323_pnpMPA"
  DEV_NAME "DUT15"
  DEV_GEOM_L "."
  DEV_GEOM_W "."
  NF_EMITTER "."
  REMARKS "pnpMPA Teststructure"
  TIMEDATE "Fri Oct 21 12:47:07     2022"
END_HEADER

BEGIN_DB
 ICCAP_VAR vb         -0.6           
 ICCAP_VAR ve         0              

 #vc                    ic                    ib                    ie                   
  0                     6.285e-06             -6.2856e-06           3.7572e-10           
  -0.05                 1.7368e-06            -1.741e-06            1.2348e-09           
  -0.1                  3.5624e-07            -3.5554e-07           1.3766e-09           
  -0.15                 6.2108e-08            -6.3134e-08           1.3952e-09           
  -0.2                  9.356e-09             -1.0096e-08           1.3974e-09           
  -0.25                 6.198e-10             -1.9946e-09           1.3986e-09           
  -0.3                  -6.708e-10            -7.0828e-10           1.398e-09            
  -0.35                 -8.32e-10             -5.1428e-10           1.3984e-09           
  -0.4                  -8.158e-10            -4.8486e-10           1.3986e-09           
  -0.45                 -8.686e-10            -4.8038e-10           1.3992e-09           
  -0.5                  -8.396e-10            -4.8056e-10           1.3992e-09           
  -0.55                 -8.782e-10            -4.7924e-10           1.4006e-09           
  -0.6                  -8.686e-10            -4.7904e-10           1.3996e-09           
  -0.65                 -8.774e-10            -4.7912e-10           1.399e-09            
  -0.7                  -8.814e-10            -4.7892e-10           1.4004e-09           
  -0.75                 -9.16e-10             -4.7876e-10           1.3994e-09           
  -0.8                  -8.286e-10            -4.7854e-10           1.3994e-09           
  -0.85                 -9.63e-10             -4.7824e-10           1.4e-09              
  -0.9                  -9.488e-10            -4.7804e-10           1.4e-09              
  -0.95                 -9.386e-10            -4.777e-10            1.3994e-09           
  -1                    -8.804e-10            -4.778e-10            1.4e-09              
  -1.05                 -8.834e-10            -4.774e-10            1.3998e-09           
  -1.1                  -8.814e-10            -4.7734e-10           1.4036e-09           
  -1.15                 -8.06e-10             -4.7726e-10           1.4004e-09           
  -1.2                  -9.126e-10            -4.7852e-10           1.4038e-09           
  -1.25                 -9.37e-10             -4.7806e-10           1.4046e-09           
  -1.3                  -9.082e-10            -4.769e-10            1.4008e-09           
  -1.35                 -9.386e-10            -4.7658e-10           1.3996e-09           
  -1.4                  -8.042e-10            -4.7664e-10           1.4002e-09           
  -1.45                 -8.25e-10             -4.7636e-10           1.4006e-09           
  -1.5                  -9.288e-10            -4.7654e-10           1.401e-09            
  -1.55                 -8.6e-10              -4.7602e-10           1.4012e-09           
  -1.6                  -8.386e-10            -4.7594e-10           1.4006e-09           
  -1.65                 -7.682e-10            -4.759e-10            1.4016e-09           
  -1.7                  -9.08e-10             -4.7564e-10           1.4006e-09           
  -1.75                 -8.916e-10            -4.7556e-10           1.401e-09            
  -1.8                  -1.0018e-09           -4.7546e-10           1.4004e-09           
  -1.85                 -8.506e-10            -4.7516e-10           1.4006e-09           
  -1.9                  -9.806e-10            -4.7508e-10           1.4016e-09           
  -1.95                 -9.922e-10            -4.7488e-10           1.4032e-09           
  -2                    -9.876e-10            -4.746e-10            1.4022e-09           
  -2.05                 -9.174e-10            -4.747e-10            1.4014e-09           
  -2.1                  -9.512e-10            -4.7436e-10           1.402e-09            
  -2.15                 -9.132e-10            -4.7396e-10           1.4006e-09           
  -2.2                  -8.936e-10            -4.7402e-10           1.4014e-09           
  -2.25                 -8.384e-10            -4.7398e-10           1.4014e-09           
  -2.3                  -8.844e-10            -4.736e-10            1.4014e-09           
  -2.35                 -8.93e-10             -4.738e-10            1.4008e-09           
  -2.4                  -8.372e-10            -4.736e-10            1.4022e-09           
  -2.45                 -7.854e-10            -4.7346e-10           1.4018e-09           
  -2.5                  -9.706e-10            -4.7322e-10           1.4014e-09           
  -2.55                 -8.546e-10            -4.7334e-10           1.4012e-09           
  -2.6                  -8.656e-10            -4.7282e-10           1.4016e-09           
  -2.65                 -7.826e-10            -4.726e-10            1.402e-09            
  -2.7                  -8.526e-10            -4.7266e-10           1.4024e-09           
  -2.75                 -1.039e-09            -4.723e-10            1.4024e-09           
  -2.8                  -9.418e-10            -4.724e-10            1.402e-09            
  -2.85                 -1.0326e-09           -4.7224e-10           1.402e-09            
  -2.9                  -8.744e-10            -4.7202e-10           1.4028e-09           
  -2.95                 -9.568e-10            -4.721e-10            1.402e-09            
  -3                    -9.686e-10            -4.7188e-10           1.4024e-09           
  -3.05                 -8.758e-10            -4.7128e-10           1.4032e-09           
  -3.1                  -9.67e-10             -4.7128e-10           1.4024e-09           
  -3.15                 -8.856e-10            -4.711e-10            1.4018e-09           
  -3.2                  -9.182e-10            -4.712e-10            1.4034e-09           
  -3.25                 -8.774e-10            -4.7104e-10           1.4032e-09           
  -3.3                  -8.374e-10            -4.7108e-10           1.404e-09            
  -3.35                 -9.354e-10            -4.711e-10            1.4036e-09           
  -3.4                  -8.546e-10            -4.732e-10            1.4052e-09           
  -3.45                 -9.568e-10            -4.7252e-10           1.408e-09            
  -3.5                  -9.9e-10              -4.7032e-10           1.4028e-09           
  -3.55                 -8.938e-10            -4.6986e-10           1.404e-09            
  -3.6                  -9.22e-10             -4.6956e-10           1.4032e-09           
  -3.65                 -9.984e-10            -4.6956e-10           1.4034e-09           
  -3.7                  -9.806e-10            -4.6946e-10           1.4036e-09           
  -3.75                 -1.0164e-09           -4.6946e-10           1.4032e-09           
  -3.8                  -9.336e-10            -4.6878e-10           1.403e-09            
  -3.85                 -1.1224e-09           -4.6872e-10           1.4032e-09           
  -3.9                  -8.758e-10            -4.6858e-10           1.4034e-09           
  -3.95                 -8.32e-10             -4.6852e-10           1.4034e-09           
  -4                    -8.964e-10            -4.6792e-10           1.404e-09            
  -4.05                 -8.738e-10            -4.682e-10            1.4034e-09           
  -4.1                  -9.336e-10            -4.6838e-10           1.4046e-09           
  -4.15                 -9.102e-10            -4.6766e-10           1.4084e-09           
  -4.2                  -9.604e-10            -4.6756e-10           1.4042e-09           
  -4.25                 -9.38e-10             -4.674e-10            1.4042e-09           
  -4.3                  -9.216e-10            -4.6704e-10           1.4048e-09           
  -4.35                 -7.524e-10            -4.6724e-10           1.404e-09            
  -4.4                  -9.76e-10             -4.6666e-10           1.404e-09            
  -4.45                 -1.0576e-09           -4.6642e-10           1.4048e-09           
  -4.5                  -9.264e-10            -4.663e-10            1.4042e-09           
  -4.55                 -9.068e-10            -4.6616e-10           1.4048e-09           
  -4.6                  -1.0284e-09           -4.659e-10            1.4048e-09           
  -4.65                 -8.546e-10            -4.6562e-10           1.4044e-09           
  -4.7                  -1.0536e-09           -4.6534e-10           1.405e-09            
  -4.75                 -9.928e-10            -4.651e-10            1.4048e-09           
  -4.8                  -8.468e-10            -4.6494e-10           1.4046e-09           
  -4.85                 -9.672e-10            -4.6466e-10           1.4042e-09           
  -4.9                  -1.0398e-09           -4.6456e-10           1.4054e-09           
  -4.95                 -9.246e-10            -4.6462e-10           1.4052e-09           
  -5                    -8.704e-10            -4.6434e-10           1.4062e-09           
END_DB

BEGIN_DB
 ICCAP_VAR vb         -0.65          
 ICCAP_VAR ve         0              

 #vc                    ic                    ib                    ie                   
  0                     1.8124e-05            -1.8086e-05           2.7466e-09           
  -0.05                 6.3574e-06            -6.3624e-06           8.3072e-09           
  -0.1                  1.706e-06             -1.7162e-06           9.3238e-09           
  -0.15                 3.5298e-07            -3.6528e-07           9.4842e-09           
  -0.2                  5.4768e-08            -6.4194e-08           9.5078e-09           
  -0.25                 2.954e-09             -1.296e-08            9.509e-09            
  -0.3                  -4.5478e-09           -4.7276e-09           9.5206e-09           
  -0.35                 -6.132e-09            -3.457e-09            9.5248e-09           
  -0.4                  -5.954e-09            -3.2626e-09           9.522e-09            
  -0.45                 -6.3384e-09           -3.2342e-09           9.522e-09            
  -0.5                  -6.2442e-09           -3.2276e-09           9.5254e-09           
  -0.55                 -6.726e-09            -3.2264e-09           9.5226e-09           
  -0.6                  -6.752e-09            -3.226e-09            9.5278e-09           
  -0.65                 -6.3018e-09           -3.2254e-09           9.5268e-09           
  -0.7                  -5.268e-09            -3.2246e-09           9.528e-09            
  -0.75                 -6.3136e-09           -3.2236e-09           9.528e-09            
  -0.8                  -5.778e-09            -3.225e-09            9.534e-09            
  -0.85                 -6.566e-09            -3.2214e-09           9.5398e-09           
  -0.9                  -6.894e-09            -3.2194e-09           9.53e-09             
  -0.95                 -6.596e-09            -3.2204e-09           9.5312e-09           
  -1                    -6.286e-09            -3.217e-09            9.5292e-09           
  -1.05                 -5.798e-09            -3.2168e-09           9.528e-09            
  -1.1                  -6.298e-09            -3.2168e-09           9.5314e-09           
  -1.15                 -6.108e-09            -3.214e-09            9.5318e-09           
  -1.2                  -6.2676e-09           -3.2124e-09           9.5356e-09           
  -1.25                 -6.318e-09            -3.2134e-09           9.5344e-09           
  -1.3                  -6.502e-09            -3.2112e-09           9.5326e-09           
  -1.35                 -6.46e-09             -3.2104e-09           9.5336e-09           
  -1.4                  -5.6e-09              -3.2102e-09           9.535e-09            
  -1.45                 -6.058e-09            -3.2092e-09           9.539e-09            
  -1.5                  -5.51e-09             -3.2104e-09           9.5362e-09           
  -1.55                 -5.56e-09             -3.2072e-09           9.5388e-09           
  -1.6                  -6.7e-09              -3.2148e-09           9.536e-09            
  -1.65                 -5.774e-09            -3.2084e-09           9.5828e-09           
  -1.7                  -5.86e-09             -3.213e-09            9.535e-09            
  -1.75                 -6.184e-09            -3.2108e-09           9.5692e-09           
  -1.8                  -5.978e-09            -3.2128e-09           9.5414e-09           
  -1.85                 -6.174e-09            -3.2018e-09           9.5794e-09           
  -1.9                  -6.364e-09            -3.2094e-09           9.5784e-09           
  -1.95                 -6.3762e-09           -3.207e-09            9.5632e-09           
  -2                    -5.896e-09            -3.2078e-09           9.5602e-09           
  -2.05                 -5.918e-09            -3.1992e-09           9.5414e-09           
  -2.1                  -5.252e-09            -3.1984e-09           9.542e-09            
  -2.15                 -6.184e-09            -3.1964e-09           9.54e-09             
  -2.2                  -5.902e-09            -3.1954e-09           9.5402e-09           
  -2.25                 -6.022e-09            -3.1944e-09           9.5382e-09           
  -2.3                  -5.488e-09            -3.1938e-09           9.5458e-09           
  -2.35                 -5.498e-09            -3.192e-09            9.5454e-09           
  -2.4                  -5.634e-09            -3.192e-09            9.5424e-09           
  -2.45                 -6.438e-09            -3.192e-09            9.5454e-09           
  -2.5                  -6.11e-09             -3.1924e-09           9.5484e-09           
  -2.55                 -6.28e-09             -3.1902e-09           9.553e-09            
  -2.6                  -5.868e-09            -3.1908e-09           9.5532e-09           
  -2.65                 -5.928e-09            -3.1928e-09           9.5518e-09           
  -2.7                  -6.2376e-09           -3.1852e-09           9.5534e-09           
  -2.75                 -6.586e-09            -3.187e-09            9.548e-09            
  -2.8                  -5.938e-09            -3.1864e-09           9.553e-09            
  -2.85                 -6.274e-09            -3.1908e-09           9.549e-09            
  -2.9                  -5.666e-09            -3.1844e-09           9.552e-09            
  -2.95                 -6.01e-09             -3.188e-09            9.5754e-09           
  -3                    -6.3196e-09           -3.1818e-09           9.5598e-09           
  -3.05                 -6.192e-09            -3.182e-09            9.5522e-09           
  -3.1                  -5.99e-09             -3.1816e-09           9.5566e-09           
  -3.15                 -6.476e-09            -3.1822e-09           9.5768e-09           
  -3.2                  -6.3434e-09           -3.1802e-09           9.5628e-09           
  -3.25                 -6.4202e-09           -3.1774e-09           9.5576e-09           
  -3.3                  -6.2824e-09           -3.1776e-09           9.558e-09            
  -3.35                 -5.26e-09             -3.1742e-09           9.562e-09            
  -3.4                  -6.09e-09             -3.1718e-09           9.5566e-09           
  -3.45                 -6.11e-09             -3.1718e-09           9.551e-09            
  -3.5                  -6.144e-09            -3.1702e-09           9.5542e-09           
  -3.55                 -6.626e-09            -3.1708e-09           9.5546e-09           
  -3.6                  -6.258e-09            -3.1684e-09           9.5622e-09           
  -3.65                 -6.308e-09            -3.1696e-09           9.5734e-09           
  -3.7                  -6.128e-09            -3.174e-09            9.5542e-09           
  -3.75                 -6.168e-09            -3.1654e-09           9.5554e-09           
  -3.8                  -5.716e-09            -3.163e-09            9.5544e-09           
  -3.85                 -6.874e-09            -3.1624e-09           9.554e-09            
  -3.9                  -6.433e-09            -3.1606e-09           9.554e-09            
  -3.95                 -5.886e-09            -3.1622e-09           9.5576e-09           
  -4                    -6.3196e-09           -3.1596e-09           9.5588e-09           
  -4.05                 -6.2886e-09           -3.157e-09            9.5664e-09           
  -4.1                  -5.888e-09            -3.1606e-09           9.5568e-09           
  -4.15                 -5.94e-09             -3.1564e-09           9.565e-09            
  -4.2                  -5.608e-09            -3.1544e-09           9.5574e-09           
  -4.25                 -6.64e-09             -3.1526e-09           9.5766e-09           
  -4.3                  -6.5008e-09           -3.1508e-09           9.5546e-09           
  -4.35                 -6.122e-09            -3.1498e-09           9.5594e-09           
  -4.4                  -6.346e-09            -3.149e-09            9.561e-09            
  -4.45                 -6.198e-09            -3.1484e-09           9.5608e-09           
  -4.5                  -6.3604e-09           -3.1466e-09           9.563e-09            
  -4.55                 -6.574e-09            -3.1464e-09           9.5666e-09           
  -4.6                  -5.632e-09            -3.1444e-09           9.5644e-09           
  -4.65                 -6.382e-09            -3.1452e-09           9.561e-09            
  -4.7                  -6.4e-09              -3.142e-09            9.5792e-09           
  -4.75                 -5.718e-09            -3.1408e-09           9.5738e-09           
  -4.8                  -5.782e-09            -3.1402e-09           9.5672e-09           
  -4.85                 -6.972e-09            -3.136e-09            9.564e-09            
  -4.9                  -6.384e-09            -3.1352e-09           9.5638e-09           
  -4.95                 -6.004e-09            -3.1334e-09           9.566e-09            
  -5                    -6.928e-09            -3.1316e-09           9.5664e-09           
END_DB

BEGIN_DB
 ICCAP_VAR vb         -0.7           
 ICCAP_VAR ve         0              

 #vc                    ic                    ib                    ie                   
  0                     4.4242e-05            -4.4288e-05           1.9946e-08           
  -0.05                 1.8274e-05            -1.8356e-05           5.4986e-08           
  -0.1                  6.2556e-06            -6.3166e-06           6.2848e-08           
  -0.15                 1.7074e-06            -1.7692e-06           6.4578e-08           
  -0.2                  3.122e-07             -3.7692e-07           6.5032e-08           
  -0.25                 1.9502e-08            -8.3852e-08           6.5012e-08           
