! VERSION = 6.00
BEGIN_HEADER
 ICCAP_INPUTS
  vc         V  C GROUND SMU_C 0.1 LIN        1    0          -5         101  -0.05     
  vb         V  B GROUND SMU_B 0.01 LIN        2    -0.6       -1         9    -0.05     
  ve         V  E GROUND SMU_E 0.1 CON        0
 ICCAP_OUTPUTS
  ic         I  C GROUND SMU_C B
  ib         I  B GROUND SMU_B M
  ie         I  E GROUND SMU_E M
 ICCAP_VALUES
  TNOM "27"
  TEMP "27"
  TECHNO "SG13S"
  LOT "PQA701"
  WAFER "17"
  CHIP "d0406"
  MODULE "T323_pnpMPA"
  DEV_NAME "DUT10"
  DEV_GEOM_L "."
  DEV_GEOM_W "."
  NF_EMITTER "."
  REMARKS "pnpMPA Teststructure"
  TIMEDATE "Fri Oct 21 12:47:07     2022"
END_HEADER

BEGIN_DB
 ICCAP_VAR vb         -0.6           
 ICCAP_VAR ve         0              

 #vc                    ic                    ib                    ie                   
  0                     8.1162e-06            -8.123e-06            1.5774e-09           
  -0.05                 2.2202e-06            -2.2274e-06           3.4116e-09           
  -0.1                  4.5122e-07            -4.534e-07            3.7146e-09           
  -0.15                 7.7612e-08            -8.0756e-08           3.7528e-09           
  -0.2                  1.0832e-08            -1.382e-08            3.7612e-09           
  -0.25                 -4.58e-11             -3.6584e-09           3.7618e-09           
  -0.3                  -1.6496e-09           -2.0494e-09           3.764e-09            
  -0.35                 -1.876e-09            -1.8094e-09           3.7642e-09           
  -0.4                  -2.0418e-09           -1.774e-09            3.7642e-09           
  -0.45                 -1.9912e-09           -1.7686e-09           3.7646e-09           
  -0.5                  -1.9156e-09           -1.7668e-09           3.7632e-09           
  -0.55                 -2.0306e-09           -1.766e-09            3.7674e-09           
  -0.6                  -2.0576e-09           -1.7664e-09           3.767e-09            
  -0.65                 -1.9436e-09           -1.7672e-09           3.7678e-09           
  -0.7                  -1.931e-09            -1.7668e-09           3.7668e-09           
  -0.75                 -2.0422e-09           -1.765e-09            3.7644e-09           
  -0.8                  -2.0102e-09           -1.764e-09            3.7648e-09           
  -0.85                 -2.0228e-09           -1.7642e-09           3.7696e-09           
  -0.9                  -1.9986e-09           -1.7632e-09           3.7646e-09           
  -0.95                 -1.9602e-09           -1.7634e-09           3.7658e-09           
  -1                    -1.9544e-09           -1.7628e-09           3.7646e-09           
  -1.05                 -1.8802e-09           -1.7644e-09           3.7662e-09           
  -1.1                  -1.8958e-09           -1.7628e-09           3.767e-09            
  -1.15                 -2.0306e-09           -1.7634e-09           3.7676e-09           
  -1.2                  -1.9954e-09           -1.7626e-09           3.7682e-09           
  -1.25                 -2.228e-09            -1.762e-09            3.766e-09            
  -1.3                  -2.006e-09            -1.7612e-09           3.7658e-09           
  -1.35                 -1.9528e-09           -1.7614e-09           3.7666e-09           
  -1.4                  -2.0238e-09           -1.7606e-09           3.7678e-09           
  -1.45                 -1.9122e-09           -1.7608e-09           3.7656e-09           
  -1.5                  -2.1422e-09           -1.7596e-09           3.7678e-09           
  -1.55                 -1.8904e-09           -1.76e-09             3.7666e-09           
  -1.6                  -1.9872e-09           -1.7596e-09           3.766e-09            
  -1.65                 -1.46e-09             -1.759e-09            3.7654e-09           
  -1.7                  -2.1342e-09           -1.7592e-09           3.7668e-09           
  -1.75                 -1.862e-09            -1.759e-09            3.7672e-09           
  -1.8                  -2.036e-09            -1.7594e-09           3.767e-09            
  -1.85                 -2.033e-09            -1.7586e-09           3.768e-09            
  -1.9                  -1.9874e-09           -1.7602e-09           3.7698e-09           
  -1.95                 -2.0912e-09           -1.759e-09            3.7706e-09           
  -2                    -2.0176e-09           -1.7596e-09           3.771e-09            
  -2.05                 -1.989e-09            -1.758e-09            3.7706e-09           
  -2.1                  -1.991e-09            -1.7584e-09           3.7712e-09           
  -2.15                 -2.0632e-09           -1.7576e-09           3.7718e-09           
  -2.2                  -2.342e-09            -1.7586e-09           3.7714e-09           
  -2.25                 -1.979e-09            -1.7578e-09           3.7692e-09           
  -2.3                  -1.9958e-09           -1.757e-09            3.7704e-09           
  -2.35                 -1.972e-09            -1.7568e-09           3.7706e-09           
  -2.4                  -2.0796e-09           -1.7568e-09           3.7712e-09           
  -2.45                 -2.0728e-09           -1.756e-09            3.7718e-09           
  -2.5                  -2.0678e-09           -1.7568e-09           3.7722e-09           
  -2.55                 -2.048e-09            -1.7556e-09           3.7728e-09           
  -2.6                  -2.1154e-09           -1.756e-09            3.7722e-09           
  -2.65                 -1.9278e-09           -1.7558e-09           3.772e-09            
  -2.7                  -2.018e-09            -1.7552e-09           3.773e-09            
  -2.75                 -2.0202e-09           -1.7542e-09           3.7718e-09           
  -2.8                  -1.8944e-09           -1.7532e-09           3.771e-09            
  -2.85                 -2.039e-09            -1.754e-09            3.771e-09            
  -2.9                  -2.057e-09            -1.7534e-09           3.7718e-09           
  -2.95                 -1.982e-09            -1.7532e-09           3.774e-09            
  -3                    -1.9918e-09           -1.7564e-09           3.7752e-09           
  -3.05                 -1.9968e-09           -1.7536e-09           3.772e-09            
  -3.1                  -2.0054e-09           -1.753e-09            3.7734e-09           
  -3.15                 -2.088e-09            -1.752e-09            3.7776e-09           
  -3.2                  -2.0534e-09           -1.7542e-09           3.7798e-09           
  -3.25                 -2.041e-09            -1.753e-09            3.7754e-09           
  -3.3                  -2.126e-09            -1.7546e-09           3.778e-09            
  -3.35                 -2.0384e-09           -1.751e-09            3.7756e-09           
  -3.4                  -2.0256e-09           -1.751e-09            3.7734e-09           
  -3.45                 -2.0828e-09           -1.7504e-09           3.774e-09            
  -3.5                  -2.0978e-09           -1.7488e-09           3.772e-09            
  -3.55                 -2.0556e-09           -1.7492e-09           3.7728e-09           
  -3.6                  -2.1198e-09           -1.7488e-09           3.7732e-09           
  -3.65                 -1.9434e-09           -1.7502e-09           3.7742e-09           
  -3.7                  -2.0446e-09           -1.748e-09            3.774e-09            
  -3.75                 -1.596e-09            -1.7496e-09           3.7746e-09           
  -3.8                  -2.0082e-09           -1.7498e-09           3.777e-09            
  -3.85                 -2.067e-09            -1.7476e-09           3.7756e-09           
  -3.9                  -2.0464e-09           -1.7476e-09           3.7744e-09           
  -3.95                 -1.9676e-09           -1.7472e-09           3.7754e-09           
  -4                    -2.081e-09            -1.7476e-09           3.7746e-09           
  -4.05                 -2.0196e-09           -1.7464e-09           3.7762e-09           
  -4.1                  -2.0728e-09           -1.7472e-09           3.774e-09            
  -4.15                 -2.026e-09            -1.7458e-09           3.7754e-09           
  -4.2                  -2.0392e-09           -1.745e-09            3.7764e-09           
  -4.25                 -2.0618e-09           -1.745e-09            3.778e-09            
  -4.3                  -2.0312e-09           -1.7458e-09           3.7752e-09           
  -4.35                 -1.9732e-09           -1.7446e-09           3.7748e-09           
  -4.4                  -2.0862e-09           -1.744e-09            3.775e-09            
  -4.45                 -1.8294e-09           -1.7452e-09           3.777e-09            
  -4.5                  -2.1014e-09           -1.7438e-09           3.777e-09            
  -4.55                 -2.0646e-09           -1.7446e-09           3.7778e-09           
  -4.6                  -2.102e-09            -1.7432e-09           3.78e-09             
  -4.65                 -1.96e-09             -1.7436e-09           3.7778e-09           
  -4.7                  -1.9776e-09           -1.743e-09            3.7776e-09           
  -4.75                 -2.0532e-09           -1.742e-09            3.7768e-09           
  -4.8                  -2.1074e-09           -1.7416e-09           3.779e-09            
  -4.85                 -2.02e-09             -1.7404e-09           3.7786e-09           
  -4.9                  -1.9468e-09           -1.741e-09            3.7772e-09           
  -4.95                 -1.414e-09            -1.7404e-09           3.7792e-09           
  -5                    -1.9796e-09           -1.7396e-09           3.7782e-09           
END_DB

BEGIN_DB
 ICCAP_VAR vb         -0.65          
 ICCAP_VAR ve         0              

 #vc                    ic                    ib                    ie                   
  0                     2.3818e-05            -2.384e-05            1.10608e-08          
  -0.05                 8.2142e-06            -8.2398e-06           2.3086e-08           
  -0.1                  2.1838e-06            -2.2014e-06           2.5272e-08           
  -0.15                 4.5222e-07            -4.7188e-07           2.5658e-08           
  -0.2                  6.3768e-08            -8.8992e-08           2.5694e-08           
  -0.25                 -1.308e-09            -2.4416e-08           2.572e-08            
  -0.3                  -1.1418e-08           -1.3888e-08           2.5706e-08           
  -0.35                 -1.3316e-08           -1.2324e-08           2.5702e-08           
  -0.4                  -1.3206e-08           -1.2076e-08           2.571e-08            
  -0.45                 -1.3356e-08           -1.2038e-08           2.5712e-08           
  -0.5                  -1.37e-08             -1.205e-08            2.572e-08            
  -0.55                 -1.329e-08            -1.2036e-08           2.5724e-08           
  -0.6                  -1.316e-08            -1.2036e-08           2.5728e-08           
  -0.65                 -1.2814e-08           -1.2032e-08           2.571e-08            
  -0.7                  -1.3206e-08           -1.2034e-08           2.5728e-08           
  -0.75                 -1.3214e-08           -1.2044e-08           2.574e-08            
  -0.8                  -1.3058e-08           -1.2032e-08           2.573e-08            
  -0.85                 -1.3276e-08           -1.2026e-08           2.575e-08            
  -0.9                  -1.324e-08            -1.2038e-08           2.5738e-08           
  -0.95                 -1.3006e-08           -1.2026e-08           2.5734e-08           
  -1                    -1.3596e-08           -1.2016e-08           2.575e-08            
  -1.05                 -1.347e-08            -1.203e-08            2.5744e-08           
  -1.1                  -1.3006e-08           -1.2018e-08           2.5742e-08           
  -1.15                 -1.3008e-08           -1.2016e-08           2.5732e-08           
  -1.2                  -1.3762e-08           -1.2008e-08           2.5756e-08           
  -1.25                 -1.2802e-08           -1.2012e-08           2.5738e-08           
  -1.3                  -1.3534e-08           -1.201e-08            2.5732e-08           
  -1.35                 -1.3518e-08           -1.2004e-08           2.574e-08            
  -1.4                  -1.3026e-08           -1.2006e-08           2.5756e-08           
  -1.45                 -1.372e-08            -1.2004e-08           2.5728e-08           
  -1.5                  -1.3334e-08           -1.1996e-08           2.575e-08            
  -1.55                 -1.3678e-08           -1.2e-08              2.5736e-08           
  -1.6                  -1.3732e-08           -1.2e-08              2.575e-08            
  -1.65                 -1.3636e-08           -1.1996e-08           2.5752e-08           
  -1.7                  -1.3466e-08           -1.1986e-08           2.5756e-08           
  -1.75                 -1.3132e-08           -1.2e-08              2.5742e-08           
  -1.8                  -1.3038e-08           -1.1988e-08           2.5742e-08           
  -1.85                 -1.329e-08            -1.1986e-08           2.5764e-08           
  -1.9                  -1.3894e-08           -1.1994e-08           2.575e-08            
  -1.95                 -1.3544e-08           -1.2002e-08           2.5748e-08           
  -2                    -1.3288e-08           -1.1986e-08           2.5784e-08           
  -2.05                 -1.3446e-08           -1.2014e-08           2.5792e-08           
  -2.1                  -1.3798e-08           -1.1994e-08           2.5774e-08           
  -2.15                 -1.3722e-08           -1.198e-08            2.5804e-08           
  -2.2                  -1.3732e-08           -1.1978e-08           2.576e-08            
  -2.25                 -1.3312e-08           -1.198e-08            2.5766e-08           
  -2.3                  -1.3694e-08           -1.1978e-08           2.5754e-08           
  -2.35                 -1.3366e-08           -1.1972e-08           2.5778e-08           
  -2.4                  -1.357e-08            -1.1972e-08           2.5774e-08           
  -2.45                 -1.3282e-08           -1.1972e-08           2.5764e-08           
  -2.5                  -1.379e-08            -1.1964e-08           2.5762e-08           
  -2.55                 -1.343e-08            -1.197e-08            2.5768e-08           
  -2.6                  -1.3034e-08           -1.196e-08            2.5768e-08           
  -2.65                 -1.2956e-08           -1.1966e-08           2.5764e-08           
  -2.7                  -1.3784e-08           -1.1962e-08           2.5758e-08           
  -2.75                 -1.3464e-08           -1.1966e-08           2.578e-08            
  -2.8                  -1.2914e-08           -1.1976e-08           2.5798e-08           
  -2.85                 -1.3764e-08           -1.1962e-08           2.5792e-08           
  -2.9                  -1.3172e-08           -1.1952e-08           2.5758e-08           
  -2.95                 -1.4008e-08           -1.195e-08            2.5788e-08           
  -3                    -1.3738e-08           -1.1948e-08           2.5772e-08           
  -3.05                 -1.3496e-08           -1.1952e-08           2.577e-08            
  -3.1                  -1.3642e-08           -1.1946e-08           2.5778e-08           
  -3.15                 -1.4224e-08           -1.195e-08            2.5792e-08           
  -3.2                  -1.4096e-08           -1.195e-08            2.5784e-08           
  -3.25                 -1.3476e-08           -1.1946e-08           2.5774e-08           
  -3.3                  -1.4168e-08           -1.1938e-08           2.579e-08            
  -3.35                 -1.354e-08            -1.1942e-08           2.5802e-08           
  -3.4                  -1.3666e-08           -1.1936e-08           2.5798e-08           
  -3.45                 -1.316e-08            -1.1934e-08           2.5774e-08           
  -3.5                  -1.3892e-08           -1.1934e-08           2.5792e-08           
  -3.55                 -1.3274e-08           -1.1928e-08           2.5788e-08           
  -3.6                  -1.393e-08            -1.193e-08            2.5802e-08           
  -3.65                 -1.3806e-08           -1.193e-08            2.5776e-08           
  -3.7                  -1.3586e-08           -1.1918e-08           2.5778e-08           
  -3.75                 -1.3098e-08           -1.1922e-08           2.5794e-08           
  -3.8                  -1.3504e-08           -1.192e-08            2.579e-08            
  -3.85                 -1.3996e-08           -1.1914e-08           2.581e-08            
  -3.9                  -1.3312e-08           -1.192e-08            2.5806e-08           
  -3.95                 -1.4084e-08           -1.192e-08            2.5798e-08           
  -4                    -1.3494e-08           -1.1904e-08           2.5802e-08           
  -4.05                 -1.3522e-08           -1.1914e-08           2.5802e-08           
  -4.1                  -1.3746e-08           -1.191e-08            2.5776e-08           
  -4.15                 -1.4024e-08           -1.191e-08            2.58e-08             
  -4.2                  -1.2932e-08           -1.1908e-08           2.5808e-08           
  -4.25                 -1.3498e-08           -1.1908e-08           2.5792e-08           
  -4.3                  -1.3488e-08           -1.1894e-08           2.5836e-08           
  -4.35                 -1.3264e-08           -1.1904e-08           2.5804e-08           
  -4.4                  -1.3588e-08           -1.1896e-08           2.5788e-08           
  -4.45                 -1.4256e-08           -1.1896e-08           2.5796e-08           
  -4.5                  -1.3114e-08           -1.1888e-08           2.5808e-08           
  -4.55                 -1.4226e-08           -1.1888e-08           2.5814e-08           
  -4.6                  -1.4524e-08           -1.1884e-08           2.5788e-08           
  -4.65                 -1.3524e-08           -1.1884e-08           2.5812e-08           
  -4.7                  -1.3596e-08           -1.1868e-08           2.5782e-08           
  -4.75                 -1.4054e-08           -1.1882e-08           2.5814e-08           
  -4.8                  -1.3922e-08           -1.1874e-08           2.582e-08            
  -4.85                 -1.4132e-08           -1.1878e-08           2.5826e-08           
  -4.9                  -1.3452e-08           -1.1872e-08           2.5802e-08           
  -4.95                 -1.3982e-08           -1.1872e-08           2.582e-08            
  -5                    -1.4698e-08           -1.1866e-08           2.582e-08            
END_DB

BEGIN_DB
 ICCAP_VAR vb         -0.7           
 ICCAP_VAR ve         0              

 #vc                    ic                    ib                    ie                   
  0                     5.9374e-05            -5.9448e-05           7.6256e-08           
  -0.05                 2.4046e-05            -2.4216e-05           1.5308e-07           
  -0.1                  8.0524e-06            -8.2326e-06           1.706e-07            
  -0.15                 2.137e-06             -2.3206e-06           1.7472e-07           
  -0.2                  3.6204e-07            -5.3444e-07           1.7568e-07           
  -0.25                 -1.491e-08            -1.6048e-07           1.7578e-07           
