! VERSION = 6.00
BEGIN_HEADER
 ICCAP_INPUTS
  vc         V  C GROUND SMU_C 0.1 LIN        1    0          -5         101  -0.05     
  vb         V  B GROUND SMU_B 0.01 LIN        2    -0.6       -1         9    -0.05     
  ve         V  E GROUND SMU_E 0.1 CON        0
 ICCAP_OUTPUTS
  ic         I  C GROUND SMU_C B
  ib         I  B GROUND SMU_B M
  ie         I  E GROUND SMU_E M
 ICCAP_VALUES
  TNOM "27"
  TEMP "27"
  TECHNO "SG13S"
  LOT "PQA701"
  WAFER "17"
  CHIP "d0406"
  MODULE "T323_pnpMPA"
  DEV_NAME "DUT2"
  DEV_GEOM_L "."
  DEV_GEOM_W "."
  NF_EMITTER "."
  REMARKS "pnpMPA Teststructure"
  TIMEDATE "Fri Oct 21 12:47:07     2022"
END_HEADER

BEGIN_DB
 ICCAP_VAR vb         -0.6           
 ICCAP_VAR ve         0              

 #vc                    ic                    ib                    ie                   
  0                     1.6928e-05            -1.6936e-05           1.072e-08            
  -0.05                 4.6296e-06            -4.6532e-06           2.1e-08              
  -0.1                  9.2762e-07            -9.4914e-07           2.2632e-08           
  -0.15                 1.5182e-07            -1.7244e-07           2.2854e-08           
  -0.2                  1.2776e-08            -3.5738e-08           2.2906e-08           
  -0.25                 -8.366e-09            -1.4972e-08           2.288e-08            
  -0.3                  -1.1018e-08           -1.1788e-08           2.289e-08            
  -0.35                 -1.0882e-08           -1.1362e-08           2.2898e-08           
  -0.4                  -1.1134e-08           -1.1258e-08           2.2904e-08           
  -0.45                 -1.1068e-08           -1.1236e-08           2.2896e-08           
  -0.5                  -1.1582e-08           -1.1238e-08           2.2908e-08           
  -0.55                 -1.1506e-08           -1.1232e-08           2.289e-08            
  -0.6                  -1.148e-08            -1.1234e-08           2.2898e-08           
  -0.65                 -1.1656e-08           -1.1244e-08           2.2892e-08           
  -0.7                  -1.1358e-08           -1.1232e-08           2.29e-08             
  -0.75                 -1.1328e-08           -1.1234e-08           2.29e-08             
  -0.8                  -1.155e-08            -1.1226e-08           2.2884e-08           
  -0.85                 -1.1248e-08           -1.1232e-08           2.292e-08            
  -0.9                  -1.144e-08            -1.1226e-08           2.2904e-08           
  -0.95                 -1.106e-08            -1.1224e-08           2.2922e-08           
  -1                    -1.1274e-08           -1.1222e-08           2.2914e-08           
  -1.05                 -1.1256e-08           -1.1216e-08           2.2926e-08           
  -1.1                  -1.167e-08            -1.1224e-08           2.2914e-08           
  -1.15                 -1.1634e-08           -1.1228e-08           2.2924e-08           
  -1.2                  -1.135e-08            -1.1218e-08           2.2904e-08           
  -1.25                 -1.218e-08            -1.1208e-08           2.2914e-08           
  -1.3                  -1.1598e-08           -1.1224e-08           2.2916e-08           
  -1.35                 -1.1074e-08           -1.122e-08            2.2904e-08           
  -1.4                  -1.0714e-08           -1.1208e-08           2.2922e-08           
  -1.45                 -1.0934e-08           -1.1244e-08           2.2922e-08           
  -1.5                  -1.1822e-08           -1.1242e-08           2.307e-08            
  -1.55                 -1.1794e-08           -1.1216e-08           2.3092e-08           
  -1.6                  -1.154e-08            -1.124e-08            2.3006e-08           
  -1.65                 -1.2078e-08           -1.124e-08            2.2988e-08           
  -1.7                  -1.1502e-08           -1.1216e-08           2.2978e-08           
  -1.75                 -1.1914e-08           -1.1234e-08           2.3e-08              
  -1.8                  -1.0432e-08           -1.122e-08            2.2994e-08           
  -1.85                 -1.1336e-08           -1.121e-08            2.2954e-08           
  -1.9                  -1.2004e-08           -1.1214e-08           2.2946e-08           
  -1.95                 -1.1464e-08           -1.1216e-08           2.2926e-08           
  -2                    -1.1474e-08           -1.123e-08            2.2954e-08           
  -2.05                 -1.1368e-08           -1.1216e-08           2.2954e-08           
  -2.1                  -1.1812e-08           -1.1208e-08           2.2946e-08           
  -2.15                 -1.1242e-08           -1.1208e-08           2.2942e-08           
  -2.2                  -1.1858e-08           -1.1208e-08           2.2972e-08           
  -2.25                 -1.1884e-08           -1.1208e-08           2.2916e-08           
  -2.3                  -1.1116e-08           -1.1212e-08           2.295e-08            
  -2.35                 -1.1172e-08           -1.12e-08             2.2944e-08           
  -2.4                  -1.1506e-08           -1.12e-08             2.2924e-08           
  -2.45                 -1.1094e-08           -1.12e-08             2.292e-08            
  -2.5                  -1.1502e-08           -1.1198e-08           2.2954e-08           
  -2.55                 -1.1708e-08           -1.119e-08            2.2944e-08           
  -2.6                  -1.1252e-08           -1.1192e-08           2.2932e-08           
  -2.65                 -1.0976e-08           -1.1184e-08           2.2926e-08           
  -2.7                  -1.1932e-08           -1.1188e-08           2.294e-08            
  -2.75                 -1.1464e-08           -1.1186e-08           2.293e-08            
  -2.8                  -1.1884e-08           -1.1178e-08           2.2938e-08           
  -2.85                 -1.1232e-08           -1.1186e-08           2.2942e-08           
  -2.9                  -1.1258e-08           -1.1182e-08           2.2944e-08           
  -2.95                 -1.125e-08            -1.118e-08            2.2948e-08           
  -3                    -1.149e-08            -1.118e-08            2.2938e-08           
  -3.05                 -1.1852e-08           -1.1186e-08           2.2932e-08           
  -3.1                  -1.1774e-08           -1.1182e-08           2.2958e-08           
  -3.15                 -1.1122e-08           -1.1182e-08           2.2958e-08           
  -3.2                  -1.1902e-08           -1.1182e-08           2.2944e-08           
  -3.25                 -1.0654e-08           -1.1172e-08           2.2952e-08           
  -3.3                  -1.1674e-08           -1.1182e-08           2.2952e-08           
  -3.35                 -1.1346e-08           -1.1168e-08           2.2942e-08           
  -3.4                  -1.1726e-08           -1.1174e-08           2.295e-08            
  -3.45                 -1.1422e-08           -1.1162e-08           2.2974e-08           
  -3.5                  -1.1646e-08           -1.1174e-08           2.2962e-08           
  -3.55                 -1.1372e-08           -1.1172e-08           2.2938e-08           
  -3.6                  -1.2064e-08           -1.1172e-08           2.2948e-08           
  -3.65                 -1.1726e-08           -1.1168e-08           2.2956e-08           
  -3.7                  -1.1222e-08           -1.1168e-08           2.295e-08            
  -3.75                 -1.1102e-08           -1.1158e-08           2.296e-08            
  -3.8                  -1.1508e-08           -1.1166e-08           2.2952e-08           
  -3.85                 -1.0786e-08           -1.1158e-08           2.2936e-08           
  -3.9                  -1.1428e-08           -1.1156e-08           2.2958e-08           
  -3.95                 -1.1568e-08           -1.1168e-08           2.297e-08            
  -4                    -1.1318e-08           -1.1156e-08           2.2954e-08           
  -4.05                 -1.0878e-08           -1.1166e-08           2.295e-08            
  -4.1                  -1.1384e-08           -1.1166e-08           2.2946e-08           
  -4.15                 -1.1378e-08           -1.115e-08            2.2958e-08           
  -4.2                  -1.1958e-08           -1.1162e-08           2.2966e-08           
  -4.25                 -1.1264e-08           -1.1162e-08           2.2948e-08           
  -4.3                  -1.1154e-08           -1.115e-08            2.2972e-08           
  -4.35                 -1.1274e-08           -1.1152e-08           2.2972e-08           
  -4.4                  -1.1528e-08           -1.1188e-08           2.299e-08            
  -4.45                 -1.1178e-08           -1.1154e-08           2.2966e-08           
  -4.5                  -1.1326e-08           -1.1144e-08           2.2946e-08           
  -4.55                 -1.1692e-08           -1.115e-08            2.297e-08            
  -4.6                  -1.1624e-08           -1.1144e-08           2.298e-08            
  -4.65                 -1.1242e-08           -1.1148e-08           2.2958e-08           
  -4.7                  -1.2304e-08           -1.114e-08            2.2954e-08           
  -4.75                 -1.1572e-08           -1.1144e-08           2.2978e-08           
  -4.8                  -1.151e-08            -1.1148e-08           2.2962e-08           
  -4.85                 -1.159e-08            -1.113e-08            2.2966e-08           
  -4.9                  -1.1812e-08           -1.1132e-08           2.2978e-08           
  -4.95                 -1.1632e-08           -1.1136e-08           2.2984e-08           
  -5                    -1.2072e-08           -1.1134e-08           2.2966e-08           
END_DB

BEGIN_DB
 ICCAP_VAR vb         -0.65          
 ICCAP_VAR ve         0              

 #vc                    ic                    ib                    ie                   
  0                     5.0374e-05            -5.0442e-05           7.4638e-08           
  -0.05                 1.7138e-05            -1.7254e-05           1.4244e-07           
  -0.1                  4.4904e-06            -4.6464e-06           1.5434e-07           
  -0.15                 8.802e-07             -1.0364e-06           1.5624e-07           
  -0.2                  7.8702e-08            -2.3492e-07           1.5656e-07           
  -0.25                 -5.4352e-08           -1.0136e-07           1.5638e-07           
  -0.3                  -7.5252e-08           -8.0252e-08           1.5658e-07           
  -0.35                 -7.8588e-08           -7.708e-08            1.5648e-07           
  -0.4                  -8.0328e-08           -7.6686e-08           1.566e-07            
  -0.45                 -7.9494e-08           -7.6542e-08           1.5632e-07           
  -0.5                  -8.017e-08            -7.6538e-08           1.5652e-07           
  -0.55                 -7.9246e-08           -7.6566e-08           1.5656e-07           
  -0.6                  -7.9758e-08           -7.651e-08            1.5634e-07           
  -0.65                 -7.979e-08            -7.6494e-08           1.567e-07            
  -0.7                  -7.9722e-08           -7.653e-08            1.5658e-07           
  -0.75                 -8.002e-08            -7.6462e-08           1.5636e-07           
  -0.8                  -7.985e-08            -7.6548e-08           1.5676e-07           
  -0.85                 -8.0116e-08           -7.6504e-08           1.5652e-07           
  -0.9                  -8.0058e-08           -7.6444e-08           1.5644e-07           
  -0.95                 -8.0086e-08           -7.6578e-08           1.5682e-07           
  -1                    -7.9378e-08           -7.6446e-08           1.5656e-07           
  -1.05                 -7.9712e-08           -7.6458e-08           1.5644e-07           
  -1.1                  -7.954e-08            -7.6482e-08           1.5678e-07           
  -1.15                 -8.0104e-08           -7.6402e-08           1.5642e-07           
  -1.2                  -7.992e-08            -7.6664e-08           1.5666e-07           
  -1.25                 -7.9582e-08           -7.6442e-08           1.5666e-07           
  -1.3                  -7.953e-08            -7.639e-08            1.5646e-07           
  -1.35                 -7.984e-08            -7.6332e-08           1.5662e-07           
  -1.4                  -7.9294e-08           -7.6428e-08           1.567e-07            
  -1.45                 -7.9866e-08           -7.6384e-08           1.5646e-07           
  -1.5                  -7.9598e-08           -7.6322e-08           1.5668e-07           
  -1.55                 -7.9634e-08           -7.6384e-08           1.5664e-07           
  -1.6                  -7.9318e-08           -7.6322e-08           1.5644e-07           
  -1.65                 -7.9738e-08           -7.6338e-08           1.5678e-07           
  -1.7                  -7.9938e-08           -7.6438e-08           1.568e-07            
  -1.75                 -8.0492e-08           -7.637e-08            1.5678e-07           
  -1.8                  -8.0684e-08           -7.652e-08            1.5718e-07           
  -1.85                 -8.0652e-08           -7.6636e-08           1.5728e-07           
  -1.9                  -8.025e-08            -7.658e-08            1.5716e-07           
  -1.95                 -8.0198e-08           -7.6608e-08           1.574e-07            
  -2                    -8.0784e-08           -7.6588e-08           1.5726e-07           
  -2.05                 -8.0316e-08           -7.6256e-08           1.5684e-07           
  -2.1                  -7.991e-08            -7.6344e-08           1.5678e-07           
  -2.15                 -8.0236e-08           -7.63e-08             1.5672e-07           
  -2.2                  -7.9824e-08           -7.6236e-08           1.5666e-07           
  -2.25                 -7.987e-08            -7.628e-08            1.5682e-07           
  -2.3                  -7.963e-08            -7.6308e-08           1.5664e-07           
  -2.35                 -8.037e-08            -7.6232e-08           1.5672e-07           
  -2.4                  -7.9958e-08           -7.6286e-08           1.5686e-07           
  -2.45                 -8.016e-08            -7.6258e-08           1.5666e-07           
  -2.5                  -8.0728e-08           -7.6232e-08           1.568e-07            
  -2.55                 -8.021e-08            -7.6238e-08           1.5686e-07           
  -2.6                  -8.0202e-08           -7.62e-08             1.5656e-07           
  -2.65                 -8.023e-08            -7.6216e-08           1.5686e-07           
  -2.7                  -8.0326e-08           -7.624e-08            1.5674e-07           
  -2.75                 -8.0348e-08           -7.6186e-08           1.5678e-07           
  -2.8                  -7.9842e-08           -7.6214e-08           1.5688e-07           
  -2.85                 -7.968e-08            -7.6196e-08           1.5698e-07           
  -2.9                  -8.0368e-08           -7.6218e-08           1.5674e-07           
  -2.95                 -8.007e-08            -7.6216e-08           1.57e-07             
  -3                    -8.0304e-08           -7.621e-08            1.5676e-07           
  -3.05                 -7.9672e-08           -7.6132e-08           1.568e-07            
  -3.1                  -8.0334e-08           -7.6164e-08           1.5682e-07           
  -3.15                 -8.0298e-08           -7.6178e-08           1.568e-07            
  -3.2                  -8.0226e-08           -7.6122e-08           1.5682e-07           
  -3.25                 -7.977e-08            -7.6156e-08           1.569e-07            
  -3.3                  -8.0366e-08           -7.6144e-08           1.5674e-07           
  -3.35                 -8.0308e-08           -7.613e-08            1.5682e-07           
  -3.4                  -8.029e-08            -7.6088e-08           1.5698e-07           
  -3.45                 -8.0488e-08           -7.6096e-08           1.5694e-07           
  -3.5                  -8.0246e-08           -7.624e-08            1.5678e-07           
  -3.55                 -8.0714e-08           -7.607e-08            1.5686e-07           
  -3.6                  -8.0256e-08           -7.6086e-08           1.569e-07            
  -3.65                 -8.0792e-08           -7.6108e-08           1.5678e-07           
  -3.7                  -8.03e-08             -7.6068e-08           1.5684e-07           
  -3.75                 -8.0812e-08           -7.6044e-08           1.5698e-07           
  -3.8                  -8.0536e-08           -7.6118e-08           1.5682e-07           
  -3.85                 -8.0632e-08           -7.6008e-08           1.5698e-07           
  -3.9                  -7.9876e-08           -7.605e-08            1.5698e-07           
  -3.95                 -8.061e-08            -7.5988e-08           1.568e-07            
  -4                    -8.025e-08            -7.5996e-08           1.5692e-07           
  -4.05                 -8.1e-08              -7.6018e-08           1.57e-07             
  -4.1                  -8.0348e-08           -7.5976e-08           1.567e-07            
  -4.15                 -8.0146e-08           -7.598e-08            1.5694e-07           
  -4.2                  -8.106e-08            -7.6016e-08           1.57e-07             
  -4.25                 -8.141e-08            -7.5962e-08           1.5678e-07           
  -4.3                  -8.0696e-08           -7.6008e-08           1.5706e-07           
  -4.35                 -8.0186e-08           -7.5998e-08           1.5698e-07           
  -4.4                  -8.0904e-08           -7.5976e-08           1.568e-07            
  -4.45                 -8.0978e-08           -7.5928e-08           1.5712e-07           
  -4.5                  -8.0932e-08           -7.5988e-08           1.5698e-07           
  -4.55                 -8.046e-08            -7.5884e-08           1.5692e-07           
  -4.6                  -8.0348e-08           -7.5906e-08           1.57e-07             
  -4.65                 -8.1004e-08           -7.5922e-08           1.5696e-07           
  -4.7                  -8.0172e-08           -7.5886e-08           1.5678e-07           
  -4.75                 -8.0746e-08           -7.587e-08            1.571e-07            
  -4.8                  -8.063e-08            -7.5898e-08           1.5702e-07           
  -4.85                 -8.0708e-08           -7.583e-08            1.568e-07            
  -4.9                  -8.04e-08             -7.5826e-08           1.5708e-07           
  -4.95                 -8.0906e-08           -7.582e-08            1.5696e-07           
  -5                    -8.0846e-08           -7.5818e-08           1.5692e-07           
END_DB

BEGIN_DB
 ICCAP_VAR vb         -0.7           
 ICCAP_VAR ve         0              

 #vc                    ic                    ib                    ie                   
  0                     0.00012758            -0.00012788           5.1934e-07           
  -0.05                 5.0708e-05            -5.1648e-05           9.567e-07            
  -0.1                  1.6552e-05            -1.7594e-05           1.04676e-06          
  -0.15                 4.157e-06             -5.232e-06            1.06546e-06          
  -0.2                  4.0984e-07            -1.482e-06            1.06996e-06          
  -0.25                 -3.7856e-07           -6.8716e-07           1.0719e-06           
