! VERSION = 6.00
BEGIN_HEADER
 ICCAP_INPUTS
  ve         V  E GROUND SMU_E 0.1 LIN        2    -1         -2         2    -1        
  vc         V  C GROUND SMU_C 0.1 CON        0
  vb         V  B GROUND SMU_B 0.01 LIN        1    0          -1         51   -0.02     
 ICCAP_OUTPUTS
  ic         I  C GROUND SMU_C M
  ib         I  B GROUND SMU_B B
  ie         I  E GROUND SMU_E M
 ICCAP_VALUES
  TNOM "27"
  TEMP "27"
  TECHNO "SG13S"
  LOT "PQA701"
  WAFER "17"
  CHIP "d0406"
  MODULE "T323_pnpMPA"
  DEV_NAME "DUT5"
  DEV_GEOM_L "."
  DEV_GEOM_W "."
  NF_EMITTER "."
  REMARKS "pnpMPA Teststructure"
  TIMEDATE "Fri Oct 21 12:47:07     2022"
END_HEADER

BEGIN_DB
 ICCAP_VAR ve         -1             
 ICCAP_VAR vc         0              

 #vb                    ic                    ib                    ie                   
  0                     4.4348e-09            2.08e-12              4e-14                
  -0.02                 3.9264e-09            2.18e-12              8e-14                
  -0.04                 3.5202e-09            2.14e-12              6e-14                
  -0.06                 3.287e-09             2.12e-12              4e-14                
  -0.08                 2.9984e-09            2.02e-12              -2e-14               
  -0.1                  3.0294e-09            1.9e-12               0                    
  -0.12                 2.7208e-09            1.52e-12              8e-14                
  -0.14                 2.6604e-09            9.6e-13               0                    
  -0.16                 2.4716e-09            -3.2e-13              2e-14                
  -0.18                 2.4984e-09            -3e-12                0                    
  -0.2                  2.2534e-09            -8.72e-12             4e-14                
  -0.22                 2.1914e-09            -2.118e-11            4e-14                
  -0.24                 2.0752e-09            -4.766e-11            4e-14                
  -0.26                 2.1356e-09            -1.0436e-10           2e-14                
  -0.28                 2.0686e-09            -2.2668e-10           -2e-14               
  -0.3                  2.2358e-09            -4.8774e-10           -1.4e-13             
  -0.32                 2.6042e-09            -1.05242e-09          -1.2e-13             
  -0.34                 3.6496e-09            -2.2564e-09           -2.6e-13             
  -0.36                 6.15e-09              -4.756e-09            -8.2e-13             
  -0.38                 1.201e-08             -1.0175e-08           -1.66e-12            
  -0.4                  2.304e-08             -2.1608e-08           -3.64e-12            
  -0.42                 4.7328e-08            -4.5748e-08           -8.08e-12            
  -0.44                 9.8068e-08            -9.6672e-08           -1.742e-11           
  -0.46                 2.0156e-07            -1.9966e-07           -4.216e-11           
  -0.48                 4.1408e-07            -4.0942e-07           -8.052e-11           
  -0.5                  8.25e-07              -8.238e-07            -1.7448e-10          
  -0.52                 1.5988e-06            -1.5998e-06           -4.1682e-10          
  -0.54                 2.9894e-06            -2.9872e-06           -8.103e-10           
  -0.56                 5.3144e-06            -5.3162e-06           -1.763e-09           
  -0.58                 9.0422e-06            -9.0442e-06           -3.7624e-09          
  -0.6                  1.4774e-05            -1.4772e-05           -8.4654e-09          
  -0.62                 2.3156e-05            -2.314e-05            -1.6782e-08          
  -0.64                 3.5214e-05            -3.5192e-05           -3.5026e-08          
  -0.66                 5.2138e-05            -5.2042e-05           -7.2376e-08          
  -0.68                 7.5056e-05            -7.4888e-05           -1.4666e-07          
  -0.7                  0.000105684           -0.0001054            -2.9232e-07          
  -0.72                 0.00014516            -0.00014468           -5.7412e-07          
  -0.74                 0.00019554            -0.00019448           -1.0682e-06          
  -0.76                 0.00025824            -0.00025618           -1.9512e-06          
  -0.78                 0.00033398            -0.00033058           -3.4222e-06          
  -0.8                  0.00042474            -0.00041898           -5.7828e-06          
  -0.82                 0.00053058            -0.00052128           -9.3492e-06          
  -0.84                 0.00065238            -0.000638             -1.4476e-05          
  -0.86                 0.00079074            -0.00076924           -2.1554e-05          
  -0.88                 0.0009449             -0.00091458           -3.076e-05           
  -0.9                  0.00111638            -0.0010739            -4.2464e-05          
  -0.92                 0.001302              -0.0012458            -5.6522e-05          
  -0.94                 0.0015022             -0.00143              -7.3108e-05          
  -0.96                 0.0017178             -0.0016252            -9.194e-05           
  -0.98                 0.0019456             -0.0018324            -0.000113078         
  -1                    0.0021886             -0.0020532            -0.00013624          
END_DB

BEGIN_DB
 ICCAP_VAR ve         -2             
 ICCAP_VAR vc         0              

 #vb                    ic                    ib                    ie                   
  0                     6.018e-10             2.16e-12              -2e-14               
  -0.02                 5.458e-10             2.06e-12              1.4e-13              
  -0.04                 3.704e-10             2.08e-12              6e-14                
  -0.06                 4.186e-10             2.06e-12              -4e-14               
  -0.08                 3.678e-10             2e-12                 2e-14                
  -0.1                  3.506e-10             1.92e-12              2e-14                
  -0.12                 4.502e-10             1.64e-12              2e-14                
  -0.14                 3.576e-10             1.06e-12              0                    
  -0.16                 4.632e-10             -2.6e-13              -2e-14               
  -0.18                 2.666e-10             -2.98e-12             0                    
  -0.2                  3.672e-10             -8.72e-12             8e-14                
  -0.22                 3.08e-10              -2.11e-11             -2e-14               
  -0.24                 3.46e-10              -4.756e-11            2e-14                
  -0.26                 4.462e-10             -1.0422e-10           0                    
  -0.28                 6.052e-10             -2.2664e-10           0                    
  -0.3                  7.65e-10              -4.879e-10            -1.2e-13             
  -0.32                 1.2286e-09            -1.05258e-09          -2e-13               
  -0.34                 2.4778e-09            -2.253e-09            -3.2e-13             
  -0.36                 5.1312e-09            -4.8184e-09           -6.6e-13             
  -0.38                 1.0954e-08            -1.0168e-08           -1.78e-12            
  -0.4                  2.2252e-08            -2.1598e-08           -3.76e-12            
  -0.42                 4.63e-08              -4.5748e-08           -8.26e-12            
  -0.44                 9.6948e-08            -9.664e-08            -1.794e-11           
  -0.46                 2.002e-07             -1.9904e-07           -4.338e-11           
  -0.48                 4.095e-07             -4.1048e-07           -8.272e-11           
  -0.5                  8.2792e-07            -8.245e-07            -1.7924e-10          
  -0.52                 1.6042e-06            -1.6026e-06           -4.2768e-10          
  -0.54                 2.9928e-06            -2.99e-06             -8.3216e-10          
  -0.56                 5.3116e-06            -5.3168e-06           -1.812e-09           
  -0.58                 9.0446e-06            -9.0482e-06           -3.8648e-09          
  -0.6                  1.4796e-05            -1.477e-05            -8.7042e-09          
  -0.62                 2.3148e-05            -2.3146e-05           -1.722e-08           
  -0.64                 3.523e-05             -3.5184e-05           -3.5962e-08          
  -0.66                 5.214e-05             -5.2084e-05           -7.4342e-08          
  -0.68                 7.5066e-05            -7.4932e-05           -1.5074e-07          
  -0.7                  0.00010571            -0.000105402          -3.005e-07           
  -0.72                 0.00014532            -0.00014474           -5.8976e-07          
  -0.74                 0.00019566            -0.00019452           -1.09784e-06         
  -0.76                 0.00025806            -0.0002566            -2.006e-06           
  -0.78                 0.00033412            -0.00033054           -3.5184e-06          
  -0.8                  0.00042506            -0.00041934           -5.9456e-06          
  -0.82                 0.00053122            -0.00052146           -9.608e-06           
  -0.84                 0.00065284            -0.0006382            -1.4876e-05          
  -0.86                 0.00079164            -0.00076964           -2.2136e-05          
  -0.88                 0.00094584            -0.00091444           -3.1634e-05          
  -0.9                  0.00111736            -0.00107416           -4.3618e-05          
  -0.92                 0.0013036             -0.0012452            -5.8092e-05          
  -0.94                 0.0015062             -0.0014314            -7.5112e-05          
  -0.96                 0.0017188             -0.0016248            -9.4564e-05          
  -0.98                 0.0019478             -0.0018324            -0.00011608          
  -1                    0.0021854             -0.0020472            -0.0001398           
END_DB

