! VERSION = 6.00
BEGIN_HEADER
 ICCAP_INPUTS
  ve         V  E GROUND SMU_E 0.1 LIN        2    -1         -2         2    -1        
  vc         V  C GROUND SMU_C 0.1 CON        0
  vb         V  B GROUND SMU_B 0.01 LIN        1    0          -1         51   -0.02     
 ICCAP_OUTPUTS
  ic         I  C GROUND SMU_C M
  ib         I  B GROUND SMU_B B
  ie         I  E GROUND SMU_E M
 ICCAP_VALUES
  TNOM "27"
  TEMP "27"
  TECHNO "SG13S"
  LOT "PQA701"
  WAFER "17"
  CHIP "d0406"
  MODULE "T323_pnpMPA"
  DEV_NAME "DUT11"
  DEV_GEOM_L "."
  DEV_GEOM_W "."
  NF_EMITTER "."
  REMARKS "pnpMPA Teststructure"
  TIMEDATE "Fri Oct 21 12:47:07     2022"
END_HEADER

BEGIN_DB
 ICCAP_VAR ve         -1             
 ICCAP_VAR vc         0              

 #vb                    ic                    ib                    ie                   
  0                     1.45e-10              2.38e-12              6e-14                
  -0.02                 7.06e-11              2.38e-12              6e-14                
  -0.04                 -1.02e-11             2.34e-12              4e-14                
  -0.06                 1.738e-10             2.34e-12              0                    
  -0.08                 9.8e-12               2.14e-12              6e-14                
  -0.1                  2.142e-10             2.12e-12              1e-13                
  -0.12                 4.8e-12               1.9e-12               8e-14                
  -0.14                 -5.08e-11             1.58e-12              6e-14                
  -0.16                 6.56e-11              6.2e-13               1e-13                
  -0.18                 8.28e-11              -1.18e-12             0                    
  -0.2                  4.82e-11              -5.16e-12             4e-14                
  -0.22                 5.58e-11              -1.36e-11             0                    
  -0.24                 2.41e-10              -3.164e-11            0                    
  -0.26                 1.194e-10             -7.024e-11            4e-14                
  -0.28                 2.392e-10             -1.532e-10            1.2e-13              
  -0.3                  3.706e-10             -3.304e-10            0                    
  -0.32                 7.736e-10             -7.1328e-10           -4e-14               
  -0.34                 1.457e-09             -1.5256e-09           -1.8e-13             
  -0.36                 3.3322e-09            -3.2446e-09           -3.2e-13             
  -0.38                 6.962e-09             -6.8328e-09           -6e-13               
  -0.4                  1.5186e-08            -1.4486e-08           -1.14e-12            
  -0.42                 3.1092e-08            -3.0548e-08           -2.52e-12            
  -0.44                 6.4866e-08            -6.426e-08            -5.52e-12            
  -0.46                 1.3006e-07            -1.3214e-07           -1.35e-11            
  -0.48                 2.7176e-07            -2.7038e-07           -2.614e-11           
  -0.5                  5.4462e-07            -5.4266e-07           -5.662e-11           
  -0.52                 1.05184e-06           -1.05156e-06          -1.2236e-10          
  -0.54                 1.9696e-06            -1.9678e-06           -2.8914e-10          
  -0.56                 3.5158e-06            -3.5066e-06           -5.6718e-10          
  -0.58                 5.9894e-06            -5.9852e-06           -1.2344e-09          
  -0.6                  9.824e-06             -9.8262e-06           -2.6412e-09          
  -0.62                 1.5454e-05            -1.5452e-05           -5.889e-09           
  -0.64                 2.3616e-05            -2.3644e-05           -1.1742e-08          
  -0.66                 3.5196e-05            -3.5106e-05           -2.4576e-08          
  -0.68                 5.0896e-05            -5.0892e-05           -5.0608e-08          
  -0.7                  7.2366e-05            -7.223e-05            -1.0313e-07          
  -0.72                 0.000100518           -0.00010036           -2.0558e-07          
  -0.74                 0.00013698            -0.00013656           -4.0648e-07          
  -0.76                 0.0001841             -0.00018308           -7.608e-07           
  -0.78                 0.00024234            -0.00024116           -1.3942e-06          
  -0.8                  0.00031516            -0.00031324           -2.4724e-06          
  -0.82                 0.00040342            -0.00039978           -4.2e-06             
  -0.84                 0.00050948            -0.00050308           -6.8408e-06          
  -0.86                 0.00063538            -0.00062496           -1.06992e-05         
  -0.88                 0.0007827             -0.0007669            -1.6014e-05          
  -0.9                  0.00095388            -0.0009317            -2.315e-05           
  -0.92                 0.0011502             -0.00111788           -3.2126e-05          
  -0.94                 0.0013718             -0.0013306            -4.3106e-05          
  -0.96                 0.0016222             -0.0015646            -5.6106e-05          
  -0.98                 0.0018982             -0.001829             -7.1152e-05          
  -1                    0.0022                -0.0021166            -8.8054e-05          
END_DB

BEGIN_DB
 ICCAP_VAR ve         -2             
 ICCAP_VAR vc         0              

 #vb                    ic                    ib                    ie                   
  0                     5.18e-11              2.34e-12              1.2e-13              
  -0.02                 7.94e-11              2.34e-12              6e-14                
  -0.04                 2.62e-11              2.38e-12              0                    
  -0.06                 -5.2e-11              2.26e-12              0                    
  -0.08                 1.72e-11              2.24e-12              0                    
  -0.1                  -6.32e-11             2.14e-12              1e-13                
  -0.12                 8.08e-11              1.82e-12              2e-14                
  -0.14                 1.66e-11              1.48e-12              0                    
  -0.16                 3.06e-11              6.4e-13               4e-14                
  -0.18                 -2.84e-11             -1.12e-12             2e-14                
  -0.2                  4.2e-12               -5.22e-12             0                    
  -0.22                 2e-11                 -1.362e-11            0                    
  -0.24                 1.744e-10             -3.172e-11            8e-14                
  -0.26                 1.98e-11              -7.024e-11            4e-14                
  -0.28                 3.08e-10              -1.5346e-10           2e-14                
  -0.3                  2.222e-10             -3.296e-10            -4e-14               
  -0.32                 7.172e-10             -7.119e-10            -4e-14               
  -0.34                 1.591e-09             -1.525e-09            -6e-14               
  -0.36                 3.3028e-09            -3.2452e-09           -1.4e-13             
  -0.38                 6.906e-09             -6.8276e-09           -6e-13               
  -0.4                  1.5244e-08            -1.4466e-08           -1.22e-12            
  -0.42                 3.1074e-08            -3.0514e-08           -2.54e-12            
  -0.44                 6.432e-08             -6.4216e-08           -5.68e-12            
  -0.46                 1.3618e-07            -1.3234e-07           -1.376e-11           
  -0.48                 2.7262e-07            -2.702e-07            -2.672e-11           
  -0.5                  5.4414e-07            -5.431e-07            -5.784e-11           
  -0.52                 1.05062e-06           -1.05162e-06          -1.2506e-10          
  -0.54                 1.965e-06             -1.968e-06            -2.9526e-10          
  -0.56                 3.5104e-06            -3.5054e-06           -5.7886e-10          
  -0.58                 5.9926e-06            -5.989e-06            -1.2604e-09          
  -0.6                  9.8246e-06            -9.8234e-06           -2.7008e-09          
  -0.62                 1.5424e-05            -1.5476e-05           -6.0022e-09          
  -0.64                 2.365e-05             -2.3592e-05           -1.1982e-08          
  -0.66                 3.5138e-05            -3.5138e-05           -2.5086e-08          
  -0.68                 5.0894e-05            -5.094e-05            -5.1694e-08          
  -0.7                  7.24e-05              -7.2286e-05           -1.05388e-07         
  -0.72                 0.000100588           -0.000100362          -2.1024e-07          
  -0.74                 0.00013694            -0.00013674           -4.1616e-07          
  -0.76                 0.00018416            -0.0001836            -7.7906e-07          
  -0.78                 0.00024286            -0.00024138           -1.428e-06           
  -0.8                  0.00031576            -0.00031346           -2.5332e-06          
  -0.82                 0.00040432            -0.0003997            -4.3008e-06          
  -0.84                 0.00051032            -0.00050376           -7.009e-06           
  -0.86                 0.00063702            -0.0006255            -1.09744e-05         
  -0.88                 0.00078464            -0.00076788           -1.645e-05           
  -0.9                  0.00095638            -0.00093344           -2.3758e-05          
  -0.92                 0.0011546             -0.00112              -3.292e-05           
  -0.94                 0.001378              -0.0013324            -4.4294e-05          
  -0.96                 0.0016266             -0.001571             -5.7806e-05          
  -0.98                 0.0019074             -0.0018338            -7.3178e-05          
  -1                    0.0022136             -0.002121             -9.051e-05           
END_DB

