! VERSION = 6.00
BEGIN_HEADER
 ICCAP_INPUTS
  ve         V  E GROUND SMU_E 0.1 LIN        2    -1         -2         2    -1        
  vc         V  C GROUND SMU_C 0.1 CON        0
  vb         V  B GROUND SMU_B 0.01 LIN        1    0          -1         51   -0.02     
 ICCAP_OUTPUTS
  ic         I  C GROUND SMU_C M
  ib         I  B GROUND SMU_B B
  ie         I  E GROUND SMU_E M
 ICCAP_VALUES
  TNOM "27"
  TEMP "27"
  TECHNO "SG13S"
  LOT "PQA701"
  WAFER "17"
  CHIP "d0406"
  MODULE "T323_pnpMPA"
  DEV_NAME "DUT9"
  DEV_GEOM_L "."
  DEV_GEOM_W "."
  NF_EMITTER "."
  REMARKS "pnpMPA Teststructure"
  TIMEDATE "Fri Oct 21 12:47:07     2022"
END_HEADER

BEGIN_DB
 ICCAP_VAR ve         -1             
 ICCAP_VAR vc         0              

 #vb                    ic                    ib                    ie                   
  0                     4.28e-11              1.66e-12              0                    
  -0.02                 1.68e-10              1.58e-12              8e-14                
  -0.04                 1.19e-10              1.54e-12              -4e-14               
  -0.06                 1.336e-10             1.52e-12              -4e-14               
  -0.08                 1.06e-11              1.54e-12              2e-14                
  -0.1                  8.34e-11              1.4e-12               1e-13                
  -0.12                 7.52e-11              1.24e-12              -4e-14               
  -0.14                 1.49e-10              7.6e-13               -8e-14               
  -0.16                 0                     -1.8e-13              2e-14                
  -0.18                 -1.32e-11             -2.16e-12             4e-14                
  -0.2                  1.352e-10             -6.32e-12             0                    
  -0.22                 -5.22e-11             -1.538e-11            0                    
  -0.24                 1.082e-10             -3.464e-11            -4e-14               
  -0.26                 -4.14e-11             -7.566e-11            4e-14                
  -0.28                 2.732e-10             -1.6394e-10           1e-13                
  -0.3                  3.852e-10             -3.5276e-10           -6e-14               
  -0.32                 8e-10                 -7.6014e-10           -8e-14               
  -0.34                 1.5078e-09            -1.6196e-09           -2.6e-13             
  -0.36                 3.5622e-09            -3.4508e-09           -3.6e-13             
  -0.38                 7.586e-09             -7.2626e-09           -9e-13               
  -0.4                  1.587e-08             -1.5424e-08           -1.98e-12            
  -0.42                 3.2786e-08            -3.2548e-08           -4.08e-12            
  -0.44                 6.8524e-08            -6.882e-08            -8.94e-12            
  -0.46                 1.4372e-07            -1.4214e-07           -2.21e-11            
  -0.48                 2.9232e-07            -2.9182e-07           -4.2e-11             
  -0.5                  5.8628e-07            -5.872e-07            -9.128e-11           
  -0.52                 1.1408e-06            -1.1422e-06           -1.9696e-10          
  -0.54                 2.1334e-06            -2.1356e-06           -4.251e-10           
  -0.56                 3.8072e-06            -3.8104e-06           -9.1244e-10          
  -0.58                 6.4974e-06            -6.5002e-06           -1.9882e-09          
  -0.6                  1.06666e-05           -1.06648e-05          -4.2566e-09          
  -0.62                 1.677e-05             -1.6774e-05           -9.6168e-09          
  -0.64                 2.5652e-05            -2.564e-05            -1.8986e-08          
  -0.66                 3.8182e-05            -3.8132e-05           -3.9862e-08          
  -0.68                 5.5378e-05            -5.5372e-05           -8.239e-08           
  -0.7                  7.8916e-05            -7.8736e-05           -1.6868e-07          
  -0.72                 0.000110026           -0.000109776          -3.378e-07           
  -0.74                 0.0001508             -0.00015018           -6.7348e-07          
  -0.76                 0.00020336            -0.0002023            -1.2644e-06          
  -0.78                 0.0002695             -0.00026722           -2.3258e-06          
  -0.8                  0.00035208            -0.0003479            -4.139e-06           
  -0.82                 0.00045248            -0.00044568           -7.0442e-06          
  -0.84                 0.00057324            -0.0005619            -1.1478e-05          
  -0.86                 0.00071746            -0.00069972           -1.7952e-05          
  -0.88                 0.00088604            -0.00085952           -2.6852e-05          
  -0.9                  0.00108164            -0.0010437            -3.8666e-05          
  -0.92                 0.0013058             -0.001252             -5.3586e-05          
  -0.94                 0.0015572             -0.0014858            -7.1748e-05          
  -0.96                 0.001838              -0.0017464            -9.3148e-05          
  -0.98                 0.00215               -0.0020338            -0.00011774          
  -1                    0.0024894             -0.002345             -0.0001451           
END_DB

BEGIN_DB
 ICCAP_VAR ve         -2             
 ICCAP_VAR vc         0              

 #vb                    ic                    ib                    ie                   
  0                     5.92e-11              1.62e-12              4e-14                
  -0.02                 -1.38e-11             1.6e-12               1.8e-13              
  -0.04                 1.44e-11              1.54e-12              0                    
  -0.06                 1.348e-10             1.58e-12              -2e-14               
  -0.08                 3.4e-12               1.42e-12              -8e-14               
  -0.1                  1.116e-10             1.4e-12               -1e-13               
  -0.12                 1.424e-10             1.1e-12               4e-14                
  -0.14                 2.94e-11              7.6e-13               8e-14                
  -0.16                 7.12e-11              -1.4e-13              4e-14                
  -0.18                 8.74e-11              -2.04e-12             0                    
  -0.2                  -6.02e-11             -6.32e-12             6e-14                
  -0.22                 7.06e-11              -1.526e-11            -2e-14               
  -0.24                 -7.6e-12              -3.442e-11            0                    
  -0.26                 1.934e-10             -7.534e-11            8e-14                
  -0.28                 2.538e-10             -1.6358e-10           0                    
  -0.3                  3.884e-10             -3.522e-10            2e-14                
  -0.32                 8.652e-10             -7.6054e-10           -8e-14               
  -0.34                 1.5688e-09            -1.6216e-09           -6e-14               
  -0.36                 3.4778e-09            -3.4636e-09           -4.6e-13             
  -0.38                 8.052e-09             -7.307e-09            -9.2e-13             
  -0.4                  1.5826e-08            -1.551e-08            -2.16e-12            
  -0.42                 3.2454e-08            -3.2708e-08           -4.24e-12            
  -0.44                 6.9006e-08            -6.9028e-08           -9.4e-12             
  -0.46                 1.4458e-07            -1.423e-07            -2.278e-11           
  -0.48                 2.9638e-07            -2.9184e-07           -4.324e-11           
  -0.5                  5.8622e-07            -5.8718e-07           -9.384e-11           
  -0.52                 1.1342e-06            -1.13976e-06          -2.0248e-10          
  -0.54                 2.1392e-06            -2.134e-06            -4.4036e-10          
  -0.56                 3.807e-06             -3.8074e-06           -9.3768e-10          
  -0.58                 6.4996e-06            -6.5008e-06           -2.0436e-09          
  -0.6                  1.0661e-05            -1.06648e-05          -4.3744e-09          
  -0.62                 1.6742e-05            -1.6748e-05           -9.849e-09           
  -0.64                 2.566e-05             -2.5596e-05           -1.9512e-08          
  -0.66                 3.8174e-05            -3.8142e-05           -4.096e-08           
  -0.68                 5.5408e-05            -5.5312e-05           -8.4652e-08          
  -0.7                  7.8894e-05            -7.8712e-05           -1.733e-07           
  -0.72                 0.000110042           -0.00010974           -3.471e-07           
  -0.74                 0.00015086            -0.00015006           -6.9072e-07          
  -0.76                 0.0002037             -0.00020228           -1.2994e-06          
  -0.78                 0.0002694             -0.00026714           -2.3912e-06          
  -0.8                  0.00035236            -0.00034764           -4.2538e-06          
  -0.82                 0.0004524             -0.0004454            -7.2426e-06          
  -0.84                 0.00057336            -0.00056186           -1.1804e-05          
  -0.86                 0.0007176             -0.00069926           -1.8464e-05          
  -0.88                 0.00088606            -0.00085862           -2.764e-05           
  -0.9                  0.0010824             -0.00104248           -3.9834e-05          
  -0.92                 0.0013064             -0.0012502            -5.5138e-05          
  -0.94                 0.001557              -0.001484             -7.3842e-05          
  -0.96                 0.0018394             -0.0017446            -9.5852e-05          
  -0.98                 0.0021504             -0.0020304            -0.0001213           
  -1                    0.0024904             -0.0023408            -0.00014962          
END_DB

