! VERSION = 6.00
BEGIN_HEADER
 ICCAP_INPUTS
  ve         V  E GROUND SMU_E 0.1 LIN        2    -1         -2         2    -1        
  vc         V  C GROUND SMU_C 0.1 CON        0
  vb         V  B GROUND SMU_B 0.01 LIN        1    0          -1         51   -0.02     
 ICCAP_OUTPUTS
  ic         I  C GROUND SMU_C M
  ib         I  B GROUND SMU_B B
  ie         I  E GROUND SMU_E M
 ICCAP_VALUES
  TNOM "27"
  TEMP "27"
  TECHNO "SG13S"
  LOT "PQA701"
  WAFER "17"
  CHIP "d0406"
  MODULE "T323_pnpMPA"
  DEV_NAME "DUT10"
  DEV_GEOM_L "."
  DEV_GEOM_W "."
  NF_EMITTER "."
  REMARKS "pnpMPA Teststructure"
  TIMEDATE "Fri Oct 21 12:47:07     2022"
END_HEADER

BEGIN_DB
 ICCAP_VAR ve         -1             
 ICCAP_VAR vc         0              

 #vb                    ic                    ib                    ie                   
  0                     1.228e-10             1.36e-12              4e-14                
  -0.02                 1.082e-10             1.34e-12              2e-14                
  -0.04                 2.34e-11              1.38e-12              4e-14                
  -0.06                 1.572e-10             1.26e-12              6e-14                
  -0.08                 1.736e-10             1.28e-12              8e-14                
  -0.1                  2.92e-11              1.16e-12              4e-14                
  -0.12                 1.648e-10             1.02e-12              0                    
  -0.14                 5e-12                 6.8e-13               -2e-14               
  -0.16                 1.206e-10             -2e-14                -4e-14               
  -0.18                 1.466e-10             -1.68e-12             -8e-14               
  -0.2                  1.346e-10             -4.86e-12             -6e-14               
  -0.22                 8.18e-11              -1.192e-11            2e-14                
  -0.24                 1.464e-10             -2.694e-11            -2e-14               
  -0.26                 1.66e-10              -5.896e-11            0                    
  -0.28                 1.75e-10              -1.278e-10            0                    
  -0.3                  2.726e-10             -2.7402e-10           -6e-14               
  -0.32                 6.614e-10             -5.9168e-10           -8e-14               
  -0.34                 1.2354e-09            -1.2614e-09           -1.2e-13             
  -0.36                 2.7256e-09            -2.6862e-09           -1.4e-13             
  -0.38                 5.6292e-09            -5.7244e-09           -3.6e-13             
  -0.4                  1.2266e-08            -1.1966e-08           -1.02e-12            
  -0.42                 2.518e-08             -2.5168e-08           -1.88e-12            
  -0.44                 5.3794e-08            -5.3102e-08           -4.26e-12            
  -0.46                 1.1178e-07            -1.0976e-07           -9.46e-12            
  -0.48                 2.2232e-07            -2.2356e-07           -1.992e-11           
  -0.5                  4.4946e-07            -4.4992e-07           -4.336e-11           
  -0.52                 8.6992e-07            -8.7244e-07           -9.398e-11           
  -0.54                 1.631e-06             -1.6286e-06           -2.2514e-10          
  -0.56                 2.9006e-06            -2.905e-06            -4.3548e-10          
  -0.58                 4.948e-06             -4.9578e-06           -9.3312e-10          
  -0.6                  8.1256e-06            -8.1298e-06           -2.0294e-09          
  -0.62                 1.2752e-05            -1.276e-05            -4.5498e-09          
  -0.64                 1.9456e-05            -1.9472e-05           -9.0204e-09          
  -0.66                 2.8962e-05            -2.8926e-05           -1.8866e-08          
  -0.68                 4.192e-05             -4.1868e-05           -3.8834e-08          
  -0.7                  5.9446e-05            -5.9366e-05           -7.9062e-08          
  -0.72                 8.2614e-05            -8.2442e-05           -1.573e-07           
  -0.74                 0.000112768           -0.000112486          -3.0594e-07          
  -0.76                 0.00015162            -0.00015116           -5.8816e-07          
  -0.78                 0.00020024            -0.00019892           -1.06056e-06         
  -0.8                  0.00026084            -0.00025892           -1.8746e-06          
  -0.82                 0.00033456            -0.00033132           -3.1752e-06          
  -0.84                 0.00042308            -0.00041822           -5.161e-06           
  -0.86                 0.0005284             -0.00052064           -8.0536e-06          
  -0.88                 0.00065176            -0.00063982           -1.2034e-05          
  -0.9                  0.00079452            -0.00077726           -1.7356e-05          
  -0.92                 0.00095634            -0.00093202           -2.409e-05           
  -0.94                 0.0011388             -0.00110686           -3.234e-05           
  -0.96                 0.0013416             -0.0013002            -4.2098e-05          
  -0.98                 0.0015666             -0.0015128            -5.3512e-05          
  -1                    0.0018102             -0.0017444            -6.6282e-05          
END_DB

BEGIN_DB
 ICCAP_VAR ve         -2             
 ICCAP_VAR vc         0              

 #vb                    ic                    ib                    ie                   
  0                     -2.92e-11             1.34e-12              2e-14                
  -0.02                 5.48e-11              1.42e-12              6e-14                
  -0.04                 5.9e-11               1.36e-12              6e-14                
  -0.06                 5.6e-12               1.34e-12              -2e-14               
  -0.08                 1.22e-11              1.3e-12               0                    
  -0.1                  8.54e-11              1.16e-12              2e-14                
  -0.12                 1.348e-10             1.02e-12              0                    
  -0.14                 -2.94e-11             7e-13                 0                    
  -0.16                 7.6e-11               -1e-13                1e-13                
  -0.18                 1.586e-10             -1.66e-12             6e-14                
  -0.2                  6.98e-11              -4.94e-12             0                    
  -0.22                 3.46e-11              -1.192e-11            -2e-14               
  -0.24                 1.532e-10             -2.69e-11             2e-14                
  -0.26                 1.568e-10             -5.892e-11            4e-14                
  -0.28                 2.028e-10             -1.2766e-10           -8e-14               
  -0.3                  3.248e-10             -2.7424e-10           -6e-14               
  -0.32                 6.424e-10             -5.9166e-10           1.4e-13              
  -0.34                 1.3276e-09            -1.2624e-09           -2e-14               
  -0.36                 2.7382e-09            -2.6822e-09           -2e-13               
  -0.38                 5.707e-09             -5.7172e-09           -3.2e-13             
  -0.4                  1.1312e-08            -1.1978e-08           -1.04e-12            
  -0.42                 2.5958e-08            -2.5278e-08           -1.98e-12            
  -0.44                 5.3586e-08            -5.3152e-08           -4.32e-12            
  -0.46                 1.12e-07              -1.0948e-07           -9.66e-12            
  -0.48                 2.2374e-07            -2.2408e-07           -2.032e-11           
  -0.5                  4.488e-07             -4.4978e-07           -4.432e-11           
  -0.52                 8.7418e-07            -8.7058e-07           -9.588e-11           
  -0.54                 1.631e-06             -1.6294e-06           -2.3034e-10          
  -0.56                 2.9082e-06            -2.9052e-06           -4.4492e-10          
  -0.58                 4.956e-06             -4.9576e-06           -9.526e-10           
  -0.6                  8.1274e-06            -8.1284e-06           -2.072e-09           
  -0.62                 1.274e-05             -1.276e-05            -4.65e-09            
  -0.64                 1.9498e-05            -1.9494e-05           -9.2126e-09          
  -0.66                 2.8982e-05            -2.894e-05            -1.9262e-08          
  -0.68                 4.1908e-05            -4.1846e-05           -3.965e-08           
  -0.7                  5.9466e-05            -5.9362e-05           -8.0706e-08          
  -0.72                 8.258e-05             -8.2422e-05           -1.6064e-07          
  -0.74                 0.000112796           -0.000112466          -3.1254e-07          
  -0.76                 0.00015144            -0.000151             -6.0046e-07          
  -0.78                 0.00020016            -0.00019922           -1.08336e-06         
  -0.8                  0.00026086            -0.0002591            -1.9158e-06          
  -0.82                 0.00033476            -0.0003313            -3.2456e-06          
  -0.84                 0.0004233             -0.00041818           -5.2736e-06          
  -0.86                 0.00052878            -0.00052044           -8.2294e-06          
  -0.88                 0.00065156            -0.0006395            -1.2298e-05          
  -0.9                  0.00079454            -0.00077708           -1.774e-05           
  -0.92                 0.00095648            -0.00093196           -2.4634e-05          
  -0.94                 0.0011394             -0.0011063            -3.3096e-05          
  -0.96                 0.001341              -0.001299             -4.311e-05           
  -0.98                 0.0015666             -0.001511             -5.4818e-05          
  -1                    0.0018098             -0.0017428            -6.7862e-05          
END_DB

