! VERSION = 6.00
BEGIN_HEADER
 ICCAP_INPUTS
  ve         V  E GROUND SMU_E 0.1 LIN        2    -1         -2         2    -1        
  vc         V  C GROUND SMU_C 0.1 CON        0
  vb         V  B GROUND SMU_B 0.01 LIN        1    0          -1         51   -0.02     
 ICCAP_OUTPUTS
  ic         I  C GROUND SMU_C M
  ib         I  B GROUND SMU_B B
  ie         I  E GROUND SMU_E M
 ICCAP_VALUES
  TNOM "27"
  TEMP "27"
  TECHNO "SG13S"
  LOT "PQA701"
  WAFER "17"
  CHIP "d0406"
  MODULE "T323_pnpMPA"
  DEV_NAME "DUT1"
  DEV_GEOM_L "."
  DEV_GEOM_W "."
  NF_EMITTER "."
  REMARKS "pnpMPA Teststructure"
  TIMEDATE "Fri Oct 21 12:47:07     2022"
END_HEADER

BEGIN_DB
 ICCAP_VAR ve         -1             
 ICCAP_VAR vc         0              

 #vb                    ic                    ib                    ie                   
  0                     5.076e-09             1.788e-11             1.4e-13              
  -0.02                 1.3644e-09            1.784e-11             6e-14                
  -0.04                 6.552e-10             1.77e-11              1.2e-13              
  -0.06                 6.124e-10             1.752e-11             0                    
  -0.08                 3.966e-10             1.746e-11             8e-14                
  -0.1                  1.65e-10              1.712e-11             -4e-14               
  -0.12                 1.706e-10             1.662e-11             4e-14                
  -0.14                 1.166e-10             1.582e-11             2e-14                
  -0.16                 1.618e-10             1.408e-11             -6e-14               
  -0.18                 7.26e-11              1.046e-11             -6e-14               
  -0.2                  1.928e-10             2.8e-12               0                    
  -0.22                 6.34e-11              -1.362e-11            8e-14                
  -0.24                 6.84e-11              -4.846e-11            -6e-14               
  -0.26                 3.426e-10             -1.2316e-10           -4e-14               
  -0.28                 4.2e-10               -2.8466e-10           0                    
  -0.3                  7.288e-10             -6.2872e-10           -1.4e-13             
  -0.32                 1.571e-09             -1.373e-09            -3.6e-13             
  -0.34                 3.2238e-09            -2.9732e-09           -6.4e-13             
  -0.36                 6.4608e-09            -6.3782e-09           -1.6e-12             
  -0.38                 1.3748e-08            -1.3522e-08           -3.44e-12            
  -0.4                  2.9198e-08            -2.8844e-08           -7.1e-12             
  -0.42                 6.1508e-08            -6.1286e-08           -1.542e-11           
  -0.44                 1.2798e-07            -1.2922e-07           -3.548e-11           
  -0.46                 2.6836e-07            -2.6936e-07           -7.176e-11           
  -0.48                 5.5614e-07            -5.5568e-07           -1.5508e-10          
  -0.5                  1.11918e-06           -1.12006e-06          -3.357e-10           
  -0.52                 2.18e-06              -2.1772e-06           -7.5806e-10          
  -0.54                 4.0652e-06            -4.0646e-06           -1.5832e-09          
  -0.56                 7.2364e-06            -7.2364e-06           -3.3942e-09          
  -0.58                 1.2362e-05            -1.2306e-05           -7.5022e-09          
  -0.6                  2.0264e-05            -2.0214e-05           -1.5482e-08          
  -0.62                 3.186e-05             -3.1842e-05           -3.255e-08           
  -0.64                 4.8878e-05            -4.878e-05            -6.8302e-08          
  -0.66                 7.2912e-05            -7.2766e-05           -1.4224e-07          
  -0.68                 0.00010591            -0.000105632          -2.9076e-07          
  -0.7                  0.00015042            -0.00014984           -5.9304e-07          
  -0.72                 0.00020866            -0.00020752           -1.154e-06           
  -0.74                 0.00028362            -0.0002814            -2.2126e-06          
  -0.76                 0.00037888            -0.00037494           -4.1282e-06          
  -0.78                 0.0004971             -0.00049018           -7.409e-06           
  -0.8                  0.00064452            -0.00063188           -1.2844e-05          
  -0.82                 0.00082282            -0.00080166           -2.1306e-05          
  -0.84                 0.00103688            -0.00100336           -3.3828e-05          
  -0.86                 0.0012928             -0.0012412            -5.1578e-05          
  -0.88                 0.0015908             -0.0015172            -7.5052e-05          
  -0.9                  0.0019386             -0.0018336            -0.000105408         
  -0.92                 0.0023336             -0.002191             -0.00014214          
  -0.94                 0.0027766             -0.002591             -0.00018568          
  -0.96                 0.0032654             -0.0030318            -0.00023532          
  -0.98                 0.0038022             -0.0035126            -0.00029064          
  -1                    0.0043738             -0.0040218            -0.0003505           
END_DB

BEGIN_DB
 ICCAP_VAR ve         -2             
 ICCAP_VAR vc         0              

 #vb                    ic                    ib                    ie                   
  0                     3.7e-11               1.79e-11              -8e-14               
  -0.02                 1.178e-10             1.78e-11              1.4e-13              
  -0.04                 -4.84e-11             1.774e-11             0                    
  -0.06                 1.08e-11              1.754e-11             -4e-14               
  -0.08                 2e-11                 1.74e-11              -6e-14               
  -0.1                  2.32e-11              1.708e-11             0                    
  -0.12                 -7.36e-11             1.668e-11             0                    
  -0.14                 2.6e-12               1.584e-11             0                    
  -0.16                 1.66e-11              1.404e-11             -2e-14               
  -0.18                 -1.3e-11              1.046e-11             1e-13                
  -0.2                  9.18e-11              2.92e-12              6e-14                
  -0.22                 7.42e-11              -1.352e-11            6e-14                
  -0.24                 1.118e-10             -4.834e-11            0                    
  -0.26                 2.134e-10             -1.231e-10            6e-14                
  -0.28                 3.43e-10              -2.8418e-10           -4e-14               
  -0.3                  6.482e-10             -6.2848e-10           -1.2e-13             
  -0.32                 1.4192e-09            -1.3714e-09           -2.4e-13             
  -0.34                 2.9944e-09            -2.9704e-09           -6.6e-13             
  -0.36                 6.4014e-09            -6.3754e-09           -1.56e-12            
  -0.38                 1.382e-08             -1.3538e-08           -3.4e-12             
  -0.4                  2.8622e-08            -2.8844e-08           -7.16e-12            
  -0.42                 6.1672e-08            -6.1228e-08           -1.572e-11           
  -0.44                 1.288e-07             -1.2914e-07           -3.592e-11           
  -0.46                 2.7076e-07            -2.7012e-07           -7.282e-11           
  -0.48                 5.552e-07             -5.5582e-07           -1.5714e-10          
  -0.5                  1.1232e-06            -1.12098e-06          -3.4034e-10          
  -0.52                 2.1782e-06            -2.1766e-06           -7.685e-10           
  -0.54                 4.065e-06             -4.0622e-06           -1.6042e-09          
  -0.56                 7.2388e-06            -7.2376e-06           -3.4394e-09          
  -0.58                 1.2334e-05            -1.2334e-05           -7.6088e-09          
  -0.6                  2.0238e-05            -2.023e-05            -1.5696e-08          
  -0.62                 3.188e-05             -3.1846e-05           -3.3008e-08          
  -0.64                 4.8848e-05            -4.881e-05            -6.9258e-08          
  -0.66                 7.2956e-05            -7.274e-05            -1.4418e-07          
  -0.68                 0.000105932           -0.000105612          -2.9478e-07          
  -0.7                  0.00015034            -0.00014984           -6.0134e-07          
  -0.72                 0.0002087             -0.0002078            -1.1692e-06          
  -0.74                 0.0002833             -0.00028154           -2.2428e-06          
  -0.76                 0.00037896            -0.00037468           -4.1822e-06          
  -0.78                 0.00049736            -0.00049032           -7.509e-06           
  -0.8                  0.00064448            -0.00063138           -1.3012e-05          
  -0.82                 0.00082248            -0.00080126           -2.158e-05           
  -0.84                 0.00103702            -0.0010028            -3.4286e-05          
  -0.86                 0.0012918             -0.0012404            -5.2184e-05          
  -0.88                 0.0015914             -0.0015156            -7.6038e-05          
  -0.9                  0.0019386             -0.0018318            -0.00010676          
  -0.92                 0.0023322             -0.0021888            -0.00014406          
  -0.94                 0.0027748             -0.002589             -0.00018806          
  -0.96                 0.0032654             -0.0030274            -0.00023856          
  -0.98                 0.0038014             -0.0035084            -0.00029448          
  -1                    0.0043754             -0.0040194            -0.00035508          
END_DB

