! VERSION = 6.00
BEGIN_HEADER
 ICCAP_INPUTS
  ve         V  E GROUND SMU_E 0.1 LIN        2    -1         -2         2    -1        
  vc         V  C GROUND SMU_C 0.1 CON        0
  vb         V  B GROUND SMU_B 0.01 LIN        1    0          -1         51   -0.02     
 ICCAP_OUTPUTS
  ic         I  C GROUND SMU_C M
  ib         I  B GROUND SMU_B B
  ie         I  E GROUND SMU_E M
 ICCAP_VALUES
  TNOM "27"
  TEMP "27"
  TECHNO "SG13S"
  LOT "PQA701"
  WAFER "17"
  CHIP "d0406"
  MODULE "T323_pnpMPA"
  DEV_NAME "DUT14"
  DEV_GEOM_L "."
  DEV_GEOM_W "."
  NF_EMITTER "."
  REMARKS "pnpMPA Teststructure"
  TIMEDATE "Fri Oct 21 12:47:07     2022"
END_HEADER

BEGIN_DB
 ICCAP_VAR ve         -1             
 ICCAP_VAR vc         0              

 #vb                    ic                    ib                    ie                   
  0                     -8.2e-12              1.14e-12              4e-14                
  -0.02                 -5.8e-12              1.18e-12              0                    
  -0.04                 2.58e-11              1.14e-12              1e-13                
  -0.06                 -6e-11                1e-12                 0                    
  -0.08                 1.42e-11              8.2e-13               0                    
  -0.1                  3.08e-11              1.6e-13               0                    
  -0.12                 4.38e-11              -9.4e-13              1.2e-13              
  -0.14                 3.7e-11               -4.22e-12             2e-14                
  -0.16                 8.8e-11               -8.54e-12             -6e-14               
  -0.18                 1.666e-10             -2.262e-11            -8e-14               
  -0.2                  1.848e-10             -4.036e-11            4e-14                
  -0.22                 1.778e-10             -8.372e-11            2e-14                
  -0.24                 8.14e-11              -1.9536e-10           -4e-14               
  -0.26                 2.938e-10             -3.3616e-10           -6e-14               
  -0.28                 7.558e-10             -7.2606e-10           -1e-13               
  -0.3                  1.3956e-09            -1.321e-09            6e-14                
  -0.32                 2.3764e-09            -2.6538e-09           -1.4e-13             
  -0.34                 4.9192e-09            -4.739e-09            -3.2e-13             
  -0.36                 8.64e-09              -9.0258e-09           -9.2e-13             
  -0.38                 1.6082e-08            -1.5064e-08           -1.8e-12             
  -0.4                  2.8492e-08            -2.7428e-08           -3.58e-12            
  -0.42                 4.8622e-08            -4.8138e-08           -7.26e-12            
  -0.44                 8.733e-08             -8.832e-08            -1.59e-11            
  -0.46                 1.5654e-07            -1.5582e-07           -3.404e-11           
  -0.48                 2.8346e-07            -2.81e-07             -5.574e-11           
  -0.5                  5.1222e-07            -5.08e-07             -1.0482e-10          
  -0.52                 8.9858e-07            -8.9752e-07           -1.851e-10           
  -0.54                 1.5696e-06            -1.5786e-06           -3.5922e-10          
  -0.56                 2.628e-06             -2.6316e-06           -6.2144e-10          
  -0.58                 4.221e-06             -4.2244e-06           -1.0902e-09          
  -0.6                  6.5108e-06            -6.5004e-06           -1.9034e-09          
  -0.62                 9.6006e-06            -9.5886e-06           -3.2918e-09          
  -0.64                 1.3644e-05            -1.366e-05            -5.8754e-09          
  -0.66                 1.881e-05             -1.8818e-05           -9.7002e-09          
  -0.68                 2.5058e-05            -2.5074e-05           -1.5982e-08          
  -0.7                  3.246e-05             -3.2456e-05           -2.5668e-08          
  -0.72                 4.1004e-05            -4.102e-05            -4.0148e-08          
  -0.74                 5.0642e-05            -5.0578e-05           -6.1152e-08          
  -0.76                 6.1542e-05            -6.1568e-05           -9.0214e-08          
  -0.78                 7.3392e-05            -7.3066e-05           -1.3016e-07          
  -0.8                  8.5994e-05            -8.5814e-05           -1.8144e-07          
  -0.82                 9.9474e-05            -9.9226e-05           -2.4812e-07          
  -0.84                 0.00011297            -0.000113018          -3.2744e-07          
  -0.86                 0.000126              -0.00012554           -4.0568e-07          
  -0.88                 0.00014102            -0.00014066           -5.1778e-07          
  -0.9                  0.0001562             -0.00015588           -6.3674e-07          
  -0.92                 0.0001752             -0.0001739            -8.2334e-07          
  -0.94                 0.00019116            -0.00019086           -1.00596e-06         
  -0.96                 0.0002132             -0.00021156           -1.267e-06           
  -0.98                 0.00023038            -0.00022562           -1.5118e-06          
  -1                    0.00024948            -0.00024436           -1.7498e-06          
END_DB

BEGIN_DB
 ICCAP_VAR ve         -2             
 ICCAP_VAR vc         0              

 #vb                    ic                    ib                    ie                   
  0                     1.24e-10              1.2e-12               4e-14                
  -0.02                 -2.06e-11             1.22e-12              0                    
  -0.04                 -3.52e-11             1.26e-12              6e-14                
  -0.06                 3.88e-11              1.18e-12              6e-14                
  -0.08                 1.28e-11              1.14e-12              -1.2e-13             
  -0.1                  1.338e-10             9.8e-13               2e-14                
  -0.12                 3.02e-11              8.4e-13               -2e-14               
  -0.14                 -3.7e-11              3.4e-13               2e-14                
  -0.16                 6.7e-11               -8e-13                -2e-14               
  -0.18                 5.45e-10              -3.02e-12             6e-14                
  -0.2                  2.14e-11              -7.5e-12              -2e-14               
  -0.22                 5.26e-11              -1.732e-11            4e-14                
  -0.24                 1.712e-10             -3.986e-11            2e-14                
  -0.26                 6.78e-11              -8.386e-11            8e-14                
  -0.28                 1.506e-10             -1.7068e-10           4e-14                
  -0.3                  4.542e-10             -3.5462e-10           0                    
  -0.32                 7.424e-10             -7.5554e-10           4e-14                
  -0.34                 1.5952e-09            -1.5464e-09           -2e-14               
  -0.36                 3.3012e-09            -3.2286e-09           -1.4e-13             
  -0.38                 6.784e-09             -6.5718e-09           -3.8e-13             
  -0.4                  1.3526e-08            -1.3456e-08           -8e-13               
  -0.42                 2.7406e-08            -2.7184e-08           -1.66e-12            
  -0.44                 5.5462e-08            -5.496e-08            -3.6e-12             
  -0.46                 1.1064e-07            -1.0922e-07           -8.02e-12            
  -0.48                 2.1842e-07            -2.157e-07            -1.628e-11           
  -0.5                  4.2056e-07            -4.1824e-07           -3.526e-11           
  -0.52                 7.8896e-07            -7.9042e-07           -7.382e-11           
  -0.54                 1.4392e-06            -1.4434e-06           -1.8556e-10          
  -0.56                 2.5154e-06            -2.5166e-06           -3.2748e-10          
  -0.58                 4.1912e-06            -4.1868e-06           -6.7462e-10          
  -0.6                  6.706e-06             -6.7154e-06           -1.4042e-09          
  -0.62                 1.0275e-05            -1.02836e-05          -2.8316e-09          
  -0.64                 1.5264e-05            -1.528e-05            -5.963e-09           
  -0.66                 2.1918e-05            -2.2006e-05           -1.09876e-08         
  -0.68                 3.0658e-05            -3.0674e-05           -2.0994e-08          
  -0.7                  4.185e-05             -4.176e-05            -3.9096e-08          
  -0.72                 5.557e-05             -5.559e-05            -7.058e-08           
  -0.74                 7.2354e-05            -7.2216e-05           -1.2344e-07          
  -0.76                 9.2346e-05            -9.205e-05            -2.0868e-07          
  -0.78                 0.00011524            -0.00011492           -3.3922e-07          
  -0.8                  0.0001417             -0.0001412            -5.3474e-07          
  -0.82                 0.00017128            -0.00017032           -8.0668e-07          
  -0.84                 0.00020434            -0.00020308           -1.1792e-06          
  -0.86                 0.00024054            -0.00023886           -1.6712e-06          
  -0.88                 0.00028002            -0.00027804           -2.2968e-06          
  -0.9                  0.00032392            -0.00032112           -3.1118e-06          
  -0.92                 0.00037102            -0.00036806           -4.1122e-06          
  -0.94                 0.00041936            -0.00041524           -5.2742e-06          
  -0.96                 0.00047196            -0.00046614           -6.599e-06           
  -0.98                 0.00052692            -0.00051796           -8.1406e-06          
  -1                    0.00057772            -0.00057036           -9.7282e-06          
END_DB

