! VERSION = 6.00
BEGIN_HEADER
 ICCAP_INPUTS
  ve         V  E GROUND SMU_E 0.1 LIN        2    -1         -2         2    -1        
  vc         V  C GROUND SMU_C 0.1 CON        0
  vb         V  B GROUND SMU_B 0.01 LIN        1    0          -1         51   -0.02     
 ICCAP_OUTPUTS
  ic         I  C GROUND SMU_C M
  ib         I  B GROUND SMU_B B
  ie         I  E GROUND SMU_E M
 ICCAP_VALUES
  TNOM "27"
  TEMP "27"
  TECHNO "SG13S"
  LOT "PQA701"
  WAFER "17"
  CHIP "d0406"
  MODULE "T323_pnpMPA"
  DEV_NAME "DUT12"
  DEV_GEOM_L "."
  DEV_GEOM_W "."
  NF_EMITTER "."
  REMARKS "pnpMPA Teststructure"
  TIMEDATE "Fri Oct 21 12:47:07     2022"
END_HEADER

BEGIN_DB
 ICCAP_VAR ve         -1             
 ICCAP_VAR vc         0              

 #vb                    ic                    ib                    ie                   
  0                     -6.2e-12              1.28e-12              0                    
  -0.02                 1.294e-10             1.32e-12              4e-14                
  -0.04                 9.4e-11               1.24e-12              -8e-14               
  -0.06                 5.34e-11              1.24e-12              0                    
  -0.08                 1.078e-10             1.16e-12              -4e-14               
  -0.1                  2.8e-12               1.14e-12              4e-14                
  -0.12                 -2.08e-11             9.8e-13               2e-14                
  -0.14                 1.04e-10              7.2e-13               -2e-14               
  -0.16                 1.032e-10             0                     -6e-14               
  -0.18                 8.5e-11               -1.54e-12             -2e-14               
  -0.2                  7.04e-11              -4.64e-12             0                    
  -0.22                 2.88e-11              -1.138e-11            2e-14                
  -0.24                 6.14e-11              -2.556e-11            -2e-14               
  -0.26                 5.5e-11               -5.608e-11            -2e-14               
  -0.28                 2.398e-10             -1.2156e-10           -2e-14               
  -0.3                  3.466e-10             -2.6076e-10           -6e-14               
  -0.32                 5.156e-10             -5.6178e-10           4e-14                
  -0.34                 1.2428e-09            -1.1976e-09           -4e-14               
  -0.36                 2.6612e-09            -2.5504e-09           -1.2e-13             
  -0.38                 5.558e-09             -5.435e-09            -3.2e-13             
  -0.4                  1.2188e-08            -1.1344e-08           -6.4e-13             
  -0.42                 2.394e-08             -2.3918e-08           -1.68e-12            
  -0.44                 5.0372e-08            -5.0352e-08           -3.52e-12            
  -0.46                 1.04366e-07           -1.04324e-07          -7.76e-12            
  -0.48                 2.1254e-07            -2.1142e-07           -1.898e-11           
  -0.5                  4.2488e-07            -4.2424e-07           -3.626e-11           
  -0.52                 8.2828e-07            -8.24e-07             -7.844e-11           
  -0.54                 1.5444e-06            -1.5402e-06           -1.9016e-10          
  -0.56                 2.7444e-06            -2.75e-06             -3.6418e-10          
  -0.58                 4.6848e-06            -4.6892e-06           -7.7892e-10          
  -0.6                  7.6826e-06            -7.6846e-06           -1.6912e-09          
  -0.62                 1.2058e-05            -1.2026e-05           -3.7822e-09          
  -0.64                 1.8338e-05            -1.8352e-05           -7.484e-09           
  -0.66                 2.7178e-05            -2.7166e-05           -1.5584e-08          
  -0.68                 3.9218e-05            -3.917e-05            -3.1924e-08          
  -0.7                  5.536e-05             -5.5326e-05           -6.4622e-08          
  -0.72                 7.659e-05             -7.6484e-05           -1.277e-07           
  -0.74                 0.000104022           -0.000103786          -2.4644e-07          
  -0.76                 0.00013894            -0.00013872           -4.698e-07           
  -0.78                 0.00018268            -0.00018174           -8.3836e-07          
  -0.8                  0.00023628            -0.0002349            -1.466e-06           
  -0.82                 0.00030122            -0.00029854           -2.458e-06           
  -0.84                 0.00037774            -0.00037378           -3.951e-06           
  -0.86                 0.00046842            -0.00046242           -6.1006e-06          
  -0.88                 0.00057292            -0.0005636            -9.036e-06           
  -0.9                  0.00069248            -0.00067948           -1.291e-05           
  -0.92                 0.00082628            -0.0008088            -1.7778e-05          
  -0.94                 0.0009759             -0.00095224           -2.3712e-05          
  -0.96                 0.0011404             -0.00111082           -3.0686e-05          
  -0.98                 0.0013194             -0.001281             -3.8716e-05          
  -1                    0.0015114             -0.0014646            -4.7684e-05          
END_DB

BEGIN_DB
 ICCAP_VAR ve         -2             
 ICCAP_VAR vc         0              

 #vb                    ic                    ib                    ie                   
  0                     -5.2e-11              1.22e-12              4e-14                
  -0.02                 -1.32e-11             1.3e-12               6e-14                
  -0.04                 7.7e-11               1.28e-12              8e-14                
  -0.06                 1.172e-10             1.24e-12              4e-14                
  -0.08                 0                     1.18e-12              8e-14                
  -0.1                  3.24e-11              1.08e-12              6e-14                
  -0.12                 1.108e-10             9.6e-13               2e-14                
  -0.14                 7.38e-11              6.2e-13               -4e-14               
  -0.16                 4.38e-11              -4e-14                -2e-14               
  -0.18                 -3.4e-11              -1.48e-12             4e-14                
  -0.2                  6.24e-11              -4.72e-12             2e-14                
  -0.22                 4.52e-11              -1.14e-11             -6e-14               
  -0.24                 7.86e-11              -2.554e-11            1e-13                
  -0.26                 6.88e-11              -5.604e-11            0                    
  -0.28                 2.274e-10             -1.2152e-10           6e-14                
  -0.3                  2.692e-10             -2.6074e-10           2e-14                
  -0.32                 6.622e-10             -5.6206e-10           -4e-14               
  -0.34                 1.2948e-09            -1.1978e-09           -6e-14               
  -0.36                 2.6026e-09            -2.5492e-09           -2.2e-13             
  -0.38                 5.5722e-09            -5.4312e-09           -3.2e-13             
  -0.4                  1.2038e-08            -1.1348e-08           -9e-13               
  -0.42                 2.423e-08             -2.391e-08            -1.6e-12             
  -0.44                 5.1008e-08            -5.0314e-08           -3.6e-12             
  -0.46                 1.04368e-07           -1.04502e-07          -7.88e-12            
  -0.48                 2.1582e-07            -2.1158e-07           -1.964e-11           
  -0.5                  4.252e-07             -4.2524e-07           -3.728e-11           
  -0.52                 8.2332e-07            -8.2404e-07           -8.04e-11            
  -0.54                 1.5384e-06            -1.5424e-06           -1.9462e-10          
  -0.56                 2.7482e-06            -2.7486e-06           -3.7318e-10          
  -0.58                 4.6848e-06            -4.691e-06            -7.982e-10           
  -0.6                  7.6864e-06            -7.6856e-06           -1.7334e-09          
  -0.62                 1.2044e-05            -1.2044e-05           -3.8878e-09          
  -0.64                 1.8358e-05            -1.833e-05            -7.668e-09           
  -0.66                 2.7194e-05            -2.7196e-05           -1.5976e-08          
  -0.68                 3.9198e-05            -3.9182e-05           -3.2726e-08          
  -0.7                  5.5382e-05            -5.5366e-05           -6.6236e-08          
  -0.72                 7.6622e-05            -7.647e-05            -1.309e-07           
  -0.74                 0.000104076           -0.00010383           -2.5268e-07          
  -0.76                 0.00013912            -0.0001386            -4.8098e-07          
  -0.78                 0.0001827             -0.00018182           -8.5984e-07          
  -0.8                  0.00023638            -0.00023496           -1.5038e-06          
  -0.82                 0.0003012             -0.00029882           -2.5214e-06          
  -0.84                 0.00037822            -0.0003742            -4.0534e-06          
  -0.86                 0.00046858            -0.00046254           -6.2632e-06          
  -0.88                 0.00057316            -0.00056394           -9.2782e-06          
  -0.9                  0.00069268            -0.00067986           -1.3252e-05          
  -0.92                 0.00082696            -0.00080912           -1.8242e-05          
  -0.94                 0.00097656            -0.00095242           -2.4338e-05          
  -0.96                 0.0011414             -0.00110982           -3.1532e-05          
  -0.98                 0.00132               -0.0012812            -3.9792e-05          
  -1                    0.0015136             -0.0014648            -4.9112e-05          
END_DB

