! VERSION = 6.00
BEGIN_HEADER
 ICCAP_INPUTS
  ve         V  E GROUND SMU_E 0.1 LIN        2    -1         -2         2    -1        
  vc         V  C GROUND SMU_C 0.1 CON        0
  vb         V  B GROUND SMU_B 0.01 LIN        1    0          -1         51   -0.02     
 ICCAP_OUTPUTS
  ic         I  C GROUND SMU_C M
  ib         I  B GROUND SMU_B B
  ie         I  E GROUND SMU_E M
 ICCAP_VALUES
  TNOM "27"
  TEMP "27"
  TECHNO "SG13S"
  LOT "PQA701"
  WAFER "17"
  CHIP "d0406"
  MODULE "T323_pnpMPA"
  DEV_NAME "DUT6"
  DEV_GEOM_L "."
  DEV_GEOM_W "."
  NF_EMITTER "."
  REMARKS "pnpMPA Teststructure"
  TIMEDATE "Fri Oct 21 12:47:07     2022"
END_HEADER

BEGIN_DB
 ICCAP_VAR ve         -1             
 ICCAP_VAR vc         0              

 #vb                    ic                    ib                    ie                   
  0                     1.08e-10              2.66e-12              0                    
  -0.02                 8.88e-11              2.76e-12              6e-14                
  -0.04                 1.282e-10             2.64e-12              0                    
  -0.06                 8.4e-11               2.68e-12              6e-14                
  -0.08                 5.18e-11              2.56e-12              1e-13                
  -0.1                  -1.28e-11             2.48e-12              0                    
  -0.12                 1.058e-10             2.28e-12              4e-14                
  -0.14                 -7.4e-12              1.76e-12              -6e-14               
  -0.16                 -8.28e-11             8e-13                 -2e-14               
  -0.18                 -4.6e-12              -1.3e-12              4e-14                
  -0.2                  -7.64e-11             -5.66e-12             1.2e-13              
  -0.22                 1.472e-10             -1.532e-11            1.6e-13              
  -0.24                 1.286e-10             -3.568e-11            0                    
  -0.26                 8.26e-11              -7.92e-11             0                    
  -0.28                 2.316e-10             -1.7304e-10           -8e-14               
  -0.3                  3.776e-10             -3.7292e-10           2e-14                
  -0.32                 8.83e-10              -8.0764e-10           -1e-13               
  -0.34                 1.7578e-09            -1.7278e-09           -1.8e-13             
  -0.36                 3.7294e-09            -3.683e-09            -4.6e-13             
  -0.38                 7.886e-09             -7.7898e-09           -8.6e-13             
  -0.4                  1.6608e-08            -1.6556e-08           -2.1e-12             
  -0.42                 3.5916e-08            -3.4972e-08           -4.44e-12            
  -0.44                 7.433e-08             -7.3902e-08           -9.54e-12            
  -0.46                 1.5538e-07            -1.528e-07            -2.242e-11           
  -0.48                 3.1568e-07            -3.1392e-07           -4.458e-11           
  -0.5                  6.343e-07             -6.3168e-07           -9.708e-11           
  -0.52                 1.2326e-06            -1.2292e-06           -2.2474e-10          
  -0.54                 2.3088e-06            -2.305e-06            -4.519e-10           
  -0.56                 4.1178e-06            -4.12e-06             -9.7092e-10          
  -0.58                 7.059e-06             -7.0608e-06           -2.1158e-09          
  -0.6                  1.1652e-05            -1.1626e-05           -4.5374e-09          
  -0.62                 1.834e-05             -1.838e-05            -9.5824e-09          
  -0.64                 2.826e-05             -2.8226e-05           -2.0244e-08          
  -0.66                 4.2366e-05            -4.231e-05            -4.255e-08           
  -0.68                 6.1874e-05            -6.1758e-05           -8.8128e-08          
  -0.7                  8.8606e-05            -8.8426e-05           -1.8084e-07          
  -0.72                 0.0001243             -0.0001238            -3.682e-07           
  -0.74                 0.00017112            -0.0001702            -7.1514e-07          
  -0.76                 0.0002319             -0.0002307            -1.373e-06           
  -0.78                 0.00030876            -0.00030666           -2.5458e-06          
  -0.8                  0.00040606            -0.00040178           -4.5742e-06          
  -0.82                 0.0005263             -0.00051828           -7.879e-06           
  -0.84                 0.00067314            -0.00066052           -1.3008e-05          
  -0.86                 0.00085202            -0.00083178           -2.0676e-05          
  -0.88                 0.00106644            -0.0010358            -3.1408e-05          
  -0.9                  0.0013232             -0.0012792            -4.599e-05           
  -0.92                 0.0016258             -0.0015618            -6.4818e-05          
  -0.94                 0.0019818             -0.0018936            -8.8292e-05          
  -0.96                 0.002391              -0.0022756            -0.00011638          
  -0.98                 0.0028608             -0.0027118            -0.00014958          
  -1                    0.0033906             -0.0032026            -0.00018672          
END_DB

BEGIN_DB
 ICCAP_VAR ve         -2             
 ICCAP_VAR vc         0              

 #vb                    ic                    ib                    ie                   
  0                     1.78e-11              2.78e-12              0                    
  -0.02                 -4.2e-12              2.68e-12              1.6e-13              
  -0.04                 1.224e-10             2.66e-12              6e-14                
  -0.06                 -1.542e-10            2.72e-12              1.8e-13              
  -0.08                 1.132e-10             2.6e-12               8e-14                
  -0.1                  -7e-12                2.46e-12              4e-14                
  -0.12                 -6.98e-11             2.3e-12               6e-14                
  -0.14                 3e-11                 1.8e-12               1.2e-13              
  -0.16                 1.72e-11              6.8e-13               6e-14                
  -0.18                 -3.46e-11             -1.34e-12             0                    
  -0.2                  7.92e-11              -5.74e-12             0                    
  -0.22                 6.84e-11              -1.532e-11            2e-14                
  -0.24                 4.42e-11              -3.57e-11             4e-14                
  -0.26                 5.24e-11              -7.922e-11            0                    
  -0.28                 2.33e-10              -1.7322e-10           6e-14                
  -0.3                  3.502e-10             -3.728e-10            -4e-14               
  -0.32                 8.318e-10             -8.071e-10            -1.6e-13             
  -0.34                 1.6748e-09            -1.7284e-09           -1.8e-13             
  -0.36                 3.7658e-09            -3.687e-09            -3.4e-13             
  -0.38                 8.658e-09             -7.7984e-09           -9.8e-13             
  -0.4                  1.6702e-08            -1.6556e-08           -2.14e-12            
  -0.42                 3.5516e-08            -3.4986e-08           -4.36e-12            
  -0.44                 7.4182e-08            -7.3952e-08           -9.74e-12            
  -0.46                 1.535e-07             -1.5274e-07           -2.268e-11           
  -0.48                 3.1714e-07            -3.1412e-07           -4.548e-11           
  -0.5                  6.33e-07              -6.3226e-07           -9.866e-11           
  -0.52                 1.2274e-06            -1.2278e-06           -2.2848e-10          
  -0.54                 2.3028e-06            -2.306e-06            -4.595e-10           
  -0.56                 4.1254e-06            -4.1212e-06           -9.8712e-10          
  -0.58                 7.0562e-06            -7.057e-06            -2.1512e-09          
  -0.6                  1.1622e-05            -1.1606e-05           -4.6138e-09          
  -0.62                 1.8398e-05            -1.8378e-05           -9.747e-09           
  -0.64                 2.8234e-05            -2.823e-05            -2.0592e-08          
  -0.66                 4.2338e-05            -4.2334e-05           -4.3302e-08          
  -0.68                 6.182e-05             -6.1744e-05           -8.9676e-08          
  -0.7                  8.8612e-05            -8.836e-05            -1.8404e-07          
  -0.72                 0.00012404            -0.00012372           -3.747e-07           
  -0.74                 0.000171              -0.00017052           -7.2732e-07          
  -0.76                 0.00023208            -0.00023066           -1.3972e-06          
  -0.78                 0.00030872            -0.00030628           -2.591e-06           
  -0.8                  0.0004064             -0.00040174           -4.6572e-06          
  -0.82                 0.0005262             -0.00051858           -8.02e-06            
  -0.84                 0.00067316            -0.00066046           -1.3244e-05          
  -0.86                 0.0008521             -0.0008313            -2.105e-05           
  -0.88                 0.00106636            -0.0010353            -3.1978e-05          
  -0.9                  0.0013234             -0.0012788            -4.6856e-05          
  -0.92                 0.0016278             -0.0015614            -6.6034e-05          
  -0.94                 0.001981              -0.0018924            -8.9958e-05          
  -0.96                 0.0023924             -0.002274             -0.00011854          
  -0.98                 0.0028614             -0.00271              -0.00015232          
  -1                    0.0033926             -0.0032006            -0.00019026          
END_DB

