! VERSION = 6.00
BEGIN_HEADER
 ICCAP_INPUTS
  ve         V  E GROUND SMU_E 0.1 LIN        2    -1         -2         2    -1        
  vc         V  C GROUND SMU_C 0.1 CON        0
  vb         V  B GROUND SMU_B 0.01 LIN        1    0          -1         51   -0.02     
 ICCAP_OUTPUTS
  ic         I  C GROUND SMU_C M
  ib         I  B GROUND SMU_B B
  ie         I  E GROUND SMU_E M
 ICCAP_VALUES
  TNOM "27"
  TEMP "27"
  TECHNO "SG13S"
  LOT "PQA701"
  WAFER "17"
  CHIP "d0406"
  MODULE "T323_pnpMPA"
  DEV_NAME "DUT7"
  DEV_GEOM_L "."
  DEV_GEOM_W "."
  NF_EMITTER "."
  REMARKS "pnpMPA Teststructure"
  TIMEDATE "Fri Oct 21 12:47:07     2022"
END_HEADER

BEGIN_DB
 ICCAP_VAR ve         -1             
 ICCAP_VAR vc         0              

 #vb                    ic                    ib                    ie                   
  0                     1.326e-10             7.2e-12               1e-13                
  -0.02                 5.78e-11              7.2e-12               2e-14                
  -0.04                 9.28e-11              7.12e-12              8e-14                
  -0.06                 5.36e-11              7.16e-12              0                    
  -0.08                 -2.14e-11             7.02e-12              0                    
  -0.1                  5.94e-11              6.9e-12               4e-14                
  -0.12                 1.766e-10             6.58e-12              2e-14                
  -0.14                 5.94e-11              6.18e-12              0                    
  -0.16                 1.514e-10             5.28e-12              4e-14                
  -0.18                 5.9e-11               3.62e-12              4e-14                
  -0.2                  1.43e-10              -1.2e-13              -2e-14               
  -0.22                 4.16e-11              -8.1e-12              2e-14                
  -0.24                 6.44e-11              -2.494e-11            -2e-14               
  -0.26                 8.8e-12               -6.098e-11            -4e-14               
  -0.28                 1.746e-10             -1.3842e-10           -6e-14               
  -0.3                  4.196e-10             -3.0334e-10           -1.2e-13             
  -0.32                 6.61e-10              -6.6064e-10           -2e-14               
  -0.34                 1.48e-09              -1.4148e-09           -2e-13               
  -0.36                 2.958e-09             -3.0196e-09           -2.8e-13             
  -0.38                 6.672e-09             -6.3696e-09           -6.2e-13             
  -0.4                  1.3556e-08            -1.3492e-08           -1.4e-12             
  -0.42                 2.8506e-08            -2.8496e-08           -2.96e-12            
  -0.44                 6.0246e-08            -6.0158e-08           -6.76e-12            
  -0.46                 1.2616e-07            -1.2402e-07           -1.63e-11            
  -0.48                 2.5356e-07            -2.5386e-07           -3.082e-11           
  -0.5                  5.1248e-07            -5.105e-07            -6.712e-11           
  -0.52                 9.9452e-07            -9.9068e-07           -1.445e-10           
  -0.54                 1.8552e-06            -1.8542e-06           -3.4666e-10          
  -0.56                 3.3184e-06            -3.312e-06            -6.706e-10           
  -0.58                 5.6664e-06            -5.665e-06            -1.46e-09            
  -0.6                  9.3026e-06            -9.3018e-06           -3.1254e-09          
  -0.62                 1.4662e-05            -1.4662e-05           -7.0098e-09          
  -0.64                 2.2456e-05            -2.2418e-05           -1.39e-08            
  -0.66                 3.3446e-05            -3.347e-05            -2.911e-08           
  -0.68                 4.8638e-05            -4.8546e-05           -5.9958e-08          
  -0.7                  6.9188e-05            -6.914e-05            -1.2224e-07          
  -0.72                 9.657e-05             -9.627e-05            -2.4348e-07          
  -0.74                 0.00013208            -0.0001315            -4.8222e-07          
  -0.76                 0.00017822            -0.00017766           -9.0116e-07          
  -0.78                 0.0002363             -0.00023436           -1.6504e-06          
  -0.8                  0.00030822            -0.00030574           -2.9198e-06          
  -0.82                 0.00039654            -0.00039168           -4.954e-06           
  -0.84                 0.0005021             -0.00049452           -8.0526e-06          
  -0.86                 0.00062944            -0.00061656           -1.2552e-05          
  -0.88                 0.0007777             -0.00075846           -1.8786e-05          
  -0.9                  0.0009504             -0.00092268           -2.7092e-05          
  -0.92                 0.001146              -0.00110964           -3.7592e-05          
  -0.94                 0.0013676             -0.0013196            -5.0486e-05          
  -0.96                 0.0016164             -0.0015518            -6.58e-05            
  -0.98                 0.0018928             -0.0018082            -8.3432e-05          
  -1                    0.002192              -0.002091             -0.000103186         
END_DB

BEGIN_DB
 ICCAP_VAR ve         -2             
 ICCAP_VAR vc         0              

 #vb                    ic                    ib                    ie                   
  0                     4.28e-11              7.2e-12               4e-14                
  -0.02                 1.8e-12               7.14e-12              2e-14                
  -0.04                 3.26e-11              7.14e-12              4e-14                
  -0.06                 2.34e-11              7.14e-12              2e-14                
  -0.08                 5.8e-11               7e-12                 6e-14                
  -0.1                  1.314e-10             6.76e-12              -6e-14               
  -0.12                 8.76e-11              6.56e-12              8e-14                
  -0.14                 7.9e-11               6.06e-12              2e-14                
  -0.16                 3.82e-11              5.32e-12              6e-14                
  -0.18                 1.266e-10             3.48e-12              2e-14                
  -0.2                  4.58e-11              -1.4e-13              -2e-14               
  -0.22                 2.26e-10              -8.1e-12              -6e-14               
  -0.24                 2.4e-11               -2.492e-11            1.2e-13              
  -0.26                 1.012e-10             -6.094e-11            4e-14                
  -0.28                 2.338e-10             -1.3838e-10           8e-14                
  -0.3                  3.69e-10              -3.0288e-10           -6e-14               
  -0.32                 6.718e-10             -6.6016e-10           -6e-14               
  -0.34                 1.3766e-09            -1.4144e-09           -1e-13               
  -0.36                 3.2032e-09            -3.0226e-09           -3.4e-13             
  -0.38                 6.874e-09             -6.3676e-09           -7e-13               
  -0.4                  1.3626e-08            -1.3512e-08           -1.48e-12            
  -0.42                 2.9302e-08            -2.8538e-08           -3.08e-12            
  -0.44                 6.0438e-08            -6.016e-08            -6.76e-12            
  -0.46                 1.2732e-07            -1.2386e-07           -1.668e-11           
  -0.48                 2.5576e-07            -2.5396e-07           -3.14e-11            
  -0.5                  5.1128e-07            -5.1082e-07           -6.836e-11           
  -0.52                 9.9218e-07            -9.9218e-07           -1.4756e-10          
  -0.54                 1.8654e-06            -1.858e-06            -3.5428e-10          
  -0.56                 3.3142e-06            -3.3128e-06           -6.8466e-10          
  -0.58                 5.6664e-06            -5.663e-06            -1.4906e-09          
  -0.6                  9.312e-06             -9.3088e-06           -3.1884e-09          
  -0.62                 1.4646e-05            -1.4658e-05           -7.1566e-09          
  -0.64                 2.245e-05             -2.2426e-05           -1.4186e-08          
  -0.66                 3.3452e-05            -3.3454e-05           -2.9694e-08          
  -0.68                 4.863e-05             -4.851e-05            -6.1114e-08          
  -0.7                  6.9204e-05            -6.9116e-05           -1.246e-07           
  -0.72                 9.652e-05             -9.627e-05            -2.4834e-07          
  -0.74                 0.0001322             -0.00013156           -4.9164e-07          
  -0.76                 0.0001783             -0.00017766           -9.1988e-07          
  -0.78                 0.000236              -0.00023472           -1.6832e-06          
  -0.8                  0.00030842            -0.00030542           -2.9784e-06          
  -0.82                 0.00039674            -0.00039124           -5.053e-06           
  -0.84                 0.00050232            -0.00049468           -8.2168e-06          
  -0.86                 0.00062884            -0.00061686           -1.2838e-05          
  -0.88                 0.00077732            -0.00075858           -1.9196e-05          
  -0.9                  0.00095034            -0.00092248           -2.7662e-05          
  -0.92                 0.001147              -0.00110828           -3.8374e-05          
  -0.94                 0.0013698             -0.0013166            -5.154e-05           
  -0.96                 0.001617              -0.0015508            -6.7078e-05          
  -0.98                 0.0018928             -0.0018086            -8.5292e-05          
  -1                    0.0021926             -0.0020886            -0.00010571          
END_DB

