! VERSION = 6.00
BEGIN_HEADER
 ICCAP_INPUTS
  ve         V  E GROUND SMU_E 0.1 LIN        2    -1         -2         2    -1        
  vc         V  C GROUND SMU_C 0.1 CON        0
  vb         V  B GROUND SMU_B 0.01 LIN        1    0          -1         51   -0.02     
 ICCAP_OUTPUTS
  ic         I  C GROUND SMU_C M
  ib         I  B GROUND SMU_B B
  ie         I  E GROUND SMU_E M
 ICCAP_VALUES
  TNOM "27"
  TEMP "27"
  TECHNO "SG13S"
  LOT "PQA701"
  WAFER "17"
  CHIP "d0406"
  MODULE "T323_pnpMPA"
  DEV_NAME "DUT4"
  DEV_GEOM_L "."
  DEV_GEOM_W "."
  NF_EMITTER "."
  REMARKS "pnpMPA Teststructure"
  TIMEDATE "Fri Oct 21 12:47:07     2022"
END_HEADER

BEGIN_DB
 ICCAP_VAR ve         -1             
 ICCAP_VAR vc         0              

 #vb                    ic                    ib                    ie                   
  0                     1.504e-10             2.9e-12               6e-14                
  -0.02                 1.454e-10             2.84e-12              1.4e-13              
  -0.04                 -1.88e-11             2.78e-12              0                    
  -0.06                 4.36e-11              2.7e-12               2e-14                
  -0.08                 -4.18e-11             2.62e-12              4e-14                
  -0.1                  5.38e-11              2.56e-12              2e-14                
  -0.12                 -4.48e-11             2.28e-12              -1.2e-13             
  -0.14                 1.336e-10             1.78e-12              1e-13                
  -0.16                 6.54e-11              7.8e-13               4e-14                
  -0.18                 -2.9e-11              -1.6e-12              -2e-14               
  -0.2                  5.62e-11              -6.34e-12             -2e-14               
  -0.22                 4.6e-12               -1.676e-11            8e-14                
  -0.24                 1.44e-10              -3.876e-11            -2e-14               
  -0.26                 1.7e-10               -8.606e-11            0                    
  -0.28                 1.984e-10             -1.875e-10            -2e-14               
  -0.3                  5.812e-10             -4.0308e-10           -8e-14               
  -0.32                 9.83e-10              -8.7436e-10           -2e-14               
  -0.34                 1.9596e-09            -1.8706e-09           -2.8e-13             
  -0.36                 4.0888e-09            -3.9884e-09           -5.2e-13             
  -0.38                 8.262e-09             -8.4378e-09           -1.38e-12            
  -0.4                  1.8338e-08            -1.7896e-08           -3e-12               
  -0.42                 3.8462e-08            -3.7788e-08           -6.16e-12            
  -0.44                 7.9806e-08            -8.0052e-08           -1.366e-11           
  -0.46                 1.6644e-07            -1.6514e-07           -3.21e-11            
  -0.48                 3.3932e-07            -3.392e-07            -6.32e-11            
  -0.5                  6.8358e-07            -6.8078e-07           -1.371e-10           
  -0.52                 1.3202e-06            -1.3282e-06           -3.2186e-10          
  -0.54                 2.4772e-06            -2.4832e-06           -6.3796e-10          
  -0.56                 4.429e-06             -4.4302e-06           -1.3918e-09          
  -0.58                 7.5736e-06            -7.5688e-06           -2.9786e-09          
  -0.6                  1.2438e-05            -1.242e-05            -6.698e-09           
  -0.62                 1.9612e-05            -1.9582e-05           -1.3432e-08          
  -0.64                 3.0028e-05            -3.005e-05            -2.8286e-08          
  -0.66                 4.4906e-05            -4.4794e-05           -5.915e-08           
  -0.68                 6.5258e-05            -6.5136e-05           -1.2178e-07          
  -0.7                  9.2958e-05            -9.2746e-05           -2.4774e-07          
  -0.72                 0.00012962            -0.00012902           -4.9992e-07          
  -0.74                 0.0001772             -0.00017656           -9.571e-07           
  -0.76                 0.00023852            -0.0002367            -1.8116e-06          
  -0.78                 0.0003149             -0.00031172           -3.3042e-06          
  -0.8                  0.00040974            -0.0004037            -5.826e-06           
  -0.82                 0.00052462            -0.00051462           -9.8436e-06          
  -0.84                 0.00066244            -0.00064642           -1.5926e-05          
  -0.86                 0.00082632            -0.00080184           -2.48e-05            
  -0.88                 0.00101854            -0.00098206           -3.6906e-05          
  -0.9                  0.0012438             -0.0011906            -5.3004e-05          
  -0.92                 0.001499              -0.0014264            -7.322e-05           
  -0.94                 0.0017908             -0.001694             -9.7804e-05          
  -0.96                 0.0021176             -0.0019908            -0.00012668          
  -0.98                 0.0024828             -0.002323             -0.00015984          
  -1                    0.0028796             -0.002682             -0.00019682          
END_DB

BEGIN_DB
 ICCAP_VAR ve         -2             
 ICCAP_VAR vc         0              

 #vb                    ic                    ib                    ie                   
  0                     3.02e-11              2.8e-12               8e-14                
  -0.02                 1.64e-11              2.74e-12              2e-14                
  -0.04                 5.5e-11               2.78e-12              2e-14                
  -0.06                 5.22e-11              2.68e-12              4e-14                
  -0.08                 5.08e-11              2.58e-12              2e-14                
  -0.1                  4.36e-11              2.46e-12              8e-14                
  -0.12                 1.216e-10             2.22e-12              6e-14                
  -0.14                 -3.8e-12              1.8e-12               4e-14                
  -0.16                 3.2e-11               6.6e-13               -2e-14               
  -0.18                 2.8e-12               -1.52e-12             4e-14                
  -0.2                  1e-10                 -6.38e-12             0                    
  -0.22                 7.62e-11              -1.668e-11            0                    
  -0.24                 4.8e-11               -3.878e-11            0                    
  -0.26                 5.78e-11              -8.586e-11            -4e-14               
  -0.28                 2.718e-10             -1.8752e-10           4e-14                
  -0.3                  4.44e-10              -4.0398e-10           8e-14                
  -0.32                 9.554e-10             -8.7834e-10           -1.2e-13             
  -0.34                 2.0276e-09            -1.8642e-09           -2.8e-13             
  -0.36                 4.0532e-09            -3.9654e-09           -6e-13               
  -0.38                 8.522e-09             -8.3906e-09           -1.34e-12            
  -0.4                  1.783e-08             -1.78e-08             -3.02e-12            
  -0.42                 3.852e-08             -3.7658e-08           -6.18e-12            
  -0.44                 8.004e-08             -7.9628e-08           -1.386e-11           
  -0.46                 1.6736e-07            -1.6484e-07           -3.21e-11            
  -0.48                 3.4002e-07            -3.3852e-07           -6.418e-11           
  -0.5                  6.8312e-07            -6.8028e-07           -1.3912e-10          
  -0.52                 1.3312e-06            -1.3238e-06           -3.228e-10           
  -0.54                 2.4846e-06            -2.4756e-06           -6.4712e-10          
  -0.56                 4.4222e-06            -4.4244e-06           -1.412e-09           
  -0.58                 7.5666e-06            -7.5612e-06           -3.0238e-09          
  -0.6                  1.246e-05             -1.2422e-05           -6.7454e-09          
  -0.62                 1.9602e-05            -1.9552e-05           -1.3628e-08          
  -0.64                 3.0034e-05            -3.0032e-05           -2.8702e-08          
  -0.66                 4.483e-05             -4.4752e-05           -6.0052e-08          
  -0.68                 6.5244e-05            -6.5094e-05           -1.236e-07           
  -0.7                  9.2972e-05            -9.2724e-05           -2.5164e-07          
  -0.72                 0.0001298             -0.00012906           -5.068e-07           
  -0.74                 0.00017706            -0.0001764            -9.7238e-07          
  -0.76                 0.00023836            -0.00023672           -1.8416e-06          
  -0.78                 0.00031472            -0.00031132           -3.3582e-06          
  -0.8                  0.00040926            -0.00040348           -5.9222e-06          
  -0.82                 0.00052454            -0.00051468           -1.00084e-05         
  -0.84                 0.00066244            -0.00064594           -1.6218e-05          
  -0.86                 0.00082622            -0.0008016            -2.5198e-05          
  -0.88                 0.00101886            -0.00098152           -3.7542e-05          
  -0.9                  0.001244              -0.0011896            -5.3948e-05          
  -0.92                 0.0014992             -0.0014258            -7.4472e-05          
  -0.94                 0.0017918             -0.0016932            -9.943e-05           
  -0.96                 0.0021176             -0.00199              -0.00012888          
  -0.98                 0.0024834             -0.0023196            -0.00016268          
  -1                    0.0028802             -0.0026796            -0.00020062          
END_DB

