! VERSION = 6.00
BEGIN_HEADER
 ICCAP_INPUTS
  ve         V  E GROUND SMU_E 0.1 LIN        2    -1         -2         2    -1        
  vc         V  C GROUND SMU_C 0.1 CON        0
  vb         V  B GROUND SMU_B 0.01 LIN        1    0          -1         51   -0.02     
 ICCAP_OUTPUTS
  ic         I  C GROUND SMU_C M
  ib         I  B GROUND SMU_B B
  ie         I  E GROUND SMU_E M
 ICCAP_VALUES
  TNOM "27"
  TEMP "27"
  TECHNO "SG13S"
  LOT "PQA701"
  WAFER "17"
  CHIP "d0406"
  MODULE "T323_pnpMPA"
  DEV_NAME "DUT8"
  DEV_GEOM_L "."
  DEV_GEOM_W "."
  NF_EMITTER "."
  REMARKS "pnpMPA Teststructure"
  TIMEDATE "Fri Oct 21 12:47:07     2022"
END_HEADER

BEGIN_DB
 ICCAP_VAR ve         -1             
 ICCAP_VAR vc         0              

 #vb                    ic                    ib                    ie                   
  0                     1.704e-10             2.28e-12              0                    
  -0.02                 2.05e-10              2.14e-12              8e-14                
  -0.04                 1.43e-10              2.2e-12               4e-14                
  -0.06                 1.402e-10             2.12e-12              0                    
  -0.08                 7.08e-11              2.12e-12              4e-14                
  -0.1                  4.76e-11              1.94e-12              2e-13                
  -0.12                 -1.82e-11             1.74e-12              8e-14                
  -0.14                 1.84e-11              1.36e-12              1e-13                
  -0.16                 6.34e-11              5.2e-13               2e-14                
  -0.18                 6.06e-11              -1.32e-12             1e-13                
  -0.2                  1.636e-10             -5.4e-12              -2e-14               
  -0.22                 8.82e-11              -1.398e-11            2e-14                
  -0.24                 3.08e-11              -3.216e-11            6e-14                
  -0.26                 -5.98e-11             -7.106e-11            -2e-14               
  -0.28                 1.92e-10              -1.5488e-10           -6e-14               
  -0.3                  4.354e-10             -3.3368e-10           -2e-14               
  -0.32                 6.674e-10             -7.2112e-10           -4e-14               
  -0.34                 1.4628e-09            -1.5438e-09           -1.6e-13             
  -0.36                 3.1958e-09            -3.286e-09            -2.4e-13             
  -0.38                 7.61e-09              -6.9374e-09           -6e-13               
  -0.4                  1.5034e-08            -1.4694e-08           -1.36e-12            
  -0.42                 3.1598e-08            -3.1076e-08           -2.88e-12            
  -0.44                 6.6416e-08            -6.5546e-08           -6.48e-12            
  -0.46                 1.4076e-07            -1.355e-07            -1.56e-11            
  -0.48                 2.8158e-07            -2.7818e-07           -3.078e-11           
  -0.5                  5.642e-07             -5.5986e-07           -6.678e-11           
  -0.52                 1.08654e-06           -1.0883e-06           -1.441e-10           
  -0.54                 2.0428e-06            -2.0398e-06           -3.3182e-10          
  -0.56                 3.6534e-06            -3.6504e-06           -6.6886e-10          
  -0.58                 6.2494e-06            -6.245e-06            -1.4584e-09          
  -0.6                  1.02768e-05           -1.02758e-05          -3.1276e-09          
  -0.62                 1.6244e-05            -1.619e-05            -6.8878e-09          
  -0.64                 2.4928e-05            -2.486e-05            -1.3996e-08          
  -0.66                 3.7276e-05            -3.7178e-05           -2.9458e-08          
  -0.68                 5.4186e-05            -5.4138e-05           -6.1114e-08          
  -0.7                  7.7468e-05            -7.728e-05            -1.257e-07           
  -0.72                 0.000108346           -0.000108054          -2.5328e-07          
  -0.74                 0.00014932            -0.00014844           -5.0618e-07          
  -0.76                 0.00020176            -0.00020056           -9.6506e-07          
  -0.78                 0.00026854            -0.00026662           -1.798e-06           
  -0.8                  0.00035294            -0.0003498            -3.2484e-06          
  -0.82                 0.00045704            -0.00045136           -5.6258e-06          
  -0.84                 0.00058444            -0.00057552           -9.3502e-06          
  -0.86                 0.00073984            -0.00072488           -1.4936e-05          
  -0.88                 0.00092654            -0.00090362           -2.2836e-05          
  -0.9                  0.0011498             -0.00111678           -3.3636e-05          
  -0.92                 0.0014116             -0.0013654            -4.7582e-05          
  -0.94                 0.0017198             -0.001655             -6.5196e-05          
  -0.96                 0.0020762             -0.001991             -8.6294e-05          
  -0.98                 0.002484              -0.0023746            -0.000111366         
  -1                    0.0029438             -0.002805             -0.0001397           
END_DB

BEGIN_DB
 ICCAP_VAR ve         -2             
 ICCAP_VAR vc         0              

 #vb                    ic                    ib                    ie                   
  0                     1.154e-10             2.18e-12              -4e-14               
  -0.02                 5.68e-11              2.2e-12               1.2e-13              
  -0.04                 2.8e-11               2.16e-12              0                    
  -0.06                 1.14e-11              2.12e-12              2e-14                
  -0.08                 2.46e-11              2.06e-12              8e-14                
  -0.1                  1.814e-10             2.04e-12              8e-14                
  -0.12                 9.72e-11              1.74e-12              -1e-13               
  -0.14                 -2.82e-11             1.32e-12              -4e-14               
  -0.16                 -4.38e-11             5e-13                 1.4e-13              
  -0.18                 -9.8e-12              -1.3e-12              4e-14                
  -0.2                  1.098e-10             -5.38e-12             0                    
  -0.22                 -3.06e-11             -1.394e-11            4e-14                
  -0.24                 7.7e-11               -3.204e-11            4e-14                
  -0.26                 1.244e-10             -7.11e-11             0                    
  -0.28                 1.474e-10             -1.5496e-10           8e-14                
  -0.3                  3.334e-10             -3.3342e-10           -1.2e-13             
  -0.32                 6.962e-10             -7.2044e-10           -2e-14               
  -0.34                 1.627e-09             -1.5414e-09           -1.4e-13             
  -0.36                 3.3506e-09            -3.283e-09            -3.2e-13             
  -0.38                 6.674e-09             -6.9358e-09           -5.4e-13             
  -0.4                  1.5222e-08            -1.4712e-08           -1.42e-12            
  -0.42                 3.0824e-08            -3.109e-08            -3.08e-12            
  -0.44                 6.637e-08             -6.5616e-08           -6.64e-12            
  -0.46                 1.3924e-07            -1.3542e-07           -1.584e-11           
  -0.48                 2.7822e-07            -2.778e-07            -3.148e-11           
  -0.5                  5.615e-07             -5.6074e-07           -6.804e-11           
  -0.52                 1.088e-06             -1.0896e-06           -1.4714e-10          
  -0.54                 2.0428e-06            -2.0408e-06           -3.382e-10           
  -0.56                 3.6488e-06            -3.646e-06            -6.8206e-10          
  -0.58                 6.2476e-06            -6.245e-06            -1.4876e-09          
  -0.6                  1.02794e-05           -1.02802e-05          -3.1886e-09          
  -0.62                 1.6188e-05            -1.6214e-05           -7.0234e-09          
  -0.64                 2.4922e-05            -2.4878e-05           -1.4272e-08          
  -0.66                 3.7218e-05            -3.7194e-05           -3.0082e-08          
  -0.68                 5.4172e-05            -5.4158e-05           -6.2334e-08          
  -0.7                  7.7464e-05            -7.732e-05            -1.2816e-07          
  -0.72                 0.000108326           -0.000108088          -2.5828e-07          
  -0.74                 0.00014874            -0.00014836           -5.1636e-07          
  -0.76                 0.00020142            -0.00020074           -9.8444e-07          
  -0.78                 0.0002682             -0.00026664           -1.8336e-06          
  -0.8                  0.00035276            -0.00034948           -3.31e-06            
  -0.82                 0.00045656            -0.0004514            -5.7358e-06          
  -0.84                 0.00058428            -0.00057516           -9.5354e-06          
  -0.86                 0.00074008            -0.00072472           -1.5226e-05          
  -0.88                 0.00092666            -0.00090326           -2.3286e-05          
  -0.9                  0.0011502             -0.0011158            -3.4312e-05          
  -0.92                 0.001413              -0.0013654            -4.8576e-05          
  -0.94                 0.0017202             -0.0016546            -6.659e-05           
  -0.96                 0.0020772             -0.001989             -8.8214e-05          
  -0.98                 0.002486              -0.0023728            -0.0001137           
  -1                    0.0029448             -0.0028046            -0.00014286          
END_DB

