! VERSION = 6.00
BEGIN_HEADER
 ICCAP_INPUTS
  ve         V  E GROUND SMU_E 0.1 LIN        2    -1         -2         2    -1        
  vc         V  C GROUND SMU_C 0.1 CON        0
  vb         V  B GROUND SMU_B 0.01 LIN        1    0          -1         51   -0.02     
 ICCAP_OUTPUTS
  ic         I  C GROUND SMU_C M
  ib         I  B GROUND SMU_B B
  ie         I  E GROUND SMU_E M
 ICCAP_VALUES
  TNOM "27"
  TEMP "27"
  TECHNO "SG13S"
  LOT "PQA701"
  WAFER "17"
  CHIP "d0406"
  MODULE "T323_pnpMPA"
  DEV_NAME "DUT3"
  DEV_GEOM_L "."
  DEV_GEOM_W "."
  NF_EMITTER "."
  REMARKS "pnpMPA Teststructure"
  TIMEDATE "Fri Oct 21 12:47:07     2022"
END_HEADER

BEGIN_DB
 ICCAP_VAR ve         -1             
 ICCAP_VAR vc         0              

 #vb                    ic                    ib                    ie                   
  0                     1.228e-10             2.26e-12              -6e-14               
  -0.02                 2.768e-10             2.24e-12              0                    
  -0.04                 2.424e-10             2.18e-12              0                    
  -0.06                 5.52e-11              2.18e-12              4e-14                
  -0.08                 1.748e-10             2.04e-12              0                    
  -0.1                  2.57e-10              1.86e-12              6e-14                
  -0.12                 1.734e-10             1.54e-12              -2e-14               
  -0.14                 9.34e-11              9.4e-13               2e-14                
  -0.16                 2.636e-10             -5.6e-13              -2e-14               
  -0.18                 2.092e-10             -3.68e-12             4e-14                
  -0.2                  3.258e-10             -1.034e-11            -8e-14               
  -0.22                 2.57e-10              -2.476e-11            0                    
  -0.24                 1.214e-10             -5.5e-11              2e-14                
  -0.26                 3.592e-10             -1.1976e-10           2e-14                
  -0.28                 4.848e-10             -2.6054e-10           -2e-14               
  -0.3                  7.558e-10             -5.6044e-10           -1.6e-13             
  -0.32                 1.3596e-09            -1.2126e-09           -1.2e-13             
  -0.34                 2.7986e-09            -2.5864e-09           -4e-13               
  -0.36                 6.516e-09             -5.4072e-09           -9.8e-13             
  -0.38                 1.2096e-08            -1.1462e-08           -2.06e-12            
  -0.4                  2.4426e-08            -2.4244e-08           -4.46e-12            
  -0.42                 5.0968e-08            -5.0914e-08           -9.74e-12            
  -0.44                 1.06624e-07           -1.0537e-07           -2.12e-11            
  -0.46                 2.1796e-07            -2.1708e-07           -4.578e-11           
  -0.48                 4.4222e-07            -4.385e-07            -9.632e-11           
  -0.5                  8.7346e-07            -8.7116e-07           -2.062e-10           
  -0.52                 1.6694e-06            -1.673e-06            -4.9768e-10          
  -0.54                 3.094e-06             -3.09e-06             -9.3724e-10          
  -0.56                 5.4388e-06            -5.4398e-06           -2.0046e-09          
  -0.58                 9.151e-06             -9.1538e-06           -4.1772e-09          
  -0.6                  1.4784e-05            -1.4734e-05           -9.0542e-09          
  -0.62                 2.281e-05             -2.28e-05             -1.7314e-08          
  -0.64                 3.4062e-05            -3.4056e-05           -3.435e-08           
  -0.66                 4.9366e-05            -4.9322e-05           -6.6618e-08          
  -0.68                 6.918e-05             -6.9044e-05           -1.2492e-07          
  -0.7                  9.4274e-05            -9.401e-05            -2.271e-07           
  -0.72                 0.00012462            -0.00012436           -3.9862e-07          
  -0.74                 0.00016082            -0.00016012           -6.6724e-07          
  -0.76                 0.00020346            -0.0002024            -1.08136e-06         
  -0.78                 0.00025172            -0.00025044           -1.696e-06           
  -0.8                  0.00030518            -0.0003028            -2.5564e-06          
  -0.82                 0.00036488            -0.00036128           -3.7026e-06          
  -0.84                 0.0004301             -0.00042458           -5.2552e-06          
  -0.86                 0.00049894            -0.00049304           -7.1576e-06          
  -0.88                 0.00057318            -0.0005636            -9.6342e-06          
  -0.9                  0.00065082            -0.00063864           -1.2462e-05          
  -0.92                 0.00073296            -0.00071712           -1.5808e-05          
  -0.94                 0.00081938            -0.0007982            -1.9722e-05          
  -0.96                 0.00090738            -0.00088362           -2.4098e-05          
  -0.98                 0.00099916            -0.0009684            -2.8918e-05          
  -1                    0.00108688            -0.00105084           -3.4086e-05          
END_DB

BEGIN_DB
 ICCAP_VAR ve         -2             
 ICCAP_VAR vc         0              

 #vb                    ic                    ib                    ie                   
  0                     2.45e-10              2.22e-12              -2e-14               
  -0.02                 1.834e-10             2.28e-12              0                    
  -0.04                 6.7e-11               2.22e-12              8e-14                
  -0.06                 1.73e-10              2.22e-12              -2e-14               
  -0.08                 8.02e-11              2.06e-12              0                    
  -0.1                  1.62e-10              1.92e-12              -8e-14               
  -0.12                 2.386e-10             1.56e-12              2e-14                
  -0.14                 1.556e-10             9.2e-13               -4e-14               
  -0.16                 1.83e-10              -5.2e-13              8e-14                
  -0.18                 2.14e-10              -3.6e-12              -2e-14               
  -0.2                  1.466e-10             -1.02e-11             0                    
  -0.22                 2.862e-10             -2.442e-11            -4e-14               
  -0.24                 1.304e-10             -5.486e-11            -6e-14               
  -0.26                 3.17e-10              -1.212e-10            -2e-14               
  -0.28                 4.378e-10             -2.6166e-10           -1.2e-13             
  -0.3                  7.186e-10             -5.6802e-10           -6e-14               
  -0.32                 1.3558e-09            -1.205e-09            -2.2e-13             
  -0.34                 2.7832e-09            -2.5856e-09           -4.2e-13             
  -0.36                 5.654e-09             -5.5176e-09           -1.02e-12            
  -0.38                 1.1654e-08            -1.148e-08            -2.56e-12            
  -0.4                  2.5388e-08            -2.4138e-08           -4.54e-12            
  -0.42                 5.1766e-08            -5.0532e-08           -1.004e-11           
  -0.44                 1.06102e-07           -1.05066e-07          -2.162e-11           
  -0.46                 2.1842e-07            -2.1568e-07           -4.66e-11            
  -0.48                 4.3878e-07            -4.389e-07            -9.75e-11            
  -0.5                  8.755e-07             -8.72e-07             -2.0938e-10          
  -0.52                 1.674e-06             -1.6722e-06           -5.0354e-10          
  -0.54                 3.098e-06             -3.0898e-06           -9.5022e-10          
  -0.56                 5.4402e-06            -5.4324e-06           -2.033e-09           
  -0.58                 9.1592e-06            -9.1574e-06           -4.2358e-09          
  -0.6                  1.474e-05             -1.4766e-05           -9.1426e-09          
  -0.62                 2.2818e-05            -2.2788e-05           -1.7586e-08          
  -0.64                 3.4168e-05            -3.4096e-05           -3.4896e-08          
  -0.66                 4.944e-05             -4.938e-05            -6.7702e-08          
  -0.68                 6.9312e-05            -6.923e-05            -1.2736e-07          
  -0.7                  9.4496e-05            -9.429e-05            -2.32e-07            
  -0.72                 0.00012502            -0.00012484           -4.0738e-07          
  -0.74                 0.00016182            -0.00016108           -6.8312e-07          
  -0.76                 0.00020434            -0.00020322           -1.11064e-06         
  -0.78                 0.00025248            -0.00025092           -1.7302e-06          
  -0.8                  0.00030696            -0.00030446           -2.6114e-06          
  -0.82                 0.00036628            -0.00036252           -3.796e-06           
  -0.84                 0.00043078            -0.00042594           -5.3614e-06          
  -0.86                 0.00050046            -0.00049348           -7.3272e-06          
  -0.88                 0.00057372            -0.00056404           -9.7766e-06          
  -0.9                  0.00065102            -0.00063884           -1.2658e-05          
  -0.92                 0.00073348            -0.00071774           -1.6096e-05          
  -0.94                 0.00081812            -0.00079846           -1.9982e-05          
  -0.96                 0.00090814            -0.00088236           -2.4492e-05          
  -0.98                 0.00099612            -0.00096424           -2.9362e-05          
  -1                    0.00108258            -0.00104738           -3.4428e-05          
END_DB

