! VERSION = 6.00
BEGIN_HEADER
 ICCAP_INPUTS
  ve         V  E GROUND SMU_E 0.1 LIN        2    -1         -2         2    -1        
  vc         V  C GROUND SMU_C 0.1 CON        0
  vb         V  B GROUND SMU_B 0.01 LIN        1    0          -1         51   -0.02     
 ICCAP_OUTPUTS
  ic         I  C GROUND SMU_C M
  ib         I  B GROUND SMU_B B
  ie         I  E GROUND SMU_E M
 ICCAP_VALUES
  TNOM "27"
  TEMP "27"
  TECHNO "SG13S"
  LOT "PQA701"
  WAFER "17"
  CHIP "d0406"
  MODULE "T323_pnpMPA"
  DEV_NAME "DUT15"
  DEV_GEOM_L "."
  DEV_GEOM_W "."
  NF_EMITTER "."
  REMARKS "pnpMPA Teststructure"
  TIMEDATE "Fri Oct 21 12:47:07     2022"
END_HEADER

BEGIN_DB
 ICCAP_VAR ve         -1             
 ICCAP_VAR vc         0              

 #vb                    ic                    ib                    ie                   
  0                     8.02e-11              1.44e-12              2e-14                
  -0.02                 7.74e-11              1.34e-12              8e-14                
  -0.04                 1.158e-10             1.4e-12               4e-14                
  -0.06                 6.96e-11              1.3e-12               6e-14                
  -0.08                 7.14e-11              1.24e-12              0                    
  -0.1                  6.68e-11              1.22e-12              2e-14                
  -0.12                 6.58e-11              1.1e-12               6e-14                
  -0.14                 1.154e-10             8e-13                 -2e-14               
  -0.16                 3.44e-11              2.2e-13               0                    
  -0.18                 8.46e-11              -1.02e-12             6e-14                
  -0.2                  5.22e-11              -3.7e-12              8e-14                
  -0.22                 9.96e-11              -9.42e-12             4e-14                
  -0.24                 6.56e-11              -2.158e-11            8e-14                
  -0.26                 1.318e-10             -4.75e-11             4e-14                
  -0.28                 3.8e-12               -1.0334e-10           0                    
  -0.3                  2.252e-10             -2.2144e-10           0                    
  -0.32                 4.646e-10             -4.7706e-10           -4e-14               
  -0.34                 1.0162e-09            -1.01944e-09          8e-14                
  -0.36                 2.174e-09             -2.1578e-09           -8e-14               
  -0.38                 4.5164e-09            -4.594e-09            -1.4e-13             
  -0.4                  9.832e-09             -9.5614e-09           -4.8e-13             
  -0.42                 2.0992e-08            -2.0086e-08           -9e-13               
  -0.44                 4.2622e-08            -4.221e-08            -1.94e-12            
  -0.46                 8.79e-08              -8.7158e-08           -4.32e-12            
  -0.48                 1.7628e-07            -1.7676e-07           -1.084e-11           
  -0.5                  3.5482e-07            -3.5338e-07           -2.028e-11           
  -0.52                 6.7894e-07            -6.8322e-07           -4.388e-11           
  -0.54                 1.2774e-06            -1.2772e-06           -1.0756e-10          
  -0.56                 2.2722e-06            -2.2664e-06           -2.0402e-10          
  -0.58                 3.8558e-06            -3.8552e-06           -4.3698e-10          
  -0.6                  6.291e-06             -6.2874e-06           -9.3454e-10          
  -0.62                 9.8092e-06            -9.8158e-06           -2.0024e-09          
  -0.64                 1.4836e-05            -1.4876e-05           -4.5006e-09          
  -0.66                 2.1934e-05            -2.1904e-05           -8.839e-09           
  -0.68                 3.1438e-05            -3.1482e-05           -1.819e-08           
  -0.7                  4.4262e-05            -4.4284e-05           -3.708e-08           
  -0.72                 6.1022e-05            -6.1008e-05           -7.3942e-08          
  -0.74                 8.2724e-05            -8.2594e-05           -1.444e-07           
  -0.76                 0.000110726           -0.000110398          -2.7516e-07          
  -0.78                 0.00014574            -0.00014484           -5.133e-07           
  -0.8                  0.00018932            -0.00018842           -9.0434e-07          
  -0.82                 0.00024256            -0.00024124           -1.5526e-06          
  -0.84                 0.00030754            -0.00030476           -2.5604e-06          
  -0.86                 0.00038608            -0.00038156           -4.0662e-06          
  -0.88                 0.00047826            -0.00047288           -6.2064e-06          
  -0.9                  0.00058796            -0.00057902           -9.1378e-06          
  -0.92                 0.00071508            -0.00070262           -1.2958e-05          
  -0.94                 0.0008612             -0.0008442            -1.7744e-05          
  -0.96                 0.00102754            -0.00100384           -2.354e-05           
  -0.98                 0.0012158             -0.001184             -3.0418e-05          
  -1                    0.001421              -0.0013846            -3.8326e-05          
END_DB

BEGIN_DB
 ICCAP_VAR ve         -2             
 ICCAP_VAR vc         0              

 #vb                    ic                    ib                    ie                   
  0                     3.28e-11              1.34e-12              -4e-14               
  -0.02                 5.96e-11              1.32e-12              8e-14                
  -0.04                 6.38e-11              1.36e-12              8e-14                
  -0.06                 9.9e-11               1.28e-12              -4e-14               
  -0.08                 6e-13                 1.32e-12              0                    
  -0.1                  -1.6e-12              1.22e-12              0                    
  -0.12                 1.152e-10             1.04e-12              0                    
  -0.14                 1.58e-11              8.6e-13               -1.2e-13             
  -0.16                 -7.8e-12              1.8e-13               -2e-14               
  -0.18                 4.74e-11              -1.02e-12             0                    
  -0.2                  4e-13                 -3.64e-12             4e-14                
  -0.22                 -4.86e-11             -9.46e-12             2e-14                
  -0.24                 9.98e-11              -2.164e-11            2e-14                
  -0.26                 1.1e-10               -4.744e-11            -2e-14               
  -0.28                 1.062e-10             -1.0336e-10           6e-14                
  -0.3                  2.224e-10             -2.2102e-10           -2e-14               
  -0.32                 4.118e-10             -4.7712e-10           -4e-14               
  -0.34                 9.948e-10             -1.02064e-09          -8e-14               
  -0.36                 2.1698e-09            -2.1592e-09           -1.2e-13             
  -0.38                 4.5632e-09            -4.5906e-09           -1.2e-13             
  -0.4                  1.0008e-08            -9.5606e-09           -4.4e-13             
  -0.42                 2.0466e-08            -2.008e-08            -8.6e-13             
  -0.44                 4.1768e-08            -4.2148e-08           -2.14e-12            
  -0.46                 8.7332e-08            -8.7186e-08           -4.42e-12            
  -0.48                 1.7558e-07            -1.7628e-07           -1.106e-11           
  -0.5                  3.5434e-07            -3.5352e-07           -2.098e-11           
  -0.52                 6.8734e-07            -6.83e-07             -4.524e-11           
  -0.54                 1.2778e-06            -1.2768e-06           -1.1164e-10          
  -0.56                 2.2652e-06            -2.2678e-06           -2.1058e-10          
  -0.58                 3.8582e-06            -3.8582e-06           -4.5148e-10          
  -0.6                  6.286e-06             -6.2888e-06           -9.6466e-10          
  -0.62                 9.816e-06             -9.8186e-06           -2.0676e-09          
  -0.64                 1.4924e-05            -1.487e-05            -4.6666e-09          
  -0.66                 2.191e-05             -2.1906e-05           -9.125e-09           
  -0.68                 3.141e-05             -3.143e-05            -1.8814e-08          
  -0.7                  4.4276e-05            -4.4204e-05           -3.8304e-08          
  -0.72                 6.1048e-05            -6.1004e-05           -7.6356e-08          
  -0.74                 8.2784e-05            -8.2598e-05           -1.4908e-07          
  -0.76                 0.00011071            -0.000110384          -2.8424e-07          
  -0.78                 0.00014552            -0.0001448            -5.302e-07           
  -0.8                  0.00018942            -0.00018804           -9.343e-07           
  -0.82                 0.0002428             -0.00024094           -1.6026e-06          
  -0.84                 0.00030724            -0.00030514           -2.6468e-06          
  -0.86                 0.00038544            -0.00038164           -4.2048e-06          
  -0.88                 0.0004786             -0.00047202           -6.4156e-06          
  -0.9                  0.0005886             -0.00057924           -9.4504e-06          
  -0.92                 0.0007155             -0.00070232           -1.3386e-05          
  -0.94                 0.00086206            -0.00084324           -1.8376e-05          
  -0.96                 0.0010274             -0.00100312           -2.4434e-05          
  -0.98                 0.0012154             -0.0011834            -3.1656e-05          
  -1                    0.0014222             -0.0013834            -3.9806e-05          
END_DB

