! VERSION = 6.00
BEGIN_HEADER
 ICCAP_INPUTS
  ve         V  E GROUND SMU_E 0.1 LIN        2    -1         -2         2    -1        
  vc         V  C GROUND SMU_C 0.1 CON        0
  vb         V  B GROUND SMU_B 0.01 LIN        1    0          -1         51   -0.02     
 ICCAP_OUTPUTS
  ic         I  C GROUND SMU_C M
  ib         I  B GROUND SMU_B B
  ie         I  E GROUND SMU_E M
 ICCAP_VALUES
  TNOM "27"
  TEMP "27"
  TECHNO "SG13S"
  LOT "PQA701"
  WAFER "17"
  CHIP "d0406"
  MODULE "T323_pnpMPA"
  DEV_NAME "DUT2"
  DEV_GEOM_L "."
  DEV_GEOM_W "."
  NF_EMITTER "."
  REMARKS "pnpMPA Teststructure"
  TIMEDATE "Fri Oct 21 12:47:07     2022"
END_HEADER

BEGIN_DB
 ICCAP_VAR ve         -1             
 ICCAP_VAR vc         0              

 #vb                    ic                    ib                    ie                   
  0                     1.014e-10             3.54e-12              2e-14                
  -0.02                 1.206e-10             3.6e-12               1e-13                
  -0.04                 5.76e-11              3.5e-12               0                    
  -0.06                 5.6e-12               3.38e-12              -2e-14               
  -0.08                 -3.76e-11             3.36e-12              6e-14                
  -0.1                  -2.02e-11             3.2e-12               0                    
  -0.12                 -4.88e-11             2.92e-12              2e-14                
  -0.14                 8.4e-11               2.18e-12              4e-14                
  -0.16                 6.38e-11              7.4e-13               6e-14                
  -0.18                 -7.6e-12              -2.16e-12             1e-13                
  -0.2                  -6.18e-11             -8.66e-12             2e-14                
  -0.22                 4.54e-11              -2.246e-11            2e-14                
  -0.24                 1.244e-10             -5.194e-11            -4e-14               
  -0.26                 7.78e-11              -1.1524e-10           -4e-14               
  -0.28                 3.638e-10             -2.5186e-10           -8e-14               
  -0.3                  6.286e-10             -5.429e-10            -1.2e-13             
  -0.32                 1.1746e-09            -1.1726e-09           -3e-13               
  -0.34                 2.513e-09             -2.5238e-09           -4.6e-13             
  -0.36                 5.534e-09             -5.3906e-09           -1.08e-12            
  -0.38                 1.196e-08             -1.1406e-08           -2.56e-12            
  -0.4                  2.4352e-08            -2.4262e-08           -5.32e-12            
  -0.42                 5.1742e-08            -5.1428e-08           -1.166e-11           
  -0.44                 1.1128e-07            -1.0786e-07           -2.55e-11            
  -0.46                 2.2742e-07            -2.2522e-07           -5.39e-11            
  -0.48                 4.637e-07             -4.636e-07            -1.1634e-10          
  -0.5                  9.3422e-07            -9.3294e-07           -2.5188e-10          
  -0.52                 1.817e-06             -1.8152e-06           -5.754e-10           
  -0.54                 3.3998e-06            -3.3966e-06           -1.1902e-09          
  -0.56                 6.0614e-06            -6.054e-06            -2.5554e-09          
  -0.58                 1.03418e-05           -1.03362e-05          -5.4784e-09          
  -0.6                  1.6988e-05            -1.698e-05            -1.217e-08           
  -0.62                 2.679e-05             -2.6758e-05           -2.483e-08           
  -0.64                 4.1082e-05            -4.1028e-05           -5.2562e-08          
  -0.66                 6.1494e-05            -6.1388e-05           -1.10706e-07         
  -0.68                 8.9576e-05            -8.9358e-05           -2.298e-07           
  -0.7                  0.00012806            -0.00012742           -4.8018e-07          
  -0.72                 0.00017886            -0.0001777            -9.5448e-07          
  -0.74                 0.0002453             -0.00024348           -1.8878e-06          
  -0.76                 0.00033156            -0.00032794           -3.6512e-06          
  -0.78                 0.0004402             -0.00043356           -6.8182e-06          
  -0.8                  0.0005776             -0.00056564           -1.2344e-05          
  -0.82                 0.00074892            -0.00072784           -2.143e-05           
  -0.84                 0.00096236            -0.00092688           -3.569e-05           
  -0.86                 0.001227              -0.0011706            -5.7e-05             
  -0.88                 0.0015512             -0.0014632            -8.7148e-05          
  -0.9                  0.0019494             -0.001821             -0.00012786          
  -0.92                 0.0024272             -0.0022468            -0.00018062          
  -0.94                 0.0029994             -0.0027524            -0.00024588          
  -0.96                 0.0036628             -0.0033426            -0.00032358          
  -0.98                 0.0044384             -0.0040248            -0.0004146           
  -1                    0.0053098             -0.0047936            -0.00051592          
END_DB

BEGIN_DB
 ICCAP_VAR ve         -2             
 ICCAP_VAR vc         0              

 #vb                    ic                    ib                    ie                   
  0                     6.02e-11              3.6e-12               -6e-14               
  -0.02                 8.48e-11              3.62e-12              4e-14                
  -0.04                 7.58e-11              3.52e-12              -6e-14               
  -0.06                 3.8e-11               3.44e-12              -4e-14               
  -0.08                 8.12e-11              3.42e-12              -8e-14               
  -0.1                  3.24e-11              3.2e-12               6e-14                
  -0.12                 1.64e-11              2.94e-12              -2e-14               
  -0.14                 1.974e-10             2.18e-12              2e-14                
  -0.16                 1.44e-11              8.8e-13               0                    
  -0.18                 2.26e-11              -2.14e-12             -8e-14               
  -0.2                  1.538e-10             -8.6e-12              -6e-14               
  -0.22                 9.9e-11               -2.236e-11            4e-14                
  -0.24                 1.714e-10             -5.192e-11            2e-14                
  -0.26                 4.88e-11              -1.1524e-10           8e-14                
  -0.28                 2.078e-10             -2.5168e-10           -8e-14               
  -0.3                  6.208e-10             -5.4264e-10           -1.8e-13             
  -0.32                 1.2494e-09            -1.1696e-09           -2.2e-13             
  -0.34                 2.5544e-09            -2.5206e-09           -4.6e-13             
  -0.36                 5.3582e-09            -5.33e-09             -1.12e-12            
  -0.38                 1.126e-08             -1.1388e-08           -2.64e-12            
  -0.4                  2.4346e-08            -2.4262e-08           -5.4e-12             
  -0.42                 5.2132e-08            -5.148e-08            -1.174e-11           
  -0.44                 1.0834e-07            -1.0826e-07           -2.582e-11           
  -0.46                 2.2856e-07            -2.2562e-07           -5.576e-11           
  -0.48                 4.6434e-07            -4.6268e-07           -1.1834e-10          
  -0.5                  9.3624e-07            -9.3392e-07           -2.562e-10           
  -0.52                 1.819e-06             -1.8158e-06           -5.8506e-10          
  -0.54                 3.3948e-06            -3.3972e-06           -1.2104e-09          
  -0.56                 6.0578e-06            -6.0554e-06           -2.599e-09           
  -0.58                 1.03438e-05           -1.03376e-05          -5.5724e-09          
  -0.6                  1.7014e-05            -1.6996e-05           -1.2374e-08          
  -0.62                 2.6768e-05            -2.675e-05            -2.5244e-08          
  -0.64                 4.1112e-05            -4.1028e-05           -5.3426e-08          
  -0.66                 6.145e-05             -6.1346e-05           -1.12532e-07         
  -0.68                 8.9586e-05            -8.9316e-05           -2.3376e-07          
  -0.7                  0.00012782            -0.0001276            -4.883e-07           
  -0.72                 0.0001787             -0.00017786           -9.7106e-07          
  -0.74                 0.00024524            -0.00024336           -1.9208e-06          
  -0.76                 0.00033126            -0.00032776           -3.7144e-06          
  -0.78                 0.00044036            -0.00043338           -6.9392e-06          
  -0.8                  0.00057788            -0.00056548           -1.255e-05           
  -0.82                 0.00074958            -0.00072756           -2.18e-05            
  -0.84                 0.00096224            -0.00092612           -3.629e-05           
  -0.86                 0.001226              -0.001169             -5.7908e-05          
  -0.88                 0.0015512             -0.0014638            -8.8658e-05          
  -0.9                  0.0019484             -0.0018194            -0.0001301           
  -0.92                 0.0024278             -0.0022448            -0.0001838           
  -0.94                 0.0030004             -0.0027516            -0.0002502           
  -0.96                 0.0036668             -0.0033402            -0.00032928          
  -0.98                 0.0044398             -0.0040192            -0.00042164          
  -1                    0.0053128             -0.0047894            -0.00052558          
END_DB

