! VERSION = 6.00
BEGIN_HEADER
 ICCAP_INPUTS
  ve         V  E GROUND SMU_E 0.1 LIN        2    -1         -2         2    -1        
  vc         V  C GROUND SMU_C 0.1 CON        0
  vb         V  B GROUND SMU_B 0.01 LIN        1    0          -1         51   -0.02     
 ICCAP_OUTPUTS
  ic         I  C GROUND SMU_C M
  ib         I  B GROUND SMU_B B
  ie         I  E GROUND SMU_E M
 ICCAP_VALUES
  TNOM "27"
  TEMP "27"
  TECHNO "SG13S"
  LOT "PQA701"
  WAFER "17"
  CHIP "d0406"
  MODULE "T323_pnpMPA"
  DEV_NAME "DUT13"
  DEV_GEOM_L "."
  DEV_GEOM_W "."
  NF_EMITTER "."
  REMARKS "pnpMPA Teststructure"
  TIMEDATE "Fri Oct 21 12:47:07     2022"
END_HEADER

BEGIN_DB
 ICCAP_VAR ve         -1             
 ICCAP_VAR vc         0              

 #vb                    ic                    ib                    ie                   
  0                     3.3e-11               1.24e-12              0                    
  -0.02                 2.18e-11              1.3e-12               2e-14                
  -0.04                 8.18e-11              1.22e-12              -2e-14               
  -0.06                 1.3e-11               1.26e-12              1.2e-13              
  -0.08                 5.5e-11               1.22e-12              6e-14                
  -0.1                  1.224e-10             1.12e-12              6e-14                
  -0.12                 6.54e-11              9.4e-13               6e-14                
  -0.14                 9.7e-11               6.4e-13               0                    
  -0.16                 6.38e-11              -6e-14                2e-14                
  -0.18                 5.06e-11              -1.56e-12             2e-14                
  -0.2                  2.3e-11               -4.74e-12             0                    
  -0.22                 1.1e-10               -1.164e-11            0                    
  -0.24                 1.744e-10             -2.612e-11            4e-14                
  -0.26                 3.2e-12               -5.722e-11            8e-14                
  -0.28                 1.03e-10              -1.2408e-10           -4e-14               
  -0.3                  2.52e-10              -2.6592e-10           -4e-14               
  -0.32                 6.672e-10             -5.7372e-10           2e-14                
  -0.34                 1.2586e-09            -1.2246e-09           -8e-14               
  -0.36                 2.644e-09             -2.6022e-09           -1e-13               
  -0.38                 5.6804e-09            -5.4726e-09           -3.8e-13             
  -0.4                  1.1998e-08            -1.1576e-08           -1e-12               
  -0.42                 2.412e-08             -2.4412e-08           -1.92e-12            
  -0.44                 5.1246e-08            -5.14e-08             -4.16e-12            
  -0.46                 1.07224e-07           -1.06574e-07          -9.12e-12            
  -0.48                 2.1558e-07            -2.1642e-07           -2.242e-11           
  -0.5                  4.3488e-07            -4.3364e-07           -4.254e-11           
  -0.52                 8.3874e-07            -8.3962e-07           -9.18e-11            
  -0.54                 1.5618e-06            -1.5702e-06           -2.2238e-10          
  -0.56                 2.8006e-06            -2.7968e-06           -4.2608e-10          
  -0.58                 4.765e-06             -4.7632e-06           -9.1254e-10          
  -0.6                  7.8054e-06            -7.8016e-06           -1.9854e-09          
  -0.62                 1.2244e-05            -1.2194e-05           -4.4976e-09          
  -0.64                 1.8632e-05            -1.8586e-05           -8.8416e-09          
  -0.66                 2.7586e-05            -2.7654e-05           -1.8524e-08          
  -0.68                 3.9906e-05            -3.987e-05            -3.8234e-08          
  -0.7                  5.6622e-05            -5.6512e-05           -7.8116e-08          
  -0.72                 7.864e-05             -7.8456e-05           -1.561e-07           
  -0.74                 0.000107422           -0.00010711           -3.0534e-07          
  -0.76                 0.00014444            -0.000144             -5.9174e-07          
  -0.78                 0.00019142            -0.00019012           -1.07366e-06         
  -0.8                  0.00025016            -0.00024804           -1.9138e-06          
  -0.82                 0.00032196            -0.00031844           -3.2706e-06          
  -0.84                 0.00040842            -0.00040346           -5.363e-06           
  -0.86                 0.0005133             -0.0005047            -8.4552e-06          
  -0.88                 0.00063644            -0.00062346           -1.277e-05           
  -0.9                  0.00078076            -0.00076226           -1.8604e-05          
  -0.92                 0.00094676            -0.00092094           -2.603e-05           
  -0.94                 0.00113584            -0.00110042           -3.5306e-05          
  -0.96                 0.0013478             -0.001301             -4.6318e-05          
  -0.98                 0.001586              -0.0015278            -5.9204e-05          
  -1                    0.0018486             -0.0017742            -7.3744e-05          
END_DB

BEGIN_DB
 ICCAP_VAR ve         -2             
 ICCAP_VAR vc         0              

 #vb                    ic                    ib                    ie                   
  0                     -4.4e-12              1.26e-12              4e-14                
  -0.02                 1.688e-10             1.26e-12              1.2e-13              
  -0.04                 1.376e-10             1.2e-12               8e-14                
  -0.06                 1.042e-10             1.22e-12              0                    
  -0.08                 -1.38e-11             1.2e-12               -2e-14               
  -0.1                  8.2e-12               1.1e-12               1e-13                
  -0.12                 -7.36e-11             9.2e-13               0                    
  -0.14                 6.68e-11              6.4e-13               4e-14                
  -0.16                 5.24e-11              -8e-14                0                    
  -0.18                 3.8e-11               -1.66e-12             1.6e-13              
  -0.2                  8e-12                 -4.8e-12              0                    
  -0.22                 1.16e-11              -1.154e-11            0                    
  -0.24                 -4.2e-12              -2.62e-11             8e-14                
  -0.26                 1.518e-10             -5.73e-11             6e-14                
  -0.28                 1.812e-10             -1.24e-10             4e-14                
  -0.3                  4.39e-10              -2.6608e-10           2e-14                
  -0.32                 6.578e-10             -5.7378e-10           0                    
  -0.34                 1.2326e-09            -1.2242e-09           -4e-14               
  -0.36                 2.5974e-09            -2.6032e-09           -1e-13               
  -0.38                 5.4938e-09            -5.5516e-09           -4.6e-13             
  -0.4                  1.2008e-08            -1.1594e-08           -8.8e-13             
  -0.42                 2.455e-08             -2.442e-08            -1.94e-12            
  -0.44                 5.1274e-08            -5.1362e-08           -4.24e-12            
  -0.46                 1.06982e-07           -1.06384e-07          -9.42e-12            
  -0.48                 2.1466e-07            -2.1626e-07           -2.298e-11           
  -0.5                  4.362e-07             -4.3306e-07           -4.358e-11           
  -0.52                 8.4178e-07            -8.4e-07              -9.41e-11            
  -0.54                 1.5746e-06            -1.5694e-06           -2.2686e-10          
  -0.56                 2.797e-06             -2.795e-06            -4.371e-10           
  -0.58                 4.7688e-06            -4.7658e-06           -9.3614e-10          
  -0.6                  7.8036e-06            -7.8054e-06           -2.0368e-09          
  -0.62                 1.2208e-05            -1.2216e-05           -4.6008e-09          
  -0.64                 1.859e-05             -1.8618e-05           -9.0814e-09          
  -0.66                 2.7654e-05            -2.7656e-05           -1.9024e-08          
  -0.68                 3.992e-05             -3.99e-05             -3.9258e-08          
  -0.7                  5.6598e-05            -5.6518e-05           -8.0232e-08          
  -0.72                 7.8642e-05            -7.8492e-05           -1.6044e-07          
  -0.74                 0.000107442           -0.00010711           -3.1392e-07          
  -0.76                 0.00014474            -0.00014408           -6.086e-07           
  -0.78                 0.0001917             -0.00019032           -1.10448e-06         
  -0.8                  0.00025034            -0.00024796           -1.9704e-06          
  -0.82                 0.0003223             -0.00031856           -3.3696e-06          
  -0.84                 0.00040918            -0.0004039            -5.5276e-06          
  -0.86                 0.0005139             -0.00050534           -8.7142e-06          
  -0.88                 0.00063762            -0.0006245            -1.3172e-05          
  -0.9                  0.00078236            -0.00076306           -1.9186e-05          
  -0.92                 0.00094938            -0.00092184           -2.6856e-05          
  -0.94                 0.0011384             -0.00110242           -3.641e-05           
  -0.96                 0.0013528             -0.0013044            -4.7896e-05          
  -0.98                 0.0015918             -0.0015308            -6.1258e-05          
  -1                    0.0018542             -0.0017792            -7.6392e-05          
END_DB

