! VERSION = 6.00
BEGIN_HEADER
 ICCAP_INPUTS
  ve         V  E GROUND SMU_E 0.1 LIN        1    0          -2         41   -0.05     
  vc         V  C GROUND SMU_C 0.1 CON        0
  vb         V  B GROUND SMU_B 0.01 LIN        2    -0.6       -1         9    -0.05     
 ICCAP_OUTPUTS
  ic         I  C GROUND SMU_C M
  ib         I  B GROUND SMU_B M
  ie         I  E GROUND SMU_E M
 ICCAP_VALUES
  TNOM "27"
  TEMP "27"
  TECHNO "SG13S"
  LOT "PQA701"
  WAFER "17"
  CHIP "d0406"
  MODULE "T323_pnpMPA"
  DEV_NAME "DUT12"
  DEV_GEOM_L "."
  DEV_GEOM_W "."
  NF_EMITTER "."
  REMARKS "pnpMPA Teststructure"
  TIMEDATE "Fri Oct 21 12:47:07     2022"
END_HEADER

BEGIN_DB
 ICCAP_VAR vc         0              
 ICCAP_VAR vb         -0.6           

 #ve                    ic                    ib                    ie                   
  0                     7.6954e-06            -7.6946e-06           1.0884e-09           
  -0.05                 7.6894e-06            -7.694e-06            -1.2266e-09          
  -0.1                  7.6904e-06            -7.6966e-06           -1.5846e-09          
  -0.15                 7.6932e-06            -7.691e-06            -1.6402e-09          
  -0.2                  7.6928e-06            -7.692e-06            -1.6506e-09          
  -0.25                 7.6902e-06            -7.6954e-06           -1.6552e-09          
  -0.3                  7.693e-06             -7.6898e-06           -1.658e-09           
  -0.35                 7.6888e-06            -7.6936e-06           -1.6612e-09          
  -0.4                  7.6882e-06            -7.6952e-06           -1.6632e-09          
  -0.45                 7.6904e-06            -7.693e-06            -1.666e-09           
  -0.5                  7.6918e-06            -7.6918e-06           -1.6684e-09          
  -0.55                 7.6886e-06            -7.6934e-06           -1.6706e-09          
  -0.6                  7.6898e-06            -7.6944e-06           -1.6732e-09          
  -0.65                 7.6876e-06            -7.693e-06            -1.6754e-09          
  -0.7                  7.6888e-06            -7.692e-06            -1.6778e-09          
  -0.75                 7.6926e-06            -7.6922e-06           -1.6794e-09          
  -0.8                  7.7004e-06            -7.6914e-06           -1.682e-09           
  -0.85                 7.6964e-06            -7.6952e-06           -1.6846e-09          
  -0.9                  7.69e-06              -7.6926e-06           -1.686e-09           
  -0.95                 7.6904e-06            -7.6914e-06           -1.6884e-09          
  -1                    7.6972e-06            -7.691e-06            -1.6916e-09          
  -1.05                 7.697e-06             -7.6936e-06           -1.6928e-09          
  -1.1                  7.6946e-06            -7.6934e-06           -1.6962e-09          
  -1.15                 7.6944e-06            -7.694e-06            -1.6976e-09          
  -1.2                  7.7006e-06            -7.6928e-06           -1.699e-09           
  -1.25                 7.6936e-06            -7.6958e-06           -1.7018e-09          
  -1.3                  7.6962e-06            -7.6954e-06           -1.7044e-09          
  -1.35                 7.6952e-06            -7.6906e-06           -1.7062e-09          
  -1.4                  7.6988e-06            -7.6942e-06           -1.7078e-09          
  -1.45                 7.6994e-06            -7.6926e-06           -1.7096e-09          
  -1.5                  7.6988e-06            -7.6928e-06           -1.712e-09           
  -1.55                 7.6928e-06            -7.6946e-06           -1.7136e-09          
  -1.6                  7.7022e-06            -7.691e-06            -1.7154e-09          
  -1.65                 7.695e-06             -7.6932e-06           -1.7174e-09          
  -1.7                  7.6894e-06            -7.6914e-06           -1.7194e-09          
  -1.75                 7.6958e-06            -7.694e-06            -1.7222e-09          
  -1.8                  7.6876e-06            -7.6922e-06           -1.724e-09           
  -1.85                 7.6898e-06            -7.6918e-06           -1.7266e-09          
  -1.9                  7.6926e-06            -7.6942e-06           -1.7288e-09          
  -1.95                 7.6856e-06            -7.6922e-06           -1.7308e-09          
  -2                    7.6924e-06            -7.691e-06            -1.7332e-09          
END_DB

BEGIN_DB
 ICCAP_VAR vc         0              
 ICCAP_VAR vb         -0.65          

 #ve                    ic                    ib                    ie                   
  0                     2.2528e-05            -2.252e-05            7.6908e-09           
  -0.05                 2.2524e-05            -2.254e-05            -7.8622e-09          
  -0.1                  2.2552e-05            -2.2538e-05           -1.0224e-08          
  -0.15                 2.2528e-05            -2.253e-05            -1.05826e-08         
  -0.2                  2.253e-05             -2.2544e-05           -1.06534e-08         
  -0.25                 2.2548e-05            -2.2524e-05           -1.06826e-08         
  -0.3                  2.2536e-05            -2.2536e-05           -1.07018e-08         
  -0.35                 2.2534e-05            -2.2518e-05           -1.0722e-08          
  -0.4                  2.2558e-05            -2.255e-05            -1.07354e-08         
  -0.45                 2.2564e-05            -2.2524e-05           -1.07534e-08         
  -0.5                  2.2528e-05            -2.2548e-05           -1.0771e-08          
  -0.55                 2.2532e-05            -2.2526e-05           -1.07852e-08         
  -0.6                  2.2516e-05            -2.2556e-05           -1.0795e-08          
  -0.65                 2.2558e-05            -2.2518e-05           -1.08114e-08         
  -0.7                  2.2526e-05            -2.252e-05            -1.08252e-08         
  -0.75                 2.2524e-05            -2.2548e-05           -1.08446e-08         
  -0.8                  2.255e-05             -2.2524e-05           -1.08574e-08         
  -0.85                 2.254e-05             -2.2532e-05           -1.08728e-08         
  -0.9                  2.2504e-05            -2.253e-05            -1.08852e-08         
  -0.95                 2.255e-05             -2.2508e-05           -1.08996e-08         
  -1                    2.2536e-05            -2.2538e-05           -1.09142e-08         
  -1.05                 2.2546e-05            -2.2518e-05           -1.09318e-08         
  -1.1                  2.254e-05             -2.2524e-05           -1.09454e-08         
  -1.15                 2.2568e-05            -2.2538e-05           -1.09568e-08         
  -1.2                  2.2548e-05            -2.2542e-05           -1.09718e-08         
  -1.25                 2.2512e-05            -2.2528e-05           -1.09848e-08         
  -1.3                  2.2526e-05            -2.2562e-05           -1.1e-08             
  -1.35                 2.2536e-05            -2.2534e-05           -1.10122e-08         
  -1.4                  2.2554e-05            -2.2536e-05           -1.10262e-08         
  -1.45                 2.2584e-05            -2.2546e-05           -1.1039e-08          
  -1.5                  2.254e-05             -2.2536e-05           -1.10528e-08         
  -1.55                 2.2534e-05            -2.2524e-05           -1.10632e-08         
  -1.6                  2.2542e-05            -2.2532e-05           -1.1077e-08          
  -1.65                 2.2542e-05            -2.2536e-05           -1.109e-08           
  -1.7                  2.2534e-05            -2.2538e-05           -1.11028e-08         
  -1.75                 2.2534e-05            -2.2532e-05           -1.11146e-08         
  -1.8                  2.2564e-05            -2.2546e-05           -1.11294e-08         
  -1.85                 2.2526e-05            -2.2548e-05           -1.11426e-08         
  -1.9                  2.2512e-05            -2.2518e-05           -1.11552e-08         
  -1.95                 2.254e-05             -2.2524e-05           -1.11698e-08         
  -2                    2.254e-05             -2.2548e-05           -1.11828e-08         
END_DB

BEGIN_DB
 ICCAP_VAR vc         0              
 ICCAP_VAR vb         -0.7           

 #ve                    ic                    ib                    ie                   
  0                     5.601e-05             -5.6046e-05           5.5758e-08           
  -0.05                 5.6032e-05            -5.6034e-05           -4.6678e-08          
  -0.1                  5.605e-05             -5.5996e-05           -6.1746e-08          
  -0.15                 5.6048e-05            -5.5958e-05           -6.4048e-08          
  -0.2                  5.6056e-05            -5.5998e-05           -6.4496e-08          
  -0.25                 5.6058e-05            -5.5956e-05           -6.467e-08           
  -0.3                  5.6058e-05            -5.5982e-05           -6.4794e-08          
  -0.35                 5.6082e-05            -5.597e-05            -6.4926e-08          
  -0.4                  5.606e-05             -5.5986e-05           -6.5026e-08          
  -0.45                 5.6074e-05            -5.6008e-05           -6.51e-08            
  -0.5                  5.6064e-05            -5.5954e-05           -6.5226e-08          
  -0.55                 5.6034e-05            -5.5984e-05           -6.5312e-08          
  -0.6                  5.6066e-05            -5.6e-05              -6.5422e-08          
  -0.65                 5.611e-05             -5.6002e-05           -6.5494e-08          
  -0.7                  5.606e-05             -5.6016e-05           -6.561e-08           
  -0.75                 5.605e-05             -5.5992e-05           -6.5686e-08          
  -0.8                  5.6034e-05            -5.5998e-05           -6.577e-08           
  -0.85                 5.605e-05             -5.5972e-05           -6.5874e-08          
  -0.9                  5.6068e-05            -5.597e-05            -6.5966e-08          
  -0.95                 5.6058e-05            -5.5984e-05           -6.6048e-08          
  -1                    5.603e-05             -5.6e-05              -6.6122e-08          
  -1.05                 5.6028e-05            -5.5974e-05           -6.6226e-08          
  -1.1                  5.6046e-05            -5.5996e-05           -6.63e-08            
  -1.15                 5.6048e-05            -5.5986e-05           -6.6382e-08          
  -1.2                  5.6064e-05            -5.5982e-05           -6.6468e-08          
  -1.25                 5.604e-05             -5.5984e-05           -6.6538e-08          
  -1.3                  5.6008e-05            -5.5996e-05           -6.6632e-08          
  -1.35                 5.6002e-05            -5.5982e-05           -6.6808e-08          
  -1.4                  5.607e-05             -5.5946e-05           -6.6776e-08          
  -1.45                 5.6058e-05            -5.5994e-05           -6.686e-08           
  -1.5                  5.6022e-05            -5.5994e-05           -6.6934e-08          
  -1.55                 5.606e-05             -5.5974e-05           -6.703e-08           
  -1.6                  5.6004e-05            -5.5988e-05           -6.711e-08           
  -1.65                 5.604e-05             -5.6012e-05           -6.72e-08            
  -1.7                  5.6062e-05            -5.5944e-05           -6.7292e-08          
  -1.75                 5.6068e-05            -5.5972e-05           -6.7392e-08          
  -1.8                  5.6034e-05            -5.6e-05              -6.7518e-08          
  -1.85                 5.6062e-05            -5.598e-05            -6.7544e-08          
  -1.9                  5.603e-05             -5.5986e-05           -6.7632e-08          
  -1.95                 5.603e-05             -5.5958e-05           -6.7684e-08          
  -2                    5.6072e-05            -5.6004e-05           -6.7772e-08          
END_DB

BEGIN_DB
 ICCAP_VAR vc         0              
 ICCAP_VAR vb         -0.75          

 #ve                    ic                    ib                    ie                   
  0                     0.00012308            -0.00012346           3.5174e-07           
  -0.05                 0.0001233             -0.00012304           -2.4134e-07          
  -0.1                  0.00012362            -0.00012316           -3.3118e-07          
  -0.15                 0.00012352            -0.00012312           -3.4506e-07          
  -0.2                  0.00012352            -0.00012302           -3.4784e-07          
  -0.25                 0.00012346            -0.00012316           -3.4876e-07          
  -0.3                  0.00012348            -0.00012298           -3.4974e-07          
  -0.35                 0.00012346            -0.00012316           -3.5054e-07          
  -0.4                  0.00012344            -0.000123             -3.5092e-07          
  -0.45                 0.00012346            -0.00012316           -3.514e-07           
  -0.5                  0.00012328            -0.00012296           -3.521e-07           
  -0.55                 0.00012348            -0.00012288           -3.526e-07           
  -0.6                  0.0001234             -0.00012312           -3.5294e-07          
  -0.65                 0.00012348            -0.00012312           -3.5358e-07          
  -0.7                  0.00012346            -0.000123             -3.5416e-07          
  -0.75                 0.00012338            -0.00012302           -3.5468e-07          
  -0.8                  0.00012346            -0.00012302           -3.5522e-07          
  -0.85                 0.00012338            -0.00012304           -3.5564e-07          
  -0.9                  0.00012348            -0.00012308           -3.5626e-07          
  -0.95                 0.00012354            -0.00012308           -3.5652e-07          
  -1                    0.00012332            -0.00012308           -3.5684e-07          
  -1.05                 0.00012348            -0.000123             -3.5746e-07          
  -1.1                  0.0001234             -0.00012316           -3.579e-07           
  -1.15                 0.00012346            -0.00012296           -3.5832e-07          
  -1.2                  0.0001235             -0.0001231            -3.588e-07           
  -1.25                 0.00012344            -0.00012298           -3.5934e-07          
  -1.3                  0.00012358            -0.00012296           -3.599e-07           
  -1.35                 0.00012338            -0.00012316           -3.6028e-07          
  -1.4                  0.00012334            -0.00012316           -3.6062e-07          
  -1.45                 0.00012362            -0.00012302           -3.6128e-07          
  -1.5                  0.00012346            -0.00012312           -3.615e-07           
  -1.55                 0.00012346            -0.00012312           -3.6192e-07          
  -1.6                  0.0001236             -0.00012306           -3.6246e-07          
  -1.65                 0.00012334            -0.00012316           -3.6292e-07          
  -1.7                  0.00012348            -0.00012296           -3.6324e-07          
  -1.75                 0.0001235             -0.0001231            -3.6376e-07          
  -1.8                  0.00012342            -0.00012314           -3.6418e-07          
  -1.85                 0.00012342            -0.000123             -3.6468e-07          
  -1.9                  0.00012344            -0.000123             -3.6526e-07          
  -1.95                 0.00012338            -0.00012314           -3.6548e-07          
  -2                    0.00012334            -0.000123             -3.6608e-07          
END_DB

BEGIN_DB
 ICCAP_VAR vc         0              
 ICCAP_VAR vb         -0.8           

 #ve                    ic                    ib                    ie                   
  0                     0.0002445             -0.00024662           2.029e-06            
  -0.05                 0.00024562            -0.00024482           -9.667e-07           
  -0.1                  0.00024576            -0.0002444            -1.4598e-06          
  -0.15                 0.00024592            -0.00024428           -1.5384e-06          
  -0.2                  0.0002457             -0.00024434           -1.553e-06           
  -0.25                 0.00024572            -0.00024426           -1.5578e-06          
  -0.3                  0.00024586            -0.0002443            -1.5618e-06          
  -0.35                 0.0002461             -0.00024418           -1.565e-06           
  -0.4                  0.00024572            -0.0002443            -1.568e-06           
  -0.45                 0.0002458             -0.00024436           -1.5696e-06          
  -0.5                  0.00024598            -0.00024436           -1.5734e-06          
  -0.55                 0.00024568            -0.00024426           -1.575e-06           
  -0.6                  0.00024574            -0.0002442            -1.5776e-06          
  -0.65                 0.00024582            -0.00024442           -1.5794e-06          
  -0.7                  0.00024596            -0.00024404           -1.5832e-06          
  -0.75                 0.00024554            -0.00024424           -1.5844e-06          
  -0.8                  0.00024572            -0.00024418           -1.5866e-06          
  -0.85                 0.00024566            -0.00024426           -1.589e-06           
  -0.9                  0.00024576            -0.00024442           -1.591e-06           
  -0.95                 0.00024588            -0.00024434           -1.5936e-06          
  -1                    0.00024592            -0.00024432           -1.5958e-06          
  -1.05                 0.0002457             -0.00024418           -1.5974e-06          
  -1.1                  0.00024562            -0.0002444            -1.599e-06           
  -1.15                 0.00024606            -0.0002441            -1.6018e-06          
  -1.2                  0.00024568            -0.00024414           -1.6034e-06          
  -1.25                 0.0002457             -0.00024424           -1.6054e-06          
  -1.3                  0.00024614            -0.00024434           -1.6082e-06          
  -1.35                 0.00024596            -0.00024418           -1.6098e-06          
  -1.4                  0.00024572            -0.00024408           -1.612e-06           
  -1.45                 0.00024564            -0.00024442           -1.6132e-06          
  -1.5                  0.00024598            -0.00024424           -1.6158e-06          
  -1.55                 0.00024594            -0.00024412           -1.6176e-06          
  -1.6                  0.00024578            -0.00024404           -1.6192e-06          
  -1.65                 0.00024578            -0.00024422           -1.622e-06           
  -1.7                  0.0002457             -0.0002442            -1.6234e-06          
  -1.75                 0.00024578            -0.00024428           -1.6252e-06          
  -1.8                  0.00024574            -0.00024416           -1.6274e-06          
  -1.85                 0.00024572            -0.00024404           -1.6294e-06          
  -1.9                  0.00024566            -0.00024418           -1.632e-06           
  -1.95                 0.00024574            -0.00024436           -1.6338e-06          
