! VERSION = 6.00
BEGIN_HEADER
 ICCAP_INPUTS
  ve         V  E GROUND SMU_E 0.1 LIN        1    0          -2         41   -0.05     
  vc         V  C GROUND SMU_C 0.1 CON        0
  vb         V  B GROUND SMU_B 0.01 LIN        2    -0.6       -1         9    -0.05     
 ICCAP_OUTPUTS
  ic         I  C GROUND SMU_C M
  ib         I  B GROUND SMU_B M
  ie         I  E GROUND SMU_E M
 ICCAP_VALUES
  TNOM "27"
  TEMP "27"
  TECHNO "SG13S"
  LOT "PQA701"
  WAFER "17"
  CHIP "d0406"
  MODULE "T323_pnpMPA"
  DEV_NAME "DUT6"
  DEV_GEOM_L "."
  DEV_GEOM_W "."
  NF_EMITTER "."
  REMARKS "pnpMPA Teststructure"
  TIMEDATE "Fri Oct 21 12:47:07     2022"
END_HEADER

BEGIN_DB
 ICCAP_VAR vc         0              
 ICCAP_VAR vb         -0.6           

 #ve                    ic                    ib                    ie                   
  0                     1.1636e-05            -1.1622e-05           4.2248e-09           
  -0.05                 1.16e-05              -1.1642e-05           -3.1668e-09          
  -0.1                  1.16e-05              -1.1636e-05           -4.2636e-09          
  -0.15                 1.1666e-05            -1.1634e-05           -4.4296e-09          
  -0.2                  1.1634e-05            -1.1632e-05           -4.4576e-09          
  -0.25                 1.1616e-05            -1.1608e-05           -4.4682e-09          
  -0.3                  1.1632e-05            -1.1616e-05           -4.473e-09           
  -0.35                 1.1634e-05            -1.1638e-05           -4.4784e-09          
  -0.4                  1.163e-05             -1.1644e-05           -4.4862e-09          
  -0.45                 1.1612e-05            -1.1638e-05           -4.4914e-09          
  -0.5                  1.1586e-05            -1.1624e-05           -4.4942e-09          
  -0.55                 1.1614e-05            -1.1614e-05           -4.4988e-09          
  -0.6                  1.1632e-05            -1.1654e-05           -4.503e-09           
  -0.65                 1.1628e-05            -1.1638e-05           -4.5058e-09          
  -0.7                  1.1608e-05            -1.1598e-05           -4.5116e-09          
  -0.75                 1.1628e-05            -1.1618e-05           -4.5162e-09          
  -0.8                  1.1604e-05            -1.164e-05            -4.5218e-09          
  -0.85                 1.164e-05             -1.1604e-05           -4.5238e-09          
  -0.9                  1.1632e-05            -1.1618e-05           -4.526e-09           
  -0.95                 1.1644e-05            -1.164e-05            -4.53e-09            
  -1                    1.1624e-05            -1.161e-05            -4.5334e-09          
  -1.05                 1.1614e-05            -1.1608e-05           -4.5386e-09          
  -1.1                  1.1596e-05            -1.1636e-05           -4.5514e-09          
  -1.15                 1.162e-05             -1.1624e-05           -4.5524e-09          
  -1.2                  1.1598e-05            -1.1636e-05           -4.5542e-09          
  -1.25                 1.1664e-05            -1.1602e-05           -4.558e-09           
  -1.3                  1.1662e-05            -1.1616e-05           -4.561e-09           
  -1.35                 1.1648e-05            -1.1634e-05           -4.5648e-09          
  -1.4                  1.1654e-05            -1.161e-05            -4.5704e-09          
  -1.45                 1.1658e-05            -1.1624e-05           -4.5742e-09          
  -1.5                  1.1612e-05            -1.1614e-05           -4.5794e-09          
  -1.55                 1.1628e-05            -1.1612e-05           -4.5832e-09          
  -1.6                  1.16e-05              -1.1626e-05           -4.585e-09           
  -1.65                 1.1628e-05            -1.1626e-05           -4.5874e-09          
  -1.7                  1.1614e-05            -1.1614e-05           -4.591e-09           
  -1.75                 1.165e-05             -1.1614e-05           -4.5966e-09          
  -1.8                  1.1646e-05            -1.1622e-05           -4.6008e-09          
  -1.85                 1.162e-05             -1.1634e-05           -4.6046e-09          
  -1.9                  1.1594e-05            -1.1612e-05           -4.6092e-09          
  -1.95                 1.1634e-05            -1.1616e-05           -4.6134e-09          
  -2                    1.1616e-05            -1.1618e-05           -4.6134e-09          
END_DB

BEGIN_DB
 ICCAP_VAR vc         0              
 ICCAP_VAR vb         -0.65          

 #ve                    ic                    ib                    ie                   
  0                     3.4732e-05            -3.4742e-05           2.9728e-08           
  -0.05                 3.474e-05             -3.47e-05             -2.0328e-08          
  -0.1                  3.4714e-05            -3.4706e-05           -2.7632e-08          
  -0.15                 3.4732e-05            -3.4698e-05           -2.8732e-08          
  -0.2                  3.4726e-05            -3.47e-05             -2.8936e-08          
  -0.25                 3.4756e-05            -3.4702e-05           -2.8996e-08          
  -0.3                  3.4746e-05            -3.471e-05            -2.9036e-08          
  -0.35                 3.4728e-05            -3.4706e-05           -2.9068e-08          
  -0.4                  3.4766e-05            -3.469e-05            -2.9102e-08          
  -0.45                 3.4746e-05            -3.4712e-05           -2.9136e-08          
  -0.5                  3.4702e-05            -3.4686e-05           -2.9158e-08          
  -0.55                 3.4764e-05            -3.4696e-05           -2.9188e-08          
  -0.6                  3.4748e-05            -3.4738e-05           -2.9224e-08          
  -0.65                 3.4732e-05            -3.473e-05            -2.926e-08           
  -0.7                  3.476e-05             -3.4684e-05           -2.9288e-08          
  -0.75                 3.4742e-05            -3.4712e-05           -2.9322e-08          
  -0.8                  3.4738e-05            -3.4734e-05           -2.9348e-08          
  -0.85                 3.4746e-05            -3.4688e-05           -2.9362e-08          
  -0.9                  3.4742e-05            -3.4716e-05           -2.94e-08            
  -0.95                 3.4724e-05            -3.4708e-05           -2.9424e-08          
  -1                    3.4722e-05            -3.4692e-05           -2.9452e-08          
  -1.05                 3.4754e-05            -3.4696e-05           -2.9488e-08          
  -1.1                  3.4744e-05            -3.4708e-05           -2.9512e-08          
  -1.15                 3.4756e-05            -3.4716e-05           -2.9532e-08          
  -1.2                  3.4726e-05            -3.469e-05            -2.9558e-08          
  -1.25                 3.4738e-05            -3.4716e-05           -2.9586e-08          
  -1.3                  3.4722e-05            -3.4698e-05           -2.9616e-08          
  -1.35                 3.4746e-05            -3.4734e-05           -2.9632e-08          
  -1.4                  3.473e-05             -3.4718e-05           -2.9658e-08          
  -1.45                 3.4752e-05            -3.4716e-05           -2.9682e-08          
  -1.5                  3.4754e-05            -3.4716e-05           -2.971e-08           
  -1.55                 3.472e-05             -3.4704e-05           -2.9738e-08          
  -1.6                  3.4746e-05            -3.4702e-05           -2.976e-08           
  -1.65                 3.475e-05             -3.472e-05            -2.9788e-08          
  -1.7                  3.4722e-05            -3.4714e-05           -2.981e-08           
  -1.75                 3.478e-05             -3.468e-05            -2.9836e-08          
  -1.8                  3.472e-05             -3.4702e-05           -2.9862e-08          
  -1.85                 3.4752e-05            -3.4712e-05           -2.988e-08           
  -1.9                  3.4718e-05            -3.4708e-05           -2.9902e-08          
  -1.95                 3.4742e-05            -3.469e-05            -2.9934e-08          
  -2                    3.4744e-05            -3.4722e-05           -2.9958e-08          
END_DB

BEGIN_DB
 ICCAP_VAR vc         0              
 ICCAP_VAR vb         -0.7           

 #ve                    ic                    ib                    ie                   
  0                     8.8448e-05            -8.8664e-05           2.0116e-07           
  -0.05                 8.8558e-05            -8.8456e-05           -1.2216e-07          
  -0.1                  8.8568e-05            -8.8412e-05           -1.6926e-07          
  -0.15                 8.8592e-05            -8.8456e-05           -1.7636e-07          
  -0.2                  8.8594e-05            -8.84e-05             -1.7764e-07          
  -0.25                 8.8574e-05            -8.8424e-05           -1.7802e-07          
  -0.3                  8.86e-05              -8.8442e-05           -1.7834e-07          
  -0.35                 8.8582e-05            -8.8416e-05           -1.7856e-07          
  -0.4                  8.856e-05             -8.8364e-05           -1.7882e-07          
  -0.45                 8.862e-05             -8.8426e-05           -1.7902e-07          
  -0.5                  8.8576e-05            -8.845e-05            -1.7922e-07          
  -0.55                 8.8588e-05            -8.8418e-05           -1.7942e-07          
  -0.6                  8.8582e-05            -8.8444e-05           -1.795e-07           
  -0.65                 8.8632e-05            -8.8406e-05           -1.7974e-07          
  -0.7                  8.857e-05             -8.8458e-05           -1.799e-07           
  -0.75                 8.8564e-05            -8.8388e-05           -1.801e-07           
  -0.8                  8.858e-05             -8.8416e-05           -1.8026e-07          
  -0.85                 8.8578e-05            -8.8358e-05           -1.8044e-07          
  -0.9                  8.8608e-05            -8.8392e-05           -1.806e-07           
  -0.95                 8.8574e-05            -8.8428e-05           -1.8074e-07          
  -1                    8.8624e-05            -8.838e-05            -1.8098e-07          
  -1.05                 8.8632e-05            -8.8434e-05           -1.8106e-07          
  -1.1                  8.858e-05             -8.8418e-05           -1.8118e-07          
  -1.15                 8.8554e-05            -8.8398e-05           -1.8136e-07          
  -1.2                  8.857e-05             -8.8404e-05           -1.8156e-07          
  -1.25                 8.8642e-05            -8.8402e-05           -1.8174e-07          
  -1.3                  8.8582e-05            -8.8446e-05           -1.8192e-07          
  -1.35                 8.8604e-05            -8.8372e-05           -1.8208e-07          
  -1.4                  8.8594e-05            -8.8388e-05           -1.822e-07           
  -1.45                 8.858e-05             -8.844e-05            -1.824e-07           
  -1.5                  8.8616e-05            -8.8394e-05           -1.8256e-07          
  -1.55                 8.8574e-05            -8.8404e-05           -1.8268e-07          
  -1.6                  8.8614e-05            -8.8448e-05           -1.828e-07           
  -1.65                 8.8552e-05            -8.8394e-05           -1.8298e-07          
  -1.7                  8.8614e-05            -8.8406e-05           -1.8318e-07          
  -1.75                 8.858e-05             -8.846e-05            -1.8328e-07          
  -1.8                  8.8592e-05            -8.8386e-05           -1.8352e-07          
  -1.85                 8.858e-05             -8.8424e-05           -1.836e-07           
  -1.9                  8.8544e-05            -8.844e-05            -1.8378e-07          
  -1.95                 8.8596e-05            -8.838e-05            -1.8396e-07          
  -2                    8.8584e-05            -8.8418e-05           -1.84e-07            
END_DB

BEGIN_DB
 ICCAP_VAR vc         0              
 ICCAP_VAR vb         -0.75          

 #ve                    ic                    ib                    ie                   
  0                     0.00019884            -0.00020016           1.3064e-06           
  -0.05                 0.00019962            -0.00019898           -6.3794e-07          
  -0.1                  0.00019984            -0.0001988            -9.2638e-07          
  -0.15                 0.00019994            -0.00019874           -9.7006e-07          
  -0.2                  0.00019982            -0.00019864           -9.7768e-07          
  -0.25                 0.00019978            -0.00019872           -9.7982e-07          
  -0.3                  0.00019966            -0.00019864           -9.8166e-07          
  -0.35                 0.00019988            -0.00019856           -9.8304e-07          
  -0.4                  0.00019962            -0.00019894           -9.8408e-07          
  -0.45                 0.00019992            -0.00019876           -9.859e-07           
  -0.5                  0.0001995             -0.00019882           -9.8656e-07          
  -0.55                 0.00019982            -0.00019874           -9.881e-07           
  -0.6                  0.0001998             -0.00019876           -9.8886e-07          
  -0.65                 0.00019956            -0.0001989            -9.898e-07           
  -0.7                  0.0001998             -0.0001987            -9.9132e-07          
  -0.75                 0.00019986            -0.00019868           -9.9222e-07          
  -0.8                  0.00019958            -0.00019876           -9.929e-07           
  -0.85                 0.00019986            -0.0001989            -9.9424e-07          
  -0.9                  0.00019958            -0.00019882           -9.952e-07           
  -0.95                 0.0001997             -0.0001987            -9.9622e-07          
  -1                    0.00019984            -0.00019864           -9.9694e-07          
  -1.05                 0.00019964            -0.00019872           -9.9722e-07          
  -1.1                  0.00019964            -0.00019888           -9.9892e-07          
  -1.15                 0.00019962            -0.00019862           -9.994e-07           
  -1.2                  0.00019962            -0.0001987            -1.00036e-06         
  -1.25                 0.00019988            -0.0001987            -1.00124e-06         
  -1.3                  0.00019968            -0.00019882           -1.00196e-06         
  -1.35                 0.00019972            -0.0001987            -1.00292e-06         
  -1.4                  0.00019956            -0.00019878           -1.00408e-06         
  -1.45                 0.00019984            -0.00019862           -1.0048e-06          
  -1.5                  0.00019968            -0.0001989            -1.00524e-06         
  -1.55                 0.00019984            -0.0001986            -1.00652e-06         
  -1.6                  0.00019978            -0.00019888           -1.00712e-06         
  -1.65                 0.00019976            -0.00019856           -1.00822e-06         
  -1.7                  0.0001998             -0.00019874           -1.00874e-06         
  -1.75                 0.00019968            -0.00019886           -1.00956e-06         
  -1.8                  0.00019964            -0.00019864           -1.01056e-06         
  -1.85                 0.00019976            -0.0001988            -1.01142e-06         
  -1.9                  0.00019956            -0.00019854           -1.0118e-06          
  -1.95                 0.00019972            -0.00019886           -1.01326e-06         
  -2                    0.00019964            -0.00019852           -1.014e-06           
END_DB

BEGIN_DB
 ICCAP_VAR vc         0              
 ICCAP_VAR vb         -0.8           

 #ve                    ic                    ib                    ie                   
  0                     0.00040226            -0.00041058           7.897e-06            
  -0.05                 0.00040556            -0.00040324           -2.5698e-06          
  -0.1                  0.00040642            -0.000402             -4.1952e-06          
  -0.15                 0.00040608            -0.00040182           -4.445e-06           
  -0.2                  0.00040616            -0.0004019            -4.4866e-06          
  -0.25                 0.00040612            -0.00040194           -4.5002e-06          
  -0.3                  0.00040618            -0.00040168           -4.509e-06           
  -0.35                 0.0004058             -0.00040184           -4.5144e-06          
  -0.4                  0.0004064             -0.00040194           -4.5222e-06          
  -0.45                 0.0004066             -0.00040156           -4.5268e-06          
  -0.5                  0.0004063             -0.000402             -4.5314e-06          
  -0.55                 0.00040646            -0.0004018            -4.5386e-06          
  -0.6                  0.0004061             -0.00040176           -4.5416e-06          
  -0.65                 0.00040586            -0.00040204           -4.547e-06           
  -0.7                  0.00040636            -0.0004017            -4.5534e-06          
  -0.75                 0.00040636            -0.000402             -4.5578e-06          
  -0.8                  0.00040624            -0.00040174           -4.5626e-06          
  -0.85                 0.0004061             -0.00040194           -4.5656e-06          
  -0.9                  0.00040636            -0.00040166           -4.5708e-06          
  -0.95                 0.00040616            -0.00040158           -4.5752e-06          
  -1                    0.00040626            -0.0004017            -4.5774e-06          
  -1.05                 0.00040624            -0.00040206           -4.583e-06           
  -1.1                  0.00040626            -0.00040184           -4.5888e-06          
  -1.15                 0.00040614            -0.0004017            -4.5922e-06          
  -1.2                  0.00040632            -0.00040176           -4.597e-06           
  -1.25                 0.0004061             -0.00040142           -4.5992e-06          
  -1.3                  0.00040654            -0.00040194           -4.605e-06           
  -1.35                 0.00040628            -0.0004018            -4.6078e-06          
  -1.4                  0.00040624            -0.00040184           -4.613e-06           
  -1.45                 0.0004062             -0.00040174           -4.6162e-06          
  -1.5                  0.0004062             -0.00040144           -4.6196e-06          
  -1.55                 0.00040616            -0.00040196           -4.6232e-06          
  -1.6                  0.00040624            -0.00040154           -4.628e-06           
  -1.65                 0.0004061             -0.00040184           -4.6308e-06          
  -1.7                  0.00040638            -0.00040158           -4.636e-06           
  -1.75                 0.00040612            -0.00040196           -4.6394e-06          
  -1.8                  0.00040656            -0.00040156           -4.6428e-06          
  -1.85                 0.00040598            -0.00040188           -4.6458e-06          
  -1.9                  0.00040612            -0.00040156           -4.6506e-06          
  -1.95                 0.0004064             -0.0004016            -4.654e-06           
