! VERSION = 6.00
BEGIN_HEADER
 ICCAP_INPUTS
  ve         V  E GROUND SMU_E 0.1 LIN        1    0          -2         41   -0.05     
  vc         V  C GROUND SMU_C 0.1 CON        0
  vb         V  B GROUND SMU_B 0.01 LIN        2    -0.6       -1         9    -0.05     
 ICCAP_OUTPUTS
  ic         I  C GROUND SMU_C M
  ib         I  B GROUND SMU_B M
  ie         I  E GROUND SMU_E M
 ICCAP_VALUES
  TNOM "27"
  TEMP "27"
  TECHNO "SG13S"
  LOT "PQA701"
  WAFER "17"
  CHIP "d0406"
  MODULE "T323_pnpMPA"
  DEV_NAME "DUT4"
  DEV_GEOM_L "."
  DEV_GEOM_W "."
  NF_EMITTER "."
  REMARKS "pnpMPA Teststructure"
  TIMEDATE "Fri Oct 21 12:47:07     2022"
END_HEADER

BEGIN_DB
 ICCAP_VAR vc         0              
 ICCAP_VAR vb         -0.6           

 #ve                    ic                    ib                    ie                   
  0                     1.2444e-05            -1.2416e-05           5.8898e-09           
  -0.05                 1.2386e-05            -1.241e-05            -4.4198e-09          
  -0.1                  1.242e-05             -1.24e-05             -5.9654e-09          
  -0.15                 1.2412e-05            -1.241e-05            -6.2012e-09          
  -0.2                  1.2406e-05            -1.2396e-05           -6.2406e-09          
  -0.25                 1.2428e-05            -1.24e-05             -6.2534e-09          
  -0.3                  1.2392e-05            -1.2412e-05           -6.26e-09            
  -0.35                 1.2418e-05            -1.2432e-05           -6.2682e-09          
  -0.4                  1.2398e-05            -1.2422e-05           -6.2776e-09          
  -0.45                 1.2412e-05            -1.24e-05             -6.285e-09           
  -0.5                  1.2432e-05            -1.2428e-05           -6.2896e-09          
  -0.55                 1.2424e-05            -1.2402e-05           -6.2982e-09          
  -0.6                  1.2422e-05            -1.2394e-05           -6.3024e-09          
  -0.65                 1.2412e-05            -1.2434e-05           -6.308e-09           
  -0.7                  1.2408e-05            -1.242e-05            -6.3196e-09          
  -0.75                 1.2422e-05            -1.241e-05            -6.3212e-09          
  -0.8                  1.2442e-05            -1.2392e-05           -6.328e-09           
  -0.85                 1.2442e-05            -1.242e-05            -6.333e-09           
  -0.9                  1.2424e-05            -1.2396e-05           -6.3382e-09          
  -0.95                 1.241e-05             -1.2416e-05           -6.3448e-09          
  -1                    1.2394e-05            -1.2418e-05           -6.3502e-09          
  -1.05                 1.2418e-05            -1.2388e-05           -6.3552e-09          
  -1.1                  1.2418e-05            -1.2404e-05           -6.36e-09            
  -1.15                 1.2436e-05            -1.2398e-05           -6.3672e-09          
  -1.2                  1.2388e-05            -1.2422e-05           -6.372e-09           
  -1.25                 1.2394e-05            -1.2404e-05           -6.377e-09           
  -1.3                  1.2424e-05            -1.24e-05             -6.382e-09           
  -1.35                 1.2388e-05            -1.241e-05            -6.3872e-09          
  -1.4                  1.2402e-05            -1.2402e-05           -6.3952e-09          
  -1.45                 1.243e-05             -1.2392e-05           -6.4006e-09          
  -1.5                  1.241e-05             -1.2412e-05           -6.4064e-09          
  -1.55                 1.242e-05             -1.239e-05            -6.4106e-09          
  -1.6                  1.2408e-05            -1.2384e-05           -6.4172e-09          
  -1.65                 1.243e-05             -1.2426e-05           -6.4228e-09          
  -1.7                  1.2442e-05            -1.2394e-05           -6.4282e-09          
  -1.75                 1.2444e-05            -1.2406e-05           -6.431e-09           
  -1.8                  1.2388e-05            -1.2392e-05           -6.4364e-09          
  -1.85                 1.2426e-05            -1.242e-05            -6.4428e-09          
  -1.9                  1.2408e-05            -1.2412e-05           -6.4484e-09          
  -1.95                 1.2418e-05            -1.2418e-05           -6.4536e-09          
  -2                    1.2404e-05            -1.2408e-05           -6.4598e-09          
END_DB

BEGIN_DB
 ICCAP_VAR vc         0              
 ICCAP_VAR vb         -0.65          

 #ve                    ic                    ib                    ie                   
  0                     3.677e-05             -3.6854e-05           4.218e-08            
  -0.05                 3.6842e-05            -3.6804e-05           -2.807e-08           
  -0.1                  3.6824e-05            -3.6778e-05           -3.832e-08           
  -0.15                 3.6826e-05            -3.6784e-05           -3.9876e-08          
  -0.2                  3.6816e-05            -3.6818e-05           -4.015e-08           
  -0.25                 3.68e-05              -3.6812e-05           -4.0238e-08          
  -0.3                  3.6796e-05            -3.6772e-05           -4.0292e-08          
  -0.35                 3.6826e-05            -3.6808e-05           -4.034e-08           
  -0.4                  3.684e-05             -3.6796e-05           -4.0384e-08          
  -0.45                 3.6814e-05            -3.6806e-05           -4.0428e-08          
  -0.5                  3.6834e-05            -3.6772e-05           -4.0466e-08          
  -0.55                 3.6818e-05            -3.68e-05             -4.052e-08           
  -0.6                  3.682e-05             -3.677e-05            -4.0556e-08          
  -0.65                 3.6788e-05            -3.6804e-05           -4.059e-08           
  -0.7                  3.6824e-05            -3.678e-05            -4.0626e-08          
  -0.75                 3.6816e-05            -3.6806e-05           -4.0674e-08          
  -0.8                  3.6804e-05            -3.6826e-05           -4.0716e-08          
  -0.85                 3.6814e-05            -3.68e-05             -4.0758e-08          
  -0.9                  3.6802e-05            -3.68e-05             -4.0794e-08          
  -0.95                 3.683e-05             -3.6766e-05           -4.0826e-08          
  -1                    3.6836e-05            -3.6808e-05           -4.0868e-08          
  -1.05                 3.6784e-05            -3.6756e-05           -4.091e-08           
  -1.1                  3.683e-05             -3.683e-05            -4.0946e-08          
  -1.15                 3.6814e-05            -3.6798e-05           -4.0986e-08          
  -1.2                  3.68e-05              -3.6792e-05           -4.102e-08           
  -1.25                 3.6816e-05            -3.6782e-05           -4.1054e-08          
  -1.3                  3.6818e-05            -3.6816e-05           -4.1092e-08          
  -1.35                 3.683e-05             -3.6772e-05           -4.1122e-08          
  -1.4                  3.6822e-05            -3.6766e-05           -4.1166e-08          
  -1.45                 3.682e-05             -3.6806e-05           -4.12e-08            
  -1.5                  3.6852e-05            -3.6808e-05           -4.1238e-08          
  -1.55                 3.683e-05             -3.6798e-05           -4.1264e-08          
  -1.6                  3.679e-05             -3.6816e-05           -4.1296e-08          
  -1.65                 3.6806e-05            -3.6756e-05           -4.1328e-08          
  -1.7                  3.6806e-05            -3.6784e-05           -4.137e-08           
  -1.75                 3.6816e-05            -3.6816e-05           -4.1402e-08          
  -1.8                  3.6832e-05            -3.676e-05            -4.1442e-08          
  -1.85                 3.6814e-05            -3.6792e-05           -4.1478e-08          
  -1.9                  3.6836e-05            -3.6816e-05           -4.151e-08           
  -1.95                 3.6836e-05            -3.6806e-05           -4.1548e-08          
  -2                    3.6828e-05            -3.6788e-05           -4.1582e-08          
END_DB

BEGIN_DB
 ICCAP_VAR vc         0              
 ICCAP_VAR vb         -0.7           

 #ve                    ic                    ib                    ie                   
  0                     9.2708e-05            -9.2948e-05           2.9046e-07           
  -0.05                 9.2836e-05            -9.2682e-05           -1.6402e-07          
  -0.1                  9.2908e-05            -9.2646e-05           -2.3058e-07          
  -0.15                 9.286e-05             -9.2602e-05           -2.406e-07           
  -0.2                  9.2886e-05            -9.2638e-05           -2.4236e-07          
  -0.25                 9.2882e-05            -9.2634e-05           -2.429e-07           
  -0.3                  9.287e-05             -9.2628e-05           -2.4322e-07          
  -0.35                 9.2856e-05            -9.2638e-05           -2.4358e-07          
  -0.4                  9.2888e-05            -9.2626e-05           -2.4386e-07          
  -0.45                 9.2888e-05            -9.265e-05            -2.4414e-07          
  -0.5                  9.2874e-05            -9.262e-05            -2.4436e-07          
  -0.55                 9.2872e-05            -9.2604e-05           -2.4466e-07          
  -0.6                  9.2906e-05            -9.2624e-05           -2.4482e-07          
  -0.65                 9.2864e-05            -9.265e-05            -2.4522e-07          
  -0.7                  9.2894e-05            -9.266e-05            -2.4538e-07          
  -0.75                 9.2858e-05            -9.2618e-05           -2.4562e-07          
  -0.8                  9.2838e-05            -9.2632e-05           -2.4596e-07          
  -0.85                 9.2858e-05            -9.2624e-05           -2.4606e-07          
  -0.9                  9.2904e-05            -9.2632e-05           -2.4642e-07          
  -0.95                 9.2902e-05            -9.2626e-05           -2.4662e-07          
  -1                    9.2858e-05            -9.265e-05            -2.4678e-07          
  -1.05                 9.2912e-05            -9.262e-05            -2.4706e-07          
  -1.1                  9.2892e-05            -9.263e-05            -2.473e-07           
  -1.15                 9.2864e-05            -9.2648e-05           -2.4746e-07          
  -1.2                  9.2866e-05            -9.2592e-05           -2.4778e-07          
  -1.25                 9.2912e-05            -9.2632e-05           -2.48e-07            
  -1.3                  9.2892e-05            -9.264e-05            -2.4814e-07          
  -1.35                 9.284e-05             -9.2626e-05           -2.484e-07           
  -1.4                  9.2888e-05            -9.2606e-05           -2.486e-07           
  -1.45                 9.2868e-05            -9.2594e-05           -2.488e-07           
  -1.5                  9.2884e-05            -9.267e-05            -2.4902e-07          
  -1.55                 9.2866e-05            -9.2614e-05           -2.4924e-07          
  -1.6                  9.2876e-05            -9.2606e-05           -2.4942e-07          
  -1.65                 9.2852e-05            -9.2644e-05           -2.4962e-07          
  -1.7                  9.285e-05             -9.2628e-05           -2.4982e-07          
  -1.75                 9.2862e-05            -9.2652e-05           -2.5006e-07          
  -1.8                  9.2896e-05            -9.263e-05            -2.503e-07           
  -1.85                 9.2892e-05            -9.2612e-05           -2.5046e-07          
  -1.9                  9.2888e-05            -9.2602e-05           -2.5068e-07          
  -1.95                 9.2852e-05            -9.263e-05            -2.5088e-07          
  -2                    9.2906e-05            -9.261e-05            -2.511e-07           
END_DB

BEGIN_DB
 ICCAP_VAR vc         0              
 ICCAP_VAR vb         -0.75          

 #ve                    ic                    ib                    ie                   
  0                     0.00020454            -0.00020686           1.9472e-06           
  -0.05                 0.00020542            -0.00020482           -8.1082e-07          
  -0.1                  0.00020568            -0.00020472           -1.22e-06            
  -0.15                 0.00020588            -0.00020464           -1.282e-06           
  -0.2                  0.00020584            -0.00020446           -1.2934e-06          
  -0.25                 0.00020586            -0.00020466           -1.297e-06           
  -0.3                  0.0002057             -0.00020448           -1.2982e-06          
  -0.35                 0.00020576            -0.00020464           -1.3004e-06          
  -0.4                  0.0002058             -0.00020454           -1.3024e-06          
  -0.45                 0.00020572            -0.00020466           -1.3038e-06          
  -0.5                  0.00020574            -0.00020476           -1.305e-06           
  -0.55                 0.00020584            -0.00020472           -1.307e-06           
  -0.6                  0.00020576            -0.00020458           -1.3078e-06          
  -0.65                 0.00020584            -0.00020466           -1.3098e-06          
  -0.7                  0.00020596            -0.00020446           -1.3108e-06          
  -0.75                 0.00020596            -0.00020444           -1.3116e-06          
  -0.8                  0.00020556            -0.00020468           -1.3128e-06          
  -0.85                 0.00020588            -0.00020462           -1.3152e-06          
  -0.9                  0.0002057             -0.00020462           -1.3164e-06          
  -0.95                 0.00020602            -0.0002046            -1.3174e-06          
  -1                    0.00020592            -0.00020444           -1.3188e-06          
  -1.05                 0.00020586            -0.00020468           -1.3196e-06          
  -1.1                  0.00020598            -0.00020458           -1.3212e-06          
  -1.15                 0.0002058             -0.00020448           -1.3218e-06          
  -1.2                  0.00020578            -0.00020476           -1.3232e-06          
  -1.25                 0.00020568            -0.00020466           -1.324e-06           
  -1.3                  0.000206              -0.00020464           -1.3252e-06          
  -1.35                 0.00020588            -0.00020444           -1.3264e-06          
  -1.4                  0.00020556            -0.00020462           -1.3274e-06          
  -1.45                 0.000206              -0.00020442           -1.3288e-06          
  -1.5                  0.00020572            -0.00020462           -1.3298e-06          
  -1.55                 0.0002058             -0.00020462           -1.331e-06           
  -1.6                  0.00020572            -0.00020462           -1.3324e-06          
  -1.65                 0.00020572            -0.00020446           -1.334e-06           
  -1.7                  0.00020568            -0.00020468           -1.334e-06           
  -1.75                 0.00020578            -0.00020452           -1.3364e-06          
  -1.8                  0.00020582            -0.00020462           -1.3368e-06          
  -1.85                 0.0002057             -0.00020454           -1.3378e-06          
  -1.9                  0.00020598            -0.0002046            -1.3396e-06          
  -1.95                 0.00020572            -0.00020464           -1.3394e-06          
  -2                    0.00020608            -0.0002044            -1.3416e-06          
END_DB

BEGIN_DB
 ICCAP_VAR vc         0              
 ICCAP_VAR vb         -0.8           

 #ve                    ic                    ib                    ie                   
  0                     0.00040278            -0.0004154            1.2148e-05           
  -0.05                 0.00040752            -0.00040494           -2.9156e-06          
  -0.1                  0.00040836            -0.000403             -5.2594e-06          
  -0.15                 0.00040834            -0.0004031            -5.6152e-06          
  -0.2                  0.00040824            -0.00040304           -5.6776e-06          
  -0.25                 0.00040872            -0.00040274           -5.6974e-06          
  -0.3                  0.00040832            -0.00040242           -5.7052e-06          
  -0.35                 0.00040878            -0.00040292           -5.7136e-06          
  -0.4                  0.00040892            -0.00040254           -5.7222e-06          
  -0.45                 0.00040854            -0.00040276           -5.728e-06           
  -0.5                  0.00040828            -0.00040292           -5.7344e-06          
  -0.55                 0.00040872            -0.00040292           -5.744e-06           
  -0.6                  0.00040844            -0.00040278           -5.7492e-06          
  -0.65                 0.00040836            -0.000403             -5.7544e-06          
  -0.7                  0.0004086             -0.00040292           -5.7602e-06          
  -0.75                 0.00040886            -0.00040262           -5.7666e-06          
  -0.8                  0.0004086             -0.00040304           -5.7714e-06          
  -0.85                 0.00040856            -0.00040288           -5.7776e-06          
  -0.9                  0.00040876            -0.00040282           -5.7832e-06          
  -0.95                 0.00040844            -0.00040288           -5.7884e-06          
  -1                    0.00040868            -0.0004029            -5.794e-06           
  -1.05                 0.0004085             -0.00040264           -5.8008e-06          
  -1.1                  0.00040864            -0.00040298           -5.8022e-06          
  -1.15                 0.00040876            -0.00040256           -5.8094e-06          
  -1.2                  0.00040844            -0.00040298           -5.8134e-06          
  -1.25                 0.00040872            -0.00040256           -5.8206e-06          
  -1.3                  0.00040836            -0.00040282           -5.8224e-06          
  -1.35                 0.00040874            -0.00040288           -5.8308e-06          
  -1.4                  0.00040866            -0.00040274           -5.8354e-06          
  -1.45                 0.00040832            -0.0004024            -5.839e-06           
  -1.5                  0.00040854            -0.00040286           -5.844e-06           
  -1.55                 0.00040878            -0.0004029            -5.8522e-06          
  -1.6                  0.00040858            -0.0004026            -5.8554e-06          
  -1.65                 0.0004083             -0.0004024            -5.8588e-06          
  -1.7                  0.0004083             -0.00040276           -5.8652e-06          
  -1.75                 0.0004086             -0.0004026            -5.8706e-06          
  -1.8                  0.0004087             -0.00040294           -5.876e-06           
  -1.85                 0.0004086             -0.00040246           -5.881e-06           
  -1.9                  0.00040838            -0.00040262           -5.8846e-06          
  -1.95                 0.0004084             -0.00040258           -5.89e-06            
