! VERSION = 6.00
BEGIN_HEADER
 ICCAP_INPUTS
  ve         V  E GROUND SMU_E 0.1 LIN        1    0          -2         41   -0.05     
  vc         V  C GROUND SMU_C 0.1 CON        0
  vb         V  B GROUND SMU_B 0.01 LIN        2    -0.6       -1         9    -0.05     
 ICCAP_OUTPUTS
  ic         I  C GROUND SMU_C M
  ib         I  B GROUND SMU_B M
  ie         I  E GROUND SMU_E M
 ICCAP_VALUES
  TNOM "27"
  TEMP "27"
  TECHNO "SG13S"
  LOT "PQA701"
  WAFER "17"
  CHIP "d0406"
  MODULE "T323_pnpMPA"
  DEV_NAME "DUT11"
  DEV_GEOM_L "."
  DEV_GEOM_W "."
  NF_EMITTER "."
  REMARKS "pnpMPA Teststructure"
  TIMEDATE "Fri Oct 21 12:47:07     2022"
END_HEADER

BEGIN_DB
 ICCAP_VAR vc         0              
 ICCAP_VAR vb         -0.6           

 #ve                    ic                    ib                    ie                   
  0                     9.8222e-06            -9.8276e-06           2.0452e-09           
  -0.05                 9.827e-06             -9.828e-06            -1.8832e-09          
  -0.1                  9.8344e-06            -9.8294e-06           -2.4764e-09          
  -0.15                 9.8234e-06            -9.821e-06            -2.568e-09           
  -0.2                  9.8246e-06            -9.8236e-06           -2.585e-09           
  -0.25                 9.8216e-06            -9.82e-06             -2.5914e-09          
  -0.3                  9.8244e-06            -9.828e-06            -2.5956e-09          
  -0.35                 9.8246e-06            -9.8258e-06           -2.6018e-09          
  -0.4                  9.826e-06             -9.8264e-06           -2.6044e-09          
  -0.45                 9.8272e-06            -9.8206e-06           -2.6068e-09          
  -0.5                  9.8238e-06            -9.8246e-06           -2.6138e-09          
  -0.55                 9.8264e-06            -9.8228e-06           -2.6132e-09          
  -0.6                  9.8198e-06            -9.8218e-06           -2.6144e-09          
  -0.65                 9.8274e-06            -9.825e-06            -2.6166e-09          
  -0.7                  9.8262e-06            -9.8212e-06           -2.621e-09           
  -0.75                 9.8268e-06            -9.8244e-06           -2.6242e-09          
  -0.8                  9.824e-06             -9.8266e-06           -2.6278e-09          
  -0.85                 9.8222e-06            -9.8246e-06           -2.6296e-09          
  -0.9                  9.818e-06             -9.8206e-06           -2.632e-09           
  -0.95                 9.8256e-06            -9.8244e-06           -2.6342e-09          
  -1                    9.823e-06             -9.8212e-06           -2.6392e-09          
  -1.05                 9.8236e-06            -9.8266e-06           -2.641e-09           
  -1.1                  9.8198e-06            -9.8266e-06           -2.645e-09           
  -1.15                 9.8284e-06            -9.821e-06            -2.6494e-09          
  -1.2                  9.8228e-06            -9.8214e-06           -2.6522e-09          
  -1.25                 9.832e-06             -9.8226e-06           -2.6544e-09          
  -1.3                  9.817e-06             -9.8252e-06           -2.658e-09           
  -1.35                 9.829e-06             -9.8268e-06           -2.6598e-09          
  -1.4                  9.8276e-06            -9.8248e-06           -2.662e-09           
  -1.45                 9.8164e-06            -9.819e-06            -2.6642e-09          
  -1.5                  9.819e-06             -9.8184e-06           -2.667e-09           
  -1.55                 9.8278e-06            -9.8258e-06           -2.6708e-09          
  -1.6                  9.8288e-06            -9.8258e-06           -2.6736e-09          
  -1.65                 9.8156e-06            -9.8202e-06           -2.6776e-09          
  -1.7                  9.8254e-06            -9.8248e-06           -2.6792e-09          
  -1.75                 9.8256e-06            -9.8234e-06           -2.6832e-09          
  -1.8                  9.8264e-06            -9.8236e-06           -2.6876e-09          
  -1.85                 9.8202e-06            -9.8242e-06           -2.6896e-09          
  -1.9                  9.8258e-06            -9.8198e-06           -2.6908e-09          
  -1.95                 9.819e-06             -9.8216e-06           -2.6938e-09          
  -2                    9.827e-06             -9.8268e-06           -2.6986e-09          
END_DB

BEGIN_DB
 ICCAP_VAR vc         0              
 ICCAP_VAR vb         -0.65          

 #ve                    ic                    ib                    ie                   
  0                     2.8978e-05            -2.8972e-05           1.428e-08            
  -0.05                 2.897e-05             -2.8932e-05           -1.2038e-08          
  -0.1                  2.8962e-05            -2.8982e-05           -1.598e-08           
  -0.15                 2.8972e-05            -2.8948e-05           -1.6588e-08          
  -0.2                  2.894e-05             -2.896e-05            -1.6708e-08          
  -0.25                 2.902e-05             -2.8938e-05           -1.6736e-08          
  -0.3                  2.8976e-05            -2.8968e-05           -1.6768e-08          
  -0.35                 2.895e-05             -2.8982e-05           -1.679e-08           
  -0.4                  2.8944e-05            -2.8978e-05           -1.6814e-08          
  -0.45                 2.9008e-05            -2.8952e-05           -1.6838e-08          
  -0.5                  2.9e-05               -2.8938e-05           -1.6852e-08          
  -0.55                 2.9022e-05            -2.8938e-05           -1.688e-08           
  -0.6                  2.8966e-05            -2.8968e-05           -1.69e-08            
  -0.65                 2.896e-05             -2.8966e-05           -1.6922e-08          
  -0.7                  2.8936e-05            -2.899e-05            -1.6952e-08          
  -0.75                 2.8952e-05            -2.8978e-05           -1.6964e-08          
  -0.8                  2.8956e-05            -2.8946e-05           -1.698e-08           
  -0.85                 2.8992e-05            -2.8946e-05           -1.7004e-08          
  -0.9                  2.9002e-05            -2.895e-05            -1.7024e-08          
  -0.95                 2.9016e-05            -2.8916e-05           -1.7034e-08          
  -1                    2.892e-05             -2.8972e-05           -1.7066e-08          
  -1.05                 2.8952e-05            -2.893e-05            -1.7086e-08          
  -1.1                  2.8974e-05            -2.8958e-05           -1.7096e-08          
  -1.15                 2.8904e-05            -2.9e-05              -1.712e-08           
  -1.2                  2.8978e-05            -2.8974e-05           -1.7142e-08          
  -1.25                 2.8966e-05            -2.8984e-05           -1.7172e-08          
  -1.3                  2.8978e-05            -2.8978e-05           -1.719e-08           
  -1.35                 2.8988e-05            -2.896e-05            -1.7212e-08          
  -1.4                  2.9024e-05            -2.895e-05            -1.7214e-08          
  -1.45                 2.9e-05               -2.8954e-05           -1.7234e-08          
  -1.5                  2.9e-05               -2.893e-05            -1.725e-08           
  -1.55                 2.8978e-05            -2.8928e-05           -1.727e-08           
  -1.6                  2.9002e-05            -2.8966e-05           -1.7288e-08          
  -1.65                 2.8954e-05            -2.8948e-05           -1.7358e-08          
  -1.7                  2.8966e-05            -2.895e-05            -1.732e-08           
  -1.75                 2.899e-05             -2.8964e-05           -1.734e-08           
  -1.8                  2.897e-05             -2.8938e-05           -1.7358e-08          
  -1.85                 2.8994e-05            -2.895e-05            -1.738e-08           
  -1.9                  2.8992e-05            -2.8978e-05           -1.7402e-08          
  -1.95                 2.8982e-05            -2.894e-05            -1.7426e-08          
  -2                    2.8982e-05            -2.8958e-05           -1.7438e-08          
END_DB

BEGIN_DB
 ICCAP_VAR vc         0              
 ICCAP_VAR vb         -0.7           

 #ve                    ic                    ib                    ie                   
  0                     7.2544e-05            -7.2626e-05           1.0192e-07           
  -0.05                 7.2646e-05            -7.2498e-05           -7.0782e-08          
  -0.1                  7.2588e-05            -7.2578e-05           -9.705e-08           
  -0.15                 7.2644e-05            -7.246e-05            -1.0088e-07          
  -0.2                  7.2588e-05            -7.2538e-05           -1.01604e-07         
  -0.25                 7.2646e-05            -7.2468e-05           -1.01846e-07         
  -0.3                  7.2586e-05            -7.2548e-05           -1.02038e-07         
  -0.35                 7.2598e-05            -7.2558e-05           -1.0221e-07          
  -0.4                  7.2666e-05            -7.2468e-05           -1.02352e-07         
  -0.45                 7.2576e-05            -7.2478e-05           -1.02472e-07         
  -0.5                  7.2562e-05            -7.2548e-05           -1.026e-07           
  -0.55                 7.2646e-05            -7.2492e-05           -1.0271e-07          
  -0.6                  7.2564e-05            -7.2502e-05           -1.02836e-07         
  -0.65                 7.256e-05             -7.2502e-05           -1.02962e-07         
  -0.7                  7.2634e-05            -7.2486e-05           -1.03092e-07         
  -0.75                 7.2536e-05            -7.2528e-05           -1.03208e-07         
  -0.8                  7.2596e-05            -7.2474e-05           -1.03312e-07         
  -0.85                 7.2636e-05            -7.246e-05            -1.03488e-07         
  -0.9                  7.262e-05             -7.2536e-05           -1.03604e-07         
  -0.95                 7.2572e-05            -7.2538e-05           -1.03722e-07         
  -1                    7.2616e-05            -7.2482e-05           -1.0387e-07          
  -1.05                 7.2638e-05            -7.2462e-05           -1.03964e-07         
  -1.1                  7.2604e-05            -7.2518e-05           -1.04068e-07         
  -1.15                 7.2552e-05            -7.2508e-05           -1.04198e-07         
  -1.2                  7.2572e-05            -7.2544e-05           -1.0429e-07          
  -1.25                 7.2634e-05            -7.2486e-05           -1.04414e-07         
  -1.3                  7.2578e-05            -7.2512e-05           -1.04544e-07         
  -1.35                 7.2582e-05            -7.2522e-05           -1.0466e-07          
  -1.4                  7.2638e-05            -7.2512e-05           -1.04772e-07         
  -1.45                 7.2632e-05            -7.2474e-05           -1.04862e-07         
  -1.5                  7.2596e-05            -7.2494e-05           -1.0499e-07          
  -1.55                 7.2598e-05            -7.2496e-05           -1.0505e-07          
  -1.6                  7.2628e-05            -7.2496e-05           -1.05232e-07         
  -1.65                 7.2564e-05            -7.2514e-05           -1.05332e-07         
  -1.7                  7.2654e-05            -7.249e-05            -1.05438e-07         
  -1.75                 7.26e-05              -7.2458e-05           -1.0554e-07          
  -1.8                  7.2542e-05            -7.2512e-05           -1.05588e-07         
  -1.85                 7.2596e-05            -7.2492e-05           -1.05778e-07         
  -1.9                  7.265e-05             -7.2444e-05           -1.05838e-07         
  -1.95                 7.2598e-05            -7.2514e-05           -1.05958e-07         
  -2                    7.259e-05             -7.2546e-05           -1.06112e-07         
END_DB

BEGIN_DB
 ICCAP_VAR vc         0              
 ICCAP_VAR vb         -0.75          

 #ve                    ic                    ib                    ie                   
  0                     0.00016006            -0.0001606            6.6928e-07           
  -0.05                 0.00016052            -0.00016002           -3.6772e-07          
  -0.1                  0.00016046            -0.00015992           -5.229e-07           
  -0.15                 0.00016024            -0.00015992           -5.4664e-07          
  -0.2                  0.00016078            -0.00015974           -5.5084e-07          
  -0.25                 0.0001606             -0.00015966           -5.5268e-07          
  -0.3                  0.00016038            -0.00015994           -5.5372e-07          
  -0.35                 0.0001606             -0.00015988           -5.5424e-07          
  -0.4                  0.00016072            -0.0001598            -5.5548e-07          
  -0.45                 0.00016026            -0.00016008           -5.5624e-07          
  -0.5                  0.00016044            -0.00015992           -5.567e-07           
  -0.55                 0.0001605             -0.00015994           -5.5768e-07          
  -0.6                  0.00016068            -0.00015976           -5.5846e-07          
  -0.65                 0.00016044            -0.00015996           -5.5964e-07          
  -0.7                  0.0001603             -0.0001602            -5.5984e-07          
  -0.75                 0.00016066            -0.00015994           -5.6072e-07          
  -0.8                  0.00016046            -0.00016002           -5.614e-07           
  -0.85                 0.00016064            -0.00015986           -5.6176e-07          
  -0.9                  0.00016062            -0.00015982           -5.628e-07           
  -0.95                 0.0001603             -0.00016018           -5.6352e-07          
  -1                    0.00016056            -0.00015982           -5.6418e-07          
  -1.05                 0.00016036            -0.00016              -5.6466e-07          
  -1.1                  0.00016034            -0.00015994           -5.651e-07           
  -1.15                 0.00016062            -0.00015968           -5.6596e-07          
  -1.2                  0.0001603             -0.00016006           -5.6656e-07          
  -1.25                 0.00016062            -0.0001599            -5.6662e-07          
  -1.3                  0.00016062            -0.0001598            -5.6748e-07          
  -1.35                 0.00016028            -0.00016002           -5.6836e-07          
  -1.4                  0.00016042            -0.00016              -5.6892e-07          
  -1.45                 0.00016036            -0.0001601            -5.6982e-07          
  -1.5                  0.00016062            -0.00015974           -5.7012e-07          
  -1.55                 0.00016026            -0.00016002           -5.7104e-07          
  -1.6                  0.00016068            -0.00015982           -5.7116e-07          
  -1.65                 0.00016038            -0.0001601            -5.7164e-07          
  -1.7                  0.00016066            -0.00015988           -5.7244e-07          
  -1.75                 0.00016036            -0.00015988           -5.7282e-07          
  -1.8                  0.00016042            -0.00016002           -5.7374e-07          
  -1.85                 0.00016062            -0.00015976           -5.741e-07           
  -1.9                  0.00016036            -0.00015996           -5.7486e-07          
  -1.95                 0.00016074            -0.0001597            -5.7556e-07          
  -2                    0.00016032            -0.0001601            -5.7686e-07          
END_DB

BEGIN_DB
 ICCAP_VAR vc         0              
 ICCAP_VAR vb         -0.8           

 #ve                    ic                    ib                    ie                   
  0                     0.00031712            -0.0003214            4.1378e-06           
  -0.05                 0.00031878            -0.00031774           -1.4468e-06          
  -0.1                  0.00031954            -0.00031674           -2.3152e-06          
  -0.15                 0.00031924            -0.0003172            -2.454e-06           
  -0.2                  0.00031962            -0.00031676           -2.4796e-06          
  -0.25                 0.00031924            -0.0003171            -2.489e-06           
  -0.3                  0.00031924            -0.00031688           -2.4934e-06          
  -0.35                 0.00031896            -0.0003172            -2.4982e-06          
  -0.4                  0.0003193             -0.00031706           -2.5002e-06          
  -0.45                 0.00031916            -0.000317             -2.5034e-06          
  -0.5                  0.00031964            -0.00031678           -2.5086e-06          
  -0.55                 0.00031938            -0.00031684           -2.5138e-06          
  -0.6                  0.00031922            -0.00031714           -2.5162e-06          
  -0.65                 0.00031918            -0.00031666           -2.5188e-06          
  -0.7                  0.00031952            -0.00031684           -2.523e-06           
  -0.75                 0.00031956            -0.00031674           -2.5234e-06          
  -0.8                  0.00031936            -0.00031696           -2.5292e-06          
  -0.85                 0.00031934            -0.00031716           -2.5308e-06          
  -0.9                  0.00031956            -0.00031686           -2.5334e-06          
  -0.95                 0.00031956            -0.00031686           -2.5374e-06          
  -1                    0.00031952            -0.00031736           -2.5402e-06          
  -1.05                 0.00031964            -0.00031664           -2.5424e-06          
  -1.1                  0.00031918            -0.0003172            -2.5464e-06          
  -1.15                 0.00031934            -0.0003169            -2.5476e-06          
  -1.2                  0.00031956            -0.00031678           -2.551e-06           
  -1.25                 0.00031964            -0.00031666           -2.555e-06           
  -1.3                  0.00031946            -0.00031668           -2.5586e-06          
  -1.35                 0.00031922            -0.0003171            -2.5608e-06          
  -1.4                  0.00031912            -0.0003171            -2.561e-06           
  -1.45                 0.00031964            -0.00031688           -2.5648e-06          
  -1.5                  0.00031942            -0.00031708           -2.5668e-06          
  -1.55                 0.00031962            -0.0003165            -2.5692e-06          
  -1.6                  0.00031924            -0.00031704           -2.5714e-06          
  -1.65                 0.00031958            -0.00031652           -2.5748e-06          
  -1.7                  0.0003192             -0.00031642           -2.5778e-06          
  -1.75                 0.00031938            -0.00031714           -2.5814e-06          
  -1.8                  0.00031968            -0.00031656           -2.5832e-06          
  -1.85                 0.00031906            -0.0003169            -2.5874e-06          
  -1.9                  0.0003196             -0.00031674           -2.5896e-06          
  -1.95                 0.00031916            -0.00031674           -2.5914e-06          
