! VERSION = 6.00
BEGIN_HEADER
 ICCAP_INPUTS
  ve         V  E GROUND SMU_E 0.1 LIN        1    0          -2         41   -0.05     
  vc         V  C GROUND SMU_C 0.1 CON        0
  vb         V  B GROUND SMU_B 0.01 LIN        2    -0.6       -1         9    -0.05     
 ICCAP_OUTPUTS
  ic         I  C GROUND SMU_C M
  ib         I  B GROUND SMU_B M
  ie         I  E GROUND SMU_E M
 ICCAP_VALUES
  TNOM "27"
  TEMP "27"
  TECHNO "SG13S"
  LOT "PQA701"
  WAFER "17"
  CHIP "d0406"
  MODULE "T323_pnpMPA"
  DEV_NAME "DUT3"
  DEV_GEOM_L "."
  DEV_GEOM_W "."
  NF_EMITTER "."
  REMARKS "pnpMPA Teststructure"
  TIMEDATE "Fri Oct 21 12:47:07     2022"
END_HEADER

BEGIN_DB
 ICCAP_VAR vc         0              
 ICCAP_VAR vb         -0.6           

 #ve                    ic                    ib                    ie                   
  0                     1.519e-05             -1.5212e-05           8.7394e-09           
  -0.05                 1.5188e-05            -1.5186e-05           -5.965e-09           
  -0.1                  1.5216e-05            -1.5202e-05           -8.178e-09           
  -0.15                 1.5194e-05            -1.5198e-05           -8.5154e-09          
  -0.2                  1.5184e-05            -1.5168e-05           -8.5658e-09          
  -0.25                 1.5222e-05            -1.5176e-05           -8.583e-09           
  -0.3                  1.5188e-05            -1.5176e-05           -8.5912e-09          
  -0.35                 1.5154e-05            -1.5182e-05           -8.6034e-09          
  -0.4                  1.5182e-05            -1.5184e-05           -8.6116e-09          
  -0.45                 1.5204e-05            -1.5178e-05           -8.62e-09            
  -0.5                  1.5204e-05            -1.5172e-05           -8.6278e-09          
  -0.55                 1.5174e-05            -1.5202e-05           -8.6336e-09          
  -0.6                  1.5196e-05            -1.519e-05            -8.6454e-09          
  -0.65                 1.52e-05              -1.5176e-05           -8.6524e-09          
  -0.7                  1.521e-05             -1.5196e-05           -8.663e-09           
  -0.75                 1.5196e-05            -1.5164e-05           -8.6706e-09          
  -0.8                  1.5176e-05            -1.5184e-05           -8.6794e-09          
  -0.85                 1.5176e-05            -1.5186e-05           -8.685e-09           
  -0.9                  1.5202e-05            -1.5186e-05           -8.6896e-09          
  -0.95                 1.5174e-05            -1.5168e-05           -8.6954e-09          
  -1                    1.5178e-05            -1.519e-05            -8.7018e-09          
  -1.05                 1.5166e-05            -1.5196e-05           -8.7106e-09          
  -1.1                  1.5232e-05            -1.5188e-05           -8.7174e-09          
  -1.15                 1.5182e-05            -1.518e-05            -8.7268e-09          
  -1.2                  1.519e-05             -1.5176e-05           -8.7362e-09          
  -1.25                 1.5192e-05            -1.519e-05            -8.7408e-09          
  -1.3                  1.519e-05             -1.5148e-05           -8.7426e-09          
  -1.35                 1.521e-05             -1.5196e-05           -8.7492e-09          
  -1.4                  1.5174e-05            -1.5172e-05           -8.7572e-09          
  -1.45                 1.5262e-05            -1.517e-05            -8.7642e-09          
  -1.5                  1.5148e-05            -1.519e-05            -8.772e-09           
  -1.55                 1.5208e-05            -1.5182e-05           -8.778e-09           
  -1.6                  1.5194e-05            -1.5182e-05           -8.783e-09           
  -1.65                 1.5168e-05            -1.521e-05            -8.785e-09           
  -1.7                  1.523e-05             -1.5146e-05           -8.7916e-09          
  -1.75                 1.5186e-05            -1.5188e-05           -8.7986e-09          
  -1.8                  1.5208e-05            -1.519e-05            -8.8056e-09          
  -1.85                 1.5176e-05            -1.5172e-05           -8.8132e-09          
  -1.9                  1.5204e-05            -1.5176e-05           -8.8192e-09          
  -1.95                 1.5192e-05            -1.5204e-05           -8.8248e-09          
  -2                    1.5216e-05            -1.5162e-05           -8.8284e-09          
END_DB

BEGIN_DB
 ICCAP_VAR vc         0              
 ICCAP_VAR vb         -0.65          

 #ve                    ic                    ib                    ie                   
  0                     4.501e-05             -4.5086e-05           6.4604e-08           
  -0.05                 4.5072e-05            -4.5038e-05           -3.6936e-08          
  -0.1                  4.5046e-05            -4.5046e-05           -5.173e-08           
  -0.15                 4.5104e-05            -4.5002e-05           -5.395e-08           
  -0.2                  4.505e-05             -4.4998e-05           -5.4328e-08          
  -0.25                 4.5062e-05            -4.502e-05            -5.445e-08           
  -0.3                  4.5064e-05            -4.5022e-05           -5.4504e-08          
  -0.35                 4.507e-05             -4.4992e-05           -5.4568e-08          
  -0.4                  4.5046e-05            -4.502e-05            -5.4622e-08          
  -0.45                 4.5042e-05            -4.4994e-05           -5.468e-08           
  -0.5                  4.5072e-05            -4.5014e-05           -5.4726e-08          
  -0.55                 4.503e-05             -4.502e-05            -5.4774e-08          
  -0.6                  4.506e-05             -4.5032e-05           -5.4842e-08          
  -0.65                 4.5034e-05            -4.5016e-05           -5.4882e-08          
  -0.7                  4.5042e-05            -4.5024e-05           -5.4924e-08          
  -0.75                 4.5056e-05            -4.502e-05            -5.4972e-08          
  -0.8                  4.5074e-05            -4.5026e-05           -5.502e-08           
  -0.85                 4.505e-05             -4.4996e-05           -5.5056e-08          
  -0.9                  4.5044e-05            -4.503e-05            -5.5106e-08          
  -0.95                 4.5064e-05            -4.4996e-05           -5.5162e-08          
  -1                    4.5054e-05            -4.505e-05            -5.5204e-08          
  -1.05                 4.5072e-05            -4.5012e-05           -5.5264e-08          
  -1.1                  4.5088e-05            -4.5006e-05           -5.5276e-08          
  -1.15                 4.5082e-05            -4.5014e-05           -5.5334e-08          
  -1.2                  4.5048e-05            -4.5012e-05           -5.5372e-08          
  -1.25                 4.5076e-05            -4.499e-05            -5.5432e-08          
  -1.3                  4.508e-05             -4.501e-05            -5.5464e-08          
  -1.35                 4.505e-05             -4.5002e-05           -5.551e-08           
  -1.4                  4.5094e-05            -4.5e-05              -5.5554e-08          
  -1.45                 4.5066e-05            -4.5028e-05           -5.5584e-08          
  -1.5                  4.5044e-05            -4.4988e-05           -5.5622e-08          
  -1.55                 4.5068e-05            -4.5012e-05           -5.5664e-08          
  -1.6                  4.5044e-05            -4.502e-05            -5.5704e-08          
  -1.65                 4.5094e-05            -4.4992e-05           -5.5766e-08          
  -1.7                  4.5092e-05            -4.498e-05            -5.5782e-08          
  -1.75                 4.5064e-05            -4.499e-05            -5.5822e-08          
  -1.8                  4.5034e-05            -4.5018e-05           -5.5862e-08          
  -1.85                 4.506e-05             -4.4986e-05           -5.5908e-08          
  -1.9                  4.508e-05             -4.4986e-05           -5.595e-08           
  -1.95                 4.5022e-05            -4.5014e-05           -5.5998e-08          
  -2                    4.507e-05             -4.5e-05              -5.6032e-08          
END_DB

BEGIN_DB
 ICCAP_VAR vc         0              
 ICCAP_VAR vb         -0.7           

 #ve                    ic                    ib                    ie                   
  0                     0.000113146           -0.00011364           4.5352e-07           
  -0.05                 0.00011342            -0.00011316           -2.039e-07           
  -0.1                  0.000113414           -0.00011308           -3.0072e-07          
  -0.15                 0.000113372           -0.0001132            -3.1546e-07          
  -0.2                  0.000113478           -0.00011316           -3.1796e-07          
  -0.25                 0.000113408           -0.00011316           -3.1862e-07          
  -0.3                  0.000113454           -0.0001132            -3.1904e-07          
  -0.35                 0.000113462           -0.00011316           -3.1932e-07          
  -0.4                  0.0001135             -0.00011314           -3.198e-07           
  -0.45                 0.000113378           -0.00011306           -3.2008e-07          
  -0.5                  0.0001136             -0.00011316           -3.2036e-07          
  -0.55                 0.00011344            -0.00011308           -3.2124e-07          
  -0.6                  0.00011346            -0.00011318           -3.2136e-07          
  -0.65                 0.00011348            -0.00011312           -3.218e-07           
  -0.7                  0.00011352            -0.00011312           -3.222e-07           
  -0.75                 0.00011352            -0.00011316           -3.2252e-07          
  -0.8                  0.00011332            -0.00011326           -3.2266e-07          
  -0.85                 0.00011342            -0.0001132            -3.2302e-07          
  -0.9                  0.00011336            -0.00011318           -3.2318e-07          
  -0.95                 0.00011346            -0.00011318           -3.2358e-07          
  -1                    0.00011342            -0.00011314           -3.239e-07           
  -1.05                 0.00011334            -0.00011308           -3.2386e-07          
  -1.1                  0.00011352            -0.00011308           -3.2412e-07          
  -1.15                 0.00011354            -0.00011312           -3.244e-07           
  -1.2                  0.00011316            -0.0001131            -3.2474e-07          
  -1.25                 0.00011346            -0.00011318           -3.25e-07            
  -1.3                  0.00011346            -0.0001131            -3.255e-07           
  -1.35                 0.00011338            -0.00011318           -3.2546e-07          
  -1.4                  0.00011338            -0.00011318           -3.259e-07           
  -1.45                 0.00011348            -0.00011308           -3.2604e-07          
  -1.5                  0.00011332            -0.00011302           -3.261e-07           
  -1.55                 0.00011328            -0.00011316           -3.2668e-07          
  -1.6                  0.0001135             -0.00011314           -3.2698e-07          
  -1.65                 0.00011334            -0.00011306           -3.2692e-07          
  -1.7                  0.0001133             -0.00011324           -3.272e-07           
  -1.75                 0.0001135             -0.00011316           -3.2756e-07          
  -1.8                  0.00011342            -0.00011314           -3.2768e-07          
  -1.85                 0.00011346            -0.00011304           -3.2796e-07          
  -1.9                  0.00011352            -0.0001132            -3.2818e-07          
  -1.95                 0.00011356            -0.00011322           -3.285e-07           
  -2                    0.00011344            -0.00011306           -3.2878e-07          
END_DB

BEGIN_DB
 ICCAP_VAR vc         0              
 ICCAP_VAR vb         -0.75          

 #ve                    ic                    ib                    ie                   
  0                     0.00024718            -0.00025032           3.0036e-06           
  -0.05                 0.00024812            -0.00024754           -8.9166e-07          
  -0.1                  0.00024856            -0.00024684           -1.5014e-06          
  -0.15                 0.00024858            -0.0002468            -1.5946e-06          
  -0.2                  0.00024848            -0.00024654           -1.609e-06           
  -0.25                 0.00024836            -0.00024696           -1.6118e-06          
  -0.3                  0.00024846            -0.00024694           -1.6156e-06          
  -0.35                 0.00024862            -0.00024678           -1.6178e-06          
  -0.4                  0.00024836            -0.00024686           -1.6194e-06          
  -0.45                 0.00024828            -0.00024692           -1.621e-06           
  -0.5                  0.00024828            -0.00024696           -1.6236e-06          
  -0.55                 0.00024822            -0.000247             -1.6244e-06          
  -0.6                  0.00024864            -0.0002468            -1.6262e-06          
  -0.65                 0.00024816            -0.000247             -1.6266e-06          
  -0.7                  0.0002484             -0.00024684           -1.6298e-06          
  -0.75                 0.00024846            -0.00024684           -1.6308e-06          
  -0.8                  0.00024842            -0.000247             -1.6328e-06          
  -0.85                 0.00024822            -0.00024688           -1.6336e-06          
  -0.9                  0.00024862            -0.00024682           -1.6346e-06          
  -0.95                 0.0002484             -0.00024662           -1.636e-06           
  -1                    0.00024832            -0.00024678           -1.6372e-06          
  -1.05                 0.00024896            -0.00024674           -1.6388e-06          
  -1.1                  0.00024854            -0.00024692           -1.6408e-06          
  -1.15                 0.00024866            -0.00024678           -1.6418e-06          
  -1.2                  0.0002485             -0.00024668           -1.6434e-06          
  -1.25                 0.00024844            -0.000247             -1.644e-06           
  -1.3                  0.0002483             -0.00024684           -1.645e-06           
  -1.35                 0.0002483             -0.00024684           -1.6476e-06          
  -1.4                  0.00024818            -0.00024698           -1.6476e-06          
  -1.45                 0.00024856            -0.00024674           -1.6496e-06          
  -1.5                  0.00024836            -0.00024696           -1.651e-06           
  -1.55                 0.00024822            -0.00024664           -1.6522e-06          
  -1.6                  0.00024828            -0.00024668           -1.653e-06           
  -1.65                 0.00024852            -0.00024678           -1.6548e-06          
  -1.7                  0.0002484             -0.00024678           -1.6546e-06          
  -1.75                 0.00024848            -0.00024692           -1.6554e-06          
  -1.8                  0.0002482             -0.00024694           -1.6574e-06          
  -1.85                 0.00024862            -0.00024674           -1.6592e-06          
  -1.9                  0.00024854            -0.00024684           -1.6594e-06          
  -1.95                 0.00024828            -0.00024664           -1.6602e-06          
  -2                    0.00024848            -0.00024674           -1.6626e-06          
END_DB

BEGIN_DB
 ICCAP_VAR vc         0              
 ICCAP_VAR vb         -0.8           

 #ve                    ic                    ib                    ie                   
  0                     0.00047638            -0.00049232           1.5762e-05           
  -0.05                 0.00048114            -0.00047848           -2.2772e-06          
  -0.1                  0.00048138            -0.00047596           -5.876e-06           
  -0.15                 0.00048158            -0.00047528           -6.4498e-06          
  -0.2                  0.0004819             -0.00047532           -6.541e-06           
  -0.25                 0.00048178            -0.00047552           -6.5662e-06          
  -0.3                  0.00048192            -0.0004751            -6.5778e-06          
  -0.35                 0.00048174            -0.0004752            -6.5862e-06          
  -0.4                  0.00048206            -0.0004754            -6.596e-06           
  -0.45                 0.00048204            -0.00047522           -6.6034e-06          
  -0.5                  0.00048174            -0.0004752            -6.608e-06           
  -0.55                 0.00048164            -0.0004754            -6.615e-06           
  -0.6                  0.00048214            -0.00047512           -6.6232e-06          
  -0.65                 0.00048176            -0.0004753            -6.6296e-06          
  -0.7                  0.00048168            -0.00047506           -6.6334e-06          
  -0.75                 0.00048184            -0.00047542           -6.642e-06           
  -0.8                  0.0004818             -0.00047506           -6.6496e-06          
  -0.85                 0.00048162            -0.00047524           -6.6548e-06          
  -0.9                  0.00048172            -0.00047518           -6.662e-06           
  -0.95                 0.00048188            -0.00047516           -6.6658e-06          
  -1                    0.00048166            -0.00047504           -6.67e-06            
  -1.05                 0.00048184            -0.0004754            -6.677e-06           
  -1.1                  0.00048208            -0.00047504           -6.6826e-06          
  -1.15                 0.00048178            -0.00047534           -6.685e-06           
  -1.2                  0.00048184            -0.00047544           -6.6936e-06          
  -1.25                 0.00048212            -0.00047544           -6.7008e-06          
  -1.3                  0.00048224            -0.00047508           -6.705e-06           
  -1.35                 0.0004818             -0.00047488           -6.706e-06           
  -1.4                  0.00048182            -0.00047542           -6.712e-06           
  -1.45                 0.00048196            -0.00047508           -6.7184e-06          
  -1.5                  0.00048192            -0.00047552           -6.7226e-06          
  -1.55                 0.00048208            -0.00047526           -6.7296e-06          
  -1.6                  0.00048166            -0.00047512           -6.7328e-06          
  -1.65                 0.000482              -0.00047514           -6.74e-06            
  -1.7                  0.0004817             -0.00047508           -6.7426e-06          
  -1.75                 0.00048184            -0.00047518           -6.7492e-06          
  -1.8                  0.00048186            -0.0004751            -6.754e-06           
  -1.85                 0.00048164            -0.0004752            -6.7562e-06          
  -1.9                  0.00048196            -0.000475             -6.764e-06           
  -1.95                 0.0004818             -0.00047518           -6.7652e-06          
