! VERSION = 6.00
BEGIN_HEADER
 ICCAP_INPUTS
  ve         V  E GROUND SMU_E 0.1 LIN        1    0          -2         41   -0.05     
  vc         V  C GROUND SMU_C 0.1 CON        0
  vb         V  B GROUND SMU_B 0.01 LIN        2    -0.6       -1         9    -0.05     
 ICCAP_OUTPUTS
  ic         I  C GROUND SMU_C M
  ib         I  B GROUND SMU_B M
  ie         I  E GROUND SMU_E M
 ICCAP_VALUES
  TNOM "27"
  TEMP "27"
  TECHNO "SG13S"
  LOT "PQA701"
  WAFER "17"
  CHIP "d0406"
  MODULE "T323_pnpMPA"
  DEV_NAME "DUT2"
  DEV_GEOM_L "."
  DEV_GEOM_W "."
  NF_EMITTER "."
  REMARKS "pnpMPA Teststructure"
  TIMEDATE "Fri Oct 21 12:47:07     2022"
END_HEADER

BEGIN_DB
 ICCAP_VAR vc         0              
 ICCAP_VAR vb         -0.6           

 #ve                    ic                    ib                    ie                   
  0                     1.6932e-05            -1.6952e-05           1.0722e-08           
  -0.05                 1.6978e-05            -1.6992e-05           -8.2142e-09          
  -0.1                  1.6976e-05            -1.6956e-05           -1.10416e-08         
  -0.15                 1.6998e-05            -1.6964e-05           -1.1464e-08          
  -0.2                  1.6998e-05            -1.6972e-05           -1.1542e-08          
  -0.25                 1.699e-05             -1.6984e-05           -1.1564e-08          
  -0.3                  1.6968e-05            -1.6984e-05           -1.158e-08           
  -0.35                 1.6992e-05            -1.6988e-05           -1.1596e-08          
  -0.4                  1.6998e-05            -1.6982e-05           -1.161e-08           
  -0.45                 1.7006e-05            -1.6974e-05           -1.1624e-08          
  -0.5                  1.6954e-05            -1.6974e-05           -1.163e-08           
  -0.55                 1.6968e-05            -1.6976e-05           -1.1646e-08          
  -0.6                  1.6948e-05            -1.6972e-05           -1.1658e-08          
  -0.65                 1.6962e-05            -1.6972e-05           -1.167e-08           
  -0.7                  1.7004e-05            -1.6962e-05           -1.1678e-08          
  -0.75                 1.6988e-05            -1.6988e-05           -1.169e-08           
  -0.8                  1.6992e-05            -1.6978e-05           -1.1704e-08          
  -0.85                 1.6996e-05            -1.6982e-05           -1.1714e-08          
  -0.9                  1.6998e-05            -1.6968e-05           -1.172e-08           
  -0.95                 1.6944e-05            -1.6942e-05           -1.173e-08           
  -1                    1.6996e-05            -1.6962e-05           -1.1744e-08          
  -1.05                 1.6996e-05            -1.6974e-05           -1.1756e-08          
  -1.1                  1.6984e-05            -1.6982e-05           -1.1766e-08          
  -1.15                 1.6968e-05            -1.6978e-05           -1.1778e-08          
  -1.2                  1.6976e-05            -1.6978e-05           -1.1782e-08          
  -1.25                 1.699e-05             -1.6954e-05           -1.1798e-08          
  -1.3                  1.6962e-05            -1.697e-05            -1.1804e-08          
  -1.35                 1.6966e-05            -1.695e-05            -1.1816e-08          
  -1.4                  1.6944e-05            -1.6954e-05           -1.1822e-08          
  -1.45                 1.6958e-05            -1.698e-05            -1.1836e-08          
  -1.5                  1.6988e-05            -1.6966e-05           -1.1844e-08          
  -1.55                 1.7006e-05            -1.6952e-05           -1.1858e-08          
  -1.6                  1.6968e-05            -1.6964e-05           -1.1862e-08          
  -1.65                 1.6964e-05            -1.6958e-05           -1.188e-08           
  -1.7                  1.697e-05             -1.6974e-05           -1.1888e-08          
  -1.75                 1.7006e-05            -1.699e-05            -1.1896e-08          
  -1.8                  1.6982e-05            -1.6972e-05           -1.1906e-08          
  -1.85                 1.6982e-05            -1.6964e-05           -1.1908e-08          
  -1.9                  1.6976e-05            -1.6952e-05           -1.1922e-08          
  -1.95                 1.697e-05             -1.6996e-05           -1.1932e-08          
  -2                    1.6988e-05            -1.699e-05            -1.194e-08           
END_DB

BEGIN_DB
 ICCAP_VAR vc         0              
 ICCAP_VAR vb         -0.65          

 #ve                    ic                    ib                    ie                   
  0                     5.0348e-05            -5.046e-05            7.6264e-08           
  -0.05                 5.043e-05             -5.0408e-05           -5.2924e-08          
  -0.1                  5.0462e-05            -5.0408e-05           -7.1782e-08          
  -0.15                 5.0406e-05            -5.0376e-05           -7.4624e-08          
  -0.2                  5.0442e-05            -5.0364e-05           -7.514e-08           
  -0.25                 5.0416e-05            -5.038e-05            -7.53e-08            
  -0.3                  5.0466e-05            -5.0412e-05           -7.5414e-08          
  -0.35                 5.0456e-05            -5.041e-05            -7.551e-08           
  -0.4                  5.0448e-05            -5.0396e-05           -7.557e-08           
  -0.45                 5.0454e-05            -5.0394e-05           -7.5674e-08          
  -0.5                  5.0472e-05            -5.0398e-05           -7.5746e-08          
  -0.55                 5.0486e-05            -5.0418e-05           -7.5822e-08          
  -0.6                  5.0446e-05            -5.0388e-05           -7.59e-08            
  -0.65                 5.0464e-05            -5.0412e-05           -7.5958e-08          
  -0.7                  5.0478e-05            -5.0388e-05           -7.6058e-08          
  -0.75                 5.0472e-05            -5.0374e-05           -7.6134e-08          
  -0.8                  5.0454e-05            -5.039e-05            -7.623e-08           
  -0.85                 5.049e-05             -5.0444e-05           -7.6278e-08          
  -0.9                  5.0468e-05            -5.0406e-05           -7.6334e-08          
  -0.95                 5.0448e-05            -5.0392e-05           -7.6396e-08          
  -1                    5.044e-05             -5.039e-05            -7.646e-08           
  -1.05                 5.0416e-05            -5.0392e-05           -7.652e-08           
  -1.1                  5.0476e-05            -5.0414e-05           -7.6596e-08          
  -1.15                 5.0456e-05            -5.0396e-05           -7.6652e-08          
  -1.2                  5.0434e-05            -5.037e-05            -7.6726e-08          
  -1.25                 5.0454e-05            -5.037e-05            -7.6788e-08          
  -1.3                  5.044e-05             -5.0386e-05           -7.6856e-08          
  -1.35                 5.0468e-05            -5.0374e-05           -7.6914e-08          
  -1.4                  5.0458e-05            -5.0378e-05           -7.6974e-08          
  -1.45                 5.042e-05             -5.0384e-05           -7.704e-08           
  -1.5                  5.0438e-05            -5.0392e-05           -7.7104e-08          
  -1.55                 5.0488e-05            -5.0404e-05           -7.7178e-08          
  -1.6                  5.0442e-05            -5.0368e-05           -7.7238e-08          
  -1.65                 5.0408e-05            -5.0372e-05           -7.7298e-08          
  -1.7                  5.0444e-05            -5.037e-05            -7.7378e-08          
  -1.75                 5.0438e-05            -5.0384e-05           -7.7412e-08          
  -1.8                  5.0442e-05            -5.0378e-05           -7.7486e-08          
  -1.85                 5.042e-05             -5.0378e-05           -7.7554e-08          
  -1.9                  5.0446e-05            -5.0356e-05           -7.7622e-08          
  -1.95                 5.0448e-05            -5.0368e-05           -7.768e-08           
  -2                    5.0458e-05            -5.0396e-05           -7.7752e-08          
END_DB

BEGIN_DB
 ICCAP_VAR vc         0              
 ICCAP_VAR vb         -0.7           

 #ve                    ic                    ib                    ie                   
  0                     0.00012768            -0.00012824           5.178e-07            
  -0.05                 0.0001279             -0.00012746           -3.1982e-07          
  -0.1                  0.00012806            -0.00012766           -4.4288e-07          
  -0.15                 0.00012788            -0.0001274            -4.6166e-07          
  -0.2                  0.00012812            -0.00012756           -4.6496e-07          
  -0.25                 0.00012776            -0.00012756           -4.6624e-07          
  -0.3                  0.00012782            -0.00012742           -4.6658e-07          
  -0.35                 0.000128              -0.00012756           -4.6732e-07          
  -0.4                  0.00012772            -0.0001274            -4.6762e-07          
  -0.45                 0.00012804            -0.0001276            -4.683e-07           
  -0.5                  0.00012774            -0.0001275            -4.6872e-07          
  -0.55                 0.00012796            -0.00012742           -4.6932e-07          
  -0.6                  0.00012802            -0.0001276            -4.6958e-07          
  -0.65                 0.0001278             -0.0001276            -4.7028e-07          
  -0.7                  0.00012778            -0.0001275            -4.7066e-07          
  -0.75                 0.00012806            -0.00012762           -4.7108e-07          
  -0.8                  0.00012794            -0.00012742           -4.7164e-07          
  -0.85                 0.0001279             -0.00012738           -4.7176e-07          
  -0.9                  0.000128              -0.00012738           -4.7214e-07          
  -0.95                 0.00012782            -0.00012762           -4.728e-07           
  -1                    0.00012794            -0.00012752           -4.7344e-07          
  -1.05                 0.00012794            -0.00012738           -4.7384e-07          
  -1.1                  0.00012796            -0.0001276            -4.74e-07            
  -1.15                 0.00012794            -0.00012748           -4.7454e-07          
  -1.2                  0.00012794            -0.0001276            -4.7476e-07          
  -1.25                 0.0001279             -0.00012742           -4.7532e-07          
  -1.3                  0.00012788            -0.00012742           -4.7554e-07          
  -1.35                 0.00012808            -0.00012756           -4.7604e-07          
  -1.4                  0.00012812            -0.0001275            -4.7648e-07          
  -1.45                 0.00012784            -0.0001274            -4.7682e-07          
  -1.5                  0.00012784            -0.00012756           -4.7716e-07          
  -1.55                 0.00012802            -0.00012762           -4.777e-07           
  -1.6                  0.0001279             -0.0001274            -4.7816e-07          
  -1.65                 0.00012796            -0.00012762           -4.7828e-07          
  -1.7                  0.00012788            -0.00012738           -4.7886e-07          
  -1.75                 0.00012786            -0.00012746           -4.7898e-07          
  -1.8                  0.00012816            -0.00012754           -4.7938e-07          
  -1.85                 0.00012784            -0.00012746           -4.7994e-07          
  -1.9                  0.00012786            -0.0001276            -4.8038e-07          
  -1.95                 0.00012818            -0.00012752           -4.808e-07           
  -2                    0.00012784            -0.0001275            -4.8126e-07          
END_DB

BEGIN_DB
 ICCAP_VAR vc         0              
 ICCAP_VAR vb         -0.75          

 #ve                    ic                    ib                    ie                   
  0                     0.00028324            -0.00028696           3.5202e-06           
  -0.05                 0.00028554            -0.0002839            -1.6794e-06          
  -0.1                  0.00028534            -0.00028314           -2.4522e-06          
  -0.15                 0.00028584            -0.00028312           -2.5682e-06          
  -0.2                  0.00028566            -0.00028304           -2.589e-06           
  -0.25                 0.00028586            -0.00028302           -2.595e-06           
  -0.3                  0.00028558            -0.00028334           -2.5984e-06          
  -0.35                 0.00028562            -0.00028302           -2.602e-06           
  -0.4                  0.00028586            -0.00028284           -2.6056e-06          
  -0.45                 0.00028586            -0.00028318           -2.6074e-06          
  -0.5                  0.00028562            -0.00028318           -2.6106e-06          
  -0.55                 0.00028574            -0.000283             -2.6144e-06          
  -0.6                  0.00028588            -0.00028294           -2.6166e-06          
  -0.65                 0.00028592            -0.00028294           -2.62e-06            
  -0.7                  0.0002857             -0.00028308           -2.6224e-06          
  -0.75                 0.00028596            -0.00028332           -2.6238e-06          
  -0.8                  0.00028554            -0.00028276           -2.6274e-06          
  -0.85                 0.00028592            -0.00028324           -2.6296e-06          
  -0.9                  0.00028574            -0.00028328           -2.6318e-06          
  -0.95                 0.00028548            -0.00028298           -2.6354e-06          
  -1                    0.00028568            -0.00028328           -2.6356e-06          
  -1.05                 0.00028582            -0.00028284           -2.639e-06           
  -1.1                  0.00028586            -0.00028334           -2.6412e-06          
  -1.15                 0.0002856             -0.00028306           -2.6442e-06          
  -1.2                  0.00028578            -0.00028304           -2.6462e-06          
  -1.25                 0.00028588            -0.00028288           -2.6488e-06          
  -1.3                  0.00028594            -0.00028292           -2.6502e-06          
  -1.35                 0.0002856             -0.00028288           -2.6526e-06          
  -1.4                  0.00028582            -0.00028322           -2.6542e-06          
  -1.45                 0.00028556            -0.00028294           -2.6578e-06          
  -1.5                  0.0002859             -0.000283             -2.6592e-06          
  -1.55                 0.0002861             -0.0002833            -2.662e-06           
  -1.6                  0.0002859             -0.00028336           -2.6646e-06          
  -1.65                 0.0002859             -0.00028304           -2.6672e-06          
  -1.7                  0.00028566            -0.00028302           -2.668e-06           
  -1.75                 0.00028576            -0.00028326           -2.6706e-06          
  -1.8                  0.00028558            -0.00028296           -2.6732e-06          
  -1.85                 0.00028572            -0.00028308           -2.6742e-06          
  -1.9                  0.00028566            -0.00028312           -2.6764e-06          
  -1.95                 0.00028576            -0.00028308           -2.679e-06           
  -2                    0.00028566            -0.00028312           -2.6824e-06          
END_DB

BEGIN_DB
 ICCAP_VAR vc         0              
 ICCAP_VAR vb         -0.8           

 #ve                    ic                    ib                    ie                   
  0                     0.00056558            -0.00058756           2.1998e-05           
  -0.05                 0.00057566            -0.00056892           -6.7554e-06          
  -0.1                  0.00057724            -0.00056618           -1.1275e-05          
  -0.15                 0.00057748            -0.00056502           -1.198e-05           
  -0.2                  0.00057726            -0.00056528           -1.208e-05           
  -0.25                 0.0005775             -0.00056556           -1.2124e-05          
  -0.3                  0.0005772             -0.000565             -1.2132e-05          
  -0.35                 0.00057722            -0.0005655            -1.2166e-05          
  -0.4                  0.00057722            -0.00056516           -1.2164e-05          
  -0.45                 0.00057764            -0.00056544           -1.22e-05            
  -0.5                  0.00057688            -0.00056498           -1.219e-05           
  -0.55                 0.0005776             -0.00056532           -1.2226e-05          
  -0.6                  0.00057748            -0.0005651            -1.2224e-05          
  -0.65                 0.00057772            -0.00056528           -1.2256e-05          
  -0.7                  0.00057768            -0.00056552           -1.2258e-05          
  -0.75                 0.0005772             -0.0005651            -1.2258e-05          
  -0.8                  0.00057762            -0.00056548           -1.2298e-05          
  -0.85                 0.0005772             -0.00056486           -1.2284e-05          
  -0.9                  0.00057734            -0.00056514           -1.2318e-05          
  -0.95                 0.00057738            -0.00056522           -1.2324e-05          
  -1                    0.00057744            -0.00056526           -1.2316e-05          
  -1.05                 0.00057736            -0.00056506           -1.234e-05           
  -1.1                  0.0005774             -0.00056524           -1.234e-05           
  -1.15                 0.0005777             -0.0005652            -1.236e-05           
  -1.2                  0.0005774             -0.0005649            -1.2366e-05          
  -1.25                 0.0005773             -0.00056492           -1.2376e-05          
  -1.3                  0.00057742            -0.00056532           -1.2396e-05          
  -1.35                 0.00057746            -0.00056536           -1.2404e-05          
  -1.4                  0.0005773             -0.000565             -1.24e-05            
  -1.45                 0.00057746            -0.00056522           -1.2416e-05          
  -1.5                  0.00057746            -0.00056492           -1.2436e-05          
  -1.55                 0.00057742            -0.00056502           -1.2444e-05          
  -1.6                  0.00057746            -0.00056518           -1.2466e-05          
  -1.65                 0.00057718            -0.00056492           -1.2452e-05          
  -1.7                  0.00057772            -0.00056522           -1.2484e-05          
  -1.75                 0.00057722            -0.00056484           -1.2472e-05          
  -1.8                  0.00057756            -0.00056534           -1.2488e-05          
  -1.85                 0.0005774             -0.00056468           -1.2498e-05          
  -1.9                  0.00057752            -0.00056484           -1.25e-05            
  -1.95                 0.00057754            -0.00056508           -1.252e-05           
