! VERSION = 6.00
BEGIN_HEADER
 ICCAP_INPUTS
  ve         V  E GROUND SMU_E 0.1 LIN        1    0          -2         41   -0.05     
  vc         V  C GROUND SMU_C 0.1 CON        0
  vb         V  B GROUND SMU_B 0.01 LIN        2    -0.6       -1         9    -0.05     
 ICCAP_OUTPUTS
  ic         I  C GROUND SMU_C M
  ib         I  B GROUND SMU_B M
  ie         I  E GROUND SMU_E M
 ICCAP_VALUES
  TNOM "27"
  TEMP "27"
  TECHNO "SG13S"
  LOT "PQA701"
  WAFER "17"
  CHIP "d0406"
  MODULE "T323_pnpMPA"
  DEV_NAME "DUT15"
  DEV_GEOM_L "."
  DEV_GEOM_W "."
  NF_EMITTER "."
  REMARKS "pnpMPA Teststructure"
  TIMEDATE "Fri Oct 21 12:47:07     2022"
END_HEADER

BEGIN_DB
 ICCAP_VAR vc         0              
 ICCAP_VAR vb         -0.6           

 #ve                    ic                    ib                    ie                   
  0                     6.2898e-06            -6.2916e-06           3.6948e-10           
  -0.05                 6.2906e-06            -6.2922e-06           -7.1914e-10          
  -0.1                  6.2902e-06            -6.2872e-06           -8.9262e-10          
  -0.15                 6.2888e-06            -6.2904e-06           -9.1984e-10          
  -0.2                  6.288e-06             -6.29e-06             -9.2562e-10          
  -0.25                 6.2924e-06            -6.2878e-06           -9.2802e-10          
  -0.3                  6.2948e-06            -6.2886e-06           -9.2996e-10          
  -0.35                 6.2934e-06            -6.2886e-06           -9.317e-10           
  -0.4                  6.2892e-06            -6.2892e-06           -9.3372e-10          
  -0.45                 6.2916e-06            -6.2904e-06           -9.3556e-10          
  -0.5                  6.2908e-06            -6.2888e-06           -9.372e-10           
  -0.55                 6.3008e-06            -6.2884e-06           -9.3858e-10          
  -0.6                  6.2958e-06            -6.292e-06            -9.4084e-10          
  -0.65                 6.2866e-06            -6.2896e-06           -9.4184e-10          
  -0.7                  6.2792e-06            -6.2908e-06           -9.439e-10           
  -0.75                 6.2884e-06            -6.2878e-06           -9.4512e-10          
  -0.8                  6.2902e-06            -6.2898e-06           -9.471e-10           
  -0.85                 6.2956e-06            -6.2928e-06           -9.488e-10           
  -0.9                  6.2844e-06            -6.2934e-06           -9.5014e-10          
  -0.95                 6.2868e-06            -6.296e-06            -9.5196e-10          
  -1                    6.2886e-06            -6.288e-06            -9.5394e-10          
  -1.05                 6.2878e-06            -6.2872e-06           -9.5516e-10          
  -1.1                  6.2904e-06            -6.2892e-06           -9.5708e-10          
  -1.15                 6.292e-06             -6.2872e-06           -9.5812e-10          
  -1.2                  6.2926e-06            -6.2864e-06           -9.5996e-10          
  -1.25                 6.288e-06             -6.29e-06             -9.6124e-10          
  -1.3                  6.2892e-06            -6.289e-06            -9.6262e-10          
  -1.35                 6.292e-06             -6.288e-06            -9.64e-10            
  -1.4                  6.2896e-06            -6.2858e-06           -9.6546e-10          
  -1.45                 6.2894e-06            -6.2892e-06           -9.67e-10            
  -1.5                  6.2894e-06            -6.2908e-06           -9.6918e-10          
  -1.55                 6.2952e-06            -6.2918e-06           -9.7054e-10          
  -1.6                  6.2984e-06            -6.293e-06            -9.7232e-10          
  -1.65                 6.2856e-06            -6.2898e-06           -9.741e-10           
  -1.7                  6.288e-06             -6.2876e-06           -9.7504e-10          
  -1.75                 6.2892e-06            -6.2944e-06           -9.761e-10           
  -1.8                  6.2864e-06            -6.2924e-06           -9.7816e-10          
  -1.85                 6.2868e-06            -6.2892e-06           -9.7992e-10          
  -1.9                  6.2954e-06            -6.2894e-06           -9.8106e-10          
  -1.95                 6.2808e-06            -6.2902e-06           -9.8322e-10          
  -2                    6.2888e-06            -6.2864e-06           -9.8444e-10          
END_DB

BEGIN_DB
 ICCAP_VAR vc         0              
 ICCAP_VAR vb         -0.65          

 #ve                    ic                    ib                    ie                   
  0                     1.8128e-05            -1.8166e-05           2.7162e-09           
  -0.05                 1.811e-05             -1.8106e-05           -4.5982e-09          
  -0.1                  1.8174e-05            -1.8152e-05           -5.7296e-09          
  -0.15                 1.8148e-05            -1.809e-05            -5.9092e-09          
  -0.2                  1.814e-05             -1.816e-05            -5.9434e-09          
  -0.25                 1.8148e-05            -1.8156e-05           -5.9606e-09          
  -0.3                  1.8142e-05            -1.8102e-05           -5.9734e-09          
  -0.35                 1.8112e-05            -1.8106e-05           -5.9876e-09          
  -0.4                  1.8138e-05            -1.8152e-05           -5.999e-09           
  -0.45                 1.8174e-05            -1.8116e-05           -6.0112e-09          
  -0.5                  1.8114e-05            -1.8112e-05           -6.0226e-09          
  -0.55                 1.8154e-05            -1.8144e-05           -6.0336e-09          
  -0.6                  1.8136e-05            -1.811e-05            -6.0434e-09          
  -0.65                 1.8116e-05            -1.8104e-05           -6.057e-09           
  -0.7                  1.8134e-05            -1.817e-05            -6.0664e-09          
  -0.75                 1.8184e-05            -1.8134e-05           -6.0752e-09          
  -0.8                  1.8114e-05            -1.8138e-05           -6.0848e-09          
  -0.85                 1.8138e-05            -1.8152e-05           -6.0954e-09          
  -0.9                  1.8174e-05            -1.8106e-05           -6.108e-09           
  -0.95                 1.814e-05             -1.8132e-05           -6.1186e-09          
  -1                    1.8128e-05            -1.81e-05             -6.1304e-09          
  -1.05                 1.811e-05             -1.8172e-05           -6.1402e-09          
  -1.1                  1.8168e-05            -1.8144e-05           -6.15e-09            
  -1.15                 1.8188e-05            -1.8108e-05           -6.161e-09           
  -1.2                  1.8154e-05            -1.8108e-05           -6.17e-09            
  -1.25                 1.8142e-05            -1.8102e-05           -6.1794e-09          
  -1.3                  1.8096e-05            -1.8118e-05           -6.19e-09            
  -1.35                 1.809e-05             -1.8144e-05           -6.1996e-09          
  -1.4                  1.8118e-05            -1.8148e-05           -6.2092e-09          
  -1.45                 1.8164e-05            -1.8156e-05           -6.219e-09           
  -1.5                  1.8148e-05            -1.8108e-05           -6.2286e-09          
  -1.55                 1.811e-05             -1.812e-05            -6.2398e-09          
  -1.6                  1.8098e-05            -1.8152e-05           -6.2478e-09          
  -1.65                 1.8164e-05            -1.815e-05            -6.2576e-09          
  -1.7                  1.8152e-05            -1.8124e-05           -6.2686e-09          
  -1.75                 1.8152e-05            -1.8112e-05           -6.277e-09           
  -1.8                  1.8138e-05            -1.8106e-05           -6.286e-09           
  -1.85                 1.8104e-05            -1.8168e-05           -6.296e-09           
  -1.9                  1.8168e-05            -1.8158e-05           -6.3048e-09          
  -1.95                 1.8132e-05            -1.8102e-05           -6.3148e-09          
  -2                    1.8126e-05            -1.8108e-05           -6.3238e-09          
END_DB

BEGIN_DB
 ICCAP_VAR vc         0              
 ICCAP_VAR vb         -0.7           

 #ve                    ic                    ib                    ie                   
  0                     4.4224e-05            -4.4306e-05           2.1176e-08           
  -0.05                 4.425e-05             -4.4256e-05           -2.7404e-08          
  -0.1                  4.429e-05             -4.4218e-05           -3.4574e-08          
  -0.15                 4.4306e-05            -4.4276e-05           -3.5714e-08          
  -0.2                  4.4236e-05            -4.4312e-05           -3.5956e-08          
  -0.25                 4.429e-05             -4.4224e-05           -3.607e-08           
  -0.3                  4.4288e-05            -4.4284e-05           -3.6152e-08          
  -0.35                 4.4274e-05            -4.422e-05            -3.6228e-08          
  -0.4                  4.4292e-05            -4.4212e-05           -3.6298e-08          
  -0.45                 4.4334e-05            -4.4272e-05           -3.6368e-08          
  -0.5                  4.4222e-05            -4.426e-05            -3.6456e-08          
  -0.55                 4.4336e-05            -4.425e-05            -3.6522e-08          
  -0.6                  4.4252e-05            -4.4272e-05           -3.6592e-08          
  -0.65                 4.4288e-05            -4.427e-05            -3.6648e-08          
  -0.7                  4.4344e-05            -4.4208e-05           -3.671e-08           
  -0.75                 4.4342e-05            -4.421e-05            -3.6778e-08          
  -0.8                  4.4328e-05            -4.4236e-05           -3.6842e-08          
  -0.85                 4.4284e-05            -4.4294e-05           -3.6902e-08          
  -0.9                  4.4288e-05            -4.4212e-05           -3.6972e-08          
  -0.95                 4.4266e-05            -4.4286e-05           -3.7022e-08          
  -1                    4.4232e-05            -4.4258e-05           -3.7082e-08          
  -1.05                 4.4348e-05            -4.4268e-05           -3.7132e-08          
  -1.1                  4.425e-05             -4.4286e-05           -3.7202e-08          
  -1.15                 4.4226e-05            -4.4204e-05           -3.7266e-08          
  -1.2                  4.4324e-05            -4.4252e-05           -3.7368e-08          
  -1.25                 4.4304e-05            -4.4238e-05           -3.7388e-08          
  -1.3                  4.426e-05             -4.4256e-05           -3.7444e-08          
  -1.35                 4.4274e-05            -4.421e-05            -3.7496e-08          
  -1.4                  4.4338e-05            -4.43e-05             -3.7566e-08          
  -1.45                 4.4284e-05            -4.4222e-05           -3.7626e-08          
  -1.5                  4.4244e-05            -4.4278e-05           -3.7678e-08          
  -1.55                 4.4232e-05            -4.427e-05            -3.7756e-08          
  -1.6                  4.4342e-05            -4.4276e-05           -3.7802e-08          
  -1.65                 4.4266e-05            -4.4286e-05           -3.7858e-08          
  -1.7                  4.4308e-05            -4.4244e-05           -3.791e-08           
  -1.75                 4.4276e-05            -4.4206e-05           -3.7974e-08          
  -1.8                  4.4316e-05            -4.4252e-05           -3.8034e-08          
  -1.85                 4.4324e-05            -4.4226e-05           -3.8094e-08          
  -1.9                  4.4228e-05            -4.4272e-05           -3.8154e-08          
  -1.95                 4.428e-05             -4.4212e-05           -3.82e-08            
  -2                    4.4332e-05            -4.4254e-05           -3.8268e-08          
END_DB

BEGIN_DB
 ICCAP_VAR vc         0              
 ICCAP_VAR vb         -0.75          

 #ve                    ic                    ib                    ie                   
  0                     9.5734e-05            -9.5944e-05           1.4098e-07           
  -0.05                 9.6008e-05            -9.581e-05            -1.4312e-07          
  -0.1                  9.6016e-05            -9.5838e-05           -1.8594e-07          
  -0.15                 9.6008e-05            -9.5758e-05           -1.9274e-07          
  -0.2                  9.5978e-05            -9.578e-05            -1.9428e-07          
  -0.25                 9.5962e-05            -9.5822e-05           -1.9488e-07          
  -0.3                  9.5986e-05            -9.583e-05            -1.9534e-07          
  -0.35                 9.6036e-05            -9.5822e-05           -1.9574e-07          
  -0.4                  9.5978e-05            -9.5798e-05           -1.9618e-07          
  -0.45                 9.6004e-05            -9.5828e-05           -1.966e-07           
  -0.5                  9.5992e-05            -9.581e-05            -1.9694e-07          
  -0.55                 9.6014e-05            -9.586e-05            -1.973e-07           
  -0.6                  9.6028e-05            -9.5768e-05           -1.9768e-07          
  -0.65                 9.5968e-05            -9.5758e-05           -1.9808e-07          
  -0.7                  9.5936e-05            -9.581e-05            -1.9848e-07          
  -0.75                 9.5964e-05            -9.5854e-05           -1.9884e-07          
  -0.8                  9.6024e-05            -9.5784e-05           -1.9912e-07          
  -0.85                 9.6034e-05            -9.5744e-05           -1.995e-07           
  -0.9                  9.5958e-05            -9.5768e-05           -1.9984e-07          
  -0.95                 9.6022e-05            -9.5736e-05           -2.002e-07           
  -1                    9.5968e-05            -9.5752e-05           -2.0048e-07          
  -1.05                 9.591e-05             -9.5782e-05           -2.0084e-07          
  -1.1                  9.598e-05             -9.5788e-05           -2.0114e-07          
  -1.15                 9.5946e-05            -9.5792e-05           -2.0148e-07          
  -1.2                  9.6014e-05            -9.5844e-05           -2.0184e-07          
  -1.25                 9.5968e-05            -9.581e-05            -2.0218e-07          
  -1.3                  9.6042e-05            -9.5734e-05           -2.0244e-07          
  -1.35                 9.6024e-05            -9.5764e-05           -2.0278e-07          
  -1.4                  9.5986e-05            -9.574e-05            -2.0304e-07          
  -1.45                 9.5968e-05            -9.5764e-05           -2.0338e-07          
  -1.5                  9.5946e-05            -9.5812e-05           -2.0374e-07          
  -1.55                 9.5944e-05            -9.5818e-05           -2.0402e-07          
  -1.6                  9.5962e-05            -9.5822e-05           -2.044e-07           
  -1.65                 9.5998e-05            -9.577e-05            -2.0466e-07          
  -1.7                  9.5946e-05            -9.5826e-05           -2.0496e-07          
  -1.75                 9.6002e-05            -9.5776e-05           -2.0538e-07          
  -1.8                  9.5988e-05            -9.5726e-05           -2.0562e-07          
  -1.85                 9.6e-05               -9.5742e-05           -2.0598e-07          
  -1.9                  9.6026e-05            -9.5718e-05           -2.0626e-07          
  -1.95                 9.602e-05             -9.583e-05            -2.0658e-07          
  -2                    9.6018e-05            -9.581e-05            -2.0688e-07          
END_DB

BEGIN_DB
 ICCAP_VAR vc         0              
 ICCAP_VAR vb         -0.8           

 #ve                    ic                    ib                    ie                   
  0                     0.00018874            -0.00018938           8.5476e-07           
  -0.05                 0.00018938            -0.00018882           -5.9592e-07          
  -0.1                  0.00018922            -0.00018868           -8.2998e-07          
  -0.15                 0.0001894             -0.00018872           -8.6824e-07          
  -0.2                  0.0001896             -0.00018874           -8.7604e-07          
  -0.25                 0.00018904            -0.0001887            -8.7954e-07          
  -0.3                  0.00018946            -0.00018872           -8.817e-07           
  -0.35                 0.00018934            -0.00018858           -8.8466e-07          
  -0.4                  0.00018916            -0.00018874           -8.86e-07            
  -0.45                 0.00018934            -0.00018854           -8.8788e-07          
  -0.5                  0.0001896             -0.00018834           -8.8964e-07          
  -0.55                 0.00018942            -0.0001884            -8.913e-07           
  -0.6                  0.0001896             -0.00018858           -8.93e-07            
  -0.65                 0.00018966            -0.00018872           -8.9446e-07          
  -0.7                  0.00018944            -0.00018862           -8.9648e-07          
  -0.75                 0.00018954            -0.0001887            -8.9842e-07          
  -0.8                  0.0001894             -0.0001882            -8.9974e-07          
  -0.85                 0.00018952            -0.00018844           -9.0136e-07          
  -0.9                  0.0001895             -0.00018864           -9.0286e-07          
  -0.95                 0.00018948            -0.00018862           -9.0454e-07          
  -1                    0.00018928            -0.00018862           -9.0598e-07          
  -1.05                 0.00018902            -0.00018858           -9.0816e-07          
  -1.1                  0.00018924            -0.00018862           -9.0928e-07          
  -1.15                 0.00018924            -0.00018868           -9.105e-07           
  -1.2                  0.000189              -0.00018852           -9.1236e-07          
  -1.25                 0.00018908            -0.00018848           -9.1378e-07          
  -1.3                  0.00018902            -0.00018852           -9.1544e-07          
  -1.35                 0.0001891             -0.0001884            -9.1676e-07          
  -1.4                  0.00018908            -0.00018858           -9.1818e-07          
  -1.45                 0.00018908            -0.0001887            -9.1966e-07          
  -1.5                  0.0001895             -0.00018864           -9.2068e-07          
  -1.55                 0.0001893             -0.00018854           -9.2222e-07          
  -1.6                  0.00018962            -0.00018868           -9.2346e-07          
  -1.65                 0.00018912            -0.00018848           -9.25e-07            
  -1.7                  0.00018908            -0.00018818           -9.265e-07           
  -1.75                 0.00018942            -0.00018834           -9.275e-07           
  -1.8                  0.00018956            -0.0001884            -9.2878e-07          
  -1.85                 0.00018936            -0.00018836           -9.3082e-07          
  -1.9                  0.00018944            -0.00018862           -9.3176e-07          
  -1.95                 0.00018892            -0.0001886            -9.3398e-07          
