! VERSION = 6.00
BEGIN_HEADER
 ICCAP_INPUTS
  ve         V  E GROUND SMU_E 0.1 LIN        1    0          -2         41   -0.05     
  vc         V  C GROUND SMU_C 0.1 CON        0
  vb         V  B GROUND SMU_B 0.01 LIN        2    -0.6       -1         9    -0.05     
 ICCAP_OUTPUTS
  ic         I  C GROUND SMU_C M
  ib         I  B GROUND SMU_B M
  ie         I  E GROUND SMU_E M
 ICCAP_VALUES
  TNOM "27"
  TEMP "27"
  TECHNO "SG13S"
  LOT "PQA701"
  WAFER "17"
  CHIP "d0406"
  MODULE "T323_pnpMPA"
  DEV_NAME "DUT1"
  DEV_GEOM_L "."
  DEV_GEOM_W "."
  NF_EMITTER "."
  REMARKS "pnpMPA Teststructure"
  TIMEDATE "Fri Oct 21 12:47:07     2022"
END_HEADER

BEGIN_DB
 ICCAP_VAR vc         0              
 ICCAP_VAR vb         -0.6           

 #ve                    ic                    ib                    ie                   
  0                     2.0252e-05            -2.0254e-05           1.769e-08            
  -0.05                 2.0222e-05            -2.0224e-05           -1.037e-08           
  -0.1                  2.0246e-05            -2.0214e-05           -1.4532e-08          
  -0.15                 2.0246e-05            -2.022e-05            -1.5162e-08          
  -0.2                  2.0248e-05            -2.0214e-05           -1.5268e-08          
  -0.25                 2.0242e-05            -2.0234e-05           -1.53e-08            
  -0.3                  2.024e-05             -2.0242e-05           -1.5318e-08          
  -0.35                 2.0232e-05            -2.0218e-05           -1.5336e-08          
  -0.4                  2.0246e-05            -2.022e-05            -1.5346e-08          
  -0.45                 2.024e-05             -2.0244e-05           -1.5358e-08          
  -0.5                  2.024e-05             -2.024e-05            -1.5372e-08          
  -0.55                 2.0252e-05            -2.0234e-05           -1.5384e-08          
  -0.6                  2.0268e-05            -2.0232e-05           -1.54e-08            
  -0.65                 2.0242e-05            -2.0236e-05           -1.5412e-08          
  -0.7                  2.0242e-05            -2.0244e-05           -1.5422e-08          
  -0.75                 2.0232e-05            -2.0192e-05           -1.5442e-08          
  -0.8                  2.0254e-05            -2.0236e-05           -1.5452e-08          
  -0.85                 2.0246e-05            -2.0244e-05           -1.5466e-08          
  -0.9                  2.0236e-05            -2.0234e-05           -1.547e-08           
  -0.95                 2.026e-05             -2.0202e-05           -1.5484e-08          
  -1                    2.0256e-05            -2.022e-05            -1.5496e-08          
  -1.05                 2.0244e-05            -2.0232e-05           -1.5506e-08          
  -1.1                  2.0232e-05            -2.0234e-05           -1.5514e-08          
  -1.15                 2.0248e-05            -2.0218e-05           -1.5528e-08          
  -1.2                  2.0214e-05            -2.0228e-05           -1.5536e-08          
  -1.25                 2.0198e-05            -2.0232e-05           -1.5548e-08          
  -1.3                  2.0282e-05            -2.0238e-05           -1.5554e-08          
  -1.35                 2.027e-05             -2.0224e-05           -1.5568e-08          
  -1.4                  2.0236e-05            -2.0216e-05           -1.5582e-08          
  -1.45                 2.021e-05             -2.0226e-05           -1.559e-08           
  -1.5                  2.0236e-05            -2.0234e-05           -1.5602e-08          
  -1.55                 2.0266e-05            -2.0246e-05           -1.5612e-08          
  -1.6                  2.0238e-05            -2.025e-05            -1.5624e-08          
  -1.65                 2.0252e-05            -2.023e-05            -1.5636e-08          
  -1.7                  2.0252e-05            -2.0234e-05           -1.5642e-08          
  -1.75                 2.0254e-05            -2.024e-05            -1.5652e-08          
  -1.8                  2.0262e-05            -2.0244e-05           -1.5666e-08          
  -1.85                 2.0252e-05            -2.0218e-05           -1.5676e-08          
  -1.9                  2.024e-05             -2.0204e-05           -1.569e-08           
  -1.95                 2.0244e-05            -2.0232e-05           -1.5694e-08          
  -2                    2.025e-05             -2.0238e-05           -1.5708e-08          
END_DB

BEGIN_DB
 ICCAP_VAR vc         0              
 ICCAP_VAR vb         -0.65          

 #ve                    ic                    ib                    ie                   
  0                     5.9838e-05            -6.0032e-05           1.266e-07            
  -0.05                 5.9936e-05            -5.9916e-05           -6.4714e-08          
  -0.1                  5.9946e-05            -5.9872e-05           -9.2584e-08          
  -0.15                 5.9934e-05            -5.9864e-05           -9.6726e-08          
  -0.2                  5.9978e-05            -5.988e-05            -9.7438e-08          
  -0.25                 5.9992e-05            -5.9842e-05           -9.7642e-08          
  -0.3                  5.9922e-05            -5.984e-05            -9.7736e-08          
  -0.35                 5.9944e-05            -5.9866e-05           -9.784e-08           
  -0.4                  5.9992e-05            -5.9858e-05           -9.792e-08           
  -0.45                 5.9934e-05            -5.9838e-05           -9.8006e-08          
  -0.5                  5.9998e-05            -5.9852e-05           -9.8104e-08          
  -0.55                 5.9954e-05            -5.9824e-05           -9.8204e-08          
  -0.6                  5.9902e-05            -5.9868e-05           -9.8282e-08          
  -0.65                 5.9942e-05            -5.9884e-05           -9.8368e-08          
  -0.7                  5.995e-05             -5.9874e-05           -9.8448e-08          
  -0.75                 5.9956e-05            -5.9856e-05           -9.8516e-08          
  -0.8                  5.9946e-05            -5.985e-05            -9.8596e-08          
  -0.85                 5.9934e-05            -5.9848e-05           -9.8686e-08          
  -0.9                  5.9912e-05            -5.9876e-05           -9.8754e-08          
  -0.95                 5.9914e-05            -5.9856e-05           -9.8846e-08          
  -1                    5.9934e-05            -5.9836e-05           -9.8906e-08          
  -1.05                 5.995e-05             -5.9852e-05           -9.8972e-08          
  -1.1                  5.9932e-05            -5.984e-05            -9.9034e-08          
  -1.15                 5.9914e-05            -5.9868e-05           -9.9126e-08          
  -1.2                  5.9954e-05            -5.9852e-05           -9.918e-08           
  -1.25                 5.996e-05             -5.9854e-05           -9.9256e-08          
  -1.3                  5.9962e-05            -5.9894e-05           -9.9332e-08          
  -1.35                 5.9946e-05            -5.9848e-05           -9.9386e-08          
  -1.4                  5.9954e-05            -5.9844e-05           -9.945e-08           
  -1.45                 5.9986e-05            -5.9846e-05           -9.956e-08           
  -1.5                  5.992e-05             -5.988e-05            -9.9608e-08          
  -1.55                 5.9994e-05            -5.9862e-05           -9.968e-08           
  -1.6                  5.9972e-05            -5.9864e-05           -9.972e-08           
  -1.65                 5.9944e-05            -5.9874e-05           -9.9776e-08          
  -1.7                  5.9954e-05            -5.9844e-05           -9.984e-08           
  -1.75                 5.9958e-05            -5.9834e-05           -9.9912e-08          
  -1.8                  5.9936e-05            -5.9878e-05           -9.9982e-08          
  -1.85                 5.9948e-05            -5.9864e-05           -1.00066e-07         
  -1.9                  5.9952e-05            -5.9868e-05           -1.00108e-07         
  -1.95                 5.9986e-05            -5.9868e-05           -1.0018e-07          
  -2                    5.9946e-05            -5.9848e-05           -1.00262e-07         
END_DB

BEGIN_DB
 ICCAP_VAR vc         0              
 ICCAP_VAR vb         -0.7           

 #ve                    ic                    ib                    ie                   
  0                     0.00014976            -0.0001511            8.8162e-07           
  -0.05                 0.0001504             -0.00015006           -3.622e-07           
  -0.1                  0.00015034            -0.00015              -5.4584e-07          
  -0.15                 0.00015044            -0.00014998           -5.7312e-07          
  -0.2                  0.0001506             -0.00014984           -5.7798e-07          
  -0.25                 0.00015056            -0.00014982           -5.7924e-07          
  -0.3                  0.00015046            -0.00014994           -5.7964e-07          
  -0.35                 0.00015032            -0.00015008           -5.8034e-07          
  -0.4                  0.00015056            -0.00014978           -5.8096e-07          
  -0.45                 0.00015048            -0.00015002           -5.815e-07           
  -0.5                  0.00015038            -0.00015002           -5.82e-07            
  -0.55                 0.00015038            -0.00014994           -5.8262e-07          
  -0.6                  0.00015046            -0.00015              -5.8328e-07          
  -0.65                 0.00015068            -0.00014976           -5.8386e-07          
  -0.7                  0.00015052            -0.00014984           -5.842e-07           
  -0.75                 0.0001506             -0.0001499            -5.8464e-07          
  -0.8                  0.00015042            -0.00015              -5.8484e-07          
  -0.85                 0.0001503             -0.00014986           -5.8524e-07          
  -0.9                  0.00015046            -0.00014976           -5.8598e-07          
  -0.95                 0.00015054            -0.00014994           -5.863e-07           
  -1                    0.00015028            -0.00015012           -5.8676e-07          
  -1.05                 0.00015044            -0.0001502            -5.8716e-07          
  -1.1                  0.00015052            -0.00014998           -5.8764e-07          
  -1.15                 0.00015044            -0.00014994           -5.882e-07           
  -1.2                  0.00015054            -0.00014976           -5.885e-07           
  -1.25                 0.00015062            -0.00015002           -5.8892e-07          
  -1.3                  0.00015036            -0.00014998           -5.8912e-07          
  -1.35                 0.00015034            -0.00015004           -5.897e-07           
  -1.4                  0.00015044            -0.00014982           -5.9012e-07          
  -1.45                 0.00015054            -0.00014986           -5.906e-07           
  -1.5                  0.0001507             -0.00014996           -5.9116e-07          
  -1.55                 0.00015042            -0.00014994           -5.913e-07           
  -1.6                  0.00015058            -0.00015014           -5.9182e-07          
  -1.65                 0.00015052            -0.00014978           -5.9206e-07          
  -1.7                  0.00015034            -0.00015008           -5.9264e-07          
  -1.75                 0.00015048            -0.00014986           -5.928e-07           
  -1.8                  0.0001505             -0.00014976           -5.935e-07           
  -1.85                 0.00015046            -0.00014982           -5.937e-07           
  -1.9                  0.0001505             -0.0001498            -5.9446e-07          
  -1.95                 0.00015062            -0.00014988           -5.9466e-07          
  -2                    0.00015056            -0.00014986           -5.9524e-07          
END_DB

BEGIN_DB
 ICCAP_VAR vc         0              
 ICCAP_VAR vb         -0.75          

 #ve                    ic                    ib                    ie                   
  0                     0.00032604            -0.0003322            5.955e-06            
  -0.05                 0.00032816            -0.00032694           -1.6122e-06          
  -0.1                  0.00032878            -0.00032572           -2.7842e-06          
  -0.15                 0.00032834            -0.00032578           -2.9594e-06          
  -0.2                  0.00032858            -0.00032588           -2.9882e-06          
  -0.25                 0.00032864            -0.0003256            -2.9968e-06          
  -0.3                  0.00032864            -0.00032572           -3.0018e-06          
  -0.35                 0.00032868            -0.00032582           -3.0042e-06          
  -0.4                  0.00032862            -0.00032594           -3.0078e-06          
  -0.45                 0.00032848            -0.00032588           -3.0094e-06          
  -0.5                  0.00032864            -0.00032566           -3.0136e-06          
  -0.55                 0.00032898            -0.00032562           -3.0164e-06          
  -0.6                  0.00032866            -0.00032586           -3.0166e-06          
  -0.65                 0.00032852            -0.00032584           -3.0206e-06          
  -0.7                  0.0003288             -0.00032558           -3.0246e-06          
  -0.75                 0.00032874            -0.00032582           -3.0256e-06          
  -0.8                  0.00032848            -0.00032592           -3.028e-06           
  -0.85                 0.00032878            -0.00032566           -3.0318e-06          
  -0.9                  0.00032902            -0.00032564           -3.0338e-06          
  -0.95                 0.00032876            -0.00032546           -3.0368e-06          
  -1                    0.00032868            -0.00032588           -3.0384e-06          
  -1.05                 0.0003285             -0.00032578           -3.0398e-06          
  -1.1                  0.00032858            -0.00032554           -3.0426e-06          
  -1.15                 0.00032888            -0.00032588           -3.0456e-06          
  -1.2                  0.00032866            -0.00032556           -3.0464e-06          
  -1.25                 0.00032864            -0.0003255            -3.0494e-06          
  -1.3                  0.00032894            -0.00032566           -3.0514e-06          
  -1.35                 0.00032888            -0.00032564           -3.0536e-06          
  -1.4                  0.00032866            -0.0003258            -3.0552e-06          
  -1.45                 0.00032844            -0.00032582           -3.0568e-06          
  -1.5                  0.00032848            -0.00032564           -3.0592e-06          
  -1.55                 0.00032858            -0.0003256            -3.0616e-06          
  -1.6                  0.0003287             -0.00032562           -3.0634e-06          
  -1.65                 0.0003286             -0.0003259            -3.0658e-06          
  -1.7                  0.0003286             -0.00032558           -3.0672e-06          
  -1.75                 0.0003285             -0.00032582           -3.0698e-06          
  -1.8                  0.0003286             -0.00032576           -3.071e-06           
  -1.85                 0.0003284             -0.00032574           -3.0734e-06          
  -1.9                  0.00032852            -0.00032586           -3.0754e-06          
  -1.95                 0.00032852            -0.00032566           -3.0772e-06          
  -2                    0.00032856            -0.00032582           -3.0794e-06          
END_DB

BEGIN_DB
 ICCAP_VAR vc         0              
 ICCAP_VAR vb         -0.8           

 #ve                    ic                    ib                    ie                   
  0                     0.0006328             -0.00066552           3.2472e-05           
  -0.05                 0.00064178            -0.00063794           -4.2804e-06          
  -0.1                  0.00064408            -0.00063288           -1.13236e-05         
  -0.15                 0.00064412            -0.00063154           -1.2426e-05          
  -0.2                  0.00064404            -0.00063172           -1.26e-05            
  -0.25                 0.00064366            -0.0006317            -1.265e-05           
  -0.3                  0.00064424            -0.00063132           -1.2676e-05          
  -0.35                 0.0006439             -0.00063172           -1.2676e-05          
  -0.4                  0.00064436            -0.0006315            -1.2708e-05          
  -0.45                 0.00064428            -0.00063136           -1.2696e-05          
  -0.5                  0.0006442             -0.00063162           -1.2722e-05          
  -0.55                 0.0006436             -0.00063164           -1.2742e-05          
  -0.6                  0.00064404            -0.00063166           -1.2754e-05          
  -0.65                 0.00064378            -0.00063136           -1.2766e-05          
  -0.7                  0.0006443             -0.00063136           -1.277e-05           
  -0.75                 0.00064418            -0.00063152           -1.277e-05           
  -0.8                  0.00064406            -0.00063152           -1.2786e-05          
  -0.85                 0.00064408            -0.0006312            -1.281e-05           
  -0.9                  0.00064404            -0.00063154           -1.2798e-05          
  -0.95                 0.0006441             -0.00063116           -1.2824e-05          
  -1                    0.00064442            -0.00063126           -1.2818e-05          
  -1.05                 0.00064406            -0.00063128           -1.2838e-05          
  -1.1                  0.00064424            -0.0006312            -1.2848e-05          
  -1.15                 0.00064422            -0.00063168           -1.285e-05           
  -1.2                  0.00064402            -0.00063162           -1.288e-05           
  -1.25                 0.00064394            -0.00063168           -1.2882e-05          
  -1.3                  0.0006442             -0.00063122           -1.2888e-05          
  -1.35                 0.00064422            -0.00063134           -1.2902e-05          
  -1.4                  0.00064406            -0.00063154           -1.2888e-05          
  -1.45                 0.00064426            -0.0006315            -1.2904e-05          
  -1.5                  0.0006439             -0.00063134           -1.2922e-05          
  -1.55                 0.00064404            -0.00063122           -1.2936e-05          
  -1.6                  0.00064406            -0.00063114           -1.294e-05           
  -1.65                 0.00064398            -0.00063166           -1.2958e-05          
  -1.7                  0.00064448            -0.0006312            -1.2952e-05          
  -1.75                 0.00064416            -0.0006314            -1.2952e-05          
  -1.8                  0.00064426            -0.00063142           -1.296e-05           
  -1.85                 0.00064398            -0.0006318            -1.2976e-05          
  -1.9                  0.00064396            -0.00063106           -1.2998e-05          
  -1.95                 0.0006443             -0.00063114           -1.3e-05             
