! VERSION = 6.00
BEGIN_HEADER
 ICCAP_INPUTS
  ve         V  E GROUND SMU_E 0.1 LIN        1    0          -2         41   -0.05     
  vc         V  C GROUND SMU_C 0.1 CON        0
  vb         V  B GROUND SMU_B 0.01 LIN        2    -0.6       -1         9    -0.05     
 ICCAP_OUTPUTS
  ic         I  C GROUND SMU_C M
  ib         I  B GROUND SMU_B M
  ie         I  E GROUND SMU_E M
 ICCAP_VALUES
  TNOM "27"
  TEMP "27"
  TECHNO "SG13S"
  LOT "PQA701"
  WAFER "17"
  CHIP "d0406"
  MODULE "T323_pnpMPA"
  DEV_NAME "DUT14"
  DEV_GEOM_L "."
  DEV_GEOM_W "."
  NF_EMITTER "."
  REMARKS "pnpMPA Teststructure"
  TIMEDATE "Fri Oct 21 12:47:07     2022"
END_HEADER

BEGIN_DB
 ICCAP_VAR vc         0              
 ICCAP_VAR vb         -0.6           

 #ve                    ic                    ib                    ie                   
  0                     6.7216e-06            -6.7256e-06           5.5014e-10           
  -0.05                 6.7262e-06            -6.7208e-06           -9.0974e-10          
  -0.1                  6.7244e-06            -6.7242e-06           -1.1378e-09          
  -0.15                 6.7208e-06            -6.7236e-06           -1.1738e-09          
  -0.2                  6.7178e-06            -6.725e-06            -1.1806e-09          
  -0.25                 6.7232e-06            -6.727e-06            -1.1846e-09          
  -0.3                  6.7208e-06            -6.7246e-06           -1.1874e-09          
  -0.35                 6.7134e-06            -6.7228e-06           -1.189e-09           
  -0.4                  6.7232e-06            -6.723e-06            -1.1908e-09          
  -0.45                 6.7236e-06            -6.722e-06            -1.1934e-09          
  -0.5                  6.7202e-06            -6.7284e-06           -1.1948e-09          
  -0.55                 6.7302e-06            -6.7272e-06           -1.197e-09           
  -0.6                  6.7196e-06            -6.7234e-06           -1.1986e-09          
  -0.65                 6.726e-06             -6.7274e-06           -1.201e-09           
  -0.7                  6.7232e-06            -6.7268e-06           -1.2024e-09          
  -0.75                 6.7208e-06            -6.7218e-06           -1.2046e-09          
  -0.8                  6.721e-06             -6.7232e-06           -1.207e-09           
  -0.85                 6.72e-06              -6.7246e-06           -1.2084e-09          
  -0.9                  6.7214e-06            -6.7236e-06           -1.21e-09            
  -0.95                 6.7282e-06            -6.7248e-06           -1.2124e-09          
  -1                    6.7248e-06            -6.7224e-06           -1.2144e-09          
  -1.05                 6.7244e-06            -6.7284e-06           -1.216e-09           
  -1.1                  6.7234e-06            -6.7248e-06           -1.2182e-09          
  -1.15                 6.7254e-06            -6.725e-06            -1.2204e-09          
  -1.2                  6.7218e-06            -6.7252e-06           -1.221e-09           
  -1.25                 6.7202e-06            -6.7246e-06           -1.2222e-09          
  -1.3                  6.7202e-06            -6.725e-06            -1.2252e-09          
  -1.35                 6.7256e-06            -6.7214e-06           -1.227e-09           
  -1.4                  6.7228e-06            -6.7232e-06           -1.2294e-09          
  -1.45                 6.7198e-06            -6.7224e-06           -1.2302e-09          
  -1.5                  6.7244e-06            -6.7242e-06           -1.2328e-09          
  -1.55                 6.7266e-06            -6.7282e-06           -1.2338e-09          
  -1.6                  6.7246e-06            -6.727e-06            -1.236e-09           
  -1.65                 6.732e-06             -6.727e-06            -1.2382e-09          
  -1.7                  6.731e-06             -6.7264e-06           -1.2398e-09          
  -1.75                 6.7268e-06            -6.7242e-06           -1.2414e-09          
  -1.8                  6.7242e-06            -6.7252e-06           -1.244e-09           
  -1.85                 6.7308e-06            -6.7232e-06           -1.2456e-09          
  -1.9                  6.727e-06             -6.7228e-06           -1.2462e-09          
  -1.95                 6.7226e-06            -6.7198e-06           -1.249e-09           
  -2                    6.7176e-06            -6.7202e-06           -1.251e-09           
END_DB

BEGIN_DB
 ICCAP_VAR vc         0              
 ICCAP_VAR vb         -0.65          

 #ve                    ic                    ib                    ie                   
  0                     1.9436e-05            -1.9426e-05           3.9836e-09           
  -0.05                 1.9386e-05            -1.9428e-05           -5.8006e-09          
  -0.1                  1.9408e-05            -1.9434e-05           -7.3202e-09          
  -0.15                 1.9386e-05            -1.9408e-05           -7.5586e-09          
  -0.2                  1.942e-05             -1.9416e-05           -7.6076e-09          
  -0.25                 1.9424e-05            -1.9408e-05           -7.6314e-09          
  -0.3                  1.94e-05              -1.94e-05             -7.6556e-09          
  -0.35                 1.9416e-05            -1.9414e-05           -7.6652e-09          
  -0.4                  1.9368e-05            -1.9438e-05           -7.6766e-09          
  -0.45                 1.9432e-05            -1.9398e-05           -7.695e-09           
  -0.5                  1.9458e-05            -1.9418e-05           -7.7046e-09          
  -0.55                 1.9436e-05            -1.94e-05             -7.7164e-09          
  -0.6                  1.941e-05             -1.943e-05            -7.733e-09           
  -0.65                 1.9442e-05            -1.9438e-05           -7.7434e-09          
  -0.7                  1.9432e-05            -1.9426e-05           -7.7532e-09          
  -0.75                 1.9422e-05            -1.9428e-05           -7.7628e-09          
  -0.8                  1.943e-05             -1.939e-05            -7.7794e-09          
  -0.85                 1.9412e-05            -1.9396e-05           -7.7904e-09          
  -0.9                  1.9422e-05            -1.9394e-05           -7.8e-09             
  -0.95                 1.9428e-05            -1.9398e-05           -7.8144e-09          
  -1                    1.9436e-05            -1.9394e-05           -7.8256e-09          
  -1.05                 1.9438e-05            -1.9408e-05           -7.8358e-09          
  -1.1                  1.9418e-05            -1.9392e-05           -7.8498e-09          
  -1.15                 1.9426e-05            -1.9426e-05           -7.8594e-09          
  -1.2                  1.941e-05             -1.9424e-05           -7.8678e-09          
  -1.25                 1.9422e-05            -1.9432e-05           -7.884e-09           
  -1.3                  1.9448e-05            -1.9398e-05           -7.8962e-09          
  -1.35                 1.9402e-05            -1.9384e-05           -7.9066e-09          
  -1.4                  1.9424e-05            -1.9408e-05           -7.9192e-09          
  -1.45                 1.9418e-05            -1.941e-05            -7.9312e-09          
  -1.5                  1.9432e-05            -1.9406e-05           -7.9414e-09          
  -1.55                 1.9382e-05            -1.9424e-05           -7.9502e-09          
  -1.6                  1.9424e-05            -1.9424e-05           -7.969e-09           
  -1.65                 1.9392e-05            -1.9414e-05           -7.9804e-09          
  -1.7                  1.9386e-05            -1.9398e-05           -7.9864e-09          
  -1.75                 1.94e-05              -1.9422e-05           -8.0014e-09          
  -1.8                  1.9428e-05            -1.942e-05            -8.015e-09           
  -1.85                 1.94e-05              -1.9416e-05           -8.0264e-09          
  -1.9                  1.9432e-05            -1.9396e-05           -8.0358e-09          
  -1.95                 1.9412e-05            -1.94e-05             -8.0518e-09          
  -2                    1.9456e-05            -1.9392e-05           -8.0626e-09          
END_DB

BEGIN_DB
 ICCAP_VAR vc         0              
 ICCAP_VAR vb         -0.7           

 #ve                    ic                    ib                    ie                   
  0                     4.7584e-05            -4.7582e-05           3.071e-08            
  -0.05                 4.7606e-05            -4.7586e-05           -3.4484e-08          
  -0.1                  4.7564e-05            -4.759e-05            -4.4104e-08          
  -0.15                 4.758e-05             -4.756e-05            -4.5612e-08          
  -0.2                  4.7584e-05            -4.7478e-05           -4.5934e-08          
  -0.25                 4.7554e-05            -4.7514e-05           -4.6064e-08          
  -0.3                  4.7594e-05            -4.7564e-05           -4.6152e-08          
  -0.35                 4.7582e-05            -4.7552e-05           -4.6248e-08          
  -0.4                  4.754e-05             -4.755e-05            -4.6338e-08          
  -0.45                 4.7586e-05            -4.7578e-05           -4.6402e-08          
  -0.5                  4.7608e-05            -4.7532e-05           -4.6496e-08          
  -0.55                 4.7612e-05            -4.7512e-05           -4.6584e-08          
  -0.6                  4.7618e-05            -4.7532e-05           -4.6648e-08          
  -0.65                 4.7556e-05            -4.7546e-05           -4.6748e-08          
  -0.7                  4.7602e-05            -4.757e-05            -4.6816e-08          
  -0.75                 4.7558e-05            -4.7542e-05           -4.6888e-08          
  -0.8                  4.7582e-05            -4.752e-05            -4.6992e-08          
  -0.85                 4.7616e-05            -4.7526e-05           -4.7036e-08          
  -0.9                  4.7598e-05            -4.7508e-05           -4.7114e-08          
  -0.95                 4.76e-05              -4.7492e-05           -4.7192e-08          
  -1                    4.7642e-05            -4.7544e-05           -4.725e-08           
  -1.05                 4.7606e-05            -4.7574e-05           -4.7328e-08          
  -1.1                  4.7552e-05            -4.7552e-05           -4.7408e-08          
  -1.15                 4.7608e-05            -4.7546e-05           -4.7494e-08          
  -1.2                  4.7586e-05            -4.7564e-05           -4.756e-08           
  -1.25                 4.7596e-05            -4.7556e-05           -4.7636e-08          
  -1.3                  4.7576e-05            -4.758e-05            -4.7698e-08          
  -1.35                 4.7582e-05            -4.7554e-05           -4.7774e-08          
  -1.4                  4.757e-05             -4.755e-05            -4.7856e-08          
  -1.45                 4.7556e-05            -4.7542e-05           -4.793e-08           
  -1.5                  4.7594e-05            -4.7512e-05           -4.799e-08           
  -1.55                 4.7562e-05            -4.7554e-05           -4.8052e-08          
  -1.6                  4.7616e-05            -4.7504e-05           -4.8132e-08          
  -1.65                 4.7594e-05            -4.752e-05            -4.8212e-08          
  -1.7                  4.7598e-05            -4.7502e-05           -4.8296e-08          
  -1.75                 4.7594e-05            -4.7532e-05           -4.835e-08           
  -1.8                  4.758e-05             -4.755e-05            -4.8412e-08          
  -1.85                 4.7548e-05            -4.7548e-05           -4.85e-08            
  -1.9                  4.76e-05              -4.7546e-05           -4.858e-08           
  -1.95                 4.7568e-05            -4.7542e-05           -4.862e-08           
  -2                    4.7586e-05            -4.7566e-05           -4.8706e-08          
END_DB

BEGIN_DB
 ICCAP_VAR vc         0              
 ICCAP_VAR vb         -0.75          

 #ve                    ic                    ib                    ie                   
  0                     0.000103246           -0.00010354           2.035e-07            
  -0.05                 0.000103512           -0.00010334           -1.7858e-07          
  -0.1                  0.000103546           -0.00010334           -2.3594e-07          
  -0.15                 0.000103498           -0.0001033            -2.4494e-07          
  -0.2                  0.000103512           -0.00010326           -2.4688e-07          
  -0.25                 0.000103598           -0.00010326           -2.475e-07           
  -0.3                  0.00010352            -0.0001033            -2.4808e-07          
  -0.35                 0.0001035             -0.00010336           -2.4858e-07          
  -0.4                  0.000103536           -0.00010324           -2.4914e-07          
  -0.45                 0.000103494           -0.00010324           -2.4972e-07          
  -0.5                  0.000103504           -0.00010326           -2.5002e-07          
  -0.55                 0.00010347            -0.00010332           -2.5044e-07          
  -0.6                  0.000103514           -0.00010326           -2.5088e-07          
  -0.65                 0.00010355            -0.00010338           -2.5134e-07          
  -0.7                  0.000103506           -0.00010332           -2.5178e-07          
  -0.75                 0.000103464           -0.00010326           -2.5232e-07          
  -0.8                  0.00010352            -0.00010324           -2.5266e-07          
  -0.85                 0.00010352            -0.00010328           -2.5312e-07          
  -0.9                  0.000103562           -0.0001033            -2.5342e-07          
  -0.95                 0.000103522           -0.0001033            -2.5376e-07          
  -1                    0.000103518           -0.00010332           -2.5424e-07          
  -1.05                 0.0001035             -0.00010332           -2.546e-07           
  -1.1                  0.000103496           -0.0001033            -2.55e-07            
  -1.15                 0.0001035             -0.00010326           -2.5546e-07          
  -1.2                  0.000103526           -0.0001033            -2.558e-07           
  -1.25                 0.000103568           -0.00010326           -2.5618e-07          
  -1.3                  0.000103546           -0.00010328           -2.5654e-07          
  -1.35                 0.000103592           -0.00010322           -2.5684e-07          
  -1.4                  0.00010352            -0.00010324           -2.5736e-07          
  -1.45                 0.000103562           -0.00010326           -2.5774e-07          
  -1.5                  0.000103576           -0.00010328           -2.581e-07           
  -1.55                 0.000103568           -0.00010326           -2.5842e-07          
  -1.6                  0.000103556           -0.0001033            -2.5872e-07          
  -1.65                 0.000103516           -0.00010332           -2.592e-07           
  -1.7                  0.00010345            -0.0001033            -2.5956e-07          
  -1.75                 0.00010349            -0.00010326           -2.6006e-07          
  -1.8                  0.000103456           -0.0001033            -2.6038e-07          
  -1.85                 0.000103468           -0.00010332           -2.606e-07           
  -1.9                  0.00010348            -0.00010326           -2.611e-07           
  -1.95                 0.000103498           -0.00010322           -2.6146e-07          
  -2                    0.000103528           -0.0001032            -2.6182e-07          
END_DB

BEGIN_DB
 ICCAP_VAR vc         0              
 ICCAP_VAR vb         -0.8           

 #ve                    ic                    ib                    ie                   
  0                     0.0002038             -0.00020508           1.2268e-06           
  -0.05                 0.0002042             -0.00020368           -7.2858e-07          
  -0.1                  0.00020452            -0.00020336           -1.0423e-06          
  -0.15                 0.00020466            -0.00020348           -1.09252e-06         
  -0.2                  0.0002044             -0.00020344           -1.103e-06           
  -0.25                 0.00020466            -0.0002035            -1.10682e-06         
  -0.3                  0.00020422            -0.00020342           -1.11012e-06         
  -0.35                 0.0002045             -0.00020348           -1.11228e-06         
  -0.4                  0.0002044             -0.00020338           -1.11426e-06         
  -0.45                 0.00020438            -0.00020354           -1.11656e-06         
  -0.5                  0.00020426            -0.00020332           -1.11864e-06         
  -0.55                 0.00020464            -0.00020346           -1.121e-06           
  -0.6                  0.00020434            -0.0002035            -1.12278e-06         
  -0.65                 0.00020476            -0.00020356           -1.125e-06           
  -0.7                  0.00020444            -0.00020338           -1.12686e-06         
  -0.75                 0.0002048             -0.00020336           -1.12866e-06         
  -0.8                  0.00020452            -0.0002034            -1.13056e-06         
  -0.85                 0.00020446            -0.00020352           -1.13196e-06         
  -0.9                  0.00020432            -0.00020366           -1.1339e-06          
  -0.95                 0.00020468            -0.00020346           -1.13604e-06         
  -1                    0.0002044             -0.00020346           -1.13736e-06         
  -1.05                 0.00020438            -0.0002036            -1.1396e-06          
  -1.1                  0.00020458            -0.00020326           -1.1412e-06          
  -1.15                 0.0002046             -0.00020328           -1.143e-06           
  -1.2                  0.00020448            -0.00020358           -1.1442e-06          
  -1.25                 0.0002044             -0.0002034            -1.146e-06           
  -1.3                  0.00020454            -0.00020328           -1.1482e-06          
  -1.35                 0.0002043             -0.00020344           -1.1494e-06          
  -1.4                  0.00020438            -0.00020338           -1.1514e-06          
  -1.45                 0.0002047             -0.00020346           -1.1532e-06          
  -1.5                  0.00020428            -0.00020356           -1.154e-06           
  -1.55                 0.00020438            -0.00020336           -1.1566e-06          
  -1.6                  0.00020456            -0.00020324           -1.1586e-06          
  -1.65                 0.00020452            -0.00020346           -1.1604e-06          
  -1.7                  0.0002044             -0.00020352           -1.1618e-06          
  -1.75                 0.00020464            -0.00020324           -1.1638e-06          
  -1.8                  0.00020472            -0.0002034            -1.1654e-06          
  -1.85                 0.00020444            -0.00020358           -1.1664e-06          
  -1.9                  0.00020452            -0.00020336           -1.1686e-06          
  -1.95                 0.00020466            -0.00020344           -1.171e-06           
