! VERSION = 6.00
BEGIN_HEADER
 ICCAP_INPUTS
  ve         V  E GROUND SMU_E 0.1 LIN        1    0          -2         41   -0.05     
  vc         V  C GROUND SMU_C 0.1 CON        0
  vb         V  B GROUND SMU_B 0.01 LIN        2    -0.6       -1         9    -0.05     
 ICCAP_OUTPUTS
  ic         I  C GROUND SMU_C M
  ib         I  B GROUND SMU_B M
  ie         I  E GROUND SMU_E M
 ICCAP_VALUES
  TNOM "27"
  TEMP "27"
  TECHNO "SG13S"
  LOT "PQA701"
  WAFER "17"
  CHIP "d0406"
  MODULE "T323_pnpMPA"
  DEV_NAME "DUT7"
  DEV_GEOM_L "."
  DEV_GEOM_W "."
  NF_EMITTER "."
  REMARKS "pnpMPA Teststructure"
  TIMEDATE "Fri Oct 21 12:47:07     2022"
END_HEADER

BEGIN_DB
 ICCAP_VAR vc         0              
 ICCAP_VAR vb         -0.6           

 #ve                    ic                    ib                    ie                   
  0                     9.3034e-06            -9.31e-06             2.411e-09            
  -0.05                 9.3024e-06            -9.3032e-06           -2.228e-09           
  -0.1                  9.2996e-06            -9.302e-06            -2.9376e-09          
  -0.15                 9.3034e-06            -9.3112e-06           -3.0464e-09          
  -0.2                  9.3116e-06            -9.3064e-06           -3.0654e-09          
  -0.25                 9.3096e-06            -9.3062e-06           -3.0724e-09          
  -0.3                  9.304e-06             -9.3028e-06           -3.077e-09           
  -0.35                 9.3072e-06            -9.308e-06            -3.0812e-09          
  -0.4                  9.3036e-06            -9.3086e-06           -3.086e-09           
  -0.45                 9.309e-06             -9.3088e-06           -3.0904e-09          
  -0.5                  9.3102e-06            -9.308e-06            -3.0934e-09          
  -0.55                 9.3104e-06            -9.3088e-06           -3.0972e-09          
  -0.6                  9.3104e-06            -9.309e-06            -3.1002e-09          
  -0.65                 9.3176e-06            -9.3062e-06           -3.1042e-09          
  -0.7                  9.3066e-06            -9.3072e-06           -3.1072e-09          
  -0.75                 9.3098e-06            -9.3074e-06           -3.1116e-09          
  -0.8                  9.3038e-06            -9.3082e-06           -3.1138e-09          
  -0.85                 9.3078e-06            -9.305e-06            -3.118e-09           
  -0.9                  9.3038e-06            -9.3078e-06           -3.1202e-09          
  -0.95                 9.3112e-06            -9.3042e-06           -3.124e-09           
  -1                    9.3062e-06            -9.3022e-06           -3.1268e-09          
  -1.05                 9.305e-06             -9.3096e-06           -3.1294e-09          
  -1.1                  9.3154e-06            -9.3066e-06           -3.1332e-09          
  -1.15                 9.3084e-06            -9.3022e-06           -3.136e-09           
  -1.2                  9.3098e-06            -9.3032e-06           -3.1384e-09          
  -1.25                 9.301e-06             -9.3082e-06           -3.1424e-09          
  -1.3                  9.309e-06             -9.3084e-06           -3.1452e-09          
  -1.35                 9.3116e-06            -9.3054e-06           -3.149e-09           
  -1.4                  9.3112e-06            -9.307e-06            -3.1512e-09          
  -1.45                 9.313e-06             -9.3054e-06           -3.1548e-09          
  -1.5                  9.3094e-06            -9.305e-06            -3.1578e-09          
  -1.55                 9.3048e-06            -9.3056e-06           -3.1602e-09          
  -1.6                  9.3036e-06            -9.3082e-06           -3.1636e-09          
  -1.65                 9.3122e-06            -9.3042e-06           -3.1658e-09          
  -1.7                  9.3074e-06            -9.306e-06            -3.1684e-09          
  -1.75                 9.312e-06             -9.303e-06            -3.1716e-09          
  -1.8                  9.3042e-06            -9.3048e-06           -3.1754e-09          
  -1.85                 9.3066e-06            -9.3006e-06           -3.1782e-09          
  -1.9                  9.303e-06             -9.309e-06            -3.1812e-09          
  -1.95                 9.3052e-06            -9.3088e-06           -3.1844e-09          
  -2                    9.3104e-06            -9.3042e-06           -3.1872e-09          
END_DB

BEGIN_DB
 ICCAP_VAR vc         0              
 ICCAP_VAR vb         -0.65          

 #ve                    ic                    ib                    ie                   
  0                     2.7546e-05            -2.7552e-05           1.7074e-08           
  -0.05                 2.7514e-05            -2.7482e-05           -1.4228e-08          
  -0.1                  2.75e-05              -2.7528e-05           -1.894e-08           
  -0.15                 2.7542e-05            -2.7532e-05           -1.965e-08           
  -0.2                  2.7542e-05            -2.7482e-05           -1.9776e-08          
  -0.25                 2.7556e-05            -2.7514e-05           -1.9828e-08          
  -0.3                  2.7512e-05            -2.752e-05            -1.9862e-08          
  -0.35                 2.7492e-05            -2.7524e-05           -1.9886e-08          
  -0.4                  2.751e-05             -2.7524e-05           -1.9906e-08          
  -0.45                 2.7524e-05            -2.7494e-05           -1.9934e-08          
  -0.5                  2.755e-05             -2.7482e-05           -1.9956e-08          
  -0.55                 2.7516e-05            -2.7488e-05           -1.998e-08           
  -0.6                  2.749e-05             -2.7524e-05           -2.0004e-08          
  -0.65                 2.7498e-05            -2.7536e-05           -2.0028e-08          
  -0.7                  2.754e-05             -2.7462e-05           -2.0048e-08          
  -0.75                 2.749e-05             -2.7512e-05           -2.0068e-08          
  -0.8                  2.7504e-05            -2.7532e-05           -2.009e-08           
  -0.85                 2.7538e-05            -2.7506e-05           -2.011e-08           
  -0.9                  2.7536e-05            -2.7484e-05           -2.0142e-08          
  -0.95                 2.7488e-05            -2.7522e-05           -2.0162e-08          
  -1                    2.7552e-05            -2.7494e-05           -2.0182e-08          
  -1.05                 2.7542e-05            -2.7466e-05           -2.0204e-08          
  -1.1                  2.7528e-05            -2.748e-05            -2.0222e-08          
  -1.15                 2.7476e-05            -2.754e-05            -2.0244e-08          
  -1.2                  2.7514e-05            -2.7532e-05           -2.0262e-08          
  -1.25                 2.7532e-05            -2.7476e-05           -2.0282e-08          
  -1.3                  2.753e-05             -2.751e-05            -2.0302e-08          
  -1.35                 2.7514e-05            -2.7536e-05           -2.0318e-08          
  -1.4                  2.7534e-05            -2.7508e-05           -2.034e-08           
  -1.45                 2.7496e-05            -2.7476e-05           -2.0358e-08          
  -1.5                  2.757e-05             -2.749e-05            -2.038e-08           
  -1.55                 2.7504e-05            -2.7516e-05           -2.0406e-08          
  -1.6                  2.75e-05              -2.7534e-05           -2.0408e-08          
  -1.65                 2.7534e-05            -2.7462e-05           -2.0448e-08          
  -1.7                  2.7498e-05            -2.7526e-05           -2.0456e-08          
  -1.75                 2.7488e-05            -2.7502e-05           -2.0472e-08          
  -1.8                  2.7524e-05            -2.7476e-05           -2.0504e-08          
  -1.85                 2.7506e-05            -2.7522e-05           -2.0516e-08          
  -1.9                  2.7506e-05            -2.7504e-05           -2.054e-08           
  -1.95                 2.7526e-05            -2.7518e-05           -2.0562e-08          
  -2                    2.7528e-05            -2.7496e-05           -2.0584e-08          
END_DB

BEGIN_DB
 ICCAP_VAR vc         0              
 ICCAP_VAR vb         -0.7           

 #ve                    ic                    ib                    ie                   
  0                     6.9202e-05            -6.9306e-05           1.2238e-07           
  -0.05                 6.9208e-05            -6.918e-05            -8.4138e-08          
  -0.1                  6.9266e-05            -6.9146e-05           -1.1442e-07          
  -0.15                 6.9236e-05            -6.915e-05            -1.1904e-07          
  -0.2                  6.9212e-05            -6.9158e-05           -1.1986e-07          
  -0.25                 6.925e-05             -6.915e-05            -1.2018e-07          
  -0.3                  6.9234e-05            -6.9112e-05           -1.2028e-07          
  -0.35                 6.9274e-05            -6.9132e-05           -1.2052e-07          
  -0.4                  6.92e-05              -6.9168e-05           -1.2064e-07          
  -0.45                 6.9202e-05            -6.9174e-05           -1.2082e-07          
  -0.5                  6.9204e-05            -6.9174e-05           -1.2098e-07          
  -0.55                 6.92e-05              -6.9148e-05           -1.2116e-07          
  -0.6                  6.9234e-05            -6.915e-05            -1.2128e-07          
  -0.65                 6.9252e-05            -6.9156e-05           -1.2142e-07          
  -0.7                  6.9216e-05            -6.9118e-05           -1.2154e-07          
  -0.75                 6.9256e-05            -6.9126e-05           -1.2166e-07          
  -0.8                  6.9254e-05            -6.9128e-05           -1.218e-07           
  -0.85                 6.9218e-05            -6.9072e-05           -1.2186e-07          
  -0.9                  6.9208e-05            -6.9114e-05           -1.22e-07            
  -0.95                 6.927e-05             -6.909e-05            -1.2218e-07          
  -1                    6.929e-05             -6.9106e-05           -1.2228e-07          
  -1.05                 6.9282e-05            -6.913e-05            -1.2246e-07          
  -1.1                  6.924e-05             -6.9138e-05           -1.226e-07           
  -1.15                 6.9268e-05            -6.9096e-05           -1.2276e-07          
  -1.2                  6.9282e-05            -6.913e-05            -1.2284e-07          
  -1.25                 6.9212e-05            -6.9172e-05           -1.2296e-07          
  -1.3                  6.9276e-05            -6.91e-05             -1.2304e-07          
  -1.35                 6.9206e-05            -6.9134e-05           -1.232e-07           
  -1.4                  6.9262e-05            -6.911e-05            -1.2326e-07          
  -1.45                 6.9272e-05            -6.9104e-05           -1.234e-07           
  -1.5                  6.9196e-05            -6.9142e-05           -1.2362e-07          
  -1.55                 6.9272e-05            -6.9132e-05           -1.2368e-07          
  -1.6                  6.9272e-05            -6.9088e-05           -1.2374e-07          
  -1.65                 6.9298e-05            -6.9132e-05           -1.2394e-07          
  -1.7                  6.9258e-05            -6.9088e-05           -1.2402e-07          
  -1.75                 6.9286e-05            -6.9098e-05           -1.2412e-07          
  -1.8                  6.925e-05             -6.9124e-05           -1.2426e-07          
  -1.85                 6.9234e-05            -6.915e-05            -1.2436e-07          
  -1.9                  6.92e-05              -6.9092e-05           -1.2446e-07          
  -1.95                 6.9268e-05            -6.9094e-05           -1.2462e-07          
  -2                    6.9244e-05            -6.9086e-05           -1.2472e-07          
END_DB

BEGIN_DB
 ICCAP_VAR vc         0              
 ICCAP_VAR vb         -0.75          

 #ve                    ic                    ib                    ie                   
  0                     0.0001536             -0.00015444           7.8896e-07           
  -0.05                 0.00015384            -0.0001538            -4.2916e-07          
  -0.1                  0.00015392            -0.00015338           -6.1134e-07          
  -0.15                 0.00015432            -0.00015334           -6.3924e-07          
  -0.2                  0.0001542             -0.00015356           -6.4444e-07          
  -0.25                 0.0001539             -0.00015346           -6.4608e-07          
  -0.3                  0.00015378            -0.00015356           -6.473e-07           
  -0.35                 0.0001541             -0.0001536            -6.487e-07           
  -0.4                  0.00015424            -0.00015346           -6.4968e-07          
  -0.45                 0.00015424            -0.00015328           -6.505e-07           
  -0.5                  0.0001542             -0.00015336           -6.5136e-07          
  -0.55                 0.00015422            -0.00015322           -6.5204e-07          
  -0.6                  0.00015428            -0.00015322           -6.5294e-07          
  -0.65                 0.00015424            -0.00015342           -6.5398e-07          
  -0.7                  0.00015394            -0.0001536            -6.542e-07           
  -0.75                 0.00015386            -0.00015354           -6.5496e-07          
  -0.8                  0.0001541             -0.0001533            -6.5544e-07          
  -0.85                 0.00015406            -0.00015336           -6.5668e-07          
  -0.9                  0.0001541             -0.00015352           -6.5736e-07          
  -0.95                 0.00015404            -0.0001535            -6.5772e-07          
  -1                    0.0001543             -0.00015326           -6.5826e-07          
  -1.05                 0.00015424            -0.00015332           -6.5922e-07          
  -1.1                  0.00015424            -0.00015328           -6.6004e-07          
  -1.15                 0.00015394            -0.00015364           -6.6098e-07          
  -1.2                  0.00015432            -0.0001535            -6.6094e-07          
  -1.25                 0.00015412            -0.00015334           -6.624e-07           
  -1.3                  0.0001539             -0.00015376           -6.631e-07           
  -1.35                 0.00015422            -0.00015342           -6.631e-07           
  -1.4                  0.00015414            -0.00015348           -6.6372e-07          
  -1.45                 0.00015406            -0.00015342           -6.649e-07           
  -1.5                  0.00015404            -0.00015362           -6.6544e-07          
  -1.55                 0.00015382            -0.00015332           -6.6546e-07          
  -1.6                  0.00015426            -0.00015344           -6.6634e-07          
  -1.65                 0.00015392            -0.00015362           -6.6712e-07          
  -1.7                  0.00015422            -0.0001532            -6.6764e-07          
  -1.75                 0.000154              -0.00015342           -6.6858e-07          
  -1.8                  0.0001539             -0.00015362           -6.694e-07           
  -1.85                 0.0001539             -0.0001536            -6.6938e-07          
  -1.9                  0.0001542             -0.00015342           -6.6984e-07          
  -1.95                 0.00015414            -0.0001534            -6.7104e-07          
  -2                    0.00015388            -0.00015362           -6.7174e-07          
END_DB

BEGIN_DB
 ICCAP_VAR vc         0              
 ICCAP_VAR vb         -0.8           

 #ve                    ic                    ib                    ie                   
  0                     0.00030592            -0.00031104           4.6656e-06           
  -0.05                 0.00030806            -0.0003068            -1.6616e-06          
  -0.1                  0.0003085             -0.00030618           -2.6762e-06          
  -0.15                 0.00030878            -0.00030568           -2.8326e-06          
  -0.2                  0.00030832            -0.00030602           -2.8592e-06          
  -0.25                 0.00030834            -0.000306             -2.8702e-06          
  -0.3                  0.00030852            -0.00030578           -2.8742e-06          
  -0.35                 0.00030832            -0.00030624           -2.8808e-06          
  -0.4                  0.00030852            -0.0003058            -2.885e-06           
  -0.45                 0.00030848            -0.00030582           -2.8878e-06          
  -0.5                  0.00030854            -0.00030588           -2.8924e-06          
  -0.55                 0.00030832            -0.00030594           -2.8962e-06          
  -0.6                  0.00030844            -0.0003059            -2.898e-06           
  -0.65                 0.0003084             -0.0003058            -2.904e-06           
  -0.7                  0.0003084             -0.00030608           -2.9076e-06          
  -0.75                 0.00030892            -0.0003057            -2.9114e-06          
  -0.8                  0.00030876            -0.00030568           -2.9124e-06          
  -0.85                 0.00030866            -0.00030554           -2.916e-06           
  -0.9                  0.00030876            -0.00030544           -2.9176e-06          
  -0.95                 0.00030876            -0.00030566           -2.9218e-06          
  -1                    0.00030882            -0.00030552           -2.9252e-06          
  -1.05                 0.00030882            -0.0003054            -2.929e-06           
  -1.1                  0.00030882            -0.00030548           -2.9328e-06          
  -1.15                 0.00030872            -0.00030558           -2.9358e-06          
  -1.2                  0.0003087             -0.00030576           -2.9378e-06          
  -1.25                 0.00030872            -0.00030556           -2.9392e-06          
  -1.3                  0.00030862            -0.00030516           -2.943e-06           
  -1.35                 0.00030856            -0.00030558           -2.9478e-06          
  -1.4                  0.00030844            -0.00030574           -2.9506e-06          
  -1.45                 0.0003088             -0.00030564           -2.9534e-06          
  -1.5                  0.00030888            -0.00030546           -2.9564e-06          
  -1.55                 0.00030874            -0.00030544           -2.9598e-06          
  -1.6                  0.0003085             -0.00030582           -2.9628e-06          
  -1.65                 0.00030808            -0.00030558           -2.9644e-06          
  -1.7                  0.00030842            -0.00030592           -2.965e-06           
  -1.75                 0.00030878            -0.00030546           -2.9678e-06          
  -1.8                  0.00030876            -0.00030536           -2.9714e-06          
  -1.85                 0.00030824            -0.00030582           -2.9758e-06          
  -1.9                  0.00030856            -0.00030572           -2.9766e-06          
  -1.95                 0.00030852            -0.0003053            -2.9794e-06          
