! VERSION = 6.00
BEGIN_HEADER
 ICCAP_INPUTS
  ve         V  E GROUND SMU_E 0.1 LIN        1    0          -2         41   -0.05     
  vc         V  C GROUND SMU_C 0.1 CON        0
  vb         V  B GROUND SMU_B 0.01 LIN        2    -0.6       -1         9    -0.05     
 ICCAP_OUTPUTS
  ic         I  C GROUND SMU_C M
  ib         I  B GROUND SMU_B M
  ie         I  E GROUND SMU_E M
 ICCAP_VALUES
  TNOM "27"
  TEMP "27"
  TECHNO "SG13S"
  LOT "PQA701"
  WAFER "17"
  CHIP "d0406"
  MODULE "T323_pnpMPA"
  DEV_NAME "DUT5"
  DEV_GEOM_L "."
  DEV_GEOM_W "."
  NF_EMITTER "."
  REMARKS "pnpMPA Teststructure"
  TIMEDATE "Fri Oct 21 12:47:07     2022"
END_HEADER

BEGIN_DB
 ICCAP_VAR vc         0              
 ICCAP_VAR vb         -0.6           

 #ve                    ic                    ib                    ie                   
  0                     1.4848e-05            -1.484e-05            4.31e-09             
  -0.05                 1.4834e-05            -1.4862e-05           -5.9772e-09          
  -0.1                  1.486e-05             -1.4856e-05           -7.5552e-09          
  -0.15                 1.4834e-05            -1.485e-05            -7.7956e-09          
  -0.2                  1.4878e-05            -1.4842e-05           -7.8488e-09          
  -0.25                 1.4852e-05            -1.4842e-05           -7.866e-09           
  -0.3                  1.4842e-05            -1.486e-05            -7.8832e-09          
  -0.35                 1.4854e-05            -1.485e-05            -7.8938e-09          
  -0.4                  1.4872e-05            -1.4844e-05           -7.9066e-09          
  -0.45                 1.4876e-05            -1.483e-05            -7.9224e-09          
  -0.5                  1.4884e-05            -1.485e-05            -7.9316e-09          
  -0.55                 1.4842e-05            -1.484e-05            -7.9504e-09          
  -0.6                  1.4866e-05            -1.4856e-05           -7.958e-09           
  -0.65                 1.485e-05             -1.4836e-05           -7.9688e-09          
  -0.7                  1.4818e-05            -1.4856e-05           -7.981e-09           
  -0.75                 1.483e-05             -1.486e-05            -7.997e-09           
  -0.8                  1.487e-05             -1.4852e-05           -8.0008e-09          
  -0.85                 1.4842e-05            -1.4848e-05           -8.0128e-09          
  -0.9                  1.482e-05             -1.4854e-05           -8.0276e-09          
  -0.95                 1.4834e-05            -1.4866e-05           -8.04e-09            
  -1                    1.4862e-05            -1.4872e-05           -8.0522e-09          
  -1.05                 1.484e-05             -1.4842e-05           -8.0592e-09          
  -1.1                  1.4874e-05            -1.485e-05            -8.0732e-09          
  -1.15                 1.4846e-05            -1.4834e-05           -8.0842e-09          
  -1.2                  1.4848e-05            -1.483e-05            -8.0906e-09          
  -1.25                 1.4882e-05            -1.4858e-05           -8.1042e-09          
  -1.3                  1.4856e-05            -1.4852e-05           -8.1134e-09          
  -1.35                 1.4852e-05            -1.4864e-05           -8.1284e-09          
  -1.4                  1.4838e-05            -1.4846e-05           -8.1366e-09          
  -1.45                 1.4858e-05            -1.4848e-05           -8.1458e-09          
  -1.5                  1.4852e-05            -1.4842e-05           -8.1586e-09          
  -1.55                 1.4868e-05            -1.4862e-05           -8.1688e-09          
  -1.6                  1.4864e-05            -1.4842e-05           -8.179e-09           
  -1.65                 1.4844e-05            -1.4836e-05           -8.1892e-09          
  -1.7                  1.4856e-05            -1.4834e-05           -8.198e-09           
  -1.75                 1.486e-05             -1.4842e-05           -8.21e-09            
  -1.8                  1.4834e-05            -1.484e-05            -8.2286e-09          
  -1.85                 1.4852e-05            -1.4846e-05           -8.2342e-09          
  -1.9                  1.486e-05             -1.4852e-05           -8.2412e-09          
  -1.95                 1.4834e-05            -1.4846e-05           -8.252e-09           
  -2                    1.4842e-05            -1.4846e-05           -8.2634e-09          
END_DB

BEGIN_DB
 ICCAP_VAR vc         0              
 ICCAP_VAR vb         -0.65          

 #ve                    ic                    ib                    ie                   
  0                     4.3712e-05            -4.3722e-05           3.3208e-08           
  -0.05                 4.3722e-05            -4.3674e-05           -3.8086e-08          
  -0.1                  4.371e-05             -4.3674e-05           -4.8584e-08          
  -0.15                 4.3732e-05            -4.3686e-05           -5.0204e-08          
  -0.2                  4.3736e-05            -4.3656e-05           -5.053e-08           
  -0.25                 4.3684e-05            -4.368e-05            -5.0664e-08          
  -0.3                  4.3702e-05            -4.3678e-05           -5.0758e-08          
  -0.35                 4.3718e-05            -4.3652e-05           -5.0858e-08          
  -0.4                  4.3726e-05            -4.3672e-05           -5.0952e-08          
  -0.45                 4.37e-05              -4.3664e-05           -5.1026e-08          
  -0.5                  4.371e-05             -4.3658e-05           -5.1108e-08          
  -0.55                 4.3724e-05            -4.367e-05            -5.1198e-08          
  -0.6                  4.3714e-05            -4.3692e-05           -5.1268e-08          
  -0.65                 4.3736e-05            -4.3686e-05           -5.1356e-08          
  -0.7                  4.3746e-05            -4.3658e-05           -5.1434e-08          
  -0.75                 4.3734e-05            -4.3686e-05           -5.1516e-08          
  -0.8                  4.3734e-05            -4.3654e-05           -5.1588e-08          
  -0.85                 4.3752e-05            -4.3688e-05           -5.1652e-08          
  -0.9                  4.373e-05             -4.3674e-05           -5.1734e-08          
  -0.95                 4.372e-05             -4.367e-05            -5.1804e-08          
  -1                    4.3726e-05            -4.3656e-05           -5.1868e-08          
  -1.05                 4.3732e-05            -4.3708e-05           -5.1936e-08          
  -1.1                  4.3692e-05            -4.368e-05            -5.2024e-08          
  -1.15                 4.3728e-05            -4.3658e-05           -5.2088e-08          
  -1.2                  4.3744e-05            -4.3678e-05           -5.2168e-08          
  -1.25                 4.3694e-05            -4.3686e-05           -5.2204e-08          
  -1.3                  4.3704e-05            -4.3674e-05           -5.2284e-08          
  -1.35                 4.3718e-05            -4.3686e-05           -5.2358e-08          
  -1.4                  4.3704e-05            -4.3682e-05           -5.2442e-08          
  -1.45                 4.371e-05             -4.364e-05            -5.2512e-08          
  -1.5                  4.372e-05             -4.3684e-05           -5.259e-08           
  -1.55                 4.3678e-05            -4.3706e-05           -5.266e-08           
  -1.6                  4.3726e-05            -4.3696e-05           -5.2722e-08          
  -1.65                 4.3752e-05            -4.3662e-05           -5.2796e-08          
  -1.7                  4.3724e-05            -4.3694e-05           -5.2874e-08          
  -1.75                 4.3712e-05            -4.3704e-05           -5.2928e-08          
  -1.8                  4.3742e-05            -4.3674e-05           -5.3016e-08          
  -1.85                 4.3736e-05            -4.367e-05            -5.3072e-08          
  -1.9                  4.3742e-05            -4.371e-05            -5.3154e-08          
  -1.95                 4.3742e-05            -4.3672e-05           -5.3216e-08          
  -2                    4.3746e-05            -4.367e-05            -5.328e-08           
END_DB

BEGIN_DB
 ICCAP_VAR vc         0              
 ICCAP_VAR vb         -0.7           

 #ve                    ic                    ib                    ie                   
  0                     0.000109212           -0.00010952           2.3926e-07           
  -0.05                 0.000109474           -0.00010924           -2.245e-07           
  -0.1                  0.000109528           -0.00010924           -2.9302e-07          
  -0.15                 0.00010952            -0.00010926           -3.0366e-07          
  -0.2                  0.00010954            -0.00010924           -3.0582e-07          
  -0.25                 0.000109518           -0.00010926           -3.0674e-07          
  -0.3                  0.000109506           -0.00010926           -3.0728e-07          
  -0.35                 0.000109548           -0.0001092            -3.0786e-07          
  -0.4                  0.000109502           -0.0001092            -3.0838e-07          
  -0.45                 0.000109534           -0.00010924           -3.089e-07           
  -0.5                  0.00010951            -0.00010918           -3.0936e-07          
  -0.55                 0.000109538           -0.00010922           -3.0994e-07          
  -0.6                  0.000109508           -0.00010922           -3.1036e-07          
  -0.65                 0.000109548           -0.00010918           -3.1078e-07          
  -0.7                  0.000109576           -0.00010924           -3.1134e-07          
  -0.75                 0.000109514           -0.00010924           -3.1172e-07          
  -0.8                  0.000109504           -0.0001092            -3.1228e-07          
  -0.85                 0.00010953            -0.0001092            -3.1272e-07          
  -0.9                  0.000109442           -0.00010924           -3.1308e-07          
  -0.95                 0.000109518           -0.00010926           -3.1356e-07          
  -1                    0.000109494           -0.00010922           -3.1408e-07          
  -1.05                 0.00010954            -0.0001091            -3.1438e-07          
  -1.1                  0.000109528           -0.00010922           -3.1474e-07          
  -1.15                 0.000109536           -0.00010922           -3.1514e-07          
  -1.2                  0.000109552           -0.0001092            -3.1562e-07          
  -1.25                 0.000109532           -0.00010922           -3.1602e-07          
  -1.3                  0.000109514           -0.00010928           -3.165e-07           
  -1.35                 0.000109546           -0.0001092            -3.1692e-07          
  -1.4                  0.000109522           -0.00010918           -3.1728e-07          
  -1.45                 0.000109554           -0.00010924           -3.1774e-07          
  -1.5                  0.000109532           -0.00010922           -3.1822e-07          
  -1.55                 0.000109508           -0.00010924           -3.187e-07           
  -1.6                  0.00010957            -0.0001092            -3.1894e-07          
  -1.65                 0.000109524           -0.00010922           -3.1944e-07          
  -1.7                  0.000109492           -0.00010922           -3.1982e-07          
  -1.75                 0.000109524           -0.0001092            -3.2032e-07          
  -1.8                  0.00010957            -0.0001092            -3.2058e-07          
  -1.85                 0.000109536           -0.0001092            -3.2114e-07          
  -1.9                  0.000109538           -0.00010916           -3.2146e-07          
  -1.95                 0.000109524           -0.0001092            -3.2194e-07          
  -2                    0.000109522           -0.0001092            -3.223e-07           
END_DB

BEGIN_DB
 ICCAP_VAR vc         0              
 ICCAP_VAR vb         -0.75          

 #ve                    ic                    ib                    ie                   
  0                     0.00023932            -0.00024106           1.6912e-06           
  -0.05                 0.00024074            -0.00023958           -1.1218e-06          
  -0.1                  0.00024092            -0.00023944           -1.5518e-06          
  -0.15                 0.00024106            -0.0002394            -1.619e-06           
  -0.2                  0.00024106            -0.00023942           -1.6326e-06          
  -0.25                 0.00024086            -0.00023946           -1.6372e-06          
  -0.3                  0.00024082            -0.0002394            -1.6412e-06          
  -0.35                 0.00024096            -0.00023926           -1.6442e-06          
  -0.4                  0.00024084            -0.00023944           -1.6468e-06          
  -0.45                 0.00024092            -0.00023944           -1.65e-06            
  -0.5                  0.00024096            -0.00023932           -1.6524e-06          
  -0.55                 0.00024086            -0.00023934           -1.655e-06           
  -0.6                  0.00024086            -0.00023942           -1.6578e-06          
  -0.65                 0.00024078            -0.00023928           -1.6604e-06          
  -0.7                  0.00024094            -0.00023954           -1.6628e-06          
  -0.75                 0.00024092            -0.0002394            -1.6648e-06          
  -0.8                  0.00024096            -0.00023926           -1.668e-06           
  -0.85                 0.00024076            -0.00023938           -1.6702e-06          
  -0.9                  0.00024094            -0.00023932           -1.673e-06           
  -0.95                 0.00024092            -0.00023918           -1.6748e-06          
  -1                    0.00024086            -0.00023932           -1.6772e-06          
  -1.05                 0.00024102            -0.00023944           -1.6798e-06          
  -1.1                  0.0002409             -0.00023934           -1.6822e-06          
  -1.15                 0.00024098            -0.00023926           -1.6842e-06          
  -1.2                  0.0002409             -0.00023942           -1.6862e-06          
  -1.25                 0.0002412             -0.00023926           -1.6888e-06          
  -1.3                  0.00024092            -0.00023932           -1.6906e-06          
  -1.35                 0.00024092            -0.00023926           -1.6936e-06          
  -1.4                  0.00024104            -0.00023934           -1.695e-06           
  -1.45                 0.00024092            -0.00023934           -1.6978e-06          
  -1.5                  0.00024098            -0.00023922           -1.6986e-06          
  -1.55                 0.000241              -0.0002393            -1.7028e-06          
  -1.6                  0.00024092            -0.0002392            -1.704e-06           
  -1.65                 0.000241              -0.00023922           -1.7062e-06          
  -1.7                  0.00024088            -0.00023924           -1.7086e-06          
  -1.75                 0.00024098            -0.00023914           -1.7108e-06          
  -1.8                  0.00024076            -0.00023936           -1.7128e-06          
  -1.85                 0.0002409             -0.0002392            -1.7156e-06          
  -1.9                  0.00024104            -0.0002392            -1.7172e-06          
  -1.95                 0.00024098            -0.00023928           -1.7194e-06          
  -2                    0.000241              -0.00023928           -1.7212e-06          
END_DB

BEGIN_DB
 ICCAP_VAR vc         0              
 ICCAP_VAR vb         -0.8           

 #ve                    ic                    ib                    ie                   
  0                     0.00046646            -0.0004771            1.0544e-05           
  -0.05                 0.0004722             -0.00046834           -4.0672e-06          
  -0.1                  0.00047318            -0.00046666           -6.626e-06           
  -0.15                 0.00047306            -0.00046628           -7.0342e-06          
  -0.2                  0.00047348            -0.00046646           -7.1114e-06          
  -0.25                 0.00047356            -0.00046628           -7.1368e-06          
  -0.3                  0.00047326            -0.00046628           -7.1516e-06          
  -0.35                 0.00047328            -0.00046636           -7.1666e-06          
  -0.4                  0.00047304            -0.00046606           -7.1802e-06          
  -0.45                 0.00047332            -0.00046642           -7.193e-06           
  -0.5                  0.00047314            -0.0004664            -7.2058e-06          
  -0.55                 0.00047336            -0.00046624           -7.2174e-06          
  -0.6                  0.00047346            -0.00046626           -7.2298e-06          
  -0.65                 0.00047338            -0.00046622           -7.241e-06           
  -0.7                  0.00047342            -0.0004666            -7.2532e-06          
  -0.75                 0.0004733             -0.00046642           -7.2624e-06          
  -0.8                  0.0004734             -0.00046614           -7.2738e-06          
  -0.85                 0.00047334            -0.00046628           -7.2848e-06          
  -0.9                  0.0004735             -0.00046618           -7.2938e-06          
  -0.95                 0.00047324            -0.00046616           -7.3048e-06          
  -1                    0.00047332            -0.00046612           -7.3146e-06          
  -1.05                 0.00047346            -0.00046628           -7.3248e-06          
  -1.1                  0.00047348            -0.0004662            -7.336e-06           
  -1.15                 0.00047324            -0.0004662            -7.3458e-06          
  -1.2                  0.00047348            -0.00046642           -7.3554e-06          
  -1.25                 0.00047352            -0.00046616           -7.3652e-06          
  -1.3                  0.00047334            -0.00046608           -7.3728e-06          
  -1.35                 0.00047352            -0.0004661            -7.3844e-06          
  -1.4                  0.00047356            -0.00046656           -7.3926e-06          
  -1.45                 0.00047332            -0.0004663            -7.4024e-06          
  -1.5                  0.00047354            -0.00046614           -7.4126e-06          
  -1.55                 0.00047368            -0.00046608           -7.4216e-06          
  -1.6                  0.00047364            -0.00046604           -7.4324e-06          
  -1.65                 0.00047352            -0.00046628           -7.4408e-06          
  -1.7                  0.0004733             -0.00046596           -7.4496e-06          
  -1.75                 0.00047358            -0.00046616           -7.4598e-06          
  -1.8                  0.00047362            -0.00046606           -7.4678e-06          
  -1.85                 0.00047354            -0.00046602           -7.4762e-06          
  -1.9                  0.00047334            -0.0004661            -7.4866e-06          
  -1.95                 0.00047344            -0.00046584           -7.4966e-06          
