! VERSION = 6.00
BEGIN_HEADER
 ICCAP_INPUTS
  ve         V  E GROUND SMU_E 0.1 LIN        1    0          -2         41   -0.05     
  vc         V  C GROUND SMU_C 0.1 CON        0
  vb         V  B GROUND SMU_B 0.01 LIN        2    -0.6       -1         9    -0.05     
 ICCAP_OUTPUTS
  ic         I  C GROUND SMU_C M
  ib         I  B GROUND SMU_B M
  ie         I  E GROUND SMU_E M
 ICCAP_VALUES
  TNOM "27"
  TEMP "27"
  TECHNO "SG13S"
  LOT "PQA701"
  WAFER "17"
  CHIP "d0406"
  MODULE "T323_pnpMPA"
  DEV_NAME "DUT8"
  DEV_GEOM_L "."
  DEV_GEOM_W "."
  NF_EMITTER "."
  REMARKS "pnpMPA Teststructure"
  TIMEDATE "Fri Oct 21 12:47:07     2022"
END_HEADER

BEGIN_DB
 ICCAP_VAR vc         0              
 ICCAP_VAR vb         -0.6           

 #ve                    ic                    ib                    ie                   
  0                     1.0296e-05            -1.0262e-05           2.5026e-09           
  -0.05                 1.0268e-05            -1.0272e-05           -2.2282e-09          
  -0.1                  1.0252e-05            -1.0276e-05           -2.9394e-09          
  -0.15                 1.0288e-05            -1.0276e-05           -3.0484e-09          
  -0.2                  1.0264e-05            -1.0252e-05           -3.0682e-09          
  -0.25                 1.0284e-05            -1.0292e-05           -3.0758e-09          
  -0.3                  1.0272e-05            -1.0286e-05           -3.0808e-09          
  -0.35                 1.02766e-05           -1.0264e-05           -3.0856e-09          
  -0.4                  1.0284e-05            -1.0264e-05           -3.0884e-09          
  -0.45                 1.02794e-05           -1.0278e-05           -3.0914e-09          
  -0.5                  1.0279e-05            -1.0266e-05           -3.0952e-09          
  -0.55                 1.0281e-05            -1.0268e-05           -3.099e-09           
  -0.6                  1.02824e-05           -1.028e-05            -3.1018e-09          
  -0.65                 1.02832e-05           -1.0276e-05           -3.1054e-09          
  -0.7                  1.02808e-05           -1.027e-05            -3.1102e-09          
  -0.75                 1.02822e-05           -1.0254e-05           -3.114e-09           
  -0.8                  1.02814e-05           -1.0274e-05           -3.1172e-09          
  -0.85                 1.02808e-05           -1.02776e-05          -3.1198e-09          
  -0.9                  1.028e-05             -1.02784e-05          -3.1222e-09          
  -0.95                 1.0281e-05            -1.0278e-05           -3.1254e-09          
  -1                    1.02774e-05           -1.02804e-05          -3.1284e-09          
  -1.05                 1.02784e-05           -1.02816e-05          -3.132e-09           
  -1.1                  1.02788e-05           -1.02804e-05          -3.135e-09           
  -1.15                 1.02774e-05           -1.0277e-05           -3.139e-09           
  -1.2                  1.0287e-05            -1.02738e-05          -3.141e-09           
  -1.25                 1.02852e-05           -1.02778e-05          -3.1442e-09          
  -1.3                  1.0278e-05            -1.028e-05            -3.1474e-09          
  -1.35                 1.02794e-05           -1.02826e-05          -3.152e-09           
  -1.4                  1.02796e-05           -1.02766e-05          -3.1552e-09          
  -1.45                 1.02832e-05           -1.02828e-05          -3.1584e-09          
  -1.5                  1.02818e-05           -1.02808e-05          -3.1612e-09          
  -1.55                 1.028e-05             -1.02794e-05          -3.1648e-09          
  -1.6                  1.02816e-05           -1.02756e-05          -3.1668e-09          
  -1.65                 1.02864e-05           -1.02774e-05          -3.1704e-09          
  -1.7                  1.02784e-05           -1.02826e-05          -3.174e-09           
  -1.75                 1.0282e-05            -1.02796e-05          -3.1762e-09          
  -1.8                  1.02802e-05           -1.02806e-05          -3.1786e-09          
  -1.85                 1.0282e-05            -1.0279e-05           -3.181e-09           
  -1.9                  1.02804e-05           -1.02788e-05          -3.1848e-09          
  -1.95                 1.02804e-05           -1.02794e-05          -3.1886e-09          
  -2                    1.02794e-05           -1.0278e-05           -3.1908e-09          
END_DB

BEGIN_DB
 ICCAP_VAR vc         0              
 ICCAP_VAR vb         -0.65          

 #ve                    ic                    ib                    ie                   
  0                     3.0562e-05            -3.0544e-05           1.7372e-08           
  -0.05                 3.053e-05             -3.0536e-05           -1.4382e-08          
  -0.1                  3.0558e-05            -3.0574e-05           -1.9114e-08          
  -0.15                 3.0532e-05            -3.0556e-05           -1.9832e-08          
  -0.2                  3.058e-05             -3.0522e-05           -1.996e-08           
  -0.25                 3.0546e-05            -3.0564e-05           -2.0008e-08          
  -0.3                  3.057e-05             -3.0516e-05           -2.0044e-08          
  -0.35                 3.0568e-05            -3.0542e-05           -2.0064e-08          
  -0.4                  3.0518e-05            -3.0544e-05           -2.0084e-08          
  -0.45                 3.0526e-05            -3.0512e-05           -2.0112e-08          
  -0.5                  3.0578e-05            -3.0534e-05           -2.0138e-08          
  -0.55                 3.0534e-05            -3.0558e-05           -2.0162e-08          
  -0.6                  3.0536e-05            -3.0548e-05           -2.02e-08            
  -0.65                 3.0582e-05            -3.0552e-05           -2.0214e-08          
  -0.7                  3.0538e-05            -3.0496e-05           -2.0238e-08          
  -0.75                 3.055e-05             -3.0522e-05           -2.0262e-08          
  -0.8                  3.0562e-05            -3.0554e-05           -2.0276e-08          
  -0.85                 3.052e-05             -3.0558e-05           -2.0306e-08          
  -0.9                  3.0598e-05            -3.0542e-05           -2.0326e-08          
  -0.95                 3.0582e-05            -3.0534e-05           -2.0352e-08          
  -1                    3.056e-05             -3.0534e-05           -2.0372e-08          
  -1.05                 3.0594e-05            -3.0524e-05           -2.0392e-08          
  -1.1                  3.055e-05             -3.0542e-05           -2.041e-08           
  -1.15                 3.053e-05             -3.055e-05            -2.0438e-08          
  -1.2                  3.0556e-05            -3.056e-05            -2.0458e-08          
  -1.25                 3.0546e-05            -3.0546e-05           -2.0474e-08          
  -1.3                  3.0558e-05            -3.0504e-05           -2.049e-08           
  -1.35                 3.056e-05             -3.0554e-05           -2.0512e-08          
  -1.4                  3.0602e-05            -3.0526e-05           -2.0528e-08          
  -1.45                 3.0552e-05            -3.0514e-05           -2.0554e-08          
  -1.5                  3.0558e-05            -3.0576e-05           -2.0576e-08          
  -1.55                 3.0586e-05            -3.0558e-05           -2.0594e-08          
  -1.6                  3.0524e-05            -3.052e-05            -2.0612e-08          
  -1.65                 3.0546e-05            -3.0544e-05           -2.0634e-08          
  -1.7                  3.0556e-05            -3.057e-05            -2.0646e-08          
  -1.75                 3.055e-05             -3.0528e-05           -2.067e-08           
  -1.8                  3.0528e-05            -3.0526e-05           -2.0686e-08          
  -1.85                 3.0576e-05            -3.0508e-05           -2.0704e-08          
  -1.9                  3.0568e-05            -3.0544e-05           -2.0724e-08          
  -1.95                 3.0588e-05            -3.0562e-05           -2.075e-08           
  -2                    3.0508e-05            -3.0548e-05           -2.077e-08           
END_DB

BEGIN_DB
 ICCAP_VAR vc         0              
 ICCAP_VAR vb         -0.7           

 #ve                    ic                    ib                    ie                   
  0                     7.7326e-05            -7.7452e-05           1.2202e-07           
  -0.05                 7.7404e-05            -7.7364e-05           -8.703e-08           
  -0.1                  7.7422e-05            -7.7284e-05           -1.1764e-07          
  -0.15                 7.7398e-05            -7.7272e-05           -1.2232e-07          
  -0.2                  7.7412e-05            -7.732e-05            -1.2316e-07          
  -0.25                 7.7424e-05            -7.7278e-05           -1.2348e-07          
  -0.3                  7.747e-05             -7.7316e-05           -1.2366e-07          
  -0.35                 7.7414e-05            -7.7348e-05           -1.2384e-07          
  -0.4                  7.741e-05             -7.7326e-05           -1.2404e-07          
  -0.45                 7.742e-05             -7.7324e-05           -1.2418e-07          
  -0.5                  7.7428e-05            -7.733e-05            -1.2434e-07          
  -0.55                 7.741e-05             -7.7314e-05           -1.245e-07           
  -0.6                  7.7422e-05            -7.7284e-05           -1.2464e-07          
  -0.65                 7.7446e-05            -7.7346e-05           -1.2478e-07          
  -0.7                  7.7464e-05            -7.7302e-05           -1.2494e-07          
  -0.75                 7.7408e-05            -7.7338e-05           -1.2506e-07          
  -0.8                  7.7442e-05            -7.7302e-05           -1.2522e-07          
  -0.85                 7.7432e-05            -7.7344e-05           -1.2536e-07          
  -0.9                  7.7402e-05            -7.729e-05            -1.255e-07           
  -0.95                 7.741e-05             -7.7326e-05           -1.2566e-07          
  -1                    7.7444e-05            -7.7324e-05           -1.2574e-07          
  -1.05                 7.7402e-05            -7.7334e-05           -1.2584e-07          
  -1.1                  7.7406e-05            -7.7278e-05           -1.26e-07            
  -1.15                 7.7456e-05            -7.7328e-05           -1.2612e-07          
  -1.2                  7.741e-05             -7.7338e-05           -1.2628e-07          
  -1.25                 7.7418e-05            -7.73e-05             -1.2642e-07          
  -1.3                  7.7432e-05            -7.7346e-05           -1.2652e-07          
  -1.35                 7.7402e-05            -7.7326e-05           -1.2668e-07          
  -1.4                  7.7422e-05            -7.7314e-05           -1.2676e-07          
  -1.45                 7.7438e-05            -7.7322e-05           -1.2692e-07          
  -1.5                  7.7436e-05            -7.73e-05             -1.2702e-07          
  -1.55                 7.7428e-05            -7.7308e-05           -1.2718e-07          
  -1.6                  7.7418e-05            -7.7296e-05           -1.2728e-07          
  -1.65                 7.7442e-05            -7.7288e-05           -1.2738e-07          
  -1.7                  7.7446e-05            -7.7314e-05           -1.275e-07           
  -1.75                 7.7386e-05            -7.7312e-05           -1.2764e-07          
  -1.8                  7.7436e-05            -7.7322e-05           -1.2774e-07          
  -1.85                 7.745e-05             -7.731e-05            -1.2792e-07          
  -1.9                  7.743e-05             -7.7332e-05           -1.2796e-07          
  -1.95                 7.7422e-05            -7.735e-05            -1.2816e-07          
  -2                    7.741e-05             -7.7302e-05           -1.2826e-07          
END_DB

BEGIN_DB
 ICCAP_VAR vc         0              
 ICCAP_VAR vb         -0.75          

 #ve                    ic                    ib                    ie                   
  0                     0.00017302            -0.00017412           7.8998e-07           
  -0.05                 0.00017376            -0.00017348           -4.6322e-07          
  -0.1                  0.0001737             -0.00017304           -6.4994e-07          
  -0.15                 0.0001737             -0.0001733            -6.784e-07           
  -0.2                  0.00017354            -0.00017308           -6.8366e-07          
  -0.25                 0.0001739             -0.00017312           -6.8566e-07          
  -0.3                  0.00017362            -0.00017314           -6.8658e-07          
  -0.35                 0.00017364            -0.00017318           -6.8726e-07          
  -0.4                  0.00017376            -0.00017304           -6.8902e-07          
  -0.45                 0.00017384            -0.00017304           -6.8978e-07          
  -0.5                  0.00017382            -0.00017306           -6.9052e-07          
  -0.55                 0.00017372            -0.00017322           -6.913e-07           
  -0.6                  0.0001738             -0.000173             -6.9242e-07          
  -0.65                 0.00017368            -0.00017324           -6.9298e-07          
  -0.7                  0.00017386            -0.00017304           -6.9434e-07          
  -0.75                 0.00017366            -0.00017328           -6.9478e-07          
  -0.8                  0.00017392            -0.00017304           -6.9574e-07          
  -0.85                 0.00017366            -0.00017306           -6.965e-07           
  -0.9                  0.00017378            -0.00017294           -6.974e-07           
  -0.95                 0.00017374            -0.00017306           -6.9792e-07          
  -1                    0.0001736             -0.00017308           -6.9868e-07          
  -1.05                 0.00017382            -0.00017294           -6.9948e-07          
  -1.1                  0.0001737             -0.00017336           -7.0006e-07          
  -1.15                 0.00017366            -0.00017294           -7.0098e-07          
  -1.2                  0.00017356            -0.0001733            -7.0138e-07          
  -1.25                 0.00017368            -0.00017296           -7.022e-07           
  -1.3                  0.00017366            -0.00017298           -7.031e-07           
  -1.35                 0.00017392            -0.00017292           -7.0376e-07          
  -1.4                  0.00017372            -0.00017336           -7.041e-07           
  -1.45                 0.00017378            -0.0001731            -7.0478e-07          
  -1.5                  0.00017378            -0.00017306           -7.0576e-07          
  -1.55                 0.0001735             -0.00017296           -7.0622e-07          
  -1.6                  0.00017374            -0.00017304           -7.0722e-07          
  -1.65                 0.00017356            -0.0001731            -7.075e-07           
  -1.7                  0.00017356            -0.00017318           -7.081e-07           
  -1.75                 0.00017358            -0.00017316           -7.0918e-07          
  -1.8                  0.00017384            -0.00017292           -7.0992e-07          
  -1.85                 0.00017384            -0.0001729            -7.1038e-07          
  -1.9                  0.00017384            -0.000173             -7.1116e-07          
  -1.95                 0.00017386            -0.0001731            -7.1168e-07          
  -2                    0.00017354            -0.00017302           -7.1232e-07          
END_DB

BEGIN_DB
 ICCAP_VAR vc         0              
 ICCAP_VAR vb         -0.8           

 #ve                    ic                    ib                    ie                   
  0                     0.00034964            -0.00035476           4.805e-06            
  -0.05                 0.00035244            -0.00035052           -1.94e-06            
  -0.1                  0.0003524             -0.0003498            -2.9844e-06          
  -0.15                 0.0003526             -0.0003498            -3.147e-06           
  -0.2                  0.00035262            -0.00034956           -3.1776e-06          
  -0.25                 0.00035258            -0.00034964           -3.1866e-06          
  -0.3                  0.00035294            -0.0003499            -3.193e-06           
  -0.35                 0.00035288            -0.00034944           -3.198e-06           
  -0.4                  0.00035268            -0.00034978           -3.2022e-06          
  -0.45                 0.00035272            -0.00034944           -3.2078e-06          
  -0.5                  0.00035272            -0.00034976           -3.2114e-06          
  -0.55                 0.00035288            -0.00034946           -3.216e-06           
  -0.6                  0.0003525             -0.00034968           -3.2192e-06          
  -0.65                 0.00035294            -0.0003497            -3.224e-06           
  -0.7                  0.00035282            -0.00034954           -3.2284e-06          
  -0.75                 0.00035292            -0.00034942           -3.2324e-06          
  -0.8                  0.00035252            -0.00034954           -3.2344e-06          
  -0.85                 0.0003527             -0.0003497            -3.2396e-06          
  -0.9                  0.00035286            -0.00034936           -3.2432e-06          
  -0.95                 0.0003528             -0.00034964           -3.2464e-06          
  -1                    0.00035294            -0.00034934           -3.2492e-06          
  -1.05                 0.00035268            -0.00034958           -3.252e-06           
  -1.1                  0.00035274            -0.0003496            -3.2578e-06          
  -1.15                 0.00035266            -0.00034974           -3.259e-06           
  -1.2                  0.00035312            -0.00034952           -3.2642e-06          
  -1.25                 0.00035254            -0.00034952           -3.2658e-06          
  -1.3                  0.00035282            -0.00034946           -3.2706e-06          
  -1.35                 0.00035262            -0.00034952           -3.2728e-06          
  -1.4                  0.00035296            -0.0003495            -3.2774e-06          
  -1.45                 0.00035274            -0.00034962           -3.279e-06           
  -1.5                  0.0003528             -0.0003495            -3.282e-06           
  -1.55                 0.00035274            -0.00034952           -3.2852e-06          
  -1.6                  0.00035286            -0.00034966           -3.289e-06           
  -1.65                 0.00035246            -0.00034948           -3.2916e-06          
  -1.7                  0.0003529             -0.00034944           -3.2966e-06          
  -1.75                 0.0003528             -0.00034954           -3.2978e-06          
  -1.8                  0.00035252            -0.00034966           -3.301e-06           
  -1.85                 0.00035262            -0.0003494            -3.3042e-06          
  -1.9                  0.0003529             -0.00034952           -3.3092e-06          
  -1.95                 0.00035308            -0.00034928           -3.3114e-06          
