! VERSION = 6.00
!Data measured by ggf on Tue Jan 23 12:55:42 2018 using model file NPN_MEAS_SCALE
BEGIN_HEADER
 ICCAP_INPUTS
  ve         V  E GROUND SMU_E 0.1 CON        0
  vc         V  C GROUND SMU_C 0.1 LIN        2    0.5        2          4    0.5       
  vs         V  S GROUND SMU_S 0.015 CON        0
  vb         V  B GROUND SMU_B 0.015 LIN        1    0.4        1.04       33   0.02      
 ICCAP_OUTPUTS
  ib         I  B GROUND SMU_B M
  ic         I  C GROUND SMU_C M
 ICCAP_VALUES
  TNOM "27"
  TEMP "27"
  TECHNO "SG13G2"
  LOT "EDJ802"
  WAFER "02"
  CHIP "(3.3)"
  MODULE "S439S"
  DEV_NAME "D44"
  DEV_GEOM_L "5.0"
  DEV_GEOM_W "0.07"
  NUM_OF_TRANS_RF "1"
  REMARKS "Nx=4; Power -30/-20dBm, Slope: 0.1dB/GHz"
  TIMEDATE "Tue Jan 23 12:27:29     2018"
  OPERATOR "ggf"
END_HEADER

BEGIN_DB
 ICCAP_VAR ve         0              
 ICCAP_VAR vc         0.5            
 ICCAP_VAR vs         0              

 #vb              ib              ic             
  0.4             1.5168e-010     3.0142e-009    
  0.42            8.224e-011      3.1462e-009    
  0.44            6.836e-011      4.0752e-009    
  0.46            7.162e-011      7.1296e-009    
  0.48            7.892e-011      1.3224e-008    
  0.5             1.2282e-010     2.8398e-008    
  0.52            1.9932e-010     6.0854e-008    
  0.54            3.4306e-010     1.3008e-007    
  0.56            6.337e-010      2.7972e-007    
  0.58            1.1948e-009     5.9914e-007    
  0.6             2.3278e-009     1.2846e-006    
  0.62            4.6558e-009     2.7614e-006    
  0.64            9.4254e-009     5.9124e-006    
  0.66            1.926e-008      1.2628e-005    
  0.68            3.9806e-008     2.7026e-005    
  0.7             8.2268e-008     5.7428e-005    
  0.72            1.7054e-007     0.00012184     
  0.74            3.5248e-007     0.00025598     
  0.76            7.2096e-007     0.00053082     
  0.78            1.4556e-006     0.00108034     
  0.8             2.8476e-006     0.0021172      
  0.82            5.3604e-006     0.003956       
  0.84            9.5228e-006     0.0068794      
  0.86            1.5972e-005     0.0110388      
  0.88            2.5532e-005     0.016404       
  0.9             3.9222e-005     0.022774       
  0.92            5.8894e-005     0.030058       
  0.94            8.658e-005      0.038028       
  0.96            0.00012668      0.046468       
  0.98            0.00019684      0.053846       
  1               0.00035414      0.058748       
  1.02            0.00063692      0.062748       
  1.04            0.00108052      0.067008       
END_DB

BEGIN_DB
 ICCAP_VAR ve         0              
 ICCAP_VAR vc         1              
 ICCAP_VAR vs         0              

 #vb              ib              ic             
  0.4             -7.3076e-010    3.4328e-009    
  0.42            -6.5334e-010    3.5392e-009    
  0.44            -5.8478e-010    4.517e-009     
  0.46            -5.181e-010     7.604e-009     
  0.48            -4.5746e-010    1.371e-008     
  0.5             -3.7368e-010    2.89e-008      
  0.52            -2.6596e-010    6.1296e-008    
  0.54            -1.0334e-010    1.3056e-007    
  0.56            1.8638e-010     2.8006e-007    
  0.58            7.3176e-010     5.991e-007     
  0.6             1.8068e-009     1.2842e-006    
  0.62            4.0172e-009     2.761e-006     
  0.64            8.5676e-009     5.9114e-006    
  0.66            1.8014e-008     1.2628e-005    
  0.68            3.7918e-008     2.7054e-005    
  0.7             7.9266e-008     5.7536e-005    
  0.72            1.659e-007      0.00012228     
  0.74            3.457e-007      0.00025758     
  0.76            7.1512e-007     0.00053692     
  0.78            1.4646e-006     0.00110252     
  0.8             2.9262e-006     0.0021924      
  0.82            5.6936e-006     0.0041852      
  0.84            1.06124e-005    0.007469       
  0.86            1.889e-005      0.012302       
  0.88            3.2478e-005     0.01874        
  0.9             5.4092e-005     0.026578       
  0.92            8.8234e-005     0.035756       
  0.94            0.00013994      0.04601        
  0.96            0.00021642      0.057326       
  0.98            0.00032368      0.069324       
  1               0.00046932      0.081814       
  1.02            0.00065872      0.093394       
  1.04            0.0008864       0.100002       
END_DB

BEGIN_DB
 ICCAP_VAR ve         0              
 ICCAP_VAR vc         1.5            
 ICCAP_VAR vs         0              

 #vb              ib              ic             
  0.4             -5.132e-009     9.654e-009     
  0.42            -4.7732e-009    7.442e-009     
  0.44            -4.4672e-009    1.0244e-008    
  0.46            -4.1512e-009    1.077e-008     
  0.48            -3.8786e-009    1.7444e-008    
  0.5             -3.6048e-009    3.2034e-008    
  0.52            -3.3668e-009    6.404e-008     
  0.54            -3.1364e-009    1.3352e-007    
  0.56            -2.912e-009     2.8288e-007    
  0.58            -2.667e-009     6.0182e-007    
  0.6             -2.3526e-009    1.2848e-006    
  0.62            -1.7824e-009    2.762e-006     
  0.64            -5.0922e-010    5.9132e-006    
  0.66            2.5996e-009     1.2632e-005    
  0.68            1.0234e-008     2.7048e-005    
  0.7             2.8574e-008     5.7572e-005    
  0.72            7.2496e-008     0.0001225      
  0.74            1.7444e-007     0.00025884     
  0.76            4.0722e-007     0.00054208     
  0.78            9.332e-007      0.0011246      
  0.8             2.0858e-006     0.0022706      
  0.82            4.5906e-006     0.004442       
  0.84            9.8324e-006     0.0081916      
  0.86            2.0516e-005     0.013996       
  0.88            4.1764e-005     0.022122       
  0.9             8.2198e-005     0.032508       
  0.92            0.0001568       0.04524        
  0.94            0.00028524      0.060002       
  0.96            0.00049352      0.076564       
  0.98            0.00079908      0.09395        
  1               0.00086884      0.100002       
  1.02            0.00080738      0.100002       
  1.04            0.00088684      0.100002       
END_DB

BEGIN_DB
 ICCAP_VAR ve         0              
 ICCAP_VAR vc         2              
 ICCAP_VAR vs         0              

 #vb              ib              ic             
  0.4             -2.176e-008     2.7482e-008    
  0.42            -2.0666e-008    2.4638e-008    
  0.44            -1.968e-008     2.4342e-008    
  0.46            -1.8734e-008    2.6238e-008    
  0.48            -1.811e-008     3.2108e-008    
  0.5             -1.7438e-008    4.6256e-008    
  0.52            -1.695e-008     7.7842e-008    
  0.54            -1.7164e-008    1.4764e-007    
  0.56            -1.8486e-008    2.9836e-007    
  0.58            -2.1686e-008    6.2022e-007    
  0.6             -2.8742e-008    1.311e-006     
  0.62            -4.3472e-008    2.8004e-006    
  0.64            -7.3134e-008    5.9766e-006    
  0.66            -1.3198e-007    1.276e-005     
  0.68            -2.4754e-007    2.728e-005     
  0.7             -4.7112e-007    5.8054e-005    
  0.72            -9.0376e-007    0.0001236      
  0.74            -1.7288e-006    0.00026182     
  0.76            -3.2812e-006    0.00055116     
  0.78            -6.146e-006     0.001155       
  0.8             -1.115e-005     0.0023788      
  0.82            -1.9182e-005    0.0048068      
  0.84            -2.9318e-005    0.0093002      
  0.86            -3.4664e-005    0.016886       
  0.88            -1.4004e-005    0.02866        
  0.9             8.4912e-005     0.045738       
  0.92            0.00038276      0.069586       
  0.94            0.00104196      0.098466       
  0.96            0.0010462       0.100002       
  0.98            0.0009616       0.1            
  1               0.0008783       0.1            
  1.02            0.0008073       0.1            
  1.04            0.00088708      0.100002       
END_DB

