! VERSION = 6.00
!Data measured by ggf on Tue Jan 23 12:55:42 2018 using model file NPN_MEAS_SCALE
BEGIN_HEADER
 ICCAP_INPUTS
  ve         V  E GROUND SMU_E 0.1 CON        0
  vc         V  C GROUND SMU_C 0.1 SYNC       1 0 vb
  vs         V  S GROUND SMU_S 0.015 CON        0
  vb         V  B GROUND SMU_B 0.015 LIN        1    -1         1.04       103  0.02      
 ICCAP_OUTPUTS
  ib         I  B GROUND SMU_B M
  ic         I  C GROUND SMU_C M
 ICCAP_VALUES
  TNOM "27"
  TEMP "27"
  TECHNO "SG13G2"
  LOT "EDJ802"
  WAFER "02"
  CHIP "(3.3)"
  MODULE "S439S"
  DEV_NAME "D44"
  DEV_GEOM_L "5.0"
  DEV_GEOM_W "0.07"
  NUM_OF_TRANS_RF "1"
  REMARKS "Nx=4; Power -30/-20dBm, Slope: 0.1dB/GHz"
  TIMEDATE "Tue Jan 23 12:27:29     2018"
  OPERATOR "ggf"
END_HEADER

BEGIN_DB
 ICCAP_VAR ve         0              
 ICCAP_VAR vs         0              

 #vb              vc              ib              ic             
  -1              -1              -2.8696e-005    -0.0074398     
  -0.98           -0.98           -2.3234e-005    -0.0063684     
  -0.96           -0.96           -1.8542e-005    -0.005397      
  -0.94           -0.94           -1.452e-005     -0.0045158     
  -0.92           -0.92           -1.1152e-005    -0.003731      
  -0.9            -0.9            -8.3552e-006    -0.0030296     
  -0.88           -0.88           -6.0966e-006    -0.00242       
  -0.86           -0.86           -4.3268e-006    -0.0018978     
  -0.84           -0.84           -2.9842e-006    -0.0014592     
  -0.82           -0.82           -2.003e-006     -0.0010982     
  -0.8            -0.8            -1.3256e-006    -0.00081062    
  -0.78           -0.78           -8.7518e-007    -0.00058788    
  -0.76           -0.76           -5.885e-007     -0.00041988    
  -0.74           -0.74           -4.1004e-007    -0.0002966     
  -0.72           -0.72           -2.9822e-007    -0.00020744    
  -0.7            -0.7            -2.2572e-007    -0.00014396    
  -0.68           -0.68           -1.7658e-007    -9.8936e-005   
  -0.66           -0.66           -1.4144e-007    -6.7292e-005   
  -0.64           -0.64           -1.1546e-007    -4.5074e-005   
  -0.62           -0.62           -9.4624e-008    -2.9798e-005   
  -0.6            -0.6            -7.8132e-008    -1.94e-005     
  -0.58           -0.58           -6.4548e-008    -1.2434e-005   
  -0.56           -0.56           -5.319e-008     -7.8254e-006   
  -0.54           -0.54           -4.376e-008     -4.8276e-006   
  -0.52           -0.52           -3.5882e-008    -2.8964e-006   
  -0.5            -0.5            -2.9258e-008    -1.6838e-006   
  -0.48           -0.48           -2.38e-008      -9.41e-007     
  -0.46           -0.46           -1.9268e-008    -5.0592e-007   
  -0.44           -0.44           -1.5494e-008    -2.6056e-007   
  -0.42           -0.42           -1.2374e-008    -1.2902e-007   
  -0.4            -0.4            -9.8442e-009    -6.2728e-008   
  -0.38           -0.38           -7.7838e-009    -2.8584e-008   
  -0.36           -0.36           -6.0944e-009    -1.1576e-008   
  -0.34           -0.34           -4.7424e-009    -8.106e-009    
  -0.32           -0.32           -3.6472e-009    -3.0516e-009   
  -0.3            -0.3            -2.7884e-009    -9.3772e-010   
  -0.28           -0.28           -2.1098e-009    9.914e-011     
  -0.26           -0.26           -1.5744e-009    -5.03e-010     
  -0.24           -0.24           -1.155e-009     -3.13e-010     
  -0.22           -0.22           -8.4614e-010    -1.996e-010    
  -0.2            -0.2            -6.043e-010     -1.47e-010     
  -0.18           -0.18           -4.186e-010     -2.156e-010    
  -0.16           -0.16           -2.8514e-010    -8.54e-011     
  -0.14           -0.14           -1.8438e-010    -2.114e-010    
  -0.12           -0.12           -1.1578e-010    -5.16e-011     
  -0.1            -0.1            -6.332e-011     -1.028e-010    
  -0.08           -0.08           -2.98e-011      -1.112e-010    
  -0.06           -0.06           -7.76e-012      -1.646e-010    
  -0.04           -0.04           6.66e-012       -2.062e-010    
  -0.02           -0.02           1.706e-011      -1.264e-010    
  0               0               2.252e-011      1.02e-011      
  0.02            0.02            2.58e-011       -1.092e-010    
  0.04            0.04            2.722e-011      -1.206e-010    
  0.06            0.06            2.66e-011       -1.47e-010     
  0.08            0.08            2.396e-011      -1.498e-010    
  0.1             0.1             2.88e-011       -2.146e-010    
  0.12            0.12            2.428e-011      -6.74e-011     
  0.14            0.14            2.566e-011      -1.706e-010    
  0.16            0.16            2.608e-011      -1.258e-010    
  0.18            0.18            2.278e-011      -2e-010        
  0.2             0.2             2.364e-011      -1.032e-010    
  0.22            0.22            2.394e-011      -9.52e-011     
  0.24            0.24            2.584e-011      -1.198e-010    
  0.26            0.26            2.488e-011      -7.96e-011     
  0.28            0.28            2.772e-011      -7.92e-011     
  0.3             0.3             2.764e-011      -4.38e-011     
  0.32            0.32            2.762e-011      -1.046e-010    
  0.34            0.34            3.108e-011      -5.5e-011      
  0.36            0.36            2.788e-011      8.3e-011       
  0.38            0.38            2.988e-011      1.756e-010     
  0.4             0.4             3.348e-011      5.336e-010     
  0.42            0.42            3.428e-011      1.041e-009     
  0.44            0.44            4.06e-011       2.2938e-009    
  0.46            0.46            4.662e-011      5.644e-009     
  0.48            0.48            6.608e-011      1.33e-008      
  0.5             0.5             1.0328e-010     2.8822e-008    
  0.52            0.52            1.684e-010      6.129e-008     
  0.54            0.54            2.951e-010      1.3092e-007    
  0.56            0.56            5.5972e-010     2.8042e-007    
  0.58            0.58            1.0814e-009     6e-007         
  0.6             0.6             2.1562e-009     1.2852e-006    
  0.62            0.62            4.4034e-009     2.7626e-006    
  0.64            0.64            9.0358e-009     5.916e-006     
  0.66            0.66            1.8664e-008     1.2638e-005    
  0.68            0.68            3.8898e-008     2.7044e-005    
  0.7             0.7             8.0826e-008     5.7488e-005    
  0.72            0.72            1.6848e-007     0.0001221      
  0.74            0.74            3.4954e-007     0.0002569      
  0.76            0.76            7.1906e-007     0.0005342      
  0.78            0.78            1.4642e-006     0.00109342     
  0.8             0.8             2.8954e-006     0.0021634      
  0.82            0.82            5.569e-006      0.0041002      
  0.84            0.84            1.0229e-005     0.0072704      
  0.86            0.86            1.7944e-005     0.011916       
  0.88            0.88            3.0438e-005     0.018114       
  0.9             0.9             5.027e-005      0.025704       
  0.92            0.92            8.1874e-005     0.034678       
  0.94            0.94            0.0001307       0.044852       
  0.96            0.96            0.00020536      0.056272       
  0.98            0.98            0.00031434      0.068648       
  1               1               0.00046934      0.081816       
  1.02            1.02            0.00068004      0.09444        
  1.04            1.04            0.00088644      0.100002       
END_DB

