! VERSION = 6.00
!Data measured by ggf on Tue Jan 23 12:55:42 2018 using model file NPN_MEAS_SCALE
BEGIN_HEADER
 ICCAP_INPUTS
  vc         V  C GROUND SMU_C 0.1 LIN        1    0          2          81   0.025     
  ve         V  E GROUND SMU_E 0.1 CON        0
  vs         V  S GROUND SMU_S 0.015 CON        0
  vb         V  B GROUND SMU_B 0.015 LIN        2    0.6        1          9    0.05      
 ICCAP_OUTPUTS
  ic         I  C DEFAULT SMU_C M
  ib         I  B GROUND SMU_B M
 ICCAP_VALUES
  TNOM "27"
  TEMP "27"
  TECHNO "SG13G2"
  LOT "EDJ802"
  WAFER "02"
  CHIP "(3.3)"
  MODULE "S439S"
  DEV_NAME "D44"
  DEV_GEOM_L "5.0"
  DEV_GEOM_W "0.07"
  NUM_OF_TRANS_RF "1"
  REMARKS "Nx=4; Power -30/-20dBm, Slope: 0.1dB/GHz"
  TIMEDATE "Tue Jan 23 12:27:29     2018"
  OPERATOR "ggf"
END_HEADER

BEGIN_DB
 ICCAP_VAR ve         0              
 ICCAP_VAR vs         0              
 ICCAP_VAR vb         0.6            

 #vc              ic              ib             
  0               -4.8116e-006    2.9104e-007    
  0.025           -1.177e-006     1.9798e-007    
  0.05            2.7262e-007     1.3946e-007    
  0.075           8.4904e-007     1.0136e-007    
  0.1             1.0822e-006     7.4632e-008    
  0.125           1.1834e-006     5.5322e-008    
  0.15            1.228e-006      4.1066e-008    
  0.175           1.2518e-006     3.0418e-008    
  0.2             1.2642e-006     2.2486e-008    
  0.225           1.2718e-006     1.6832e-008    
  0.25            1.2766e-006     1.2664e-008    
  0.275           1.2802e-006     9.6754e-009    
  0.3             1.2836e-006     7.4558e-009    
  0.325           1.287e-006      5.8224e-009    
  0.35            1.2878e-006     4.6554e-009    
  0.375           1.2878e-006     3.8208e-009    
  0.4             1.2892e-006     3.2342e-009    
  0.425           1.2898e-006     2.8306e-009    
  0.45            1.2906e-006     2.5616e-009    
  0.475           1.2904e-006     2.3956e-009    
  0.5             1.2904e-006     2.281e-009     
  0.525           1.2908e-006     2.2146e-009    
  0.55            1.2902e-006     2.168e-009     
  0.575           1.291e-006      2.1394e-009    
  0.6             1.291e-006      2.1216e-009    
  0.625           1.291e-006      2.0952e-009    
  0.65            1.2912e-006     2.0888e-009    
  0.675           1.2908e-006     2.0724e-009    
  0.7             1.2912e-006     2.0638e-009    
  0.725           1.2912e-006     2.0536e-009    
  0.75            1.2906e-006     2.0338e-009    
  0.775           1.2912e-006     2.0264e-009    
  0.8             1.2914e-006     2.0102e-009    
  0.825           1.2908e-006     1.9894e-009    
  0.85            1.291e-006      1.9714e-009    
  0.875           1.2918e-006     1.9508e-009    
  0.9             1.29e-006       1.9278e-009    
  0.925           1.2912e-006     1.896e-009     
  0.95            1.2928e-006     1.8646e-009    
  0.975           1.292e-006      1.8268e-009    
  1               1.2902e-006     1.7796e-009    
  1.025           1.291e-006      1.7326e-009    
  1.05            1.2918e-006     1.6678e-009    
  1.075           1.2908e-006     1.6112e-009    
  1.1             1.2912e-006     1.5268e-009    
  1.125           1.2904e-006     1.4402e-009    
  1.15            1.2914e-006     1.3384e-009    
  1.175           1.289e-006      1.2266e-009    
  1.2             1.2904e-006     1.1008e-009    
  1.225           1.2912e-006     9.505e-010     
  1.25            1.29e-006       7.8844e-010    
  1.275           1.2908e-006     5.9782e-010    
  1.3             1.2916e-006     3.8678e-010    
  1.325           1.2914e-006     1.5386e-010    
  1.35            1.2922e-006     -1.1268e-010   
  1.375           1.292e-006      -4.069e-010    
  1.4             1.292e-006      -7.2496e-010   
  1.425           1.2926e-006     -1.07424e-009  
  1.45            1.288e-006      -1.4784e-009   
  1.475           1.2914e-006     -1.907e-009    
  1.5             1.2934e-006     -2.3864e-009   
  1.525           1.2936e-006     -2.9068e-009   
  1.55            1.2948e-006     -3.4688e-009   
  1.575           1.295e-006      -4.1094e-009   
  1.6             1.2964e-006     -4.784e-009    
  1.625           1.2964e-006     -5.5332e-009   
  1.65            1.2972e-006     -6.3574e-009   
  1.675           1.2978e-006     -7.2412e-009   
  1.7             1.301e-006      -8.2072e-009   
  1.725           1.3006e-006     -9.245e-009    
  1.75            1.3014e-006     -1.0388e-008   
  1.775           1.3026e-006     -1.165e-008    
  1.8             1.3034e-006     -1.2982e-008   
  1.825           1.3056e-006     -1.4436e-008   
  1.85            1.3076e-006     -1.6028e-008   
  1.875           1.309e-006      -1.7736e-008   
  1.9             1.3102e-006     -1.956e-008    
  1.925           1.312e-006      -2.1556e-008   
  1.95            1.3152e-006     -2.3714e-008   
  1.975           1.3162e-006     -2.6032e-008   
  2               1.3194e-006     -2.8532e-008   
END_DB

BEGIN_DB
 ICCAP_VAR ve         0              
 ICCAP_VAR vs         0              
 ICCAP_VAR vb         0.65           

 #vc              ic              ib             
  0               -2.5194e-005    7.5662e-007    
  0.025           -5.933e-006     4.6474e-007    
  0.05            2.6438e-006     3.0298e-007    
  0.075           6.2048e-006     2.0972e-007    
  0.1             7.63e-006       1.513e-007     
  0.125           8.196e-006      1.1278e-007    
  0.15            8.4272e-006     8.5746e-008    
  0.175           8.5294e-006     6.6324e-008    
  0.2             8.5746e-006     5.192e-008     
  0.225           8.5994e-006     4.1274e-008    
  0.25            8.615e-006      3.3336e-008    
  0.275           8.6218e-006     2.7596e-008    
  0.3             8.6294e-006     2.345e-008     
  0.325           8.6344e-006     2.0442e-008    
  0.35            8.6386e-006     1.8196e-008    
  0.375           8.6418e-006     1.6586e-008    
  0.4             8.6424e-006     1.5434e-008    
  0.425           8.6456e-006     1.4604e-008    
  0.45            8.647e-006      1.4022e-008    
  0.475           8.6476e-006     1.3614e-008    
  0.5             8.6478e-006     1.3336e-008    
  0.525           8.65e-006       1.3154e-008    
  0.55            8.649e-006      1.3036e-008    
  0.575           8.6498e-006     1.2946e-008    
  0.6             8.6524e-006     1.2882e-008    
  0.625           8.651e-006      1.2844e-008    
  0.65            8.6522e-006     1.282e-008     
  0.675           8.6526e-006     1.2782e-008    
  0.7             8.6514e-006     1.2762e-008    
  0.725           8.6522e-006     1.2742e-008    
  0.75            8.6518e-006     1.2718e-008    
  0.775           8.652e-006      1.2686e-008    
  0.8             8.6522e-006     1.2668e-008    
  0.825           8.6508e-006     1.2642e-008    
  0.85            8.6518e-006     1.2624e-008    
  0.875           8.6524e-006     1.2622e-008    
  0.9             8.6508e-006     1.2588e-008    
  0.925           8.6518e-006     1.2524e-008    
  0.95            8.6508e-006     1.247e-008     
  0.975           8.65e-006       1.243e-008     
  1               8.6496e-006     1.237e-008     
  1.025           8.6504e-006     1.2288e-008    
  1.05            8.6508e-006     1.2178e-008    
  1.075           8.6498e-006     1.2054e-008    
  1.1             8.6506e-006     1.192e-008     
  1.125           8.648e-006      1.174e-008     
  1.15            8.6488e-006     1.1528e-008    
  1.175           8.6478e-006     1.1276e-008    
  1.2             8.6474e-006     1.0978e-008    
  1.225           8.6472e-006     1.0616e-008    
  1.25            8.6428e-006     1.0168e-008    
  1.275           8.6432e-006     9.6752e-009    
  1.3             8.643e-006      9.1042e-009    
  1.325           8.6436e-006     8.4402e-009    
  1.35            8.643e-006      7.6682e-009    
  1.375           8.6434e-006     6.831e-009     
  1.4             8.6444e-006     5.8428e-009    
  1.425           8.6434e-006     4.7404e-009    
  1.45            8.6444e-006     3.529e-009     
  1.475           8.6434e-006     2.1472e-009    
  1.5             8.6458e-006     6.0668e-010    
  1.525           8.6436e-006     -1.10134e-009  
  1.55            8.6448e-006     -3.0024e-009   
  1.575           8.6472e-006     -5.1178e-009   
  1.6             8.6472e-006     -7.4232e-009   
  1.625           8.6504e-006     -9.9788e-009   
  1.65            8.6526e-006     -1.2786e-008   
  1.675           8.6564e-006     -1.5924e-008   
  1.7             8.6574e-006     -1.9358e-008   
  1.725           8.6624e-006     -2.3136e-008   
  1.75            8.6638e-006     -2.728e-008    
  1.775           8.668e-006      -3.1806e-008   
  1.8             8.6728e-006     -3.6784e-008   
  1.825           8.6778e-006     -4.2236e-008   
  1.85            8.683e-006      -4.822e-008    
  1.875           8.6888e-006     -5.4766e-008   
  1.9             8.6956e-006     -6.189e-008    
  1.925           8.7016e-006     -6.9676e-008   
  1.95            8.7092e-006     -7.8172e-008   
  1.975           8.7178e-006     -8.7442e-008   
  2               8.7286e-006     -9.7552e-008   
END_DB

BEGIN_DB
 ICCAP_VAR ve         0              
 ICCAP_VAR vs         0              
 ICCAP_VAR vb         0.7            

 #vc              ic              ib             
  0               -8.4662e-005    2.2418e-006    
  0.025           -1.4144e-005    1.3534e-006    
  0.05            2.3994e-005     8.3148e-007    
  0.075           4.2846e-005     5.355e-007     
  0.1             5.125e-005      3.7184e-007    
  0.125           5.4752e-005     2.7758e-007    
  0.15            5.6166e-005     2.194e-007     
  0.175           5.6752e-005     1.8076e-007    
  0.2             5.7014e-005     1.5318e-007    
  0.225           5.7136e-005     1.34e-007      
  0.25            5.7196e-005     1.1994e-007    
  0.275           5.7242e-005     1.0906e-007    
  0.3             5.7278e-005     1.0126e-007    
  0.325           5.7296e-005     9.5528e-008    
  0.35            5.7332e-005     9.137e-008     
  0.375           5.7352e-005     8.8338e-008    
  0.4             5.7366e-005     8.6114e-008    
  0.425           5.7382e-005     8.4396e-008    
  0.45            5.7398e-005     8.3276e-008    
  0.475           5.7406e-005     8.2442e-008    
  0.5             5.7414e-005     8.1826e-008    
  0.525           5.7434e-005     8.1384e-008    
  0.55            5.744e-005      8.1024e-008    
  0.575           5.7456e-005     8.0802e-008    
  0.6             5.7466e-005     8.0648e-008    
  0.625           5.7466e-005     8.0448e-008    
  0.65            5.747e-005      8.0336e-008    
  0.675           5.7482e-005     8.0112e-008    
  0.7             5.749e-005      8.009e-008     
  0.725           5.7488e-005     8.0036e-008    
  0.75            5.75e-005       7.986e-008     
  0.775           5.749e-005      7.9776e-008    
  0.8             5.7504e-005     7.9804e-008    
  0.825           5.7516e-005     7.9726e-008    
  0.85            5.7514e-005     7.9658e-008    
  0.875           5.752e-005      7.9568e-008    
  0.9             5.7522e-005     7.9508e-008    
  0.925           5.7522e-005     7.9422e-008    
  0.95            5.7524e-005     7.9332e-008    
  0.975           5.753e-005      7.9196e-008    
  1               5.752e-005      7.9004e-008    
  1.025           5.7522e-005     7.8706e-008    
  1.05            5.7532e-005     7.8518e-008    
  1.075           5.7534e-005     7.8176e-008    
  1.1             5.7528e-005     7.771e-008     
  1.125           5.7536e-005     7.7128e-008    
  1.15            5.7532e-005     7.6314e-008    
  1.175           5.7534e-005     7.5432e-008    
  1.2             5.753e-005      7.437e-008     
  1.225           5.7536e-005     7.3016e-008    
  1.25            5.7536e-005     7.1356e-008    
  1.275           5.7542e-005     6.9378e-008    
  1.3             5.7532e-005     6.7062e-008    
  1.325           5.7538e-005     6.419e-008     
  1.35            5.7542e-005     6.0912e-008    
  1.375           5.7546e-005     5.7104e-008    
  1.4             5.755e-005      5.275e-008     
  1.425           5.7548e-005     4.7732e-008    
  1.45            5.756e-005      4.2002e-008    
  1.475           5.7554e-005     3.5566e-008    
  1.5             5.7558e-005     2.8324e-008    
  1.525           5.7572e-005     2.0134e-008    
  1.55            5.7576e-005     1.098e-008     
  1.575           5.7584e-005     8.2564e-010    
  1.6             5.7588e-005     -1.0488e-008   
  1.625           5.7596e-005     -2.3036e-008   
  1.65            5.7612e-005     -3.7014e-008   
  1.675           5.7628e-005     -5.2448e-008   
  1.7             5.764e-005      -6.948e-008    
  1.725           5.7646e-005     -8.8302e-008   
  1.75            5.7666e-005     -1.09086e-007  
  1.775           5.7692e-005     -1.3184e-007   
  1.8             5.7724e-005     -1.5734e-007   
  1.825           5.7748e-005     -1.8494e-007   
  1.85            5.7774e-005     -2.154e-007    
  1.875           5.781e-005      -2.4908e-007   
  1.9             5.7834e-005     -2.8566e-007   
  1.925           5.7882e-005     -3.2596e-007   
  1.95            5.7922e-005     -3.7022e-007   
  1.975           5.7968e-005     -4.182e-007    
  2               5.8026e-005     -4.7102e-007   
END_DB

BEGIN_DB
 ICCAP_VAR ve         0              
 ICCAP_VAR vs         0              
 ICCAP_VAR vb         0.75           

 #vc              ic              ib             
  0               -0.00013024     7.1144e-006    
  0.025           0.00010028      4.315e-006     
  0.05            0.00022378      2.7494e-006    
  0.075           0.0002937       1.8196e-006    
  0.1             0.00033178      1.273e-006     
  0.125           0.00035082      9.6646e-007    
  0.15            0.00035962      7.9696e-007    
  0.175           0.00036334      7.0026e-007    
  0.2             0.00036512      6.4006e-007    
  0.225           0.00036608      6.005e-007     
  0.25            0.0003666       5.733e-007     
  0.275           0.00036702      5.5398e-007    
  0.3             0.00036728      5.3944e-007    
  0.325           0.00036758      5.2902e-007    
  0.35            0.00036784      5.2094e-007    
  0.375           0.00036814      5.1554e-007    
  0.4             0.00036832      5.1104e-007    
  0.425           0.00036864      5.082e-007     
  0.45            0.00036872      5.0586e-007    
  0.475           0.00036894      5.0406e-007    
  0.5             0.0003693       5.0294e-007    
  0.525           0.00036936      5.0226e-007    
  0.55            0.00036962      5.016e-007     
  0.575           0.0003698       5.0038e-007    
  0.6             0.00036996      5.0014e-007    
  0.625           0.0003701       4.9972e-007    
  0.65            0.00037028      4.992e-007     
  0.675           0.00037052      4.9926e-007    
  0.7             0.00037068      4.986e-007     
  0.725           0.00037078      4.9866e-007    
  0.75            0.00037092      4.9828e-007    
  0.775           0.00037112      4.9832e-007    
  0.8             0.00037134      4.9828e-007    
  0.825           0.0003714       4.9812e-007    
  0.85            0.0003715       4.9794e-007    
  0.875           0.00037168      4.978e-007     
  0.9             0.00037168      4.9718e-007    
  0.925           0.00037192      4.9724e-007    
  0.95            0.00037216      4.9742e-007    
  0.975           0.00037208      4.9696e-007    
  1               0.00037232      4.9666e-007    
  1.025           0.00037252      4.9644e-007    
  1.05            0.0003726       4.955e-007     
  1.075           0.00037274      4.9454e-007    
  1.1             0.00037286      4.9308e-007    
  1.125           0.000373        4.9142e-007    
  1.15            0.0003731       4.8898e-007    
  1.175           0.00037322      4.8548e-007    
  1.2             0.00037336      4.8108e-007    
  1.225           0.00037352      4.7614e-007    
  1.25            0.00037362      4.6928e-007    
  1.275           0.00037374      4.6032e-007    
  1.3             0.0003739       4.5038e-007    
  1.325           0.00037396      4.3808e-007    
  1.35            0.00037412      4.2318e-007    
  1.375           0.00037422      4.0574e-007    
  1.4             0.00037432      3.8528e-007    
  1.425           0.00037452      3.6164e-007    
  1.45            0.00037466      3.3402e-007    
  1.475           0.0003747       3.0224e-007    
  1.5             0.00037494      2.6622e-007    
  1.525           0.00037506      2.253e-007     
  1.55            0.00037518      1.7922e-007    
  1.575           0.00037538      1.2718e-007    
  1.6             0.0003755       6.9326e-008    
  1.625           0.00037566      4.5384e-009    
  1.65            0.00037584      -6.8022e-008   
  1.675           0.000376        -1.4876e-007   
  1.7             0.00037618      -2.3762e-007   
  1.725           0.00037654      -3.3664e-007   
  1.75            0.0003767       -4.4564e-007   
  1.775           0.00037692      -5.6686e-007   
  1.8             0.00037722      -7.0036e-007   
  1.825           0.0003773       -8.4784e-007   
  1.85            0.00037766      -1.0098e-006   
  1.875           0.00037814      -1.1898e-006   
  1.9             0.0003783       -1.385e-006    
  1.925           0.00037872      -1.6016e-006   
  1.95            0.000379        -1.8392e-006   
  1.975           0.0003794       -2.1e-006      
  2               0.00037986      -2.3844e-006   
END_DB

BEGIN_DB
 ICCAP_VAR ve         0              
 ICCAP_VAR vs         0              
 ICCAP_VAR vb         0.8            

 #vc              ic              ib             
  0               -8.5488e-005    3.1936e-005    
  0.025           0.000971        1.7892e-005    
  0.05            0.0015016       1.0822e-005    
  0.075           0.0017562       7.3594e-006    
  0.1             0.001893        5.4648e-006    
  0.125           0.001972        4.3488e-006    
  0.15            0.0020178       3.6952e-006    
  0.175           0.0020434       3.3298e-006    
  0.2             0.0020576       3.1304e-006    
  0.225           0.0020668       3.016e-006     
  0.25            0.0020732       2.949e-006     
  0.275           0.0020782       2.9078e-006    
  0.3             0.002083        2.881e-006     
  0.325           0.0020876       2.8636e-006    
  0.35            0.0020924       2.8516e-006    
  0.375           0.0020962       2.8434e-006    
  0.4             0.0021002       2.8382e-006    
  0.425           0.0021042       2.8358e-006    
  0.45            0.0021082       2.8352e-006    
  0.475           0.002112        2.8364e-006    
  0.5             0.0021162       2.8388e-006    
  0.525           0.00212         2.8382e-006    
  0.55            0.0021236       2.842e-006     
  0.575           0.0021266       2.8464e-006    
  0.6             0.0021314       2.848e-006     
  0.625           0.0021352       2.8534e-006    
  0.65            0.0021388       2.858e-006     
  0.675           0.002143        2.8624e-006    
  0.7             0.0021462       2.8674e-006    
  0.725           0.0021502       2.871e-006     
  0.75            0.002154        2.8758e-006    
  0.775           0.0021578       2.879e-006     
  0.8             0.0021616       2.884e-006     
