! VERSION = 6.00
BEGIN_HEADER
 ICCAP_INPUTS
  vc         V  C GROUND SMU_C 0.1 SYNC       1 0.25 vb
  vb         V  B GROUND SMU_B 0.015 LIN        1    0.68       1.04       37   0.01      
  ve         V  E GROUND SMU_E 0 CON        0
  vs         V  S GROUND SMU_S 0 CON        0
  freq       F  CON        30000000000
 ICCAP_OUTPUTS
  ic         I  C GROUND SMU_C B
  S_deemb    S  B C GROUND n/a B
  ft         U
  ft_fit_qual U
  Fmax       U
  mag_s21    U
  ph_s21     U
  err_m_s21  U
  err_p_s21  U
END_HEADER

BEGIN_DB
 ICCAP_VAR ve         0              
 ICCAP_VAR vs         0              
 ICCAP_VAR freq       3e+010         

 #vb              vc              ic              R:S_deemb(1,1)  I:S_deemb(1,1)  R:S_deemb(1,2)  I:S_deemb(1,2)  R:S_deemb(2,1)  I:S_deemb(2,1)  R:S_deemb(2,2)  I:S_deemb(2,2)  R:ft(1,1)       I:ft(1,1)       R:ft_fit_qual(1,1) I:ft_fit_qual(1,1) R:Fmax(1,1)     I:Fmax(1,1)     R:mag_s21(1,1)  I:mag_s21(1,1)  R:ph_s21(1,1)   I:ph_s21(1,1)   R:err_m_s21(1,1) I:err_m_s21(1,1) R:err_p_s21(1,1) I:err_p_s21(1,1)
  0.68            0.93            2.7016e-005     0.147791        -0.812742       0.381137        0.212504        0.346471        0.281636        0.66053         -0.526461       1.21791e+010    0               -0.639538       0               1.87436e+010    0               0.446499        0               0.68254         0               46.6073         0               50              0              
  0.69            0.94            3.9438e-005     0.134           -0.81269        0.379242        0.208383        0.330937        0.306294        0.651375        -0.528126       1.23048e+010    0               -0.0562966      0               2.36213e+010    0               0.450927        0               0.746745        0               46.1584         0               50              0              
  0.7             0.95            5.7502e-005     0.11634         -0.812171       0.376541        0.203376        0.309622        0.342171        0.638321        -0.530148       1.26147e+010    0               0.481913        0               2.95387e+010    0               0.461462        0               0.835294        0               45.6429         0               50              0              
  0.71            0.96            8.3696e-005     0.0935549       -0.810098       0.372779        0.196616        0.280433        0.393856        0.6198          -0.532824       1.32733e+010    0               0.855464        0               3.65478e+010    0               0.483493        0               0.952049        0               45.0588         0               50              0              
  0.72            0.97            0.00012256      0.0634255       -0.806687       0.367573        0.188266        0.241494        0.467929        0.593051        -0.53568        1.45631e+010    0               0.865332        0               4.50724e+010    0               0.526571        0               1.09436         0               44.4705         0               -45.3831        0              
  0.73            0.98            0.00017706      0.0242697       -0.800376       0.360411        0.177847        0.191062        0.570689        0.556795        -0.538943       1.6838e+010     0               0.769934        0               5.53566e+010    0               0.601823        0               1.24773         0               43.6675         0               -39.9091        0              
  0.74            0.99            0.00025708      -0.0246828      -0.78966        0.350646        0.164745        0.128295        0.710683        0.50811         -0.54114        2.05769e+010    0               0.711186        0               6.72378e+010    0               0.72217         0               1.3922          0               42.4084         0               -36.297         0              
  0.75            1               0.00037358      -0.0854406      -0.773643       0.337545        0.149156        0.0536441       0.897737        0.44463         -0.541674       2.63029e+010    0               0.860703        0               8.1873e+010     0               0.899338        0               1.51111         0               40.4862         0               -34.202         0              
  0.76            1.01            0.00053742      -0.158131       -0.748717       0.320794        0.131269        -0.0268978      1.1362          0.365469        -0.538237       3.4468e+010     0               1.49263         0               9.89948e+010    0               1.13652         0               1.59447         0               37.5195         0               -33.3658        0              
  0.77            1.02            0.00077468      -0.241305       -0.713521       0.299555        0.111569        -0.107819       1.43087         0.269682        -0.528548       4.57194e+010    0               2.03984         0               1.1941e+011     0               1.43493         0               1.64601         0               33.5423         0               -33.1379        0              
  0.78            1.03            0.0011048       -0.329429       -0.668707       0.274533        0.0918379       -0.177926       1.77011         0.162477        -0.510804       6.03327e+010    0               2.72769         0               1.4386e+011     0               1.77903         0               1.67098         0               28.2393         0               -33.2316        0              
  0.79            1.04            0.0015646       -0.418256       -0.613721       0.246872        0.0730232       -0.226983       2.1383          0.0489193       -0.483728       7.86322e+010    0               3.14293         0               1.71251e+011    0               2.15031         0               1.67655         0               21.6999         0               -33.3676        0              
  0.8             1.05            0.0022038       -0.501681       -0.552123       0.21806         0.0564784       -0.251089       2.51284         -0.0638265      -0.448913       1.00686e+011    0               2.97631         0               2.01509e+011    0               2.52535         0               1.67039         0               14.1524         0               -33.262         0              
  0.81            1.06            0.003052        -0.574718       -0.48974        0.190043        0.0430553       -0.251839       2.86933         -0.168829       -0.409236       1.26104e+011    0               2.13492         0               2.34396e+011    0               2.88036         0               1.65834         0               5.97443         0               -32.7724        0              
  0.82            1.07            0.0042196       -0.635374       -0.430234       0.164588        0.032558        -0.234161       3.19017         -0.262027       -0.36839        1.54175e+011    0               0.575538        0               2.66964e+011    0               3.19875         0               1.64407         0               -2.28094        0               -31.924         0              
  0.83            1.08            0.0057034       -0.682498       -0.377655       0.142919        0.0251773       -0.207649       3.45947         -0.339069       -0.330731       1.83227e+011    0               -1.23955        0               2.98253e+011    0               3.4657          0               1.63075         0               -10.2779        0               -30.7542        0              
  0.84            1.09            0.0076046       -0.718971       -0.334204       0.125343        0.0199293       -0.178518       3.67662         -0.401027       -0.297653       2.11614e+011    0               -3.04399        0               3.27391e+011    0               3.68095         0               1.61931         0               -17.6032        0               -29.4249        0              
  0.85            1.1             0.0098902       -0.746442       -0.299515       0.111346        0.0162175       -0.153709       3.84532         -0.449225       -0.270643       2.37879e+011    0               -4.63577        0               3.522e+011      0               3.84839         0               1.61075         0               -24.0807        0               -28.0143        0              
  0.86            1.11            0.012628        -0.765951       -0.271381       0.100501        0.0137607       -0.130067       3.97267         -0.485826       -0.249299       2.61195e+011    0               -5.97302        0               3.71749e+011    0               3.9748          0               1.60353         0               -29.6878        0               -26.7219        0              
  0.87            1.12            0.015854        -0.781113       -0.248693       0.0920775       0.011876        -0.106026       4.06789         -0.514811       -0.231322       2.81444e+011    0               -7.14501        0               3.87788e+011    0               4.06927         0               1.59685         0               -34.437         0               -25.6264        0              
  0.88            1.13            0.019484        -0.792609       -0.231018       0.0853239       0.0106477       -0.0850603      4.13753         -0.535692       -0.218245       2.97649e+011    0               -7.88702        0               4.03474e+011    0               4.1384          0               1.59135         0               -38.43          0               -24.659         0              
  0.89            1.14            0.023538        -0.802413       -0.216086       0.0798538       0.00971689      -0.0710608      4.18424         -0.551907       -0.207089       3.10726e+011    0               -8.52457        0               4.13568e+011    0               4.18484         0               1.58778         0               -41.8558        0               -23.723         0              
  0.9             1.15            0.028062        -0.80938        -0.203914       0.0753187       0.0089629       -0.0557466      4.21381         -0.563884       -0.197966       3.20495e+011    0               -9.01531        0               4.19468e+011    0               4.21418         0               1.58403         0               -44.7404        0               -22.9392        0              
  0.91            1.16            0.03305         -0.815532       -0.192642       0.0713669       0.00838816      -0.0377609      4.23005         -0.573509       -0.189973       3.2805e+011     0               -9.69325        0               4.25235e+011    0               4.23022         0               1.57972         0               -47.1014        0               -22.2911        0              
  0.92            1.17            0.038328        -0.820578       -0.182914       0.0679787       0.00799026      -0.024126       4.23229         -0.579512       -0.184488       3.32231e+011    0               -10.2754        0               4.28177e+011    0               4.23236         0               1.5765          0               -49.0505        0               -21.6097        0              
  0.93            1.18            0.044152        -0.824583       -0.17406        0.0650034       0.00768918      -0.0143137      4.21987         -0.583901       -0.179533       3.34329e+011    0               -11.1709        0               4.25973e+011    0               4.21989         0               1.57419         0               50              0               -20.8676        0              
  0.94            1.19            0.050302        -0.827989       -0.165992       0.062146        0.00749494      0.000880082     4.1948          -0.586409       -0.175033       3.33907e+011    0               -12.316         0               4.24139e+011    0               4.1948          0               1.57059         0               50              0               -20.1976        0              
  0.95            1.2             0.05693         -0.831245       -0.15778        0.0597417       0.00728035      0.0128263       4.15161         -0.587398       -0.171636       3.3072e+011     0               -13.6914        0               4.17817e+011    0               4.15163         0               1.56771         0               50              0               -19.4117        0              
  0.96            1.21            0.063862        -0.833271       -0.149865       0.0574181       0.0070743       0.0214932       4.08747         -0.587473       -0.168627       3.25282e+011    0               -15.4456        0               4.04963e+011    0               4.08753         0               1.56554         0               50              0               -18.4833        0              
  0.97            1.22            0.071088        -0.835733       -0.141762       0.0553487       0.00703553      0.0381109       3.99364         -0.586221       -0.1655         3.16369e+011    0               -17.2294        0               3.93234e+011    0               3.99382         0               1.56125         0               50              0               -17.6047        0              
  0.98            1.23            0.078586        -0.836151       -0.133205       0.0534004       0.00697795      0.0520683       3.83588         -0.584583       -0.16111        3.02438e+011    0               -18.5388        0               3.67351e+011    0               3.83623         0               1.55722         0               50              0               -16.5824        0              
  0.99            1.24            0.086324        -0.835658       -0.121921       0.0517641       0.00671337      0.078263        3.54623         -0.583348       -0.152079       2.7824e+011     0               -17.6278        0               3.25096e+011    0               3.54709         0               1.54873         0               50              0               -15.7637        0              
  1               1.25            0.094226        -0.830722       -0.104381       0.0500261       0.00637975      0.088061        2.97554         -0.583025       -0.134027       2.33607e+011    0               -9.66734        0               2.47057e+011    0               2.97684         0               1.54121         0               50              0               -14.7428        0              
  1.01            1.26            0.100014        -0.823172       -0.08521        0.0488118       0.00547436      0.0599043       2.17535         -0.592073       -0.104261       1.7521e+011     0               9.87684         0               1.61455e+011    0               2.17617         0               1.54327         0               50              0               -12.8897        0              
  1.02            1.27            0.099996        -0.816313       -0.0679859      0.0486914       0.00453432      0.0298532       1.35784         -0.620226       -0.0688366      1.18007e+011    0               47.5381         0               9.52369e+010    0               1.35817         0               1.54881         0               50              0               -10.6469        0              
  1.03            1.28            0.100012        -0.816348       -0.0557173      0.0488604       0.00374681      0.0237428       0.778981        -0.649173       -0.0426568      7.32753e+010    0               50              0               5.47942e+010    0               0.779343        0               1.54033         0               50              0               -9.172          0              
  1.04            1.29            0.100004        -0.821103       -0.0489255      0.0486739       0.00335673      0.0282806       0.487932        -0.672412       -0.0286654      4.90517e+010    0               50              0               3.53886e+010    0               0.488751        0               1.5129          0               50              0               -8.30478        0              
END_DB

