! VERSION = 6.00
BEGIN_HEADER
 ICCAP_INPUTS
  vc         V  C GROUND SMU_C 0.1 SYNC       1 0.25 vb
  vb         V  B GROUND SMU_B 0.015 LIN        2    0.88       0.96       5    0.02      
  ve         V  E GROUND SMU_E 0 CON        0
  vs         V  S GROUND SMU_S 0 CON        0
  freq       F  LIST       1 74 100000000 200000000 300000000 400000000 500000000 600000000 700000000 800000000 900000000 1000000000 2000000000 3000000000 4000000000 5000000000 6000000000 7000000000 8000000000 9000000000 10000000000 11000000000 12000000000 13000000000 14000000000 15000000000 16000000000 17000000000 18000000000 19000000000 20000000000 21000000000 22000000000 23000000000 24000000000 25000000000 26000000000 27000000000 28000000000 29000000000 30000000000 31000000000 32000000000 33000000000 34000000000 35000000000 36000000000 37000000000 38000000000 39000000000 40000000000 41000000000 42000000000 43000000000 44000000000 45000000000 46000000000 47000000000 48000000000 49000000000 50000000000 51000000000 52000000000 53000000000 54000000000 55000000000 56000000000 57000000000 58000000000 59000000000 60000000000 61000000000 62000000000 63000000000 64000000000 65000000000
 ICCAP_OUTPUTS
  ic         I  C GROUND SMU_C B
  S_deemb    S  B C GROUND n/a B
  GU         U
  GMAG       U
  h          H
  GU_f       U
  h21_f      U
END_HEADER

BEGIN_DB
 ICCAP_VAR vc         1.13           
 ICCAP_VAR vb         0.88           
 ICCAP_VAR ve         0              
 ICCAP_VAR vs         0              

 #freq            ic              R:S_deemb(1,1)  I:S_deemb(1,1)  R:S_deemb(1,2)  I:S_deemb(1,2)  R:S_deemb(2,1)  I:S_deemb(2,1)  R:S_deemb(2,2)  I:S_deemb(2,2)  R:GU(1,1)       I:GU(1,1)       R:GMAG(1,1)     I:GMAG(1,1)     R:h(1,1)        I:h(1,1)        R:h(1,2)        I:h(1,2)        R:h(2,1)        I:h(2,1)        R:h(2,2)        I:h(2,2)        R:GU_f(1,1)     I:GU_f(1,1)     R:h21_f(1,1)    I:h21_f(1,1)   
  1e+008          0.019484        0.92936         -0.0416656      -0.000118502    0.00238309      -30.1458        0.534586        0.966665        0.0254666       394161          0               648.702         -12619.6        1344.72         -99.6246        0.00117265      0.0339056       426.469         -43.6464        0.00101382      0.0101159       6.27823e+010    0               4.28696e+010    0              
  2e+008          0.019484        0.927606        -0.0856059      0.000153491     0.00449472      -30.1708        1.31493         0.985832        -0.0376838      144542          0               219.227         -6711.38        1324.01         -348.479        0.0167228       0.0619771       415.097         -116.208        0.00568245      0.0190983       7.60375e+010    0               8.62114e+010    0              
  3e+008          0.019484        0.922125        -0.128277       0.000349778     0.00649952      -29.9774        2.08113         0.987136        -0.0865929      376630          0               43.482          -4616.46        1152.99         -519.447        0.0347995       0.0783827       359.325         -166.264        0.0112127       0.0242804       1.84111e+011    0               1.18778e+011    0              
  4e+008          0.019484        0.912918        -0.167356       0.000764211     0.00862978      -29.8506        2.77574         0.982413        -0.130193       188631          0               46.9536         -3460.08        1042.45         -568.704        0.0517543       0.0941263       324.924         -180.521        0.0164756       0.0292927       1.73727e+011    0               1.48681e+011    0              
  5e+008          0.019484        0.905732        -0.209513       0.00128084      0.0106893       -29.8026        3.5308          0.974797        -0.170759       80084.2         0               44.8021         -2787.28        918.107         -671.21         0.0763412       0.102699        286.57          -212.43         0.0241949       0.0320892       1.41496e+011    0               1.7836e+011     0              
  6e+008          0.019484        0.895354        -0.250475       0.00182768      0.0126893       -29.6078        4.25181         0.965454        -0.209361       87320           0               30.1902         -2332.95        778.371         -705.153        0.0953789       0.104007        242.758         -222.431        0.0301204       0.0325478       1.773e+011      0               1.97551e+011    0              
  7e+008          0.019484        0.880087        -0.290889       0.00246592      0.0146921       -29.2359        4.94599         0.95449         -0.246344       114027          0               19.9552         -1990.24        648.942         -680.035        0.107092        0.101419        201.581         -213.411        0.0336437       0.0316822       2.36375e+011    0               2.05494e+011    0              
  8e+008          0.019484        0.865804        -0.326468       0.00327935      0.0166342       -29.0492        5.58567         0.941416        -0.281812       42321.7         0               27.7921         -1744.54        588.322         -680.62         0.123063        0.104254        182.902         -213.862        0.0386926       0.0326372       1.64578e+011    0               2.25126e+011    0              
  9e+008          0.019484        0.851681        -0.365073       0.00405491      0.0185186       -28.8951        6.30469         0.927391        -0.316686       53566.6         0               21.5687         -1559.93        505.768         -677.019        0.136919        0.100808        157.425         -213.488        0.043201        0.0316528       2.083e+011      0               2.38729e+011    0              
  1e+009          0.019484        0.833819        -0.401241       0.00495335      0.0203419       -28.4959        6.95341         0.911723        -0.350205       53476.7         0               19.0262         -1400.88        433.189         -649.682        0.145739        0.0958593       134.202         -204.247        0.0458418       0.030037        2.3125e+011     0               2.44391e+011    0              
  2e+009          0.019484        0.598134        -0.68803        0.0169577       0.0347849       -24.4895        12.0217         0.701213        -0.609877       22248.8         0               13.0972         -704.848        143.552         -425.024        0.189981        0.0625261       43.7124         -134.051        0.0599442       0.019811        2.9832e+011     0               2.81996e+011    0              
  3e+009          0.019484        0.324269        -0.833638       0.0306901       0.0420958       -19.6661        14.508          0.458721        -0.74159        15862.5         0               9.57883         -469.011        72.7535         -295.023        0.197878        0.0473065       21.6687         -92.9498        0.0624119       0.0152917       3.77839e+011    0               2.86326e+011    0              
  4e+009          0.019484        0.0829542       -0.878279       0.0429649       0.044241        -15.4491        15.3503         0.242848        -0.780396       10137.5         0               10.185          -352.997        41.1004         -228.299        0.203624        0.0348699       11.4918         -72.0446        0.0643165       0.0113132       4.0274e+011     0               2.91822e+011    0              
  5e+009          0.019484        -0.11305        -0.863149       0.0528944       0.043413        -12.1035        15.1562         0.0699676       -0.768187       5578.29         0               10.9955         -283.235        27.1145         -186.042        0.207428        0.0275587       7.02363         -58.8944        0.0656735       0.00897963      3.7344e+011     0               2.96559e+011    0              
  6e+009          0.019484        -0.262122       -0.822447       0.0603284       0.041182        -9.43892        14.3937         -0.0617209      -0.732087       5223.9          0               9.68608         -235.446        19.6552         -153.829        0.205897        0.0239796       4.74953         -48.6151        0.0651196       0.00806737      4.33659e+011    0               2.93079e+011    0              
  7e+009          0.019484        -0.374544       -0.769208       0.0660736       0.038636        -7.49796        13.5546         -0.162234       -0.685873       3424.7          0               10.8053         -202.09         14.4999         -133.975        0.209322        0.0195333       2.94163         -42.4446        0.0662898       0.00640702      4.09647e+011    0               2.97825e+011    0              
  8e+009          0.019484        -0.459334       -0.71567        0.0703382       0.0357844       -6.01775        12.6132         -0.236658       -0.639029       2547.4          0               10.662          -176.765        11.6137         -116.984        0.208929        0.0170816       2.08201         -37.0634        0.0661553       0.00577245      4.03774e+011    0               2.96975e+011    0              
  9e+009          0.019484        -0.523263       -0.665471       0.0735518       0.0332206       -4.87572        11.7103         -0.293934       -0.594197       2107.98         0               10.5255         -156.82         9.6684          -103.936        0.209048        0.0155318       1.46425         -32.9146        0.0661866       0.0053339       4.13215e+011    0               2.96525e+011    0              
  1e+010          0.019484        -0.573458       -0.618036       0.0760744       0.0305636       -3.97345        10.962          -0.338595       -0.553278       1762.2          0               10.6106         -141.825        7.28991         -93.5034        0.208172        0.0119935       0.690094        -29.6476        0.0658843       0.00428071      4.19786e+011    0               2.96556e+011    0              
  1.1e+010        0.019484        -0.612892       -0.575448       0.0779385       0.028433        -3.31278        10.1535         -0.374424       -0.516404       1385.67         0               10.4088         -128.314        7.30695         -84.9388        0.209175        0.0131191       0.760928        -26.9704        0.0663897       0.00480201      4.0947e+011     0               2.96793e+011    0              
  1.2e+010        0.019484        -0.642903       -0.536183       0.0794802       0.026462        -2.74408        9.52436         -0.402018       -0.481826       1169.22         0               10.8189         -117.826        5.98679         -78.0277        0.209242        0.0107286       0.256544        -24.7891        0.0663589       0.00391458      4.10326e+011    0               2.97485e+011    0              
  1.3e+010        0.019484        -0.668433       -0.501768       0.0805611       0.0247878       -2.30495        8.9251          -0.42376        -0.451594       1017.31         0               10.8768         -108.82         5.59343         -71.8774        0.208964        0.0106154       0.114246        -22.8818        0.0664123       0.00383902      4.1464e+011     0               2.97467e+011    0              
  1.4e+010        0.019484        -0.686976       -0.471409       0.0818008       0.0232001       -1.98967        8.38726         -0.44144        -0.425084       757.989         0               11.1771         -100.762        5.19546         -67.2102        0.210503        0.00919343      0.00440174      -21.361         0.0667433       0.00345211      3.85443e+011    0               2.99055e+011    0              
  1.5e+010        0.019484        -0.704333       -0.443422       0.0828263       0.0216108       -1.60658        7.93891         -0.456773       -0.401179       811.174         0               10.7675         -94.0106        3.93767         -62.3514        0.208886        0.00704416      -0.432014       -19.7724        0.0659521       0.00283859      4.27217e+011    0               2.96657e+011    0              
  1.6e+010        0.019484        -0.717024       -0.419196       0.0832613       0.0201917       -1.41266        7.46227         -0.469159       -0.379096       610.501         0               10.9328         -87.9703        4.21705         -58.3766        0.209145        0.00747948      -0.279696       -18.5498        0.0662877       0.00321888      3.95333e+011    0               2.96831e+011    0              
  1.7e+010        0.019484        -0.729336       -0.396012       0.0841291       0.0190044       -1.16254        7.07265         -0.479558       -0.359346       590.74          0               10.759          -82.4038        3.58645         -54.7821        0.208919        0.0062763       -0.507463       -17.3623        0.0659393       0.0028354       4.13188e+011    0               2.95284e+011    0              
  1.8e+010        0.019484        -0.738561       -0.37681        0.0844344       0.0175912       -1.02236        6.70745         -0.488424       -0.342909       482.257         0               10.666          -77.9416        3.62832         -51.6571        0.208464        0.00609702      -0.408591       -16.4014        0.0659718       0.00320577      3.95286e+011    0               2.95316e+011    0              
  1.9e+010        0.019484        -0.747594       -0.356955       0.0842834       0.0167116       -0.85616        6.43547         -0.496482       -0.325936       465.063         0               10.9215         -74.7634        3.37579         -48.9497        0.207415        0.00582094      -0.555223       -15.668         0.0660981       0.00291128      4.09741e+011    0               2.97878e+011    0              
  2e+010          0.019484        -0.753158       -0.341345       0.0845301       0.0158821       -0.708978       6.05885         -0.502017       -0.310525       423.32          0               10.8378         -70.0919        3.45392         -45.9523        0.206503        0.00686087      -0.527798       -14.6448        0.065745        0.00341335      4.11495e+011    0               2.93086e+011    0              
  2.1e+010        0.019484        -0.75914        -0.326335       0.0845785       0.0151581       -0.649295       5.84628         -0.507874       -0.297463       350.016         0               11.2475         -67.5265        3.48034         -44.2695        0.207389        0.0061346       -0.527639       -14.1936        0.0663481       0.0030803       3.92883e+011    0               2.98272e+011    0              
  2.2e+010        0.019484        -0.767349       -0.311898       0.0852969       0.0144687       -0.471847       5.58492         -0.514728       -0.285199       406.932         0               10.5636         -63.917         2.83321         -42.0255        0.207449        0.0056874       -0.75697        -13.4231        0.0660482       0.00293195      4.43796e+011    0               2.95778e+011    0              
  2.3e+010        0.019484        -0.771115       -0.299811       0.085534        0.0136107       -0.435618       5.3373          -0.51762        -0.275239       318.339         0               10.7082         -60.895         3.0942          -40.1999        0.207627        0.00586825      -0.617618       -12.8277        0.0660961       0.00328541      4.10368e+011    0               2.95379e+011    0              
  2.4e+010        0.019484        -0.775764       -0.288701       0.0856683       0.0128903       -0.356587       5.17229         -0.518356       -0.264082       297.183         0               10.8244         -58.8584        2.71602         -38.5154        0.205898        0.00409725      -0.74662        -12.3018        0.0654904       0.00271249      4.13736e+011    0               2.95787e+011    0              
  2.5e+010        0.019484        -0.776487       -0.277433       0.0853097       0.012385        -0.300084       4.90381         -0.521397       -0.252593       248.287         0               11.252          -55.8707        3.06151         -36.5662        0.205227        0.00541817      -0.662559       -11.6817        0.065582        0.00318025      3.93928e+011    0               2.92511e+011    0              
  2.6e+010        0.019484        -0.779786       -0.263962       0.0851928       0.011947        -0.260422       4.71788         -0.52642        -0.238119       207.652         0               11.8627         -53.6294        2.99676         -35.1955        0.206459        0.00392064      -0.738923       -11.3179        0.0663467       0.00232321      3.74663e+011    0               2.94891e+011    0              
  2.7e+010        0.019484        -0.785931       -0.254542       0.085169        0.0113556       -0.208103       4.57554         -0.531249       -0.234162       210.286         0               11.374          -52.0793        3.04108         -33.9843        0.206526        0.00537294      -0.672344       -10.9924        0.0666979       0.00303864      3.91533e+011    0               2.9735e+011     0              
  2.8e+010        0.019484        -0.789467       -0.24347        0.0851393       0.0103522       -0.116074       4.40866         -0.537797       -0.226801       215.583         0               10.9732         -50.2365        2.71746         -32.5851        0.206426        0.0048614       -0.754576       -10.5907        0.0668948       0.00328406      4.11117e+011    0               2.97291e+011    0              
  2.9e+010        0.019484        -0.792267       -0.237271       0.0851134       0.0102381       -0.0873609      4.25797         -0.536595       -0.222403       203.247         0               10.9698         -48.4532        2.93349         -31.356         0.205111        0.00664581      -0.680618       -10.1724        0.0664726       0.00383305      4.13438e+011    0               2.95659e+011    0              
  3e+010          0.019484        -0.792609       -0.231018       0.0853239       0.0106477       -0.0850603      4.13753         -0.535692       -0.218245       180.879         0               11.3554         -46.7702        3.33427         -30.6217        0.205962        0.00872837      -0.607234       -9.90304        0.0665717       0.00401717      4.03474e+011    0               2.97649e+011    0              
  3.1e+010        0.019484        -0.796937       -0.222294       0.0854709       0.00931692      -0.0337632      4.01729         -0.539379       -0.208192       169.115         0               11.1036         -45.3883        2.72924         -29.4846        0.205455        0.00477199      -0.738225       -9.57441        0.0664973       0.00326474      4.03137e+011    0               2.97688e+011    0              
  3.2e+010        0.019484        -0.798039       -0.213876       0.0855394       0.0091255       0.0285453       3.88937         -0.542547       -0.201501       170.012         0               11.1109         -43.8269        2.59829         -28.5292        0.205894        0.00498464      -0.831507       -9.27472        0.0666446       0.00314818      4.17244e+011    0               2.97981e+011    0              
  3.3e+010        0.019484        -0.799384       -0.20737        0.0850616       0.00874712      0.031362        3.74528         -0.543848       -0.196983       147.489         0               11.3197         -42.3128        2.90871         -27.4426        0.205047        0.00649018      -0.710963       -8.95753        0.0668265       0.00381482      4.00768e+011    0               2.96528e+011    0              
  3.4e+010        0.019484        -0.80042        -0.200364       0.0853603       0.00892639      0.0412395       3.65181         -0.54344        -0.193462       136.261         0               11.515          -40.9642        3.11595         -26.7902        0.205788        0.00779422      -0.679585       -8.73656        0.0668483       0.00386676      3.96885e+011    0               2.9794e+011     0              
