! VERSION = 6.00
!Data measured by ggf on Tue Jan 23 12:55:42 2018 using model file NPN_MEAS_SCALE
BEGIN_HEADER
 ICCAP_INPUTS
  vc         V  C GROUND SMU_C 0.1 CON        0
  vs         V  S GROUND SMU_S 0.015 CON        0
  vb         V  B GROUND SMU_B 0.015 LIN        1    0          -2         81   -0.025    
  ve         V  E GROUND SMU_E 0.1 CON        0
 ICCAP_OUTPUTS
  ic         I  C GROUND SMU_C M
  ib         I  B GROUND SMU_B M
 ICCAP_VALUES
  TNOM "27"
  TEMP "27"
  TECHNO "SG13G2"
  LOT "EDJ802"
  WAFER "02"
  CHIP "(3.3)"
  MODULE "S439S"
  DEV_NAME "D44"
  DEV_GEOM_L "5.0"
  DEV_GEOM_W "0.07"
  NUM_OF_TRANS_RF "1"
  REMARKS "Nx=4; Power -30/-20dBm, Slope: 0.1dB/GHz"
  TIMEDATE "Tue Jan 23 12:27:29     2018"
  OPERATOR "ggf"
END_HEADER

BEGIN_DB
 ICCAP_VAR vc         0              
 ICCAP_VAR vs         0              
 ICCAP_VAR ve         0              

 #vb              ic              ib             
  0               -5.772e-011     -5.41e-011     
  -0.025          3.905e-010      -7.338e-011    
  -0.05           5.155e-010      -9.508e-011    
  -0.075          5.4478e-010     -1.255e-010    
  -0.1            5.817e-010      -1.7044e-010   
  -0.125          6.1114e-010     -2.4676e-010   
  -0.15           6.2732e-010     -3.5426e-010   
  -0.175          6.5056e-010     -5.1844e-010   
  -0.2            6.4362e-010     -7.504e-010    
  -0.225          6.9252e-010     -1.08114e-009  
  -0.25           7.1954e-010     -1.5392e-009   
  -0.275          9.6442e-010     -2.1622e-009   
  -0.3            1.01542e-009    -3.0206e-009   
  -0.325          9.4548e-010     -4.1578e-009   
  -0.35           9.3786e-010     -5.673e-009    
  -0.375          9.5258e-010     -7.65e-009     
  -0.4            9.6838e-010     -1.0218e-008   
  -0.425          5.79e-011       -1.3536e-008   
  -0.45           4.719e-010      -1.7752e-008   
  -0.475          3.231e-010      -2.3096e-008   
  -0.5            4.2404e-010     -2.9818e-008   
  -0.525          5.4104e-010     -3.8246e-008   
  -0.55           6.3134e-010     -4.8646e-008   
  -0.575          6.6138e-010     -6.1552e-008   
  -0.6            8.0542e-010     -7.7266e-008   
  -0.625          8.016e-010      -9.6408e-008   
  -0.65           8.809e-010      -1.1952e-007   
  -0.675          1.0035e-009     -1.478e-007    
  -0.7            9.3034e-010     -1.8158e-007   
  -0.725          2.6886e-009     -2.2152e-007   
  -0.75           8.728e-010      -2.6942e-007   
  -0.775          1.438e-009      -3.2536e-007   
  -0.8            1.7868e-009     -3.9212e-007   
  -0.825          1.8854e-009     -4.698e-007    
  -0.85           1.987e-009      -5.6136e-007   
  -0.875          2.2854e-009     -6.6654e-007   
  -0.9            2.4678e-009     -7.896e-007    
  -0.925          2.7036e-009     -9.3104e-007   
  -0.95           2.6976e-009     -1.0948e-006   
  -0.975          3.4082e-009     -1.282e-006    
  -1              3.7408e-009     -1.4966e-006   
  -1.025          3.9328e-009     -1.7414e-006   
  -1.05           4.3174e-009     -2.019e-006    
  -1.075          4.74e-009       -2.3346e-006   
  -1.1            5.1462e-009     -2.691e-006    
  -1.125          5.588e-009      -3.0944e-006   
  -1.15           6.106e-009      -3.5458e-006   
  -1.175          6.5818e-009     -4.0542e-006   
  -1.2            7.164e-009      -4.6236e-006   
  -1.225          7.7642e-009     -5.2596e-006   
  -1.25           8.3228e-009     -5.9634e-006   
  -1.275          9.0358e-009     -6.7552e-006   
  -1.3            9.7428e-009     -7.6272e-006   
  -1.325          1.04704e-008    -8.599e-006    
  -1.35           1.12724e-008    -9.668e-006    
  -1.375          1.2318e-008     -1.08556e-005  
  -1.4            1.28e-008       -1.215e-005    
  -1.425          1.3834e-008     -1.3592e-005   
  -1.45           1.4802e-008     -1.5156e-005   
  -1.475          1.5812e-008     -1.6886e-005   
  -1.5            1.701e-008      -1.876e-005    
  -1.525          1.8074e-008     -2.0828e-005   
  -1.55           1.924e-008      -2.3078e-005   
  -1.575          2.06e-008       -2.5528e-005   
  -1.6            2.2096e-008     -2.8196e-005   
  -1.625          2.3626e-008     -3.1088e-005   
  -1.65           2.5226e-008     -3.4226e-005   
  -1.675          2.6904e-008     -3.7628e-005   
  -1.7            2.8888e-008     -4.1316e-005   
  -1.725          3.0846e-008     -4.5284e-005   
  -1.75           3.3028e-008     -4.9586e-005   
  -1.775          3.5754e-008     -5.4204e-005   
  -1.8            3.8364e-008     -5.9196e-005   
  -1.825          4.1128e-008     -6.4542e-005   
  -1.85           4.4248e-008     -7.0308e-005   
  -1.875          4.7526e-008     -7.651e-005    
  -1.9            5.1436e-008     -8.3158e-005   
  -1.925          5.583e-008      -9.023e-005    
  -1.95           6.0796e-008     -9.7846e-005   
  -1.975          6.6248e-008     -0.000105952   
  -2              7.2594e-008     -0.00011464    
END_DB

