! VERSION = 6.00
!Data measured by ggf on Tue Jan 23 12:55:42 2018 using model file NPN_MEAS_SCALE
BEGIN_HEADER
 ICCAP_INPUTS
  vc         V  C GROUND SMU_C 0.1 SYNC       1 0.25 vb
  ve         V  E GROUND SMU_E 0 CON        0
  vs         V  S GROUND SMU_S 0 CON        0
  freq       F  LIST       1 74 100000000 200000000 300000000 400000000 500000000 600000000 700000000 800000000 900000000 1000000000 2000000000 3000000000 4000000000 5000000000 6000000000 7000000000 8000000000 9000000000 10000000000 11000000000 12000000000 13000000000 14000000000 15000000000 16000000000 17000000000 18000000000 19000000000 20000000000 21000000000 22000000000 23000000000 24000000000 25000000000 26000000000 27000000000 28000000000 29000000000 30000000000 31000000000 32000000000 33000000000 34000000000 35000000000 36000000000 37000000000 38000000000 39000000000 40000000000 41000000000 42000000000 43000000000 44000000000 45000000000 46000000000 47000000000 48000000000 49000000000 50000000000 51000000000 52000000000 53000000000 54000000000 55000000000 56000000000 57000000000 58000000000 59000000000 60000000000 61000000000 62000000000 63000000000 64000000000 65000000000
  vb         V  B GROUND SMU_B 0.015 LIN        2    0.68       1.04       37   0.01      
 ICCAP_OUTPUTS
  ic         I  C GROUND SMU_C M
  ib         I  B GROUND SMU_B M
  S          S  B C GROUND NWA M
  S_deemb    S B C GROUND n/a B
 ICCAP_VALUES
  TNOM "27"
  TEMP "27"
  TECHNO "SG13G2"
  LOT "EDJ802"
  WAFER "02"
  CHIP "(3.3)"
  MODULE "S439S"
  DEV_NAME "D44"
  DEV_GEOM_L "5.0"
  DEV_GEOM_W "0.07"
  NUM_OF_TRANS_RF "1"
  REMARKS "Nx=4; Power -30/-20dBm, Slope: 0.1dB/GHz"
  TIMEDATE "Tue Jan 23 12:27:29     2018"
  OPERATOR "ggf"
END_HEADER

BEGIN_DB
 ICCAP_VAR vc         0.93           
 ICCAP_VAR ve         0              
 ICCAP_VAR vs         0              
 ICCAP_VAR vb         0.68           

 #freq            ic              ib              R:S(1,1)        I:S(1,1)        R:S(1,2)        I:S(1,2)        R:S(2,1)        I:S(2,1)        R:S(2,2)        I:S(2,2)        R:S_deemb(1,1)  I:S_deemb(1,1)  R:S_deemb(1,2)  I:S_deemb(1,2)  R:S_deemb(2,1)  I:S_deemb(2,1)  R:S_deemb(2,2)  I:S_deemb(2,2) 
  1e+008          2.7016e-005     3.7656e-008     0.999523        -0.00650068     -2.59694e-005   0.0022388       -0.114072       0.000925365     1.00034         -0.00344212     0.999529        -0.00607287     -2.27036e-005   0.00213624      -0.113958       0.000806457     1.00022         -0.00216373    
  2e+008          2.7016e-005     3.7656e-008     0.999874        -0.0137742      0.000109104     0.00456302      -0.1102         0.00464743      1.00052         -0.00840384     0.999672        -0.0119132      8.37781e-005    0.00444375      -0.110292       0.00423297      1.00019         -0.00552271    
  3e+008          2.7016e-005     3.7656e-008     0.999708        -0.0205435      0.000138684     0.00682895      -0.110836       0.00754996      1.00038         -0.0118316      0.999588        -0.0175433      6.0449e-005     0.00663544      -0.110915       0.00704298      1.00017         -0.00839401    
  4e+008          2.7016e-005     3.7656e-008     0.999735        -0.0274798      0.000192038     0.00907622      -0.109061       0.010631        1.00008         -0.0158242      0.99919         -0.0234571      0.00012954      0.00885128      -0.109061       0.00990992      1.00007         -0.0112083     
  5e+008          2.7016e-005     3.7656e-008     0.999377        -0.0344241      0.000319317     0.0113171       -0.110477       0.0134423       1.00003         -0.0199152      0.99886         -0.0286323      0.000250011     0.0110222       -0.110523       0.0125503       0.99998         -0.0142356     
  6e+008          2.7016e-005     3.7656e-008     0.99914         -0.0414495      0.000503344     0.0136052       -0.110084       0.0164569       0.999843        -0.0239087      0.998951        -0.0350923      0.000398668     0.0132464       -0.110149       0.0153251       0.999732        -0.0171715     
  7e+008          2.7016e-005     3.7656e-008     0.998901        -0.0482166      0.000658303     0.0158235       -0.110052       0.0194775       0.999558        -0.0280282      0.998679        -0.0407297      0.000500771     0.0154037       -0.110139       0.0182386       0.999655        -0.0200772     
  8e+008          2.7016e-005     3.7656e-008     0.998353        -0.0552981      0.000823602     0.0181052       -0.110275       0.0225098       0.99929         -0.0320782      0.998232        -0.0463952      0.000665093     0.0176254       -0.110475       0.0210517       0.999434        -0.0230625     
  9e+008          2.7016e-005     3.7656e-008     0.99805         -0.0620861      0.00107182      0.0203644       -0.109017       0.0257499       0.999163        -0.0360127      0.998198        -0.0522805      0.000841403     0.0198532       -0.109285       0.023928        0.999345        -0.0258271     
  1e+009          2.7016e-005     3.7656e-008     0.997207        -0.0689836      0.0013133       0.0225859       -0.109933       0.0287249       0.998746        -0.0399753      0.997473        -0.0579673      0.00102826      0.0220114       -0.110157       0.0268386       0.999076        -0.0287959     
  2e+009          2.7016e-005     3.7656e-008     0.98899         -0.137196       0.00506177      0.0448512       -0.102523       0.057205        0.994626        -0.0792342      0.991543        -0.115301       0.00392713      0.043845        -0.103901       0.0537263       0.996168        -0.056774      
  3e+009          2.7016e-005     3.7656e-008     0.974848        -0.20454        0.0111743       0.066364        -0.0970118      0.0845282       0.988365        -0.117736       0.981371        -0.171773       0.00866677      0.0650602       -0.100241       0.0794784       0.992076        -0.0843612     
  4e+009          2.7016e-005     3.7656e-008     0.955781        -0.269191       0.0194856       0.0869386       -0.0872725      0.111802        0.979911        -0.155054       0.967367        -0.225844       0.0151153       0.085695        -0.0930613      0.105641        0.986584        -0.111199      
  5e+009          2.7016e-005     3.7656e-008     0.93192         -0.331676       0.029949        0.106436        -0.0732193      0.136866        0.969721        -0.19169        0.949537        -0.280645       0.0233769       0.105673        -0.0819228      0.130389        0.980033        -0.137568      
  6e+009          2.7016e-005     3.7656e-008     0.903992        -0.390613       0.0421965       0.12437         -0.0579345      0.159918        0.957709        -0.227266       0.929031        -0.331545       0.0330545       0.124562        -0.0700666      0.153377        0.972202        -0.163144      
  7e+009          2.7016e-005     3.7656e-008     0.870837        -0.44686        0.0562163       0.141018        -0.0407758      0.181448        0.944064        -0.261515       0.904287        -0.381111       0.0442859       0.142687        -0.0567308      0.175699        0.963393        -0.187944      
  8e+009          2.7016e-005     3.7656e-008     0.835596        -0.499174       0.0715104       0.155566        -0.0223266      0.200911        0.928908        -0.294317       0.877555        -0.428403       0.0567406       0.159216        -0.0421903      0.196519        0.953544        -0.212022      
  9e+009          2.7016e-005     3.7656e-008     0.797768        -0.546788       0.088022        0.168433        -0.00223214     0.217612        0.912443        -0.325852       0.848791        -0.471193       0.0702594       0.174614        -0.0260666      0.215274        0.943012        -0.235089      
  1e+010          2.7016e-005     3.7656e-008     0.756584        -0.591877       0.105309        0.179142        0.0200375       0.232286        0.894666        -0.355962       0.81715         -0.512982       0.0846518       0.188421        -0.0079589      0.232829        0.931473        -0.257464      
  1.1e+010        2.7016e-005     3.7656e-008     0.714021        -0.632118       0.123235        0.188418        0.0410344       0.244697        0.876191        -0.384756       0.784173        -0.551213       0.0998223       0.201278        0.00931326      0.248454        0.919408        -0.278947      
  1.2e+010        2.7016e-005     3.7656e-008     0.669722        -0.667786       0.141937        0.195688        0.0641363       0.255006        0.856405        -0.411778       0.749384        -0.586397       0.11598         0.212662        0.0287036       0.263013        0.906446        -0.299454      
  1.3e+010        2.7016e-005     3.7656e-008     0.624872        -0.699787       0.160552        0.201075        0.0861535       0.263239        0.835834        -0.437084       0.713621        -0.618684       0.132342        0.222788        0.0473496       0.275868        0.893211        -0.319         
  1.4e+010        2.7016e-005     3.7656e-008     0.579364        -0.727215       0.179658        0.204235        0.110048        0.268571        0.815103        -0.460919       0.676897        -0.647676       0.149774        0.231063        0.0684749       0.286623        0.879456        -0.337396      
  1.5e+010        2.7016e-005     3.7656e-008     0.534986        -0.75131        0.198069        0.205439        0.133197        0.270073        0.794451        -0.483205       0.640214        -0.673551       0.166867        0.2375          0.0896558       0.293726        0.865634        -0.354615      
  1.6e+010        2.7016e-005     3.7656e-008     0.490066        -0.771759       0.216152        0.205508        0.154677        0.272307        0.772986        -0.504256       0.602953        -0.69701        0.184152        0.24301         0.109324        0.301585        0.851073        -0.371212      
  1.7e+010        2.7016e-005     3.7656e-008     0.446125        -0.78946        0.233764        0.20361         0.176444        0.27087         0.750994        -0.523755       0.565779        -0.717977       0.201452        0.246841        0.130089        0.306467        0.836735        -0.387005      
  1.8e+010        2.7016e-005     3.7656e-008     0.403065        -0.80357        0.250398        0.200637        0.196771        0.269602        0.729415        -0.542832       0.529055        -0.735597       0.218189        0.249694        0.14954         0.311434        0.822468        -0.402182      
  1.9e+010        2.7016e-005     3.7656e-008     0.360737        -0.814763       0.26672         0.196498        0.217109        0.265932        0.708029        -0.560164       0.492846        -0.750557       0.234969        0.251484        0.169609        0.314361        0.807702        -0.415384      
  2e+010          2.7016e-005     3.7656e-008     0.32032         -0.82446        0.281859        0.190929        0.234514        0.260801        0.686251        -0.574654       0.457617        -0.764636       0.25123         0.251349        0.18753         0.315031        0.792682        -0.428045      
  2.1e+010        2.7016e-005     3.7656e-008     0.2805          -0.831367       0.295964        0.184481        0.253006        0.255502        0.663334        -0.587997       0.422306        -0.775694       0.267334        0.250344        0.207383        0.316145        0.777695        -0.440746      
  2.2e+010        2.7016e-005     3.7656e-008     0.242699        -0.83649        0.309241        0.177562        0.269406        0.247697        0.641685        -0.602748       0.388643        -0.784691       0.282611        0.249162        0.225349        0.314758        0.764453        -0.452919      
  2.3e+010        2.7016e-005     3.7656e-008     0.205753        -0.839897       0.321357        0.169539        0.285123        0.24029         0.623947        -0.617929       0.355474        -0.792847       0.296566        0.246507        0.242449        0.31341         0.751358        -0.463158      
  2.4e+010        2.7016e-005     3.7656e-008     0.169915        -0.843377       0.331843        0.162268        0.298562        0.232566        0.611517        -0.623233       0.323819        -0.80053        0.308912        0.242502        0.257709        0.309435        0.738994        -0.46922       
  2.5e+010        2.7016e-005     3.7656e-008     0.133482        -0.843232       0.344725        0.156092        0.313372        0.226934        0.602154        -0.62991        0.292471        -0.805756       0.322464        0.237757        0.273263        0.305402        0.722455        -0.47935       
  2.6e+010        2.7016e-005     3.7656e-008     0.100795        -0.843512       0.357304        0.143642        0.329851        0.215183        0.569747        -0.649044       0.26274         -0.809823       0.336962        0.231563        0.291201        0.300369        0.701755        -0.487504      
  2.7e+010        2.7016e-005     3.7656e-008     0.067432        -0.840904       0.364861        0.133607        0.341685        0.204172        0.534781        -0.66           0.232163        -0.811109       0.349595        0.22836         0.307456        0.297866        0.692013        -0.501101      
  2.8e+010        2.7016e-005     3.7656e-008     0.0368268       -0.837804       0.373889        0.122139        0.351904        0.192064        0.510035        -0.676051       0.202966        -0.812102       0.363547        0.224306        0.321808        0.293844        0.679632        -0.513093      
  2.9e+010        2.7016e-005     3.7656e-008     0.00627424      -0.83493        0.378936        0.112332        0.360357        0.182033        0.496388        -0.683849       0.174211        -0.814402       0.372469        0.218467        0.333888        0.288374        0.670962        -0.519451      
  3e+010          2.7016e-005     3.7656e-008     -0.0224745      -0.828479       0.385089        0.103949        0.369793        0.171908        0.484893        -0.690407       0.147791        -0.812742       0.381137        0.212504        0.346471        0.281636        0.66053         -0.526461      
  3.1e+010        2.7016e-005     3.7656e-008     -0.0507563      -0.822726       0.392492        0.0938764       0.378649        0.161144        0.466811        -0.694721       0.121344        -0.811839       0.39188         0.205786        0.358309        0.274452        0.646734        -0.532403      
  3.2e+010        2.7016e-005     3.7656e-008     -0.076277       -0.816884       0.398128        0.0832934       0.386193        0.149193        0.4446          -0.703287       0.0972041       -0.809878       0.402326        0.198881        0.37086         0.266993        0.632972        -0.541684      
  3.3e+010        2.7016e-005     3.7656e-008     -0.1019         -0.80992        0.402967        0.072346        0.393529        0.138991        0.425875        -0.713353       0.0729437       -0.807248       0.411477        0.191629        0.382025        0.261298        0.621141        -0.550321      
  3.4e+010        2.7016e-005     3.7656e-008     -0.127161       -0.800475       0.406631        0.0623073       0.400276        0.126476        0.410618        -0.71975        0.0485048       -0.802642       0.418841        0.184563        0.393255        0.252277        0.610825        -0.556087      
  3.5e+010        2.7016e-005     3.7656e-008     -0.148831       -0.793431       0.411138        0.0523456       0.404839        0.115518        0.392325        -0.72529        0.0276001       -0.799051       0.427185        0.176881        0.401481        0.243625        0.59779         -0.563099      
  3.6e+010        2.7016e-005     3.7656e-008     -0.17047        -0.784796       0.413779        0.0408318       0.409829        0.104901        0.371881        -0.730737       0.00735468      -0.793377       0.434756        0.167701        0.411361        0.236507        0.585403        -0.568824      
  3.7e+010        2.7016e-005     3.7656e-008     -0.190222       -0.777216       0.415982        0.0321308       0.414068        0.0939502       0.354566        -0.738923       -0.0116976      -0.789569       0.440499        0.161507        0.419438        0.228271        0.574397        -0.576934      
  3.8e+010        2.7016e-005     3.7656e-008     -0.209657       -0.769821       0.41759         0.0219613       0.418396        0.0817342       0.338043        -0.743415       -0.0307159      -0.784917       0.446424        0.15335         0.428565        0.218934        0.563185        -0.582037      
  3.9e+010        2.7016e-005     3.7656e-008     -0.23001        -0.761129       0.419001        0.0129885       0.420068        0.0707615       0.321601        -0.747125       -0.0497774      -0.780024       0.45193         0.146679        0.434835        0.210397        0.553629        -0.585567      
  4e+010          2.7016e-005     3.7656e-008     -0.248915       -0.753062       0.420467        0.00190503      0.422838        0.0614202       0.3011          -0.752012       -0.0673267      -0.775748       0.458151        0.137009        0.441438        0.20294         0.539289        -0.592493      
  4.1e+010        2.7016e-005     3.7656e-008     -0.266897       -0.744639       0.421855        -0.00699775     0.425537        0.0515279       0.284265        -0.757473       -0.0851267      -0.771023       0.463153        0.130213        0.44796         0.195613        0.530228        -0.59849       
  4.2e+010        2.7016e-005     3.7656e-008     -0.283384       -0.73565        0.421172        -0.0167192      0.426997        0.0400411       0.268122        -0.760755       -0.100387       -0.765418       0.467338        0.122441        0.454481        0.187069        0.52163         -0.604567      
  4.3e+010        2.7016e-005     3.7656e-008     -0.299419       -0.728232       0.421366        -0.0235483      0.427636        0.029937        0.249579        -0.7636         -0.117427       -0.760655       0.471922        0.116893        0.460588        0.177607        0.507464        -0.6103        
  4.4e+010        2.7016e-005     3.7656e-008     -0.316551       -0.719001       0.423055        -0.0339054      0.428553        0.0210177       0.232476        -0.766444       -0.132577       -0.754893       0.478412        0.107333        0.465526        0.170094        0.49663         -0.614997      
  4.5e+010        2.7016e-005     3.7656e-008     -0.332533       -0.711602       0.42134         -0.0432166      0.429349        0.013145        0.216472        -0.769387       -0.147347       -0.750084       0.480827        0.0986869       0.469966        0.163946        0.486947        -0.618683      
  4.6e+010        2.7016e-005     3.7656e-008     -0.347183       -0.703524       0.420712        -0.050547       0.431544        0.00267691      0.199254        -0.770915       -0.161068       -0.746456       0.483507        0.0925172       0.476667        0.154993        0.474887        -0.624079      
  4.7e+010        2.7016e-005     3.7656e-008     -0.361551       -0.695999       0.420092        -0.0577659      0.431069        -0.00661932     0.182926        -0.772592       -0.175102       -0.74111        0.487421        0.0861454       0.481062        0.146695        0.464456        -0.628661      
  4.8e+010        2.7016e-005     3.7656e-008     -0.376548       -0.686117       0.42076         -0.0673597      0.431075        -0.016081       0.16781         -0.774707       -0.188704       -0.734575       0.492383        0.0774204       0.485309        0.138248        0.45586         -0.631811      
