! VERSION = 6.00
!Data measured by ggf on Tue Jan 23 12:55:42 2018 using model file NPN_MEAS_SCALE
BEGIN_HEADER
 ICCAP_INPUTS
  vbe        V  B GROUND SMU_B 0.015 LIN        2    0.6        -1.8       25   -0.1      
  vc         V  C GROUND SMU_C 0.015 CON        0
  ve         V  E GROUND SMU_E 0 CON        0
  vs         V  S GROUND SMU_S 0 CON        0
  freq       F  LIST       1 74 100000000 200000000 300000000 400000000 500000000 600000000 700000000 800000000 900000000 1000000000 2000000000 3000000000 4000000000 5000000000 6000000000 7000000000 8000000000 9000000000 10000000000 11000000000 12000000000 13000000000 14000000000 15000000000 16000000000 17000000000 18000000000 19000000000 20000000000 21000000000 22000000000 23000000000 24000000000 25000000000 26000000000 27000000000 28000000000 29000000000 30000000000 31000000000 32000000000 33000000000 34000000000 35000000000 36000000000 37000000000 38000000000 39000000000 40000000000 41000000000 42000000000 43000000000 44000000000 45000000000 46000000000 47000000000 48000000000 49000000000 50000000000 51000000000 52000000000 53000000000 54000000000 55000000000 56000000000 57000000000 58000000000 59000000000 60000000000 61000000000 62000000000 63000000000 64000000000 65000000000
 ICCAP_OUTPUTS
  S          S  B C GROUND NWA M
  ib         I  B GROUND SMU_B M
  S_deemb    S B C GROUND n/a B
 ICCAP_VALUES
  TNOM "27"
  TEMP "27"
  TECHNO "SG13G2"
  LOT "EDJ802"
  WAFER "02"
  CHIP "(3.3)"
  MODULE "S439S"
  DEV_NAME "D44"
  DEV_GEOM_L "5.0"
  DEV_GEOM_W "0.07"
  NUM_OF_TRANS_RF "1"
  REMARKS "Nx=4; Power -30/-20dBm, Slope: 0.1dB/GHz"
  TIMEDATE "Tue Jan 23 12:27:29     2018"
  OPERATOR "ggf"
END_HEADER

BEGIN_DB
 ICCAP_VAR vbe        0.6            
 ICCAP_VAR vc         0              
 ICCAP_VAR ve         0              
 ICCAP_VAR vs         0              

 #freq            R:S(1,1)        I:S(1,1)        R:S(1,2)        I:S(1,2)        R:S(2,1)        I:S(2,1)        R:S(2,2)        I:S(2,2)        ib              R:S_deemb(1,1)  I:S_deemb(1,1)  R:S_deemb(1,2)  I:S_deemb(1,2)  R:S_deemb(2,1)  I:S_deemb(2,1)  R:S_deemb(2,2)  I:S_deemb(2,2) 
  1e+008          0.99937         -0.00668885     0.000397906     0.00304328      0.000358786     0.00312252      0.990426        -0.00383281     2.9694e-007     0.999376        -0.00626742     0.000400391     0.00294165      0.000473978     0.00310529      0.990307        -0.00257399    
  2e+008          0.999651        -0.0143809      0.000478893     0.00610489      0.000495461     0.00625701      0.990298        -0.00946945     2.9694e-007     0.99945         -0.0125279      0.000449683     0.00598688      0.000378285     0.00611378      0.989971        -0.00662643    
  3e+008          0.999592        -0.0217692      0.000592642     0.00918857      0.000548936     0.00911398      0.990097        -0.0139358      2.9694e-007     0.999472        -0.0187817      0.000506405     0.00899743      0.000450834     0.00897838      0.989897        -0.0105475     
  4e+008          0.99966         -0.029151       0.000694117     0.0122387       0.000701768     0.0120954       0.989832        -0.0188704      2.9694e-007     0.999121        -0.025142       0.000616858     0.0120165       0.000666659     0.0118656       0.989843        -0.0143189     
  5e+008          0.99938         -0.0371387      0.000897707     0.0152858       0.000978183     0.0150806       0.989326        -0.0236076      2.9694e-007     0.998879        -0.0313643      0.000803643     0.0149947       0.000886707     0.0148491       0.989295        -0.0180111     
  6e+008          0.99878         -0.0440275      0.00116821      0.0183098       0.00112328      0.0182406       0.988996        -0.0282343      2.9694e-007     0.998608        -0.0376952      0.00103018      0.0179568       0.00101897      0.0178641       0.988916        -0.0215967     
  7e+008          0.998313        -0.051408       0.00139349      0.0213369       0.00143066      0.0212303       0.989121        -0.0332785      2.9694e-007     0.998115        -0.0439517      0.00118996      0.0209246       0.00130511      0.0208833       0.98926         -0.0254426     
  8e+008          0.997725        -0.0586987      0.00168313      0.0243585       0.00170308      0.0241615       0.989175        -0.0379773      2.9694e-007     0.997636        -0.0498322      0.0014639       0.0238885       0.00146321      0.0237442       0.989374        -0.0290901     
  9e+008          0.997252        -0.0659049      0.00206157      0.0274095       0.00202319      0.0270909       0.988664        -0.0426444      2.9694e-007     0.997439        -0.0561411      0.00175518      0.0269113       0.00172461      0.0264229       0.988915        -0.0326062     
  1e+009          0.996434        -0.0734323      0.00241207      0.0304065       0.0023311       0.0301974       0.987953        -0.0473944      2.9694e-007     0.99675         -0.0624628      0.00203324      0.0298485       0.00207807      0.0296061       0.988367        -0.0363821     
  2e+009          0.986547        -0.145504       0.0081038       0.0599903       0.00800407      0.0595971       0.982444        -0.093511       2.9694e-007     0.989281        -0.123749       0.006607        0.059075        0.00659587      0.0586929       0.984304        -0.0714245     
  3e+009          0.970071        -0.21637        0.0174845       0.0885151       0.0172149       0.0879148       0.972113        -0.137288       2.9694e-007     0.976976        -0.18393        0.0141887       0.0874988       0.0139864       0.086899        0.976461        -0.104643      
  4e+009          0.947727        -0.283933       0.0298791       0.115205        0.0295898       0.114563        0.960334        -0.179796       2.9694e-007     0.959926        -0.241218       0.0241851       0.114591        0.0239162       0.113951        0.968049        -0.137101      
  5e+009          0.919904        -0.348234       0.0452907       0.140072        0.0448786       0.139275        0.946214        -0.220711       2.9694e-007     0.938291        -0.298246       0.036828        0.140445        0.036464        0.139721        0.958012        -0.168302      
  6e+009          0.887902        -0.408378       0.0631536       0.162503        0.0622093       0.161458        0.929597        -0.259926       2.9694e-007     0.913841        -0.350893       0.0515159       0.164536        0.0506348       0.163388        0.946039        -0.198222      
  7e+009          0.85067         -0.464957       0.0831796       0.182507        0.0824913       0.181246        0.911927        -0.29708        2.9694e-007     0.885029        -0.401426       0.0681999       0.186905        0.0675471       0.185617        0.933635        -0.226702      
  8e+009          0.811004        -0.516885       0.104852        0.199521        0.103907        0.198445        0.891765        -0.331953       2.9694e-007     0.853744        -0.449048       0.0865754       0.206944        0.0856382       0.205788        0.919137        -0.253796      
  9e+009          0.769179        -0.563146       0.128022        0.214083        0.125932        0.212746        0.869622        -0.365007       2.9694e-007     0.820712        -0.491213       0.106371        0.22525         0.104376        0.223732        0.90322         -0.2795        
  1e+010          0.724075        -0.605997       0.151376        0.225025        0.150462        0.223796        0.848274        -0.396148       2.9694e-007     0.784664        -0.531522       0.12665         0.240561        0.125719        0.239259        0.88832         -0.30389       
  1.1e+010        0.678095        -0.643421       0.176128        0.234473        0.173782        0.233405        0.823349        -0.424957       2.9694e-007     0.747629        -0.567646       0.148564        0.255046        0.146292        0.253659        0.869857        -0.326754      
  1.2e+010        0.631077        -0.67585        0.200447        0.240368        0.19865         0.238817        0.799924        -0.451753       2.9694e-007     0.709295        -0.600185       0.170514        0.266444        0.168842        0.264741        0.853224        -0.348134      
  1.3e+010        0.584026        -0.70426        0.224895        0.244172        0.222469        0.242466        0.774734        -0.47585        2.9694e-007     0.670357        -0.629361       0.193049        0.276472        0.190814        0.274398        0.835071        -0.367744      
  1.4e+010        0.536735        -0.727875       0.248821        0.2448          0.246925        0.244072        0.750557        -0.498928       2.9694e-007     0.630725        -0.654856       0.215873        0.283553        0.214002        0.282523        0.817622        -0.386478      
  1.5e+010        0.491181        -0.747961       0.271639        0.243227        0.268739        0.241521        0.726832        -0.519775       2.9694e-007     0.591747        -0.676861       0.238002        0.288472        0.2353          0.286287        0.80038         -0.403284      
  1.6e+010        0.445785        -0.764482       0.29467         0.240169        0.290718        0.239522        0.700453        -0.538707       2.9694e-007     0.552835        -0.696307       0.261081        0.292153        0.257112        0.29073         0.780337        -0.419039      
  1.7e+010        0.401797        -0.778172       0.315324        0.234666        0.311154        0.234027        0.676589        -0.55644        2.9694e-007     0.514462        -0.713011       0.282349        0.293373        0.278174        0.291976        0.763583        -0.433876      
  1.8e+010        0.359337        -0.788499       0.335959        0.228234        0.331185        0.228417        0.650919        -0.573033       2.9694e-007     0.477172        -0.726406       0.304114        0.293909        0.299105        0.29313         0.744468        -0.44775       
  1.9e+010        0.31762         -0.79617        0.354208        0.21995         0.350331        0.219371        0.628518        -0.58823        2.9694e-007     0.440418        -0.737322       0.323911        0.292338        0.319947        0.290968        0.728169        -0.459407      
  2e+010          0.278956        -0.802317       0.371972        0.2103          0.366073        0.211453        0.604299        -0.599743       2.9694e-007     0.40603         -0.747073       0.34392         0.288847        0.33749         0.288879        0.709871        -0.469841      
  2.1e+010        0.240473        -0.805833       0.387352        0.199944        0.383308        0.200985        0.580458        -0.611023       2.9694e-007     0.371226        -0.753837       0.36247         0.284312        0.358003        0.284552        0.693159        -0.48081       
  2.2e+010        0.204785        -0.808184       0.401393        0.18923         0.39684         0.19057         0.557812        -0.62392        2.9694e-007     0.338944        -0.758984       0.379701        0.279717        0.374548        0.280208        0.678173        -0.491735      
  2.3e+010        0.169913        -0.809298       0.414986        0.177513        0.410194        0.179737        0.538096        -0.63641        2.9694e-007     0.307005        -0.763793       0.396263        0.273963        0.390748        0.27531         0.66256         -0.500085      
  2.4e+010        0.136048        -0.810228       0.425967        0.166805        0.421303        0.169069        0.524643        -0.640001       2.9694e-007     0.276778        -0.768222       0.409833        0.266578        0.40438         0.267929        0.648965        -0.504315      
  2.5e+010        0.101828        -0.807889       0.440457        0.156945        0.435017        0.160766        0.51224         -0.64497        2.9694e-007     0.247394        -0.770949       0.425181        0.258149        0.418449        0.260962        0.629983        -0.512139      
  2.6e+010        0.0715195       -0.806209       0.453382        0.140273        0.448409        0.144584        0.478707        -0.659967       2.9694e-007     0.220127        -0.771564       0.440814        0.248066        0.434633        0.251279        0.607789        -0.517158      
  2.7e+010        0.0407022       -0.801844       0.460739        0.126685        0.457675        0.131164        0.444316        -0.669197       2.9694e-007     0.192509        -0.769952       0.454742        0.241667        0.450365        0.245746        0.596881        -0.53004       
  2.8e+010        0.013171        -0.797667       0.468908        0.111563        0.464004        0.11618         0.419649        -0.682506       2.9694e-007     0.165831        -0.767989       0.469751        0.234197        0.463321        0.238063        0.583012        -0.540505      
  2.9e+010        -0.0146784      -0.793855       0.473237        0.0989375       0.470037        0.104536        0.406737        -0.688616       2.9694e-007     0.139506        -0.768063       0.479085        0.225517        0.474159        0.230481        0.574424        -0.545343      
  3e+010          -0.0411005      -0.786808       0.478737        0.088008        0.476296        0.0927356       0.394902        -0.693278       2.9694e-007     0.115423        -0.765217       0.487557        0.216997        0.483789        0.221498        0.563731        -0.550405      
  3.1e+010        -0.0660028      -0.779893       0.48548         0.0748714       0.482708        0.0793175       0.375849        -0.695737       2.9694e-007     0.0925471       -0.762083       0.498357        0.207105        0.494002        0.211116        0.548505        -0.554769      
  3.2e+010        -0.0897847      -0.773902       0.490231        0.0616469       0.487757        0.067442        0.353268        -0.702876       2.9694e-007     0.0705158       -0.75899        0.508913        0.197257        0.504576        0.202923        0.533692        -0.562888      
  3.3e+010        -0.113482       -0.766414       0.494566        0.048136        0.492003        0.0546716       0.335092        -0.710562       2.9694e-007     0.048335        -0.754759       0.518486        0.187419        0.513809        0.193806        0.521772        -0.569278      
  3.4e+010        -0.135429       -0.757174       0.497004        0.0354622       0.495407        0.0403418       0.319577        -0.715436       2.9694e-007     0.0277249       -0.749272       0.525389        0.177567        0.522333        0.182211        0.511052        -0.573843      
  3.5e+010        -0.155266       -0.75017        0.500558        0.0233087       0.49763         0.0287213       0.300872        -0.718821       2.9694e-007     0.00914394      -0.745113       0.533278        0.167437        0.5284          0.17234         0.49713         -0.578961      
  3.6e+010        -0.174407       -0.741938       0.501897        0.00942559      0.500369        0.0167434       0.280829        -0.72265        2.9694e-007     -0.00775116     -0.738874       0.540246        0.15555         0.53666         0.163115        0.484623        -0.583204      
  3.7e+010        -0.192661       -0.734328       0.503221        -0.00139363     0.501892        0.00452091      0.263347        -0.728754       2.9694e-007     -0.0249355      -0.734408       0.545758        0.14712         0.542539        0.153011        0.472968        -0.58968       
  3.8e+010        -0.209261       -0.727519       0.503162        -0.0132288      0.502828        -0.00802513     0.247243        -0.731746       2.9694e-007     -0.040434       -0.729491       0.550473        0.136962        0.548431        0.142502        0.461861        -0.593379      
  3.9e+010        -0.227925       -0.719515       0.503493        -0.0244197      0.502244        -0.0186449      0.229685        -0.734654       2.9694e-007     -0.0571464      -0.72469        0.555664        0.127917        0.552635        0.13389         0.450961        -0.596952      
  4e+010          -0.245376       -0.711944       0.503705        -0.037488       0.502968        -0.0299322      0.210782        -0.737397       2.9694e-007     -0.0725214      -0.720427       0.561156        0.116017        0.557864        0.123928        0.437871        -0.601498      
  4.1e+010        -0.261189       -0.70453        0.503949        -0.0482298      0.503489        -0.0408304      0.193605        -0.740969       2.9694e-007     -0.0872581      -0.716123       0.565589        0.107239        0.562692        0.115132        0.427772        -0.60625       
  4.2e+010        -0.276399       -0.695656       0.501423        -0.0594202      0.501384        -0.0525955      0.17729         -0.74197        2.9694e-007     -0.10092        -0.710262       0.568579        0.0976067       0.566068        0.10526         0.417996        -0.610618      
  4.3e+010        -0.291614       -0.689749       0.500613        -0.0673802      0.499975        -0.0615323      0.159521        -0.743664       2.9694e-007     -0.116287       -0.706708       0.572592        0.0905592       0.569798        0.0963573       0.404186        -0.614851      
  4.4e+010        -0.306025       -0.680968       0.501352        -0.0797704      0.498739        -0.072664       0.143675        -0.744569       2.9694e-007     -0.127698       -0.700653       0.578595        0.0787962       0.573211        0.0860001       0.394373        -0.617498      
  4.5e+010        -0.321108       -0.674138       0.497796        -0.0904064      0.498288        -0.0815334      0.127932        -0.746899       2.9694e-007     -0.140905       -0.696106       0.579613        0.0684535       0.577066        0.0784964       0.384861        -0.620947      
  4.6e+010        -0.335028       -0.666037       0.496191        -0.0991494      0.497375        -0.0920009      0.111204        -0.746888       2.9694e-007     -0.153607       -0.692388       0.581774        0.0607186       0.580555        0.0687828       0.372764        -0.625098      
  4.7e+010        -0.347881       -0.659615       0.493907        -0.107161       0.49495         -0.101421       0.0951054       -0.746925       2.9694e-007     -0.165214       -0.687859       0.584213        0.0530952       0.583058        0.059741        0.361867        -0.627981      
  4.8e+010        -0.361375       -0.650774       0.493456        -0.118687       0.491882        -0.110384       0.080142        -0.748254       2.9694e-007     -0.176434       -0.682169       0.588683        0.0422255       0.584109        0.0511176       0.3533          -0.631101      
  4.9e+010        -0.37557        -0.646019       0.487718        -0.127267       0.490986        -0.120673       0.0648368       -0.748563       2.9694e-007     -0.18859        -0.679783       0.587408        0.0326321       0.588965        0.0404213       0.342901        -0.634414      
  5e+010          -0.38845        -0.635243       0.487798        -0.135995       0.48848         -0.130427       0.0485323       -0.747432       2.9694e-007     -0.200011       -0.674038       0.591196        0.0250531       0.589553        0.0317602       0.33147         -0.638086      
  5.1e+010        -0.397902       -0.626911       0.486833        -0.146233       0.485185        -0.13831        0.0350384       -0.746694       2.9694e-007     -0.208791       -0.667593       0.59508         0.0153641       0.590217        0.0238982       0.3228          -0.639775      
  5.2e+010        -0.409847       -0.619418       0.480674        -0.159114       0.482498        -0.147974       0.0204508       -0.746244       2.9694e-007     -0.218134       -0.664501       0.594681        0.00197888      0.592618        0.0147187       0.31402         -0.642376      
