! VERSION = 6.00
!Data measured by ggf on Tue Jan 23 12:55:42 2018 using model file NPN_MEAS_SCALE
BEGIN_HEADER
 ICCAP_INPUTS
  vc         V  C GROUND SMU_C 0.1 SYNC       1 0.5 vb
  ve         V  E GROUND SMU_E 0 CON        0
  vs         V  S GROUND SMU_S 0 CON        0
  freq       F  LIST       1 74 100000000 200000000 300000000 400000000 500000000 600000000 700000000 800000000 900000000 1000000000 2000000000 3000000000 4000000000 5000000000 6000000000 7000000000 8000000000 9000000000 10000000000 11000000000 12000000000 13000000000 14000000000 15000000000 16000000000 17000000000 18000000000 19000000000 20000000000 21000000000 22000000000 23000000000 24000000000 25000000000 26000000000 27000000000 28000000000 29000000000 30000000000 31000000000 32000000000 33000000000 34000000000 35000000000 36000000000 37000000000 38000000000 39000000000 40000000000 41000000000 42000000000 43000000000 44000000000 45000000000 46000000000 47000000000 48000000000 49000000000 50000000000 51000000000 52000000000 53000000000 54000000000 55000000000 56000000000 57000000000 58000000000 59000000000 60000000000 61000000000 62000000000 63000000000 64000000000 65000000000
  vb         V  B GROUND SMU_B 0.015 LIN        2    0.68       1.04       37   0.01      
 ICCAP_OUTPUTS
  ic         I  C GROUND SMU_C M
  ib         I  B GROUND SMU_B M
  S          S  B C GROUND NWA M
  S_deemb    S B C GROUND n/a B
 ICCAP_VALUES
  TNOM "27"
  TEMP "27"
  TECHNO "SG13G2"
  LOT "EDJ802"
  WAFER "02"
  CHIP "(3.3)"
  MODULE "S439S"
  DEV_NAME "D44"
  DEV_GEOM_L "5.0"
  DEV_GEOM_W "0.07"
  NUM_OF_TRANS_RF "1"
  REMARKS "Nx=4; Power -30/-20dBm, Slope: 0.1dB/GHz"
  TIMEDATE "Tue Jan 23 12:27:29     2018"
  OPERATOR "ggf"
END_HEADER

BEGIN_DB
 ICCAP_VAR vc         1.18           
 ICCAP_VAR ve         0              
 ICCAP_VAR vs         0              
 ICCAP_VAR vb         0.68           

 #freq            ic              ib              R:S(1,1)        I:S(1,1)        R:S(1,2)        I:S(1,2)        R:S(2,1)        I:S(2,1)        R:S(2,2)        I:S(2,2)        R:S_deemb(1,1)  I:S_deemb(1,1)  R:S_deemb(1,2)  I:S_deemb(1,2)  R:S_deemb(2,1)  I:S_deemb(2,1)  R:S_deemb(2,2)  I:S_deemb(2,2) 
  1e+008          2.7006e-005     3.568e-008      0.999442        -0.00640164     4.80073e-005    0.00219596      -0.114046       0.00107196      1.00037         -0.00330031     0.999447        -0.00597388     5.13203e-005    0.00209348      -0.113932       0.000953233     1.00025         -0.00202192    
  2e+008          2.7006e-005     3.568e-008      0.999943        -0.0134404      7.57486e-005    0.00439832      -0.110363       0.00438789      1.0005          -0.00828905     0.999741        -0.0115794      5.08669e-005    0.00427901      -0.110454       0.00397327      1.00016         -0.00540808    
  3e+008          2.7006e-005     3.568e-008      0.999669        -0.0202066      0.000132835     0.00663769      -0.110909       0.00735596      1.00029         -0.0114942      0.999547        -0.0172066      5.53183e-005    0.00644419      -0.110988       0.00684909      1.00008         -0.008057      
  4e+008          2.7006e-005     3.568e-008      0.999535        -0.0266064      0.000183208     0.00885971      -0.109076       0.0103139       1.00002         -0.0154881      0.998987        -0.0225851      0.000121855     0.00863483      -0.109074       0.00959353      1.00002         -0.0108725     
  5e+008          2.7006e-005     3.568e-008      0.999465        -0.0341371      0.000324105     0.0110631       -0.110312       0.0132083       1.00005         -0.0194473      0.998946        -0.0283451      0.000256429     0.0107683       -0.110356       0.0123177       0.999995        -0.0137678     
  6e+008          2.7006e-005     3.568e-008      0.999072        -0.0411527      0.000448473     0.0132553       -0.110226       0.015989        0.999835        -0.0234618      0.99888         -0.0347961      0.000346339     0.0128963       -0.110288       0.0148566       0.999721        -0.0167248     
  7e+008          2.7006e-005     3.568e-008      0.998755        -0.0479169      0.000634509     0.015446        -0.109983       0.019034        0.99966         -0.0274735      0.998531        -0.0404314      0.000480208     0.0150261       -0.110066       0.0177961       0.999752        -0.0195219     
  8e+008          2.7006e-005     3.568e-008      0.998419        -0.0547637      0.000820826     0.0176817       -0.110335       0.0220234       0.999371        -0.0313685      0.998292        -0.0458606      0.000666596     0.017202        -0.110531       0.0205653       0.999508        -0.0223523     
  9e+008          2.7006e-005     3.568e-008      0.997975        -0.0616754      0.0010009       0.0198423       -0.109117       0.0250574       0.999189        -0.035294       0.998119        -0.0518708      0.000776247     0.0193305       -0.109376       0.023235        0.999363        -0.0251084     
  1e+009          2.7006e-005     3.568e-008      0.997316        -0.0684908      0.00124832      0.0220241       -0.109965       0.0281614       0.998896        -0.0392295      0.997575        -0.0574736      0.000970158     0.0214488       -0.110181       0.0262753       0.999218        -0.0280486     
  2e+009          2.7006e-005     3.568e-008      0.989149        -0.135917       0.0048472       0.0437428       -0.102926       0.0560834       0.995025        -0.0778472      0.99167         -0.114017       0.00373988      0.0427305       -0.104275       0.0525953       0.996534        -0.0553772     
  3e+009          2.7006e-005     3.568e-008      0.975465        -0.202887       0.0107749       0.0648151       -0.0975558      0.0828548       0.988951        -0.115741       0.981926        -0.170094       0.00832424      0.0634928       -0.10072        0.077782        0.992589        -0.0823427     
  4e+009          2.7006e-005     3.568e-008      0.956816        -0.267356       0.0187972       0.0849437       -0.0881077      0.109664        0.980849        -0.152534       0.968312        -0.223948       0.0145229       0.0836574       -0.0937895      0.103454        0.987402        -0.108628      
  5e+009          2.7006e-005     3.568e-008      0.932937        -0.329263       0.0288882       0.104054        -0.0743416      0.134137        0.971067        -0.188767       0.950412        -0.278151       0.0224549       0.103211        -0.0828804      0.127574        0.981207        -0.134551      
  6e+009          2.7006e-005     3.568e-008      0.905499        -0.38781        0.0407286       0.121632        -0.0595679      0.156923        0.95951         -0.223904       0.930348        -0.3286         0.0317726       0.121692        -0.0714884      0.150234        0.973769        -0.15963       
  7e+009          2.7006e-005     3.568e-008      0.873262        -0.4448         0.0543169       0.138037        -0.0427613      0.178285        0.946336        -0.2578         0.906566        -0.37881        0.0426112       0.139509        -0.0584687      0.172324        0.96537         -0.184006      
  8e+009          2.7006e-005     3.568e-008      0.838355        -0.49614        0.0691856       0.152425        -0.0249586      0.197412        0.931659        -0.290291       0.880075        -0.425045       0.0546761       0.155801        -0.0445211      0.192706        0.95594         -0.207688      
  9e+009          2.7006e-005     3.568e-008      0.801213        -0.543898       0.0852345       0.165144        -0.00540431     0.213909        0.915636        -0.321707       0.852005        -0.467864       0.0677626       0.170963        -0.0288989      0.21115         0.945806        -0.230543      
  1e+010          2.7006e-005     3.568e-008      0.76033         -0.589593       0.102083        0.175828        0.0165242       0.228713        0.898428        -0.351638       0.820731        -0.510183       0.0817291       0.18465         -0.0111337      0.228746        0.93479         -0.252622      
  1.1e+010        2.7006e-005     3.568e-008      0.718316        -0.629335       0.119496        0.185122        0.036815        0.24109         0.880384        -0.380344       0.78826         -0.547781       0.0963909       0.197412        0.00544272      0.24419         0.923121        -0.273905      
  1.2e+010        2.7006e-005     3.568e-008      0.674563        -0.665333       0.137755        0.192435        0.0594534       0.251372        0.860981        -0.407391       0.754083        -0.583174       0.112098        0.208729        0.0243684       0.258598        0.910526        -0.294324      
  1.3e+010        2.7006e-005     3.568e-008      0.630169        -0.697565       0.15596         0.197958        0.0809018       0.259853        0.840869        -0.432627       0.718841        -0.615573       0.128019        0.218877        0.0423966       0.271557        0.897732        -0.313666      
  1.4e+010        2.7006e-005     3.568e-008      0.585001        -0.725305       0.174663        0.201256        0.104453        0.265369        0.820549        -0.456537       0.682547        -0.644781       0.145006        0.227178        0.0631292       0.282382        0.884393        -0.332009      
  1.5e+010        2.7006e-005     3.568e-008      0.540723        -0.749767       0.192763        0.202748        0.12723         0.267199        0.800412        -0.478854       0.646057        -0.670974       0.161722        0.233811        0.0838617       0.289702        0.87109         -0.349112      
  1.6e+010        2.7006e-005     3.568e-008      0.496419        -0.770067       0.210465        0.203007        0.148138        0.269715        0.779275        -0.500011       0.60946         -0.694135       0.178561        0.2394          0.102866        0.297691        0.856879        -0.365697      
  1.7e+010        2.7006e-005     3.568e-008      0.452511        -0.788594       0.227819        0.201399        0.169856        0.268428        0.757582        -0.519626       0.572499        -0.715921       0.195519        0.243444        0.123524        0.302671        0.842872        -0.381487      
  1.8e+010        2.7006e-005     3.568e-008      0.409451        -0.803345       0.244184        0.198737        0.189791        0.267628        0.736447        -0.538899       0.535941        -0.734186       0.211892        0.24653         0.142447        0.308003        0.829101        -0.396717      
  1.9e+010        2.7006e-005     3.568e-008      0.366887        -0.815112       0.260329        0.19488         0.210162        0.26434         0.715267        -0.55648        0.499641        -0.749773       0.228412        0.248538        0.162445        0.311288        0.814592        -0.410071      
  2e+010          2.7006e-005     3.568e-008      0.326744        -0.824958       0.275287        0.189635        0.227236        0.259408        0.693816        -0.571196       0.464776        -0.763945       0.244386        0.248676        0.179942        0.312063        0.799968        -0.422844      
  2.1e+010        2.7006e-005     3.568e-008      0.286882        -0.832287       0.289217        0.183505        0.245734        0.254381        0.671064        -0.584727       0.429547        -0.775461       0.260205        0.247951        0.199701        0.313441        0.785224        -0.435656      
  2.2e+010        2.7006e-005     3.568e-008      0.249241        -0.837853       0.302356        0.176839        0.261803        0.246963        0.649696        -0.599666       0.396199        -0.784906       0.275238        0.246981        0.217182        0.312363        0.772348        -0.447896      
  2.3e+010        2.7006e-005     3.568e-008      0.212164        -0.84166        0.314494        0.169193        0.277353        0.239892        0.632116        -0.615125       0.363029        -0.793524       0.289107        0.2447          0.233998        0.311297        0.759463        -0.458327      
  2.4e+010        2.7006e-005     3.568e-008      0.176105        -0.84526        0.324893        0.162181        0.290946        0.232617        0.61985         -0.620515       0.331185        -0.801375       0.301299        0.24094         0.249315        0.307823        0.747276        -0.464459      
  2.5e+010        2.7006e-005     3.568e-008      0.139364        -0.845461       0.337792        0.156372        0.305867        0.227231        0.61085         -0.627239       0.29958         -0.807009       0.314837        0.236605        0.264984        0.3041          0.73104         -0.474678      
  2.6e+010        2.7006e-005     3.568e-008      0.106806        -0.846195       0.350172        0.144123        0.32208         0.215627        0.578537        -0.647026       0.270117        -0.811581       0.329078        0.230564        0.282598        0.299143        0.710545        -0.483379      
  2.7e+010        2.7006e-005     3.568e-008      0.0730803       -0.843793       0.358015        0.134357        0.333873        0.205495        0.543809        -0.658628       0.239171        -0.813208       0.341893        0.227692        0.298521        0.297546        0.701341        -0.497443      
  2.8e+010        2.7006e-005     3.568e-008      0.0424637       -0.840764       0.367036        0.123201        0.343935        0.19312         0.518875        -0.674707       0.210063        -0.814319       0.355663        0.223923        0.312659        0.293137        0.688864        -0.509347      
  2.9e+010        2.7006e-005     3.568e-008      0.0115623       -0.838323       0.372062        0.113722        0.352678        0.18399         0.505166        -0.683009       0.181054        -0.817209       0.364447        0.218423        0.324778        0.288701        0.680289        -0.516211      
  3e+010          2.7006e-005     3.568e-008      -0.0172738      -0.83213        0.378147        0.105553        0.362301        0.173347        0.493988        -0.689155       0.154631        -0.815833       0.372979        0.212653        0.337697        0.281437        0.670034        -0.52268       
  3.1e+010        2.7006e-005     3.568e-008      -0.0459119      -0.826609       0.385755        0.0955963       0.371148        0.162934        0.475836        -0.693593       0.127853        -0.815266       0.383915        0.2061          0.349432        0.274612        0.656196        -0.528755      
  3.2e+010        2.7006e-005     3.568e-008      -0.0718501      -0.820619       0.391623        0.0853202       0.379272        0.151404        0.453345        -0.702893       0.103207        -0.813278       0.394515        0.199591        0.362478        0.267776        0.642377        -0.538861      
  3.3e+010        2.7006e-005     3.568e-008      -0.0982509      -0.813105       0.396563        0.0746691       0.386476        0.140929        0.435396        -0.712474       0.0779815       -0.810265       0.403632        0.192658        0.373515        0.261709        0.631238        -0.546674      
  3.4e+010        2.7006e-005     3.568e-008      -0.123181       -0.804394       0.400385        0.064679        0.393339        0.128988        0.419837        -0.719316       0.0540944       -0.806404       0.411157        0.185697        0.38471         0.253356        0.620714        -0.552974      
  3.5e+010        2.7006e-005     3.568e-008      -0.144895       -0.797669       0.404838        0.0549082       0.398659        0.118023        0.401438        -0.725088       0.0332042       -0.803173       0.419396        0.178208        0.393769        0.244923        0.607625        -0.560225      
  3.6e+010        2.7006e-005     3.568e-008      -0.166496       -0.789403       0.407599        0.0435595       0.403234        0.107944        0.381305        -0.730778       0.0130786       -0.797944       0.427039        0.169264        0.403019        0.2383          0.595672        -0.566077      
  3.7e+010        2.7006e-005     3.568e-008      -0.186379       -0.781252       0.409737        0.034985        0.407445        0.0967182       0.363868        -0.739107       -0.00625302     -0.793546       0.432651        0.163159        0.41113         0.229719        0.58459         -0.57432       
  3.8e+010        2.7006e-005     3.568e-008      -0.206717       -0.773521       0.411511        0.0250221       0.411854        0.0851696       0.347519        -0.74375        -0.0263868      -0.788791       0.438686        0.155254        0.42013         0.221111        0.573599        -0.579499      
  3.9e+010        2.7006e-005     3.568e-008      -0.226403       -0.765764       0.412979        0.0159793       0.41344         0.0753072       0.330353        -0.74817        -0.0444861      -0.784789       0.44431         0.148534        0.425982        0.213787        0.563498        -0.584016      
  4e+010          2.7006e-005     3.568e-008      -0.24601        -0.757996       0.414618        0.00514612      0.416461        0.0647379       0.310476        -0.752589       -0.0627132      -0.781018       0.450626        0.139183        0.433234        0.205047        0.54968         -0.590135      
  4.1e+010        2.7006e-005     3.568e-008      -0.26424        -0.749314       0.416213        -0.00354048     0.419984        0.0553767       0.293601        -0.758482       -0.0809151      -0.776055       0.455781        0.13267         0.440488        0.198554        0.54071         -0.596528      
  4.2e+010        2.7006e-005     3.568e-008      -0.28129        -0.739804       0.415697        -0.013076       0.420921        0.0436547       0.277477        -0.761757       -0.0969255      -0.770052       0.460048        0.125119        0.44647         0.189536        0.532178        -0.602533      
  4.3e+010        2.7006e-005     3.568e-008      -0.297568       -0.732443       0.415959        -0.019991       0.42177         0.0345412       0.259002        -0.764735       -0.114267       -0.76545        0.46473         0.11951         0.452475        0.18125         0.518126        -0.608382      
  4.4e+010        2.7006e-005     3.568e-008      -0.31394        -0.723369       0.417758        -0.0300975      0.423042        0.0247756       0.242152        -0.76786        -0.128533       -0.759625       0.471261        0.110306        0.45808         0.172965        0.507686        -0.613211      
  4.5e+010        2.7006e-005     3.568e-008      -0.330244       -0.715411       0.416084        -0.0392433      0.425278        0.0168653       0.22604         -0.771056       -0.143858       -0.754232       0.473648        0.101824        0.46411         0.167254        0.49797         -0.617108      
  4.6e+010        2.7006e-005     3.568e-008      -0.345516       -0.707358       0.415627        -0.0467255      0.425635        0.00652009      0.208652        -0.772632       -0.158242       -0.750878       0.476576        0.095505        0.468752        0.15775         0.485788        -0.622633      
  4.7e+010        2.7006e-005     3.568e-008      -0.360443       -0.699943       0.415001        -0.0536417      0.425936        -0.00289516     0.192329        -0.774243       -0.1729         -0.745795       0.480375        0.0894506       0.474056        0.149579        0.475347        -0.627096      
  4.8e+010        2.7006e-005     3.568e-008      -0.374824       -0.690558       0.415988        -0.0632659      0.426045        -0.0111239      0.177044        -0.776573       -0.185751       -0.739627       0.485725        0.0808181       0.477983        0.142551        0.466604        -0.630485      
