! VERSION = 6.00
!Data measured by ggf on Wed Jan 24 08:24:19 2018 using model file NPN_MEAS_SCALE
BEGIN_HEADER
 ICCAP_INPUTS
  ve         V  E GROUND SMU_E 0.2 CON        0
  vc         V  C GROUND SMU_C 0.2 SYNC       1 -0.5 vb
  vs         V  S GROUND SMU_S 0.015 CON        0
  vb         V  B GROUND SMU_B 0.015 LIN        1    -1         1          101  0.02      
 ICCAP_OUTPUTS
  ib         I  B GROUND SMU_B M
  ic         I  C GROUND SMU_C M
 ICCAP_VALUES
  TNOM "27"
  TEMP "27"
  TECHNO "SG13G2"
  LOT "EDJ802"
  WAFER "02"
  CHIP "(3.3)"
  MODULE "S439S"
  DEV_NAME "D01"
  DEV_GEOM_L "5.0"
  DEV_GEOM_W "0.07"
  NUM_OF_TRANS_RF "1"
  REMARKS "Nx=2; Power -30/-20dBm, Slope: 0.1dB/GHz"
  TIMEDATE "Wed Jan 24 08:06:18     2018"
  OPERATOR "ggf"
END_HEADER

BEGIN_DB
 ICCAP_VAR ve         0              
 ICCAP_VAR vs         0              

 #vb              vc              ib              ic             
  -1              -1.5            -0.0029218      -0.037892      
  -0.98           -1.48           -0.0027818      -0.035938      
  -0.96           -1.46           -0.0026428      -0.03401       
  -0.94           -1.44           -0.0025054      -0.032134      
  -0.92           -1.42           -0.0023706      -0.030314      
  -0.9            -1.4            -0.0022388      -0.028538      
  -0.88           -1.38           -0.0021088      -0.026814      
  -0.86           -1.36           -0.0019814      -0.025144      
  -0.84           -1.34           -0.0018568      -0.02353       
  -0.82           -1.32           -0.0017358      -0.021972      
  -0.8            -1.3            -0.0016174      -0.020464      
  -0.78           -1.28           -0.0015026      -0.019016      
  -0.76           -1.26           -0.00139        -0.017614      
  -0.74           -1.24           -0.001282       -0.016272      
  -0.72           -1.22           -0.0011774      -0.014988      
  -0.7            -1.2            -0.0010766      -0.01376       
  -0.68           -1.18           -0.00097934     -0.012588      
  -0.66           -1.16           -0.00088654     -0.011472      
  -0.64           -1.14           -0.00079718     -0.010408      
  -0.62           -1.12           -0.00071198     -0.0093942     
  -0.6            -1.1            -0.00063122     -0.0084422     
  -0.58           -1.08           -0.000555       -0.007544      
  -0.56           -1.06           -0.00048344     -0.006701      
  -0.54           -1.04           -0.00041628     -0.0059098     
  -0.52           -1.02           -0.00035414     -0.0051744     
  -0.5            -1              -0.00029698     -0.0044926     
  -0.48           -0.98           -0.00024456     -0.0038606     
  -0.46           -0.96           -0.00019776     -0.0032858     
  -0.44           -0.94           -0.00015622     -0.0027624     
  -0.42           -0.92           -0.00012036     -0.0022944     
  -0.4            -0.9            -8.9584e-005    -0.0018742     
  -0.38           -0.88           -6.4372e-005    -0.0015066     
  -0.36           -0.86           -4.4376e-005    -0.0011898     
  -0.34           -0.84           -2.924e-005     -0.00092192    
  -0.32           -0.82           -1.8338e-005    -0.00070048    
  -0.3            -0.8            -1.1006e-005    -0.00052306    
  -0.28           -0.78           -6.3488e-006    -0.00038446    
  -0.26           -0.76           -3.5456e-006    -0.00027882    
  -0.24           -0.74           -1.9378e-006    -0.00020016    
  -0.22           -0.72           -1.0386e-006    -0.00014238    
  -0.2            -0.7            -5.457e-007     -0.00010044    
  -0.18           -0.68           -2.7824e-007    -7.0106e-005   
  -0.16           -0.66           -1.3512e-007    -4.8426e-005   
  -0.14           -0.64           -5.8584e-008    -3.293e-005    
  -0.12           -0.62           -1.8602e-008    -2.2092e-005   
  -0.1            -0.6            2.2162e-009     -1.4592e-005   
  -0.08           -0.58           1.2924e-008     -9.4876e-006   
  -0.06           -0.56           1.8468e-008     -6.053e-006    
  -0.04           -0.54           2.1296e-008     -3.7922e-006   
  -0.02           -0.52           2.2736e-008     -2.3226e-006   
  0               -0.5            2.357e-008      -1.3936e-006   
  0.02            -0.48           2.389e-008      -8.2642e-007   
  0.04            -0.46           2.4076e-008     -4.9318e-007   
  0.06            -0.44           2.4186e-008     -3.068e-007    
  0.08            -0.42           2.421e-008      -2.065e-007    
  0.1             -0.4            2.4286e-008     -1.5584e-007   
  0.12            -0.38           2.425e-008      -1.3052e-007   
  0.14            -0.36           2.428e-008      -1.1788e-007   
  0.16            -0.34           2.4224e-008     -1.1162e-007   
  0.18            -0.32           2.4266e-008     -1.085e-007    
  0.2             -0.3            2.4202e-008     -1.0638e-007   
  0.22            -0.28           2.4174e-008     -1.0504e-007   
  0.24            -0.26           2.4214e-008     -1.0444e-007   
  0.26            -0.24           2.419e-008      -1.0368e-007   
  0.28            -0.22           2.4272e-008     -1.0336e-007   
  0.3             -0.2            2.4214e-008     -1.0294e-007   
  0.32            -0.18           2.4238e-008     -1.0226e-007   
  0.34            -0.16           2.4222e-008     -1.0146e-007   
  0.36            -0.14           2.4194e-008     -1.0082e-007   
  0.38            -0.12           2.4228e-008     -1.0042e-007   
  0.4             -0.1            2.4204e-008     -9.948e-008    
  0.42            -0.08           2.4282e-008     -9.936e-008    
  0.44            -0.06           2.4228e-008     -9.79e-008     
  0.46            -0.04           2.4254e-008     -9.574e-008    
  0.48            -0.02           2.4238e-008     -9.144e-008    
  0.5             0               2.421e-008      -8.2572e-008   
  0.52            0.02            2.428e-008      -6.258e-008    
  0.54            0.04            2.438e-008      -2.1278e-008   
  0.56            0.06            2.4496e-008     6.8564e-008    
  0.58            0.08            2.4852e-008     2.5658e-007    
  0.6             0.1             2.5556e-008     6.6118e-007    
  0.62            0.12            2.714e-008      1.5312e-006    
  0.64            0.14            3.0394e-008     3.3904e-006    
  0.66            0.16            3.7208e-008     7.357e-006     
  0.68            0.18            5.1724e-008     1.586e-005     
  0.7             0.2             8.1904e-008     3.3836e-005    
  0.72            0.22            1.4548e-007     7.1936e-005    
  0.74            0.24            2.7742e-007     0.00015126     
  0.76            0.26            5.4714e-007     0.00031356     
  0.78            0.28            1.09976e-006    0.0006365      
  0.8             0.3             2.271e-006      0.0012308      
  0.82            0.32            6.0616e-006     0.002114       
  0.84            0.34            1.869e-005      0.0028706      
  0.86            0.36            4.3738e-005     0.0036412      
  0.88            0.38            8.7424e-005     0.004621       
  0.9             0.4             0.00015888      0.0058772      
  0.92            0.42            0.00027218      0.0074642      
  0.94            0.44            0.00044224      0.0093738      
  0.96            0.46            0.00068918      0.011608       
  0.98            0.48            0.00103146      0.01408        
  1               0.5             0.0015048       0.016704       
END_DB

