! VERSION = 6.00
!Data measured by ggf on Wed Jan 24 08:24:19 2018 using model file NPN_MEAS_SCALE
BEGIN_HEADER
 ICCAP_INPUTS
  ve         V  E GROUND SMU_E 0.2 CON        0
  vc         V  C GROUND SMU_C 0.2 SYNC       1 0 vb
  vs         V  S GROUND SMU_S 0.015 CON        0
  vb         V  B GROUND SMU_B 0.015 LIN        1    -1         1          101  0.02      
 ICCAP_OUTPUTS
  ib         I  B GROUND SMU_B M
  ic         I  C GROUND SMU_C M
 ICCAP_VALUES
  TNOM "27"
  TEMP "27"
  TECHNO "SG13G2"
  LOT "EDJ802"
  WAFER "02"
  CHIP "(3.3)"
  MODULE "S439S"
  DEV_NAME "D01"
  DEV_GEOM_L "5.0"
  DEV_GEOM_W "0.07"
  NUM_OF_TRANS_RF "1"
  REMARKS "Nx=2; Power -30/-20dBm, Slope: 0.1dB/GHz"
  TIMEDATE "Wed Jan 24 08:06:18     2018"
  OPERATOR "ggf"
END_HEADER

BEGIN_DB
 ICCAP_VAR ve         0              
 ICCAP_VAR vs         0              

 #vb              vc              ib              ic             
  -1              -1              -0.00030918     -0.0044746     
  -0.98           -0.98           -0.0002549      -0.0038454     
  -0.96           -0.96           -0.00020638     -0.0032732     
  -0.94           -0.94           -0.0001633      -0.0027524     
  -0.92           -0.92           -0.00012602     -0.0022868     
  -0.9            -0.9            -9.411e-005     -0.001868      
  -0.88           -0.88           -6.7874e-005    -0.0015024     
  -0.86           -0.86           -4.7016e-005    -0.0011868     
  -0.84           -0.84           -3.1174e-005    -0.00091986    
  -0.82           -0.82           -1.9728e-005    -0.00069918    
  -0.8            -0.8            -1.1988e-005    -0.00052232    
  -0.78           -0.78           -7.0512e-006    -0.00038404    
  -0.76           -0.76           -4.059e-006     -0.00027854    
  -0.74           -0.74           -2.321e-006     -0.00019998    
  -0.72           -0.72           -1.3368e-006    -0.0001422     
  -0.7            -0.7            -7.8496e-007    -0.00010032    
  -0.68           -0.68           -4.7518e-007    -6.9996e-005   
  -0.66           -0.66           -3.0046e-007    -4.8312e-005   
  -0.64           -0.64           -1.9926e-007    -3.2826e-005   
  -0.62           -0.62           -1.3948e-007    -2.1992e-005   
  -0.6            -0.6            -1.026e-007     -1.4478e-005   
  -0.58           -0.58           -7.836e-008     -9.3764e-006   
  -0.56           -0.56           -6.1494e-008    -5.9428e-006   
  -0.54           -0.54           -4.9102e-008    -3.68e-006     
  -0.52           -0.52           -3.958e-008     -2.2106e-006   
  -0.5            -0.5            -3.2026e-008    -1.282e-006    
  -0.48           -0.48           -2.593e-008     -7.143e-007    
  -0.46           -0.46           -2.0982e-008    -3.828e-007    
  -0.44           -0.44           -1.6938e-008    -1.9654e-007   
  -0.42           -0.42           -1.359e-008     -9.698e-008    
  -0.4            -0.4            -1.0856e-008    -4.7178e-008   
  -0.38           -0.38           -8.6018e-009    -2.1712e-008   
  -0.36           -0.36           -6.7724e-009    -1.0316e-008   
  -0.34           -0.34           -5.2942e-009    -5.932e-009    
  -0.32           -0.32           -4.1108e-009    -2.1058e-009   
  -0.3            -0.3            -3.1558e-009    -3.3052e-010   
  -0.28           -0.28           -2.4034e-009    -5.842e-010    
  -0.26           -0.26           -1.8056e-009    -2.456e-010    
  -0.24           -0.24           -1.3394e-009    -1.73e-010     
  -0.22           -0.22           -9.8682e-010    -1.85e-010     
  -0.2            -0.2            -7.0956e-010    -1.75e-010     
  -0.18           -0.18           -5.0312e-010    -1.79e-010     
  -0.16           -0.16           -3.4764e-010    -1.754e-010    
  -0.14           -0.14           -2.3166e-010    -1.2e-010      
  -0.12           -0.12           -1.4916e-010    -4.68e-011     
  -0.1            -0.1            -8.88e-011      -2.282e-010    
  -0.08           -0.08           -5.004e-011     -1.054e-010    
  -0.06           -0.06           -2.058e-011     -1.702e-010    
  -0.04           -0.04           -3.5e-012       -1.194e-010    
  -0.02           -0.02           3.72e-012       -1.01e-010     
  0               0               1.368e-011      -1.222e-010    
  0.02            0.02            1.766e-011      -1.02e-011     
  0.04            0.04            1.918e-011      -1.412e-010    
  0.06            0.06            1.778e-011      -1.36e-010     
  0.08            0.08            2.036e-011      -9.1e-011      
  0.1             0.1             1.632e-011      -1.328e-010    
  0.12            0.12            1.568e-011      -4.72e-011     
  0.14            0.14            1.754e-011      -1.156e-010    
  0.16            0.16            1.64e-011       -9.96e-011     
  0.18            0.18            1.62e-011       -3.4e-011      
  0.2             0.2             1.462e-011      -1.448e-010    
  0.22            0.22            1.646e-011      -4.8e-011      
  0.24            0.24            1.876e-011      -8.08e-011     
  0.26            0.26            1.354e-011      -4.06e-011     
  0.28            0.28            1.512e-011      -3.86e-011     
  0.3             0.3             1.584e-011      -1.22e-011     
  0.32            0.32            1.538e-011      -1.94e-011     
  0.34            0.34            1.462e-011      -4.02e-011     
  0.36            0.36            1.862e-011      3e-011         
  0.38            0.38            1.542e-011      8.32e-011      
  0.4             0.4             1.844e-011      2.738e-010     
  0.42            0.42            2.054e-011      6.728e-010     
  0.44            0.44            2.1e-011        1.394e-009     
  0.46            0.46            2.8e-011        3.0984e-009    
  0.48            0.48            3.704e-011      1.0286e-008    
  0.5             0.5             5.976e-011      1.7566e-008    
  0.52            0.52            1.0154e-010     3.7102e-008    
  0.54            0.54            1.8474e-010     7.8846e-008    
  0.56            0.56            3.4812e-010     1.6664e-007    
  0.58            0.58            6.7978e-010     3.5576e-007    
  0.6             0.6             1.3866e-009     7.611e-007     
  0.62            0.62            2.8516e-009     1.6374e-006    
  0.64            0.64            5.964e-009      3.506e-006     
  0.66            0.66            1.234e-008      7.495e-006     
  0.68            0.68            2.565e-008      1.606e-005     
  0.7             0.7             5.3954e-008     3.4164e-005    
  0.72            0.72            1.1256e-007     7.2618e-005    
  0.74            0.74            2.3516e-007     0.00015296     
  0.76            0.76            4.859e-007      0.00031832     
  0.78            0.78            9.9398e-007     0.00065136     
  0.8             0.8             1.9806e-006     0.001285       
  0.82            0.82            3.8436e-006     0.002416       
  0.84            0.84            7.9318e-006     0.00413        
  0.86            0.86            2.5044e-005     0.0053618      
  0.88            0.88            6.1054e-005     0.0063364      
  0.9             0.9             0.00012312      0.007598       
  0.92            0.92            0.00022434      0.0093094      
  0.94            0.94            0.00037874      0.011478       
  0.96            0.96            0.00060522      0.014116       
  0.98            0.98            0.00091744      0.01715        
  1               1               0.0013338       0.020574       
END_DB

