! VERSION = 6.00
!Data measured by ggf on Wed Jan 24 08:24:19 2018 using model file NPN_MEAS_SCALE
BEGIN_HEADER
 ICCAP_INPUTS
  vc         V  C GROUND SMU_C 0.2 LIN        1    0          3          61   0.05      
  vs         V  S GROUND SMU_S 0.015 CON        0
  ve         V  E GROUND SMU_E 0.2 CON        0
  ib         I  B GROUND SMU_B 2 LIST       2 6 1E-009 6.25E-007 1.25E-006 2.5E-006 5E-006 1E-005
 ICCAP_OUTPUTS
  ic         I  C GROUND SMU_C M
  vb         V  B GROUND SMU_B M
 ICCAP_VALUES
  TNOM "27"
  TEMP "27"
  TECHNO "SG13G2"
  LOT "EDJ802"
  WAFER "02"
  CHIP "(3.3)"
  MODULE "S439S"
  DEV_NAME "D01"
  DEV_GEOM_L "5.0"
  DEV_GEOM_W "0.07"
  NUM_OF_TRANS_RF "1"
  REMARKS "Nx=2; Power -30/-20dBm, Slope: 0.1dB/GHz"
  TIMEDATE "Wed Jan 24 08:06:18     2018"
  OPERATOR "ggf"
END_HEADER

BEGIN_DB
 ICCAP_VAR vs         0              
 ICCAP_VAR ve         0              
 ICCAP_VAR ib         1e-009         

 #vc              ic              vb             
  0               -3.8e-009       0.4038         
  0.05            -7.64e-010      0.39456        
  0.1             1.342e-010      0.39968        
  0.15            -1.425e-009     0.42124        
  0.2             7.998e-010      0.43604        
  0.25            2.0074e-009     0.45216        
  0.3             4.2652e-009     0.46884        
  0.35            9.984e-009      0.48412        
  0.4             1.5514e-008     0.49756        
  0.45            2.5168e-008     0.51076        
  0.5             4.1028e-008     0.5236         
  0.55            6.4786e-008     0.53588        
  0.6             1.2066e-007     0.55288        
  0.65            1.691e-007      0.56136        
  0.7             2.2518e-007     0.56872        
  0.75            2.8554e-007     0.57484        
  0.8             3.4538e-007     0.57968        
  0.85            3.8782e-007     0.58268        
  0.9             4.2638e-007     0.58512        
  0.95            4.5968e-007     0.587          
  1               4.8748e-007     0.58848        
  1.05            5.0936e-007     0.58956        
  1.1             5.2718e-007     0.59044        
  1.15            5.408e-007      0.59108        
  1.2             5.5232e-007     0.5916         
  1.25            5.6122e-007     0.592          
  1.3             5.6724e-007     0.59232        
  1.35            5.7336e-007     0.59256        
  1.4             5.7806e-007     0.59276        
  1.45            5.8256e-007     0.59296        
  1.5             5.8732e-007     0.59312        
  1.55            5.9062e-007     0.59332        
  1.6             5.9786e-007     0.59364        
  1.65            6.0318e-007     0.59384        
  1.7             6.0936e-007     0.59416        
  1.75            6.1722e-007     0.59448        
  1.8             6.2608e-007     0.59484        
  1.85            6.3382e-007     0.59516        
  1.9             6.4422e-007     0.5956         
  1.95            6.6044e-007     0.59628        
  2               6.7826e-007     0.597          
  2.05            6.973e-007      0.59772        
  2.1             7.2262e-007     0.59868        
  2.15            7.5962e-007     0.60004        
  2.2             8.068e-007      0.60168        
  2.25            8.6784e-007     0.60364        
  2.3             9.4892e-007     0.60604        
  2.35            1.0484e-006     0.60872        
  2.4             1.1906e-006     0.61228        
  2.45            1.4134e-006     0.617          
  2.5             1.7954e-006     0.62364        
  2.55            2.574e-006      0.63388        
  2.6             4.7908e-006     0.652          
  2.65            1.9334e-005     0.70092        
  2.7             0.00056518      0.7832         
  2.75            0.0014804       0.80104        
  2.8             0.0025024       0.81564        
  2.85            0.0040854       0.82976        
  2.9             0.01101         0.86332        
  2.95            0.011824        0.86772        
  3               0.012436        0.87132        
END_DB

BEGIN_DB
 ICCAP_VAR vs         0              
 ICCAP_VAR ve         0              
 ICCAP_VAR ib         6.25e-007      

 #vc              ic              vb             
  0               -1.1648e-005    0.64408        
  0.05            9.3498e-006     0.69108        
  0.1             8.7914e-005     0.72896        
  0.15            0.00021816      0.75096        
  0.2             0.00031052      0.76008        
  0.25            0.00035388      0.76352        
  0.3             0.00037398      0.76492        
  0.35            0.00038444      0.76564        
  0.4             0.00039158      0.76612        
  0.45            0.00039652      0.7664         
  0.5             0.00040044      0.76664        
  0.55            0.00040348      0.7668         
  0.6             0.00040654      0.767          
  0.65            0.00040902      0.76708        
  0.7             0.00041054      0.76716        
  0.75            0.0004123       0.76728        
  0.8             0.00041394      0.76732        
  0.85            0.00041518      0.7674         
  0.9             0.00041604      0.76744        
  0.95            0.00041778      0.76748        
  1               0.0004184       0.76756        
  1.05            0.00041964      0.76756        
  1.1             0.00042038      0.76752        
  1.15            0.0004207       0.76756        
  1.2             0.0004215       0.76764        
  1.25            0.00042256      0.76764        
  1.3             0.00042286      0.76764        
  1.35            0.00042336      0.76764        
  1.4             0.00042432      0.76764        
  1.45            0.00042448      0.76764        
  1.5             0.00042596      0.76768        
  1.55            0.00042628      0.76772        
  1.6             0.00042724      0.76776        
  1.65            0.00042856      0.7678         
  1.7             0.00043054      0.76788        
  1.75            0.00043308      0.76804        
  1.8             0.00043532      0.76812        
  1.85            0.000439        0.76836        
  1.9             0.00044398      0.76864        
  1.95            0.0004505       0.76896        
  2               0.00045744      0.7694         
  2.05            0.00046722      0.76996        
  2.1             0.0004802       0.77064        
  2.15            0.0004952       0.77144        
  2.2             0.00051444      0.77244        
  2.25            0.00054008      0.77376        
  2.3             0.00057214      0.77528        
  2.35            0.0006146       0.77716        
  2.4             0.00066876      0.77952        
  2.45            0.0007434       0.78232        
  2.5             0.0008461       0.78584        
  2.55            0.00098814      0.79012        
  2.6             0.0011918       0.7952         
  2.65            0.0014922       0.8014         
  2.7             0.0019244       0.80844        
  2.75            0.0025642       0.81652        
  2.8             0.0035596       0.82584        
  2.85            0.0055278       0.83896        
  2.9             0.0111406       0.86412        
  2.95            0.011888        0.8682         
  3               0.01248         0.87172        
END_DB

BEGIN_DB
 ICCAP_VAR vs         0              
 ICCAP_VAR ve         0              
 ICCAP_VAR ib         1.25e-006      

 #vc              ic              vb             
  0               -2.3424e-005    0.66952        
  0.05            2.6912e-005     0.71512        
  0.1             0.00018634      0.74984        
  0.15            0.00041662      0.76952        
  0.2             0.00059092      0.77856        
  0.25            0.00068738      0.78256        
  0.3             0.00073694      0.78436        
  0.35            0.00076192      0.78524        
  0.4             0.00077798      0.78572        
  0.45            0.00078816      0.78608        
  0.5             0.0007967       0.78628        
  0.55            0.00080394      0.78652        
  0.6             0.00080946      0.7866         
  0.65            0.00081342      0.78672        
  0.7             0.00081716      0.78684        
  0.75            0.0008215       0.78692        
  0.8             0.00082462      0.78692        
  0.85            0.0008267       0.78692        
  0.9             0.00082956      0.78692        
  0.95            0.00083042      0.78696        
  1               0.00083238      0.78696        
  1.05            0.00083448      0.787          
  1.1             0.00083608      0.78696        
  1.15            0.0008358       0.78696        
  1.2             0.00083808      0.78692        
  1.25            0.00083836      0.78688        
  1.3             0.00083958      0.78692        
  1.35            0.00084074      0.78688        
  1.4             0.00084178      0.78688        
  1.45            0.00084306      0.78684        
  1.5             0.00084258      0.78684        
  1.55            0.00084488      0.7868         
  1.6             0.00084588      0.78676        
  1.65            0.00084708      0.7868         
  1.7             0.00085066      0.78684        
  1.75            0.00085406      0.78688        
  1.8             0.00085838      0.78696        
  1.85            0.00086378      0.78712        
  1.9             0.00087142      0.78732        
  1.95            0.00088112      0.78756        
  2               0.00089228      0.78788        
  2.05            0.00090904      0.78832        
  2.1             0.00092838      0.78884        
  2.15            0.00095326      0.78952        
  2.2             0.00098308      0.79036        
  2.25            0.00102302      0.79136        
  2.3             0.0010718       0.79264        
  2.35            0.00113412      0.7942         
  2.4             0.0012152       0.796          
  2.45            0.0013192       0.79828        
  2.5             0.0014588       0.80096        
  2.55            0.0016384       0.8042         
  2.6             0.001884        0.80804        
  2.65            0.0022238       0.81272        
  2.7             0.0026974       0.81808        
  2.75            0.003379        0.82456        
  2.8             0.0044978       0.83284        
  2.85            0.009814        0.85836        
  2.9             0.011251        0.86484        
  2.95            0.01195         0.86868        
  3               0.01252         0.87212        
END_DB

BEGIN_DB
 ICCAP_VAR vs         0              
 ICCAP_VAR ve         0              
 ICCAP_VAR ib         2.5e-006       

 #vc              ic              vb             
  0               -4.078e-005     0.69556        
  0.05            7.4354e-005     0.739          
  0.1             0.00036438      0.76952        
  0.15            0.00071268      0.7862         
  0.2             0.0009856       0.79464        
  0.25            0.0011844       0.79952        
  0.3             0.001326        0.80252        
  0.35            0.0014194       0.80432        
  0.4             0.001481        0.80544        
  0.45            0.0015208       0.80612        
  0.5             0.0015486       0.80656        
  0.55            0.001569        0.8068         
  0.6             0.0015842       0.80704        
  0.65            0.0015974       0.80712        
  0.7             0.0016064       0.8072         
  0.75            0.0016146       0.80724        
  0.8             0.0016214       0.80728        
  0.85            0.0016268       0.80724        
  0.9             0.0016298       0.80728        
  0.95            0.001635        0.80724        
  1               0.0016374       0.8072         
  1.05            0.0016422       0.80716        
  1.1             0.0016422       0.80708        
  1.15            0.0016464       0.80704        
  1.2             0.0016464       0.80696        
  1.25            0.0016474       0.80688        
  1.3             0.0016498       0.8068         
  1.35            0.00165         0.80672        
  1.4             0.0016522       0.80664        
  1.45            0.0016524       0.80656        
  1.5             0.0016522       0.80644        
  1.55            0.0016538       0.8064         
  1.6             0.0016574       0.80636        
  1.65            0.0016592       0.80632        
  1.7             0.0016612       0.80628        
  1.75            0.0016664       0.80624        
  1.8             0.001672        0.80624        
  1.85            0.0016796       0.80628        
  1.9             0.0016892       0.80636        
  1.95            0.0017032       0.80648        
  2               0.0017206       0.80668        
  2.05            0.0017426       0.807          
  2.1             0.001771        0.80736        
  2.15            0.0018066       0.80784        
  2.2             0.00185         0.8084         
  2.25            0.001908        0.8092         
  2.3             0.0019772       0.81016        
  2.35            0.0020668       0.81128        
  2.4             0.0021756       0.81272        
  2.45            0.0023144       0.81436        
  2.5             0.0024974       0.81648        
  2.55            0.0027254       0.81888        
  2.6             0.0030256       0.82184        
  2.65            0.0034364       0.82544        
  2.7             0.0039954       0.82976        
  2.75            0.0048426       0.83544        
  2.8             0.0065656       0.84476        
  2.85            0.0105554       0.86176        
  2.9             0.011432        0.86612        
  2.95            0.01206         0.86964        
  3               0.012606        0.87284        
END_DB

BEGIN_DB
 ICCAP_VAR vs         0              
 ICCAP_VAR ve         0              
 ICCAP_VAR ib         5e-006         

 #vc              ic              vb             
  0               -5.7922e-005    0.72236        
  0.05            0.00018308      0.76224        
  0.1             0.0006246       0.78744        
  0.15            0.00105818      0.80072        
  0.2             0.0013946       0.80788        
  0.25            0.001666        0.81252        
  0.3             0.0019022       0.81604        
  0.35            0.0021072       0.8188         
  0.4             0.0022942       0.82108        
  0.45            0.0024564       0.82296        
  0.5             0.0025992       0.82448        
  0.55            0.0027236       0.82572        
  0.6             0.0028232       0.82668        
  0.65            0.0029046       0.8274         
  0.7             0.0029686       0.82788        
  0.75            0.003015        0.82816        
  0.8             0.00305         0.8284         
  0.85            0.0030794       0.82848        
  0.9             0.0031012       0.82852        
  0.95            0.0031156       0.82848        
  1               0.0031282       0.82844        
  1.05            0.0031368       0.82832        
  1.1             0.0031446       0.8282         
  1.15            0.0031514       0.82808        
  1.2             0.0031554       0.82796        
  1.25            0.0031592       0.8278         
  1.3             0.0031608       0.82768        
  1.35            0.0031616       0.82748        
  1.4             0.0031618       0.82732        
  1.45            0.003163        0.82716        
  1.5             0.0031612       0.82696        
  1.55            0.0031626       0.8268         
  1.6             0.0031634       0.82664        
  1.65            0.003164        0.82648        
  1.7             0.0031664       0.82632        
  1.75            0.0031706       0.82616        
  1.8             0.0031764       0.82604        
  1.85            0.003184        0.82596        
  1.9             0.0031964       0.82592        
  1.95            0.0032108       0.82588        
  2               0.003234        0.82596        
  2.05            0.0032596       0.82604        
  2.1             0.0033004       0.8262         
  2.15            0.003346        0.82648        
  2.2             0.0034068       0.82688        
  2.25            0.0034796       0.8274         
  2.3             0.0035766       0.82804        
  2.35            0.0036974       0.82884        
  2.4             0.0038458       0.82988        
  2.45            0.0040308       0.83116        
  2.5             0.0042734       0.83276        
  2.55            0.0045818       0.83472        
  2.6             0.0049938       0.83716        
  2.65            0.0055666       0.8404         
  2.7             0.0064382       0.84484        
  2.75            0.0081346       0.85236        
  2.8             0.0102456       0.861          
  2.85            0.0111062       0.865          
  2.9             0.011714        0.8682         
  2.95            0.012254        0.87128        
  3               0.012754        0.87428        
END_DB

BEGIN_DB
 ICCAP_VAR vs         0              
 ICCAP_VAR ve         0              
 ICCAP_VAR ib         1e-005         

 #vc              ic              vb             
  0               -6.0846e-005    0.749          
  0.05            0.00035316      0.7834         
  0.1             0.00089668      0.80328        
  0.15            0.0013734       0.814          
  0.2             0.0017414       0.81996        
  0.25            0.0020442       0.824          
  0.3             0.0023166       0.82716        
  0.35            0.0025646       0.82976        
  0.4             0.0028018       0.83208        
  0.45            0.0030242       0.83412        
  0.5             0.003238        0.83592        
  0.55            0.003446        0.8376         
  0.6             0.003642        0.83908        
  0.65            0.0038298       0.84044        
  0.7             0.0040128       0.84168        
  0.75            0.004185        0.84276        
  0.8             0.0043508       0.84376        
  0.85            0.0045104       0.84468        
  0.9             0.0046598       0.84544        
  0.95            0.0048          0.84616        
  1               0.0049344       0.84676        
  1.05            0.005057        0.84728        
  1.1             0.0051704       0.84772        
  1.15            0.0052712       0.84804        
  1.2             0.0053602       0.84828        
  1.25            0.0054382       0.84844        
  1.3             0.005504        0.84852        
  1.35            0.0055594       0.84852        
  1.4             0.0056028       0.84848        
  1.45            0.0056384       0.84832        
  1.5             0.0056622       0.84816        
  1.55            0.0056838       0.84796        
  1.6             0.0056984       0.84772        
  1.65            0.0057084       0.84748        
  1.7             0.0057182       0.8472         
  1.75            0.0057288       0.84696        
  1.8             0.0057396       0.84668        
  1.85            0.0057528       0.84648        
  1.9             0.005769        0.84628        
  1.95            0.0057924       0.84612        
  2               0.0058244       0.84596        
  2.05            0.0058614       0.84592        
  2.1             0.0059148       0.84592        
  2.15            0.0059836       0.846          
  2.2             0.0060686       0.8462         
  2.25            0.0061772       0.84652        
  2.3             0.0063134       0.84696        
  2.35            0.0064938       0.8476         
