! VERSION = 6.00
!Data measured by ggf on Wed Jan 24 08:24:19 2018 using model file NPN_MEAS_SCALE
BEGIN_HEADER
 ICCAP_INPUTS
  vc         V  C GROUND SMU_C 0.1 CON        0
  vs         V  S GROUND SMU_S 0.015 CON        0
  vb         V  B GROUND SMU_B 0.015 LIN        1    0          -2         81   -0.025    
  ve         V  E GROUND SMU_E 0.2 CON        0
 ICCAP_OUTPUTS
  ic         I  C GROUND SMU_C M
  ib         I  B GROUND SMU_B M
 ICCAP_VALUES
  TNOM "27"
  TEMP "27"
  TECHNO "SG13G2"
  LOT "EDJ802"
  WAFER "02"
  CHIP "(3.3)"
  MODULE "S439S"
  DEV_NAME "D01"
  DEV_GEOM_L "5.0"
  DEV_GEOM_W "0.07"
  NUM_OF_TRANS_RF "1"
  REMARKS "Nx=2; Power -30/-20dBm, Slope: 0.1dB/GHz"
  TIMEDATE "Wed Jan 24 08:06:18     2018"
  OPERATOR "ggf"
END_HEADER

BEGIN_DB
 ICCAP_VAR vc         0              
 ICCAP_VAR vs         0              
 ICCAP_VAR ve         0              

 #vb              ic              ib             
  0               -2.7564e-010    -5.542e-011    
  -0.025          3.099e-010      -6.464e-011    
  -0.05           3.1934e-010     -7.49e-011     
  -0.075          4.1274e-010     -1.0196e-010   
  -0.1            3.8386e-010     -1.505e-010    
  -0.125          5.7922e-010     -2.222e-010    
  -0.15           4.3916e-010     -3.3938e-010   
  -0.175          5.1766e-010     -5.1312e-010   
  -0.2            4.592e-010      -7.6766e-010   
  -0.225          4.7358e-010     -1.124e-009    
  -0.25           7.781e-010      -1.6254e-009   
  -0.275          7.4516e-010     -2.301e-009    
  -0.3            6.6912e-010     -3.2272e-009   
  -0.325          6.9476e-010     -4.456e-009    
  -0.35           7.2222e-010     -6.078e-009    
  -0.375          6.909e-010      -8.1902e-009   
  -0.4            7.481e-010      -1.0922e-008   
  -0.425          -3.6786e-010    -1.442e-008    
  -0.45           5.76e-011       -1.8856e-008   
  -0.475          -8.494e-011     -2.4462e-008   
  -0.5            -3.356e-011     -3.1472e-008   
  -0.525          -3.836e-011     -4.0202e-008   
  -0.55           -7.124e-011     -5.0912e-008   
  -0.575          -5.512e-011     -6.4146e-008   
  -0.6            -2.38e-011      -8.0198e-008   
  -0.625          -7.758e-011     -9.9606e-008   
  -0.65           -5.206e-011     -1.2306e-007   
  -0.675          3.13e-011       -1.5124e-007   
  -0.7            -1.3222e-010    -1.8514e-007   
  -0.725          -1.1646e-010    -2.2486e-007   
  -0.75           -1.2092e-010    -2.7228e-007   
  -0.775          -9.66e-011      -3.281e-007    
  -0.8            -8.568e-011     -3.9344e-007   
  -0.825          -9.768e-011     -4.696e-007    
  -0.85           -9.68e-011      -5.5862e-007   
  -0.875          -1.241e-010     -6.6134e-007   
  -0.9            -1.1238e-010    -7.8048e-007   
  -0.925          -9.528e-011     -9.17e-007     
  -0.95           5.268e-011      -1.075e-006    
  -0.975          -4.79e-011      -1.2542e-006   
  -1              -1.3882e-010    -1.4586e-006   
  -1.025          -7.73e-011      -1.6924e-006   
  -1.05           -9.538e-011     -1.9548e-006   
  -1.075          -8.096e-011     -2.254e-006    
  -1.1            -1.0246e-010    -2.5892e-006   
  -1.125          -1.287e-010     -2.968e-006    
  -1.15           -7.61e-011      -3.391e-006    
  -1.175          -6.72e-011      -3.8662e-006   
  -1.2            -8.142e-011     -4.3958e-006   
  -1.225          -1.204e-010     -4.986e-006    
  -1.25           -4.068e-011     -5.6378e-006   
  -1.275          -7.816e-011     -6.3678e-006   
  -1.3            -4.222e-011     -7.1704e-006   
  -1.325          -7.722e-011     -8.062e-006    
  -1.35           -2.084e-011     -9.041e-006    
  -1.375          -9.056e-011     -1.01248e-005  
  -1.4            -5.254e-011     -1.13092e-005  
  -1.425          -4.262e-011     -1.2604e-005   
  -1.45           -1.2452e-010    -1.403e-005    
  -1.475          6.574e-011      -1.5588e-005   
  -1.5            -1.022e-011     -1.7284e-005   
  -1.525          1.0436e-010     -1.915e-005    
  -1.55           7.304e-011      -2.1158e-005   
  -1.575          1.7302e-010     -2.3352e-005   
  -1.6            2.3968e-010     -2.5732e-005   
  -1.625          3.5818e-010     -2.8306e-005   
  -1.65           4.4462e-010     -3.1102e-005   
  -1.675          5.8734e-010     -3.4112e-005   
  -1.7            7.8198e-010     -3.7376e-005   
  -1.725          9.6336e-010     -4.088e-005    
  -1.75           3.0012e-009     -4.4668e-005   
  -1.775          7.962e-010      -4.8734e-005   
  -1.8            2.5848e-009     -5.3102e-005   
  -1.825          2.8318e-009     -5.7786e-005   
  -1.85           3.5734e-009     -6.2822e-005   
  -1.875          4.5286e-009     -6.8226e-005   
  -1.9            5.5456e-009     -7.4014e-005   
  -1.925          6.7854e-009     -8.016e-005    
  -1.95           8.4908e-009     -8.6752e-005   
  -1.975          1.04036e-008    -9.3768e-005   
  -2              1.266e-008      -0.000101272   
END_DB

