! VERSION = 6.00
!Data measured by ggf on Tue Mar 20 12:55:14 2018 using model file NPN_MEAS_SCALE
BEGIN_HEADER
 ICCAP_INPUTS
  vc         V  C GROUND SMU_C 0.1 CON        1.5
  ve         V  E GROUND SMU_E 0.1 CON        0
  vs         V  S GROUND SMU_S 0.015 CON        0
  freq       F  LIST       1 74 100000000 200000000 300000000 400000000 500000000 600000000 700000000 800000000 900000000 1000000000 2000000000 3000000000 4000000000 5000000000 6000000000 7000000000 8000000000 9000000000 10000000000 11000000000 12000000000 13000000000 14000000000 15000000000 16000000000 17000000000 18000000000 19000000000 20000000000 21000000000 22000000000 23000000000 24000000000 25000000000 26000000000 27000000000 28000000000 29000000000 30000000000 31000000000 32000000000 33000000000 34000000000 35000000000 36000000000 37000000000 38000000000 39000000000 40000000000 41000000000 42000000000 43000000000 44000000000 45000000000 46000000000 47000000000 48000000000 49000000000 50000000000 51000000000 52000000000 53000000000 54000000000 55000000000 56000000000 57000000000 58000000000 59000000000 60000000000 61000000000 62000000000 63000000000 64000000000 65000000000
  vb         V  B GROUND SMU_B 0.015 LIN        2    0.74       0.87       27   0.005     
 ICCAP_OUTPUTS
  ic         I  C GROUND SMU_C M
  ib         I  B GROUND SMU_B M
  S          S  B C GROUND NWA M
  S_deemb    S B C GROUND n/a M 
 ICCAP_VALUES
  TNOM "27"
  TEMP "27"
  TECHNO "SG13G2"
  LOT "EDJ802"
  WAFER "02"
  CHIP "(3.3)"
  MODULE "S439S"
  DEV_NAME "D01"
  DEV_GEOM_L "5.0"
  DEV_GEOM_W "0.07"
  NUM_OF_TRANS_RF "1"
  REMARKS "Nx=2; Power -30/-20dBm, Slope: 0.1dB/GHz"
  TIMEDATE "Wed Jan 24 08:06:18     2018"
  OPERATOR "ggf"
END_HEADER

BEGIN_DB
 ICCAP_VAR vc         1.5            
 ICCAP_VAR ve         0              
 ICCAP_VAR vs         0              
 ICCAP_VAR vb         0.74           

 #freq            ic              ib              R:S(1,1)        I:S(1,1)        R:S(1,2)        I:S(1,2)        R:S(2,1)        I:S(2,1)        R:S(2,2)        I:S(2,2)        R:S_deemb(1,1)  I:S_deemb(1,1)  R:S_deemb(1,2)  I:S_deemb(1,2)  R:S_deemb(2,1)  I:S_deemb(2,1)  R:S_deemb(2,2)  I:S_deemb(2,2) 
  1e+008          0.0001542       2.2562e-007     0.998704        -0.0041493      -1.13911e-005   0.000801741     -0.627818       -0.00496704     1.00048         -0.00265549     0.998886        -0.00331411     -9.59922e-006   0.000646392     -0.628117       -0.00543365     1.00031         -0.00141256    
  2e+008          0.0001542       2.2562e-007     0.9991          -0.00914326     1.07014e-005    0.00151135      -0.610009       -5.30706e-005   1.00031         -0.00503946     0.998904        -0.00744506     2.46023e-006    0.00133295      -0.610239       -0.00158132     0.999988        -0.00223906    
  3e+008          0.0001542       2.2562e-007     0.999274        -0.0138524      3.33843e-005    0.00236758      -0.612471       0.00414948      1.0004          -0.00761884     0.998969        -0.0107782      5.71482e-005    0.00220706      -0.612714       0.00195369      1.00029         -0.00430924    
  4e+008          0.0001542       2.2562e-007     0.999178        -0.0179701      3.70832e-005    0.00313332      -0.60411        0.00784883      1.00004         -0.0100208      0.998624        -0.0138096      3.79215e-005    0.0028721       -0.604274       0.00500791      1.00014         -0.00551803    
  5e+008          0.0001542       2.2562e-007     0.998705        -0.0234416      8.83444e-005    0.00390901      -0.611181       0.0116663       1.0001          -0.0124111      0.998225        -0.0176638      5.73995e-005    0.00365239      -0.611382       0.00784366      1.00005         -0.00696007    
  6e+008          0.0001542       2.2562e-007     0.998844        -0.0285605      0.000122592     0.00467669      -0.611165       0.0149188       1.00011         -0.0147102      0.998642        -0.0221175      6.43776e-005    0.00433405      -0.611426       0.0104704       0.999997        -0.00813019    
  7e+008          0.0001542       2.2562e-007     0.998802        -0.0332864      0.000183855     0.00543837      -0.611404       0.0195972       0.999656        -0.0173887      0.998602        -0.0258026      0.000119992     0.00508388      -0.61168        0.0144398       0.999704        -0.00966546    
  8e+008          0.0001542       2.2562e-007     0.998438        -0.0380061      0.00018091      0.00625074      -0.61357        0.0236785       1.00002         -0.0196124      0.99842         -0.0292671      0.000119555     0.00581799      -0.614048       0.0176146       1.00012         -0.010823      
  9e+008          0.0001542       2.2562e-007     0.998394        -0.0428995      0.000265624     0.00701135      -0.608456       0.0284856       0.999753        -0.0221787      0.998332        -0.0332989      0.000195644     0.00651598      -0.608957       0.0219535       0.999827        -0.0123099     
  1e+009          0.0001542       2.2562e-007     0.997721        -0.0473986      0.000300366     0.00778483      -0.613868       0.0332542       0.999528        -0.0244002      0.997824        -0.0365171      0.00020621      0.00724836      -0.614432       0.0258802       0.999711        -0.0134755     
  2e+009          0.0001542       2.2562e-007     0.994019        -0.0938181      0.0011804       0.015472        -0.597233       0.0672009       0.997408        -0.0484048      0.995549        -0.0723352      0.000762133     0.0143713       -0.59921        0.0526978       0.99841         -0.0264265     
  3e+009          0.0001542       2.2562e-007     0.986922        -0.141716       0.00259459      0.0230327       -0.601326       0.0982517       0.995479        -0.0725469      0.991072        -0.109159       0.00169719      0.0214865       -0.605472       0.0762207       0.99774         -0.0397813     
  4e+009          0.0001542       2.2562e-007     0.977767        -0.187132       0.0044665       0.0304624       -0.596099       0.133859        0.992634        -0.0952702      0.985343        -0.144507       0.00289428      0.0284788       -0.60333        0.104924        0.996556        -0.0518591     
  5e+009          0.0001542       2.2562e-007     0.966335        -0.231004       0.00690604      0.0377461       -0.581344       0.165202        0.988395        -0.118034       0.978275        -0.178546       0.00449568      0.0354432       -0.592349       0.130246        0.994519        -0.0640229     
  6e+009          0.0001542       2.2562e-007     0.951863        -0.275677       0.00987473      0.0447437       -0.567338       0.195773        0.982805        -0.142372       0.969135        -0.214672       0.00650251      0.0422502       -0.582716       0.155144        0.991531        -0.0778292     
  7e+009          0.0001542       2.2562e-007     0.935463        -0.319281       0.0132499       0.0516049       -0.555589       0.226875        0.978574        -0.165387       0.958911        -0.247805       0.00866086      0.0490304       -0.576496       0.180126        0.990343        -0.0904214     
  8e+009          0.0001542       2.2562e-007     0.917746        -0.358567       0.0170358       0.0580719       -0.542183       0.255186        0.97229         -0.186422       0.947712        -0.280184       0.0112016       0.0555091       -0.568785       0.203918        0.987409        -0.101525      
  9e+009          0.0001542       2.2562e-007     0.897199        -0.399817       0.0213144       0.0642638       -0.525215       0.282496        0.964555        -0.208408       0.934429        -0.313542       0.0140135       0.061955        -0.558079       0.22675         0.983579        -0.113633      
  1e+010          0.0001542       2.2562e-007     0.874835        -0.439573       0.0260027       0.0698663       -0.502786       0.309469        0.955593        -0.231875       0.92011         -0.346463       0.0172533       0.0679655       -0.542806       0.250571        0.979183        -0.127601      
  1.1e+010        0.0001542       2.2562e-007     0.851857        -0.474051       0.0307467       0.0754852       -0.488089       0.330871        0.949692        -0.251276       0.905656        -0.374634       0.0203674       0.074083        -0.534899       0.268601        0.977407        -0.137508      
  1.2e+010        0.0001542       2.2562e-007     0.826303        -0.508973       0.0362209       0.0807201       -0.47018        0.358374        0.940966        -0.27112        0.888923        -0.404607       0.024075        0.0800787       -0.525124       0.293689        0.973652        -0.148328      
  1.3e+010        0.0001542       2.2562e-007     0.797577        -0.54268        0.0417579       0.0853431       -0.452862       0.383046        0.92869         -0.289816       0.869505        -0.434397       0.0278917       0.0857527       -0.516173       0.31664         0.966899        -0.158977      
  1.4e+010        0.0001542       2.2562e-007     0.770957        -0.57481        0.0478662       0.0895217       -0.427848       0.400926        0.920064        -0.31144        0.852623        -0.462972       0.0322454       0.09123         -0.49914        0.334428        0.964152        -0.172113      
  1.5e+010        0.0001542       2.2562e-007     0.74342         -0.601585       0.0540106       0.0929988       -0.397362       0.415727        0.910123        -0.329803       0.83363         -0.48724        0.0367912       0.0962137       -0.475746       0.35088         0.959612        -0.182679      
  1.6e+010        0.0001542       2.2562e-007     0.712875        -0.629632       0.0601086       0.0961676       -0.376552       0.432484        0.899935        -0.346056       0.812703        -0.513754       0.04133         0.100925        -0.462816       0.368231        0.95468         -0.191388      
  1.7e+010        0.0001542       2.2562e-007     0.681457        -0.654579       0.0665146       0.0987963       -0.349001       0.444122        0.885522        -0.363179       0.790483        -0.537794       0.0462306       0.105449        -0.44242        0.382582        0.946902        -0.201973      
  1.8e+010        0.0001542       2.2562e-007     0.652049        -0.677325       0.0726206       0.101071        -0.327768       0.457741        0.874794        -0.380354       0.770125        -0.560189       0.050863        0.109783        -0.428822       0.398042        0.942465        -0.211926      
  1.9e+010        0.0001542       2.2562e-007     0.622385        -0.696566       0.0791191       0.103076        -0.304392       0.474381        0.865762        -0.401754       0.749294        -0.579338       0.0559561       0.113964        -0.414129       0.417479        0.940156        -0.225495      
  2e+010          0.0001542       2.2562e-007     0.587241        -0.719399       0.0851365       0.104168        -0.280673       0.480021        0.852317        -0.409477       0.723196        -0.604402       0.0610053       0.117186        -0.395859       0.427159        0.931639        -0.228433      
  2.1e+010        0.0001542       2.2562e-007     0.559383        -0.738607       0.0909022       0.105357        -0.260763       0.492146        0.837251        -0.416961       0.704201        -0.624795       0.0658999       0.12079         -0.383318       0.443533        0.923382        -0.232002      
  2.2e+010        0.0001542       2.2562e-007     0.527321        -0.752438       0.0973161       0.106371        -0.234074       0.497444        0.8184          -0.437272       0.679503        -0.640725       0.0714286       0.124526        -0.362711       0.454546        0.913736        -0.247344      
  2.3e+010        0.0001542       2.2562e-007     0.495238        -0.765157       0.103309        0.106324        -0.209272       0.50302         0.816409        -0.461628       0.655127        -0.656332       0.0765483       0.127081        -0.343611       0.464687        0.917435        -0.262267      
  2.4e+010        0.0001542       2.2562e-007     0.464092        -0.781907       0.107559        0.106968        -0.189782       0.50517         0.831817        -0.461278       0.63204         -0.675629       0.080053        0.129153        -0.326702       0.47039         0.932008        -0.25632       
  2.5e+010        0.0001542       2.2562e-007     0.436142        -0.794534       0.115185        0.110958        -0.176          0.520355        0.867561        -0.454602       0.612258        -0.690182       0.0861328       0.134415        -0.315943       0.487328        0.957717        -0.246681      
  2.6e+010        0.0001542       2.2562e-007     0.404689        -0.801961       0.125409        0.106392        -0.135948       0.528277        0.820176        -0.487132       0.586582        -0.702133       0.0963704       0.133903        -0.283806       0.504151        0.921181        -0.269101      
  2.7e+010        0.0001542       2.2562e-007     0.368102        -0.814547       0.129265        0.104954        -0.115014       0.528002        0.744706        -0.505183       0.556131        -0.720236       0.101033        0.136657        -0.269645       0.51467         0.873553        -0.294681      
  2.8e+010        0.0001542       2.2562e-007     0.340178        -0.82053        0.135821        0.102496        -0.0867857      0.526492        0.715387        -0.557833       0.534522        -0.730703       0.107821        0.138767        -0.247896       0.523289        0.865927        -0.341462      
  2.9e+010        0.0001542       2.2562e-007     0.313839        -0.82517        0.13824         0.100735        -0.071064       0.520956        0.720349        -0.560859       0.513948        -0.739084       0.110141        0.139123        -0.234905       0.521973        0.874863        -0.335274      
  3e+010          0.0001542       2.2562e-007     0.280845        -0.830079       0.143041        0.100664        -0.0523905      0.518419        0.728026        -0.547368       0.486516        -0.749931       0.114815        0.1407          -0.216442       0.524182        0.87699         -0.316596      
  3.1e+010        0.0001542       2.2562e-007     0.248224        -0.839415       0.149039        0.0982774       -0.0276967      0.51638         0.706063        -0.555057       0.46021         -0.765617       0.121428        0.141021        -0.192858       0.530589        0.860006        -0.326694      
  3.2e+010        0.0001542       2.2562e-007     0.229447        -0.839325       0.153708        0.0961474       -0.00759948     0.509763        0.684569        -0.565114       0.445814        -0.76831        0.126678        0.141904        -0.174043       0.532166        0.847419        -0.335825      
  3.3e+010        0.0001542       2.2562e-007     0.196223        -0.834233       0.15861         0.0941754       0.00772211      0.507909        0.679999        -0.579322       0.414817        -0.769759       0.131804        0.142959        -0.161888       0.535684        0.850558        -0.341934      
  3.4e+010        0.0001542       2.2562e-007     0.160133        -0.832899       0.164142        0.0911926       0.0290574       0.506155        0.670682        -0.587722       0.381628        -0.777298       0.138411        0.142941        -0.141979       0.542818        0.845724        -0.347838      
  3.5e+010        0.0001542       2.2562e-007     0.139478        -0.840824       0.167826        0.0883454       0.0481906       0.498701        0.660594        -0.59274        0.366737        -0.790189       0.142883        0.142489        -0.12211        0.542632        0.840238        -0.350311      
  3.6e+010        0.0001542       2.2562e-007     0.118093        -0.837248       0.171426        0.0847638       0.0642466       0.49072         0.635719        -0.604723       0.347262        -0.790837       0.148008        0.141418        -0.104941       0.541873        0.825344        -0.363149      
  3.7e+010        0.0001542       2.2562e-007     0.0898229       -0.832452       0.175077        0.0822618       0.0779967       0.484122        0.630248        -0.611059       0.320704        -0.792588       0.152242        0.141475        -0.0915698      0.540492        0.824503        -0.363624      
  3.8e+010        0.0001542       2.2562e-007     0.059836        -0.828803       0.178984        0.0788863       0.0957891       0.48035         0.619766        -0.621949       0.29136         -0.795934       0.157362        0.140721        -0.0739581      0.544034        0.821071        -0.371786      
  3.9e+010        0.0001542       2.2562e-007     0.0442267       -0.824664       0.181775        0.0751946       0.113314        0.471105        0.596761        -0.630181       0.278189        -0.794257       0.161967        0.139294        -0.0544288      0.542378        0.804944        -0.382379      
  4e+010          0.0001542       2.2562e-007     0.0258164       -0.823357       0.184348        0.0725339       0.123743        0.464033        0.591487        -0.641126       0.262771        -0.797435       0.165289        0.139045        -0.0438585      0.540359        0.807907        -0.387713      
  4.1e+010        0.0001542       2.2562e-007     -0.00565637     -0.824008       0.187811        0.0701652       0.138029        0.459527        0.576038        -0.643755       0.232506        -0.807445       0.169664        0.139047        -0.029807       0.542633        0.797683        -0.388217      
  4.2e+010        0.0001542       2.2562e-007     -0.0220801      -0.814753       0.191035        0.0657691       0.153478        0.450131        0.560906        -0.654291       0.217542        -0.800973       0.174474        0.137606        -0.0127053      0.541743        0.7926          -0.399122      
  4.3e+010        0.0001542       2.2562e-007     -0.0509227      -0.806001       0.193426        0.0623741       0.164388        0.439068        0.549312        -0.658348       0.185862        -0.799198       0.178835        0.136349        0.00210702      0.535253        0.785946        -0.40278       
  4.4e+010        0.0001542       2.2562e-007     -0.0604119      -0.806437       0.19537         0.0599869       0.177248        0.434191        0.534867        -0.657445       0.180718        -0.802128       0.182174        0.135631        0.0157536       0.53678         0.775169        -0.401         
  4.5e+010        0.0001542       2.2562e-007     -0.0816171      -0.801416       0.198632        0.0566676       0.189164        0.426799        0.515425        -0.678552       0.160025        -0.801804       0.187286        0.135053        0.029959        0.536294        0.768627        -0.423444      
  4.6e+010        0.0001542       2.2562e-007     -0.0985017      -0.801866       0.201165        0.0535907       0.198507        0.41848         0.512821        -0.677729       0.146585        -0.80747        0.190596        0.134547        0.0404702       0.532922        0.770035        -0.418424      
  4.7e+010        0.0001542       2.2562e-007     -0.12588        -0.788728       0.20342         0.0499639       0.209923        0.410158        0.497436        -0.676539       0.115492        -0.800756       0.195145        0.132901        0.0552285       0.53093         0.759141        -0.418504      
  4.8e+010        0.0001542       2.2562e-007     -0.141717       -0.791145       0.206577        0.0458313       0.225311        0.40137         0.46902         -0.693495       0.103196        -0.807747       0.201114        0.13121         0.0745261       0.530294        0.741165        -0.441634      
