! VERSION = 6.00
!Data measured by ggf on Tue Jan 23 13:39:52 2018 using model file NPN_MEAS_SCALE
BEGIN_HEADER
 ICCAP_INPUTS
  vc         V  C GROUND SMU_C 0.2 LIN        1    0          2          81   0.025     
  vs         V  S GROUND SMU_S 0.015 CON        0
  ve         V  E GROUND SMU_E 0.2 CON        0
  ib         I  B GROUND SMU_B 2 LIST       2 6 2E-009 6.25E-006 1.25E-005 2.5E-005 5E-005 0.0001
 ICCAP_OUTPUTS
  ic         I  C GROUND SMU_C M
  vb         V  B GROUND SMU_B M
 ICCAP_VALUES
  TNOM "27"
  TEMP "27"
  TECHNO "SG13G2"
  LOT "EDJ802"
  WAFER "02"
  CHIP "(3.3)"
  MODULE "S439S"
  DEV_NAME "D12"
  DEV_GEOM_L "5.0"
  DEV_GEOM_W "0.07"
  NUM_OF_TRANS_RF "2"
  REMARKS "Nx=1; Power -30/-20dBm, Slope: 0.1dB/GHz"
  TIMEDATE "Tue Jan 23 13:21:27     2018"
  OPERATOR "ggf"
END_HEADER

BEGIN_DB
 ICCAP_VAR vs         0              
 ICCAP_VAR ve         0              
 ICCAP_VAR ib         2e-009         

 #vc              ic              vb             
  0               -7.642e-009     0.36872        
  0.025           -3.335e-009     0.34412        
  0.05            -2.2372e-009    0.33884        
  0.075           -1.68e-009      0.34324        
  0.1             -3.3536e-009    0.35712        
  0.125           -8.082e-010     0.37176        
  0.15            -5.3858e-010    0.39068        
  0.175           -2.22e-012      0.41128        
  0.2             -3.504e-010     0.42928        
  0.225           5.826e-010      0.4458         
  0.25            2.161e-009      0.46344        
  0.275           5.1968e-009     0.48188        
  0.3             1.665e-008      0.50636        
  0.325           3.137e-008      0.52152        
  0.35            5.65e-008       0.53708        
  0.375           1.0648e-007     0.55412        
  0.4             1.7482e-007     0.56692        
  0.425           2.7768e-007     0.57892        
  0.45            4.2008e-007     0.58952        
  0.475           5.928e-007      0.59828        
  0.5             7.7266e-007     0.60488        
  0.525           9.327e-007      0.60952        
  0.55            1.048e-006      0.6124         
  0.575           1.0864e-006     0.61324        
  0.6             1.121e-006      0.61396        
  0.625           1.15e-006       0.6146         
  0.65            1.1768e-006     0.61516        
  0.675           1.1978e-006     0.6156         
  0.7             1.2194e-006     0.616          
  0.725           1.234e-006      0.61632        
  0.75            1.2484e-006     0.6166         
  0.775           1.2618e-006     0.61684        
  0.8             1.27e-006       0.61704        
  0.825           1.2822e-006     0.61728        
  0.85            1.2914e-006     0.61744        
  0.875           1.2996e-006     0.61764        
  0.9             1.3082e-006     0.6178         
  0.925           1.3182e-006     0.618          
  0.95            1.3268e-006     0.6182         
  0.975           1.3378e-006     0.6184         
  1               1.3482e-006     0.6186         
  1.025           1.362e-006      0.61888        
  1.05            1.3774e-006     0.6192         
  1.075           1.3954e-006     0.61956        
  1.1             1.416e-006      0.61996        
  1.125           1.4412e-006     0.62048        
  1.15            1.4704e-006     0.62104        
  1.175           1.5052e-006     0.62172        
  1.2             1.548e-006      0.62252        
  1.225           1.5998e-006     0.62344        
  1.25            1.6616e-006     0.62452        
  1.275           1.7374e-006     0.62576        
  1.3             1.8302e-006     0.62724        
  1.325           1.944e-006      0.62892        
  1.35            2.0866e-006     0.63092        
  1.375           2.2648e-006     0.63324        
  1.4             2.4946e-006     0.63596        
  1.425           2.7952e-006     0.63916        
  1.45            3.1984e-006     0.64304        
  1.475           3.7642e-006     0.64772        
  1.5             4.6026e-006     0.65352        
  1.525           8.5468e-006     0.66952        
  1.55            1.6086e-005     0.6864         
  1.575           2.1978e-005     0.69828        
  1.6             4.3516e-005     0.72216        
  1.625           0.00019274      0.75864        
  1.65            0.00058856      0.7826         
  1.675           0.0012872       0.80288        
  1.7             0.002272        0.81992        
  1.725           0.0035038       0.83356        
  1.75            0.0048652       0.8446         
  1.775           0.0062964       0.8538         
  1.8             0.0077424       0.86148        
  1.825           0.0091916       0.86808        
  1.85            0.0106334       0.87384        
  1.875           0.012074        0.879          
  1.9             0.013512        0.88356        
  1.925           0.014952        0.88764        
  1.95            0.0164          0.89132        
  1.975           0.017846        0.89464        
  2               0.019294        0.8976         
END_DB

BEGIN_DB
 ICCAP_VAR vs         0              
 ICCAP_VAR ve         0              
 ICCAP_VAR ib         6.25e-006      

 #vc              ic              vb             
  0               -0.00012122     0.76608        
  0.025           0.0002483       0.78524        
  0.05            0.0007677       0.80144        
  0.075           0.0013952       0.81472        
  0.1             0.0020574       0.82536        
  0.125           0.0027056       0.83384        
  0.15            0.0032798       0.84028        
  0.175           0.0037444       0.845          
  0.2             0.0040858       0.84816        
  0.225           0.0043042       0.85004        
  0.25            0.0044322       0.85104        
  0.275           0.0045028       0.85152        
  0.3             0.0045442       0.85168        
  0.325           0.0045672       0.85172        
  0.35            0.0045792       0.85164        
  0.375           0.0045886       0.85156        
  0.4             0.004593        0.8514         
  0.425           0.004596        0.85128        
  0.45            0.0045964       0.85112        
  0.475           0.0045952       0.85092        
  0.5             0.0045934       0.85076        
  0.525           0.0045908       0.85056        
  0.55            0.0045878       0.85036        
  0.575           0.0045822       0.85012        
  0.6             0.0045786       0.84996        
  0.625           0.0045748       0.84976        
  0.65            0.0045698       0.84956        
  0.675           0.0045688       0.84936        
  0.7             0.004564        0.84916        
  0.725           0.004559        0.84896        
  0.75            0.0045536       0.84872        
  0.775           0.0045478       0.84852        
  0.8             0.0045426       0.84832        
  0.825           0.004537        0.84812        
  0.85            0.004531        0.84792        
  0.875           0.0045252       0.84768        
  0.9             0.0045204       0.84748        
  0.925           0.0045138       0.84728        
  0.95            0.004508        0.84708        
  0.975           0.0045022       0.84688        
  1               0.0044978       0.84664        
  1.025           0.0044928       0.84644        
  1.05            0.0044866       0.84628        
  1.075           0.0044822       0.84604        
  1.1             0.0044768       0.84584        
  1.125           0.0044744       0.84568        
  1.15            0.0044718       0.84548        
  1.175           0.004472        0.84536        
  1.2             0.0044764       0.84524        
  1.225           0.0044856       0.84516        
  1.25            0.0044984       0.84508        
  1.275           0.0045154       0.84508        
  1.3             0.0045404       0.84516        
  1.325           0.0045738       0.84524        
  1.35            0.0046152       0.84544        
  1.375           0.0046716       0.84576        
  1.4             0.0047422       0.84616        
  1.425           0.0048308       0.84664        
  1.45            0.0049384       0.84728        
  1.475           0.0050706       0.84812        
  1.5             0.0052298       0.84912        
  1.525           0.0054222       0.85028        
  1.55            0.005649        0.85164        
  1.575           0.0059212       0.85324        
  1.6             0.0062424       0.85508        
  1.625           0.0066232       0.85716        
  1.65            0.0070684       0.85948        
  1.675           0.007581        0.86208        
  1.7             0.0081722       0.86484        
  1.725           0.0088384       0.86784        
  1.75            0.0095904       0.87096        
  1.775           0.0104252       0.8742         
  1.8             0.0113312       0.87752        
  1.825           0.012298        0.88076        
  1.85            0.013334        0.884          
  1.875           0.014428        0.88716        
  1.9             0.015568        0.89012        
  1.925           0.016754        0.89304        
  1.95            0.01798         0.89576        
  1.975           0.019248        0.89832        
  2               0.020542        0.90064        
END_DB

BEGIN_DB
 ICCAP_VAR vs         0              
 ICCAP_VAR ve         0              
 ICCAP_VAR ib         1.25e-005      

 #vc              ic              vb             
  0               -9.7198e-005    0.79032        
  0.025           0.00059932      0.80808        
  0.05            0.0014824       0.82332        
  0.075           0.0024886       0.83628        
  0.1             0.0035342       0.84724        
  0.125           0.004559        0.85636        
  0.15            0.0055022       0.8638         
  0.175           0.0063254       0.8698         
  0.2             0.0070084       0.87436        
  0.225           0.0075326       0.87764        
  0.25            0.0079046       0.87972        
  0.275           0.0081364       0.88088        
  0.3             0.00827         0.88144        
  0.325           0.00834         0.88156        
  0.35            0.0083728       0.88144        
  0.375           0.0083874       0.88128        
  0.4             0.0083926       0.88096        
  0.425           0.0083898       0.88064        
  0.45            0.0083846       0.88032        
  0.475           0.0083764       0.87992        
  0.5             0.008365        0.8796         
  0.525           0.008354        0.87924        
  0.55            0.008342        0.87888        
  0.575           0.0083234       0.87844        
  0.6             0.0083072       0.87808        
  0.625           0.0082952       0.87768        
  0.65            0.0082802       0.87728        
  0.675           0.008263        0.87692        
  0.7             0.0082434       0.87652        
  0.725           0.0082254       0.87608        
  0.75            0.0082048       0.87568        
  0.775           0.0081858       0.87532        
  0.8             0.0081658       0.87492        
  0.825           0.0081522       0.87456        
  0.85            0.0081346       0.87412        
  0.875           0.0081168       0.87376        
  0.9             0.0080894       0.87332        
  0.925           0.0080704       0.87296        
  0.95            0.0080538       0.87252        
  0.975           0.0080358       0.87216        
  1               0.0080164       0.8718         
  1.025           0.007999        0.8714         
  1.05            0.0079802       0.871          
  1.075           0.0079666       0.87064        
  1.1             0.0079482       0.87028        
  1.125           0.0079324       0.86992        
  1.15            0.0079202       0.8696         
  1.175           0.0079082       0.86928        
  1.2             0.0079004       0.86896        
  1.225           0.007893        0.86864        
  1.25            0.0078918       0.86836        
  1.275           0.007899        0.86816        
  1.3             0.00791         0.86796        
  1.325           0.007932        0.8678         
  1.35            0.0079602       0.86768        
  1.375           0.0080038       0.86768        
  1.4             0.008064        0.86772        
  1.425           0.0081432       0.86788        
  1.45            0.008238        0.86812        
  1.475           0.0083584       0.86848        
  1.5             0.0085006       0.86896        
  1.525           0.0086738       0.86952        
  1.55            0.0088866       0.87028        
  1.575           0.0091278       0.87116        
  1.6             0.0094072       0.87216        
  1.625           0.0097336       0.8734         
  1.65            0.0101146       0.87476        
  1.675           0.0105444       0.87628        
  1.7             0.0110326       0.87796        
  1.725           0.011576        0.8798         
  1.75            0.01219         0.88176        
  1.775           0.012872        0.88384        
  1.8             0.013612        0.886          
  1.825           0.014418        0.88824        
  1.85            0.015286        0.89052        
  1.875           0.016216        0.89276        
  1.9             0.0172          0.895          
  1.925           0.018238        0.8972         
  1.95            0.019328        0.89932        
  1.975           0.020468        0.90132        
  2               0.021648        0.9032         
END_DB

BEGIN_DB
 ICCAP_VAR vs         0              
 ICCAP_VAR ve         0              
 ICCAP_VAR ib         2.5e-005       

 #vc              ic              vb             
  0               -7.3214e-005    0.81196        
  0.025           0.00098954      0.82808        
  0.05            0.0022206       0.84224        
  0.075           0.0035644       0.85484        
  0.1             0.0049614       0.86604        
  0.125           0.0063668       0.876          
  0.15            0.0077454       0.8848         
  0.175           0.009053        0.89248        
  0.2             0.01026         0.899          
  0.225           0.011308        0.90428        
  0.25            0.012166        0.90832        
  0.275           0.012842        0.91116        
  0.3             0.013334        0.91308        
  0.325           0.013664        0.91416        
  0.35            0.013864        0.9146         
  0.375           0.013966        0.91456        
  0.4             0.014008        0.9142         
  0.425           0.01402         0.91372        
  0.45            0.014006        0.9132         
  0.475           0.013984        0.9126         
  0.5             0.013964        0.912          
  0.525           0.013932        0.91136        
  0.55            0.013896        0.91068        
  0.575           0.01386         0.91           
  0.6             0.013818        0.90936        
  0.625           0.013782        0.90872        
  0.65            0.013738        0.90804        
  0.675           0.013698        0.90736        
  0.7             0.013662        0.90672        
  0.725           0.01362         0.90604        
  0.75            0.013576        0.9054         
  0.775           0.013536        0.90476        
  0.8             0.013496        0.90408        
  0.825           0.013448        0.90344        
  0.85            0.013404        0.90276        
  0.875           0.013364        0.90212        
  0.9             0.013322        0.90148        
  0.925           0.013286        0.90084        
  0.95            0.013242        0.90016        
  0.975           0.0132          0.89952        
  1               0.013154        0.89888        
  1.025           0.013112        0.89828        
  1.05            0.013078        0.89768        
  1.075           0.013034        0.89708        
  1.1             0.012998        0.89644        
  1.125           0.012958        0.89584        
  1.15            0.012922        0.8952         
  1.175           0.012886        0.89464        
  1.2             0.012856        0.89404        
  1.225           0.012826        0.89348        
  1.25            0.012794        0.89296        
  1.275           0.012776        0.89244        
  1.3             0.01276         0.89192        
  1.325           0.012752        0.89148        
  1.35            0.012752        0.891          
  1.375           0.012764        0.89064        
  1.4             0.012782        0.89032        
  1.425           0.012826        0.89004        
  1.45            0.012878        0.8898         
  1.475           0.012956        0.88968        
  1.5             0.01305         0.8896         
  1.525           0.013174        0.88968        
  1.55            0.013322        0.8898         
  1.575           0.0135          0.89           
  1.6             0.013706        0.89032        
  1.625           0.013952        0.89076        
  1.65            0.014238        0.89132        
  1.675           0.014566        0.89196        
  1.7             0.014938        0.89276        
  1.725           0.015358        0.8936         
  1.75            0.015828        0.8946         
  1.775           0.016354        0.89568        
  1.8             0.016928        0.89684        
  1.825           0.017564        0.89812        
  1.85            0.01825         0.8994         
  1.875           0.019002        0.90072        
  1.9             0.0198          0.90212        
  1.925           0.020664        0.90348        
  1.95            0.021582        0.90488        
  1.975           0.02255         0.9062         
  2               0.023566        0.90748        
END_DB

BEGIN_DB
 ICCAP_VAR vs         0              
 ICCAP_VAR ve         0              
 ICCAP_VAR ib         5e-005         

 #vc              ic              vb             
  0               -6.9052e-005    0.83284        
  0.025           0.0013018       0.84728        
  0.05            0.0027818       0.86032        
  0.075           0.0043342       0.87216        
  0.1             0.0059212       0.88292        
  0.125           0.007521        0.8928         
  0.15            0.0091182       0.9018         
  0.175           0.0106922       0.91           
  0.2             0.012242        0.91752        
  0.225           0.01374         0.92424        
  0.25            0.015172        0.93024        
  0.275           0.016512        0.93544        
  0.3             0.017736        0.93988        
  0.325           0.018806        0.94336        
  0.35            0.019682        0.94596        
  0.375           0.020336        0.94756        
  0.4             0.02079         0.94836        
  0.425           0.021076        0.94852        
  0.45            0.02123         0.94828        
  0.475           0.0213          0.94768        
  0.5             0.021308        0.94692        
  0.525           0.021284        0.94604        
  0.55            0.021236        0.94512        
  0.575           0.021184        0.94416        
  0.6             0.021124        0.94316        
  0.625           0.021056        0.94216        
  0.65            0.02099         0.94116        
  0.675           0.020916        0.94016        
  0.7             0.020832        0.93916        
  0.725           0.020764        0.93816        
  0.75            0.02069         0.9372         
  0.775           0.020618        0.9362         
  0.8             0.020538        0.93524        
