! VERSION = 6.00
BEGIN_HEADER
 ICCAP_INPUTS
  vc         V  C GROUND SMU_C 0.1 SYNC       1 0.25 vb
  vb         V  B GROUND SMU_B 0.015 LIN        2    0.88       0.96       5    0.02      
  ve         V  E GROUND SMU_E 0 CON        0
  vs         V  S GROUND SMU_S 0 CON        0
  freq       F  LIST       1 74 100000000 200000000 300000000 400000000 500000000 600000000 700000000 800000000 900000000 1000000000 2000000000 3000000000 4000000000 5000000000 6000000000 7000000000 8000000000 9000000000 10000000000 11000000000 12000000000 13000000000 14000000000 15000000000 16000000000 17000000000 18000000000 19000000000 20000000000 21000000000 22000000000 23000000000 24000000000 25000000000 26000000000 27000000000 28000000000 29000000000 30000000000 31000000000 32000000000 33000000000 34000000000 35000000000 36000000000 37000000000 38000000000 39000000000 40000000000 41000000000 42000000000 43000000000 44000000000 45000000000 46000000000 47000000000 48000000000 49000000000 50000000000 51000000000 52000000000 53000000000 54000000000 55000000000 56000000000 57000000000 58000000000 59000000000 60000000000 61000000000 62000000000 63000000000 64000000000 65000000000
 ICCAP_OUTPUTS
  ic         I  C GROUND SMU_C B
  S_deemb    S  B C GROUND n/a B
  GU         U
  GMAG       U
  h          H
  GU_f       U
  h21_f      U
END_HEADER

BEGIN_DB
 ICCAP_VAR vc         1.13           
 ICCAP_VAR vb         0.88           
 ICCAP_VAR ve         0              
 ICCAP_VAR vs         0              

 #freq            ic              R:S_deemb(1,1)  I:S_deemb(1,1)  R:S_deemb(1,2)  I:S_deemb(1,2)  R:S_deemb(2,1)  I:S_deemb(2,1)  R:S_deemb(2,2)  I:S_deemb(2,2)  R:GU(1,1)       I:GU(1,1)       R:GMAG(1,1)     I:GMAG(1,1)     R:h(1,1)        I:h(1,1)        R:h(1,2)        I:h(1,2)        R:h(2,1)        I:h(2,1)        R:h(2,2)        I:h(2,2)        R:GU_f(1,1)     I:GU_f(1,1)     R:h21_f(1,1)    I:h21_f(1,1)   
  1e+008          0.0097744       0.965115        -0.0123232      -8.51155e-005   0.00121173      -15.6397        0.304526        0.982996        0.0220589       109037          0               391.813         -12871.7        2768.65         -219.738        0.000651        0.0346286       443.396         -48.2506        0.000438754     0.00523289      3.30207e+010    0               4.46014e+010    0              
  2e+008          0.0097744       0.965299        -0.0268708      0.000136361     0.00230604      -15.5469        0.348789        0.993532        -0.00276065     29144.9         0               530.898         -6710.79        2755.43         -751.45         0.0211344       0.0639054       435.118         -126.42         0.00357117      0.00992624      3.41437e+010    0               9.06222e+010    0              
  3e+008          0.0097744       0.965382        -0.0407001      3.83551e-005    0.00333986      -15.5051        0.431209        0.995882        -0.0190424      356045          0               45.5005         -4643.71        2432.71         -1082.34        0.0363853       0.0830214       382.737         -175.24         0.00592929      0.0129893       1.79009e+011    0               1.26284e+011    0              
  4e+008          0.0097744       0.96427         -0.0547728      0.000187367     0.00446011      -15.4974        0.546858        0.996056        -0.0336689      54587.8         0               87.2123         -3472.67        2137.21         -1310.91        0.061065        0.0963136       335.987         -209.875        0.00979434      0.0151236       9.34561e+010    0               1.5846e+011     0              
  5e+008          0.0097744       0.96309         -0.0677158      0.000254696     0.00559679      -15.4937        0.66298         0.995824        -0.0466685      66355.8         0               50.2259         -2767.53        1895.85         -1386.29        0.0802033       0.10747         298.077         -221.194        0.0128127       0.0169204       1.28798e+011    0               1.85591e+011    0              
  6e+008          0.0097744       0.962521        -0.0819326      0.000328263     0.00665256      -15.4995        0.793223        0.995336        -0.0588112      118122          0               27.2428         -2329.91        1591.35         -1470.05        0.100255        0.107565        250.206         -234.058        0.0159769       0.0169743       2.06213e+011    0               2.0557e+011     0              
  7e+008          0.0097744       0.96075         -0.096171       0.000479616     0.00777807      -15.4567        0.923761        0.993858        -0.0710052      60790.9         0               28.7152         -1986.78        1340.37         -1465.36        0.117256        0.105603        210.272         -232.589        0.0186265       0.0166621       1.72591e+011    0               2.19483e+011    0              
  8e+008          0.0097744       0.958961        -0.10921        0.000647113     0.00885341      -15.4534        1.05228         0.992826        -0.0825325      39016.3         0               30.3386         -1744.6         1163.06         -1441.11        0.131623        0.103876        182.388         -228.759        0.0209026       0.016414        1.5802e+011     0               2.34055e+011    0              
  9e+008          0.0097744       0.957503        -0.122646       0.000750546     0.0099573       -15.4557        1.1943          0.991773        -0.0938883      74168.8         0               19.1731         -1552.3         1008.42         -1400.64        0.14321         0.10202         157.958         -222.62         0.0227711       0.0161317       2.45106e+011    0               2.45669e+011    0              
  1e+009          0.0097744       0.954919        -0.136383       0.000963844     0.0110924       -15.4131        1.33152         0.989606        -0.105421       42129.7         0               22.2182         -1389.28        873.408         -1343.68        0.153574        0.0980819       136.387         -213.317        0.0243906       0.015493        2.05255e+011    0               2.53191e+011    0              
  2e+009          0.0097744       0.922352        -0.266648       0.0036317       0.0215535       -15.1204        2.60019         0.963112        -0.212039       22197.6         0               13.4644         -701.802        281.09          -859.968        0.194402        0.0618819       42.9766         -136.603        0.0308947       0.00988002      2.97977e+011    0               2.86407e+011    0              
  3e+009          0.0097744       0.870173        -0.388268       0.00780605      0.0312758       -14.6019        3.75711         0.921547        -0.308646       15477.6         0               10.4581         -467.617        135.04          -598.081        0.202628        0.0441896       19.9814         -94.9232        0.0321877       0.00717478      3.73228e+011    0               2.9101e+011     0              
  4e+009          0.0097744       0.803332        -0.495036       0.013248        0.039861        -13.965         4.8287          0.868131        -0.394764       9396.37         0               10.8172         -351.608        78.9442         -459.606        0.207313        0.0336484       10.9583         -73.0648        0.032982        0.00550941      3.87739e+011    0               2.95528e+011    0              
  5e+009          0.0097744       0.724685        -0.586672       0.0196106       0.0473101       -13.2335        5.73409         0.806183        -0.468378       6287.95         0               10.7906         -281.406        53.5636         -373.17         0.210753        0.0278722       6.90295         -59.4683        0.0336049       0.0046035       3.96483e+011    0               2.99338e+011    0              
  6e+009          0.0097744       0.640374        -0.662286       0.026474        0.0533006       -12.3671        6.45506         0.738711        -0.528857       5014.3          0               10.1797         -234.187        38.0736         -310.939        0.210373        0.0232979       4.47104         -49.4126        0.0334594       0.0039544       4.2487e+011     0               2.97687e+011    0              
  7e+009          0.0097744       0.550552        -0.72232        0.0338144       0.0582383       -11.5236        7.06969         0.667722        -0.577613       3492.34         0               10.6337         -200.472        28.9298         -268.893        0.212937        0.0198359       2.94503         -42.8317        0.0339278       0.00336572      4.13672e+011    0               3.0053e+011     0              
  8e+009          0.0097744       0.461287        -0.766829       0.0410189       0.0617107       -10.6575        7.50103         0.597491        -0.613366       2614.29         0               10.6016         -175.559        23.4737         -235.211        0.212684        0.0176357       2.10381         -37.4759        0.0338936       0.00307271      4.09041e+011    0               3.00279e+011    0              
  9e+009          0.0097744       0.374584        -0.798999       0.0480836       0.0641984       -9.79469        7.79641         0.52787         -0.639131       2100.52         0               10.3903         -155.731        19.463          -208.811        0.212563        0.0158627       1.49829         -33.2348        0.0338529       0.00286796      4.12482e+011    0               2.99417e+011    0              
  1e+010          0.0097744       0.290967        -0.819632       0.0548314       0.0657903       -8.99568        8.06357         0.462343        -0.657155       1733.05         0               10.8176         -140.642        15.7724         -188.604        0.212981        0.0134559       0.814937        -30.0915        0.0339557       0.0024142       4.16299e+011    0               3.01025e+011    0              
  1.1e+010        0.0097744       0.212095        -0.831421       0.0612329       0.0665887       -8.21512        8.11344         0.399283        -0.667895       1463.86         0               10.1107         -127.234        14.791          -170.572        0.212465        0.013792        0.792696        -27.1636        0.0338514       0.00268475      4.20865e+011    0               2.98926e+011    0              
  1.2e+010        0.0097744       0.137983        -0.83436        0.0672414       0.066812        -7.49478        8.2082          0.340139        -0.671176       1193.83         0               10.7017         -116.771        12.3795         -156.851        0.213197        0.0115724       0.301165        -25.0345        0.0339986       0.00222212      4.14622e+011    0               3.00435e+011    0              
  1.3e+010        0.0097744       0.0701935       -0.83139        0.0725424       0.0663884       -6.83537        8.17697         0.285675        -0.669202       1009.04         0               10.6769         -107.853        11.5769         -144.453        0.212773        0.0113309       0.1926          -23.0923        0.0340063       0.00225053      4.12951e+011    0               3.0021e+011     0              
  1.4e+010        0.0097744       0.00867928      -0.823221       0.0777387       0.06576         -6.26047        8.1064          0.236882        -0.664618       789.811         0               10.8758         -100.002        10.7669         -134.804        0.214208        0.0102657       0.0730193       -21.5722        0.0342381       0.00210513      3.9345e+011     0               3.02012e+011    0              
  1.5e+010        0.0097744       -0.0480697      -0.812676       0.0823747       0.0647165       -5.66136        8.049           0.192336        -0.656691       717.053         0               11.118          -93.2781        8.94243         -125.241        0.212889        0.00818511      -0.290444       -20.0111        0.0339165       0.00172968      4.01668e+011    0               3.00199e+011    0              
  1.6e+010        0.0097744       -0.0976118      -0.799272       0.0863825       0.0633813       -5.18023        7.87284         0.151038        -0.646653       602.214         0               10.9046         -87.2829        8.98312         -117.312        0.212945        0.00850995      -0.207961       -18.7447        0.0339801       0.00196215      3.92641e+011    0               2.99934e+011    0              
  1.7e+010        0.0097744       -0.145317       -0.782918       0.0902716       0.0620533       -4.69048        7.74596         0.113478        -0.634653       537.795         0               11.116          -81.9149        8.10466         -110.128        0.212719        0.00744106      -0.400703       -17.5908        0.0338858       0.00174459      3.94237e+011    0               2.9912e+011     0              
  1.8e+010        0.0097744       -0.186409       -0.767264       0.0935062       0.0603114       -4.3036         7.56521         0.080643        -0.623026       464.832         0               10.9231         -77.4549        7.99981         -103.719        0.211878        0.00740157      -0.343577       -16.58          0.033806        0.0019447       3.88079e+011    0               2.98503e+011    0              
  1.9e+010        0.0097744       -0.224448       -0.749284       0.0960411       0.058745        -3.93655        7.44407         0.049788        -0.609809       432.958         0               11.1244         -73.9651        7.68626         -98.3702        0.211372        0.0073542       -0.438771       -15.8134        0.0339026       0.00188606      3.95345e+011    0               3.00571e+011    0              
  2e+010          0.0097744       -0.256689       -0.731881       0.0986315       0.0571572       -3.5517         7.21047         0.0223232       -0.594435       396.259         0               11.0196         -69.6426        7.47811         -92.6731        0.210103        0.00761851      -0.463558       -14.8166        0.0336023       0.00205948      3.98125e+011    0               2.96477e+011    0              
  2.1e+010        0.0097744       -0.288027       -0.714418       0.100748        0.0555916       -3.3147         7.07617         -0.003302       -0.580815       343.423         0               11.1907         -66.9799        7.49863         -88.9495        0.211169        0.00737355      -0.448135       -14.3419        0.0340558       0.00200654      3.89165e+011    0               3.01326e+011    0              
  2.2e+010        0.0097744       -0.319067       -0.697119       0.103273        0.0544626       -2.97125        6.92163         -0.0277144      -0.569064       356.157         0               10.9742         -63.5751        6.86799         -84.6017        0.211154        0.00757214      -0.599209       -13.6183        0.0339633       0.00198286      4.15187e+011    0               2.99891e+011    0              
  2.3e+010        0.0097744       -0.342268       -0.680545       0.105169        0.0529742       -2.75861        6.71013         -0.0448939      -0.555848       304.099         0               10.9395         -60.6312        7.17836         -80.8951        0.210969        0.00805468      -0.499338       -12.9977        0.0339179       0.00220076      4.01084e+011    0               2.99168e+011    0              
  2.4e+010        0.0097744       -0.363285       -0.664774       0.106663        0.0516259       -2.54509        6.56878         -0.0584698      -0.540583       273.605         0               11.2604         -58.3719        6.77727         -77.5636        0.209719        0.00693636      -0.599381       -12.4598        0.0336802       0.00193273      3.96984e+011    0               2.99381e+011    0              
  2.5e+010        0.0097744       -0.382557       -0.645206       0.10793         0.0500243       -2.3106         6.34373         -0.0771091      -0.525039       242.386         0               11.4289         -55.5914        7.09107         -73.9963        0.209272        0.00787342      -0.559722       -11.8723        0.0336744       0.00216026      3.89219e+011    0               2.97136e+011    0              
  2.6e+010        0.0097744       -0.403109       -0.625457       0.109251        0.0485849       -2.1214         6.18657         -0.0981505      -0.505393       209.328         0               11.939          -53.38          6.86551         -71.3569        0.210957        0.00660443      -0.655497       -11.5262        0.0342062       0.00174485      3.76173e+011    0               3.00164e+011    0              
  2.7e+010        0.0097744       -0.427063       -0.611442       0.110855        0.0472476       -1.96036        6.07416         -0.116437       -0.500236       214.027         0               11.332          -51.7401        6.78387         -68.8409        0.211677        0.00783084      -0.602575       -11.2032        0.0345397       0.00212162      3.95001e+011    0               3.02925e+011    0              
  2.8e+010        0.0097744       -0.445947       -0.596049       0.112442        0.0456851       -1.76217        5.93301         -0.133862       -0.491931       214.11          0               11.0015         -49.794         6.37974         -66.2104        0.211774        0.0078464       -0.649946       -10.7872        0.0345684       0.00229899      4.0971e+011     0               3.0259e+011     0              
  2.9e+010        0.0097744       -0.459426       -0.584541       0.112866        0.045186        -1.64365        5.77549         -0.138629       -0.482547       209.054         0               10.918          -48.17          6.83897         -63.7641        0.210115        0.0102406       -0.569611       -10.3747        0.0343412       0.0026568       4.19302e+011    0               3.01319e+011    0              
  3e+010          0.0097744       -0.4709         -0.571197       0.114177        0.0449323       -1.55166        5.64086         -0.145767       -0.472423       189.646         0               11.0373         -46.3853        7.08706         -62.2562        0.212064        0.010911        -0.557347       -10.1093        0.0345548       0.00256022      4.13136e+011    0               3.0374e+011     0              
  3.1e+010        0.0097744       -0.487186       -0.555175       0.115584        0.0426776       -1.39739        5.52419         -0.160423       -0.45973        171.989         0               11.0829         -44.8997        6.30642         -59.9291        0.211541        0.00806992      -0.663428       -9.76781        0.0345013       0.00227445      4.06548e+011    0               3.035e+011      0              
  3.2e+010        0.0097744       -0.499321       -0.540017       0.116585        0.0417627       -1.25189        5.40202         -0.172325       -0.449368       168.192         0               11.1262         -43.3729        6.10265         -58.1023        0.21225         0.00816889      -0.739048       -9.48224        0.0346223       0.00219712      4.15004e+011    0               3.04352e+011    0              
  3.3e+010        0.0097744       -0.509566       -0.526277       0.117139        0.0405498       -1.16465        5.23678         -0.180152       -0.4403         150.873         0               11.1189         -41.8255        6.49739         -56.0829        0.211869        0.0094105       -0.642265       -9.15587        0.0346432       0.00254725      4.0534e+011     0               3.02886e+011    0              
  3.4e+010        0.0097744       -0.52009        -0.512567       0.117941        0.0398544       -1.08158        5.12819         -0.186693       -0.430817       140.451         0               11.2342         -40.5723        6.58344         -54.5677        0.212437        0.0097233       -0.646454       -8.92935        0.0347498       0.00247031      4.02941e+011    0               3.04392e+011    0              
