! VERSION = 6.00
!Data measured by ggf on Tue Jan 23 13:39:52 2018 using model file NPN_MEAS_SCALE
BEGIN_HEADER
 ICCAP_INPUTS
  vc         V  C GROUND SMU_C 0.1 CON        0
  vs         V  S GROUND SMU_S 0.015 CON        0
  vb         V  B GROUND SMU_B 0.015 LIN        1    0          -2         81   -0.025    
  ve         V  E GROUND SMU_E 0.2 CON        0
 ICCAP_OUTPUTS
  ic         I  C GROUND SMU_C M
  ib         I  B GROUND SMU_B M
 ICCAP_VALUES
  TNOM "27"
  TEMP "27"
  TECHNO "SG13G2"
  LOT "EDJ802"
  WAFER "02"
  CHIP "(3.3)"
  MODULE "S439S"
  DEV_NAME "D12"
  DEV_GEOM_L "5.0"
  DEV_GEOM_W "0.07"
  NUM_OF_TRANS_RF "2"
  REMARKS "Nx=1; Power -30/-20dBm, Slope: 0.1dB/GHz"
  TIMEDATE "Tue Jan 23 13:21:27     2018"
  OPERATOR "ggf"
END_HEADER

BEGIN_DB
 ICCAP_VAR vc         0              
 ICCAP_VAR vs         0              
 ICCAP_VAR ve         0              

 #vb              ic              ib             
  0               -7.4e-013       -6.06e-011     
  -0.025          4.0668e-010     -6.988e-011    
  -0.05           5.0566e-010     -7.702e-011    
  -0.075          5.2724e-010     -9.422e-011    
  -0.1            6.2036e-010     -1.1966e-010   
  -0.125          6.1318e-010     -1.628e-010    
  -0.15           5.875e-010      -2.3086e-010   
  -0.175          5.881e-010      -3.2766e-010   
  -0.2            6.0734e-010     -4.7056e-010   
  -0.225          6.021e-010      -6.6772e-010   
  -0.25           6.0438e-010     -9.388e-010    
  -0.275          8.4734e-010     -1.3162e-009   
  -0.3            8.8938e-010     -1.8128e-009   
  -0.325          8.9122e-010     -2.4842e-009   
  -0.35           8.722e-010      -3.3628e-009   
  -0.375          8.788e-010      -4.5084e-009   
  -0.4            9.2318e-010     -5.9906e-009   
  -0.425          9.6472e-010     -7.8892e-009   
  -0.45           9.7666e-010     -1.0308e-008   
  -0.475          -1.428e-010     -1.3366e-008   
  -0.5            3.5922e-010     -1.7182e-008   
  -0.525          2.0326e-010     -2.195e-008    
  -0.55           3.0268e-010     -2.7832e-008   
  -0.575          3.8108e-010     -3.5094e-008   
  -0.6            3.9596e-010     -4.3928e-008   
  -0.625          3.855e-010      -5.466e-008    
  -0.65           4.9634e-010     -6.7718e-008   
  -0.675          5.5008e-010     -8.333e-008    
  -0.7            6.3806e-010     -1.022e-007    
  -0.725          7.4396e-010     -1.2454e-007   
  -0.75           5.242e-010      -1.5102e-007   
  -0.775          8.7614e-010     -1.8214e-007   
  -0.8            7.802e-010      -2.1896e-007   
  -0.825          9.5402e-010     -2.6178e-007   
  -0.85           1.06084e-009    -3.1202e-007   
  -0.875          2.756e-009      -3.7002e-007   
  -0.9            3.49e-010       -4.3746e-007   
  -0.925          1.6382e-009     -5.15e-007     
  -0.95           1.6854e-009     -6.044e-007    
  -0.975          1.7942e-009     -7.0718e-007   
  -1              1.9138e-009     -8.24e-007     
  -1.025          1.8658e-009     -9.5738e-007   
  -1.05           2.0622e-009     -1.1088e-006   
  -1.075          2.6498e-009     -1.2802e-006   
  -1.1            2.6572e-009     -1.4728e-006   
  -1.125          2.8308e-009     -1.6926e-006   
  -1.15           3.167e-009      -1.9372e-006   
  -1.175          3.443e-009      -2.2128e-006   
  -1.2            3.6268e-009     -2.5206e-006   
  -1.225          4.0058e-009     -2.8636e-006   
  -1.25           4.1972e-009     -3.243e-006    
  -1.275          4.5668e-009     -3.6688e-006   
  -1.3            4.7398e-009     -4.1392e-006   
  -1.325          5.234e-009      -4.6624e-006   
  -1.35           5.478e-009      -5.236e-006    
  -1.375          5.8732e-009     -5.8732e-006   
  -1.4            6.298e-009      -6.5712e-006   
  -1.425          6.7308e-009     -7.3412e-006   
  -1.45           7.1044e-009     -8.1826e-006   
  -1.475          7.5824e-009     -9.1082e-006   
  -1.5            8.0744e-009     -1.01158e-005  
  -1.525          8.616e-009      -1.12202e-005  
  -1.55           9.468e-009      -1.2412e-005   
  -1.575          9.7764e-009     -1.3722e-005   
  -1.6            1.03006e-008    -1.5146e-005   
  -1.625          1.10298e-008    -1.6684e-005   
  -1.65           1.5852e-008     -1.836e-005    
  -1.675          1.237e-008      -2.017e-005    
  -1.7            1.3158e-008     -2.2134e-005   
  -1.725          1.4024e-008     -2.4242e-005   
  -1.75           1.495e-008      -2.6528e-005   
  -1.775          1.6056e-008     -2.8986e-005   
  -1.8            1.7196e-008     -3.163e-005    
  -1.825          1.8566e-008     -3.4466e-005   
  -1.85           1.9822e-008     -3.7528e-005   
  -1.875          2.141e-008      -4.0816e-005   
  -1.9            2.3152e-008     -4.4334e-005   
  -1.925          2.531e-008      -4.8082e-005   
  -1.95           2.757e-008      -5.2108e-005   
  -1.975          3.0188e-008     -5.64e-005     
  -2              3.3284e-008     -6.099e-005    
END_DB

