! VERSION = 6.00
!Data measured by ggf on Tue Jan 23 13:39:52 2018 using model file NPN_MEAS_SCALE
BEGIN_HEADER
 ICCAP_INPUTS
  vc         V  C GROUND SMU_C 0.2 SYNC       1 0.25 vb
  ve         V  E GROUND SMU_E 0 CON        0
  vs         V  S GROUND SMU_S 0 CON        0
  freq       F  LIST       1 74 100000000 200000000 300000000 400000000 500000000 600000000 700000000 800000000 900000000 1000000000 2000000000 3000000000 4000000000 5000000000 6000000000 7000000000 8000000000 9000000000 10000000000 11000000000 12000000000 13000000000 14000000000 15000000000 16000000000 17000000000 18000000000 19000000000 20000000000 21000000000 22000000000 23000000000 24000000000 25000000000 26000000000 27000000000 28000000000 29000000000 30000000000 31000000000 32000000000 33000000000 34000000000 35000000000 36000000000 37000000000 38000000000 39000000000 40000000000 41000000000 42000000000 43000000000 44000000000 45000000000 46000000000 47000000000 48000000000 49000000000 50000000000 51000000000 52000000000 53000000000 54000000000 55000000000 56000000000 57000000000 58000000000 59000000000 60000000000 61000000000 62000000000 63000000000 64000000000 65000000000
  vb         V  B GROUND SMU_B 0.015 LIN        2    0.68       1.04       37   0.01      
 ICCAP_OUTPUTS
  ic         I  C GROUND SMU_C M
  ib         I  B GROUND SMU_B M
  S          S  B C GROUND NWA M
  S_deemb    S B C GROUND n/a B
 ICCAP_VALUES
  TNOM "27"
  TEMP "27"
  TECHNO "SG13G2"
  LOT "EDJ802"
  WAFER "02"
  CHIP "(3.3)"
  MODULE "S439S"
  DEV_NAME "D12"
  DEV_GEOM_L "5.0"
  DEV_GEOM_W "0.07"
  NUM_OF_TRANS_RF "2"
  REMARKS "Nx=1; Power -30/-20dBm, Slope: 0.1dB/GHz"
  TIMEDATE "Tue Jan 23 13:21:27     2018"
  OPERATOR "ggf"
END_HEADER

BEGIN_DB
 ICCAP_VAR vc         0.93           
 ICCAP_VAR ve         0              
 ICCAP_VAR vs         0              
 ICCAP_VAR vb         0.68           

 #freq            ic              ib              R:S(1,1)        I:S(1,1)        R:S(1,2)        I:S(1,2)        R:S(2,1)        I:S(2,1)        R:S(2,2)        I:S(2,2)        R:S_deemb(1,1)  I:S_deemb(1,1)  R:S_deemb(1,2)  I:S_deemb(1,2)  R:S_deemb(2,1)  I:S_deemb(2,1)  R:S_deemb(2,2)  I:S_deemb(2,2) 
  1e+008          1.397e-005      1.8312e-008     0.999476        -0.00407453     -2.03014e-005   0.00126167      -0.0590115      0.000533833     1.00011         -0.00282953     0.999499        -0.00277075     -3.1665e-005    0.00114144      -0.0591477      0.000355282     1.00014         -0.00140706    
  2e+008          1.397e-005      1.8312e-008     0.999962        -0.00827815     5.22063e-005    0.00241685      -0.0569117      0.00203642      1.00021         -0.00616892     0.999948        -0.00589835     9.03121e-005    0.00226732      -0.056988       0.0018658       1.00028         -0.00377412    
  3e+008          1.397e-005      1.8312e-008     1.00009         -0.0121203      4.06939e-005    0.00351669      -0.0571565      0.00348441      1.00004         -0.00826871     0.999995        -0.00878353     2.23604e-005    0.00330691      -0.0571311      0.00313678      0.999912        -0.00478154    
  4e+008          1.397e-005      1.8312e-008     1.00014         -0.0161357      7.93883e-005    0.00469805      -0.0564347      0.00503674      0.999848        -0.0110921      0.999863        -0.0116434      7.19155e-005    0.00446937      -0.0564946      0.00450237      0.999992        -0.00646157    
  5e+008          1.397e-005      1.8312e-008     1.00008         -0.0208409      0.000122933     0.00590746      -0.0571573      0.00645825      0.999952        -0.0138107      0.999781        -0.0146835      9.67612e-005    0.00561986      -0.0572274      0.00585286      0.999995        -0.00814152    
  6e+008          1.397e-005      1.8312e-008     0.999811        -0.0243682      0.00017586      0.00705843      -0.0570152      0.00783705      0.999967        -0.0165442      0.999901        -0.0174763      9.685e-005      0.00668512      -0.0570123      0.00705217      0.999964        -0.00977101    
  7e+008          1.397e-005      1.8312e-008     0.999756        -0.0282243      0.00020366      0.00825472      -0.0570314      0.00932363      0.999767        -0.0193424      0.999757        -0.0204799      0.000143808     0.0078639       -0.0571028      0.00842398      0.999808        -0.0114123     
  8e+008          1.397e-005      1.8312e-008     0.999592        -0.0323902      0.000283025     0.00943627      -0.0571686      0.0107341       0.999699        -0.0220492      0.999685        -0.0233126      0.000187511     0.00896851      -0.0572395      0.00974977      0.999757        -0.0130587     
  9e+008          1.397e-005      1.8312e-008     0.999486        -0.0364211      0.000364445     0.0106165       -0.0564918      0.0122409       0.999674        -0.0248362      0.999543        -0.0263678      0.000208017     0.0100705       -0.0566671      0.0111532       0.999857        -0.0147024     
  1e+009          1.397e-005      1.8312e-008     0.99919         -0.0404913      0.000423554     0.0118052       -0.0570346      0.0138765       0.999455        -0.02758        0.999521        -0.0292219      0.000287614     0.0112482       -0.0572341      0.0126385       0.999675        -0.0163493     
  2e+009          1.397e-005      1.8312e-008     0.996077        -0.0805786      0.00169085      0.0234822       -0.0544056      0.0276697       0.997537        -0.054849       0.997575        -0.0582407      0.00113889      0.0223296       -0.0551392      0.025251        0.998557        -0.0324159     
  3e+009          1.397e-005      1.8312e-008     0.991221        -0.120823       0.00371354      0.0349993       -0.0529573      0.0411537       0.994663        -0.0813218      0.995026        -0.0875264      0.00240832      0.0333848       -0.0544692      0.0376291       0.997025        -0.0480996     
  4e+009          1.397e-005      1.8312e-008     0.98449         -0.160118       0.00652235      0.0463784       -0.0499477      0.054812        0.990959        -0.107803       0.991067        -0.116228       0.00422433      0.0443783       -0.052643       0.0503068       0.995224        -0.0638053     
  5e+009          1.397e-005      1.8312e-008     0.975872        -0.198858       0.0101078       0.0574918       -0.0453061      0.0680246       0.986224        -0.13394        0.986233        -0.144616       0.00652393      0.0552577       -0.0495232      0.0626108       0.992828        -0.079188      
  6e+009          1.397e-005      1.8312e-008     0.965683        -0.236192       0.0143834       0.0682551       -0.0402539      0.0807254       0.980471        -0.159948       0.9804          -0.17213        0.00931215      0.0659193       -0.0462509      0.0746828       0.990147        -0.0944261     
  7e+009          1.397e-005      1.8312e-008     0.953144        -0.274872       0.01948         0.0788704       -0.0345438      0.0933477       0.974116        -0.185477       0.973412        -0.200867       0.0126575       0.07666         -0.0427546      0.086832        0.986955        -0.109693      
  8e+009          1.397e-005      1.8312e-008     0.939759        -0.311221       0.0251985       0.0888262       -0.0283039      0.10528         0.96679         -0.210303       0.965511        -0.228153       0.0164463       0.0868886       -0.0387629      0.0986359       0.983485        -0.124609      
  9e+009          1.397e-005      1.8312e-008     0.924315        -0.34614        0.0315693       0.0984425       -0.0210776      0.116472        0.95859         -0.234965       0.956595        -0.255214       0.0207691       0.0970948       -0.034077       0.10993         0.979647        -0.139365      
  1e+010          1.397e-005      1.8312e-008     0.907476        -0.382402       0.038527        0.107365        -0.012286       0.127502        0.949562        -0.259261       0.946814        -0.281771       0.0253149       0.106817        -0.0280798      0.121358        0.975373        -0.153921      
  1.1e+010        1.397e-005      1.8312e-008     0.889246        -0.414111       0.0458849       0.116048        -0.00470879     0.137635        0.940246        -0.282748       0.936111        -0.307724       0.0303934       0.116553        -0.0232643      0.132112        0.970962        -0.16836       
  1.2e+010        1.397e-005      1.8312e-008     0.86924         -0.446924       0.0540134       0.124125        0.00470171      0.147442        0.929594        -0.305867       0.924177        -0.33316        0.0358977       0.125997        -0.0171095      0.142868        0.965782        -0.182609      
  1.3e+010        1.397e-005      1.8312e-008     0.848428        -0.477577       0.062337        0.13156         0.0137078       0.156592        0.918118        -0.327868       0.911673        -0.357971       0.0416542       0.135142        -0.011252       0.153531        0.960584        -0.196406      
  1.4e+010        1.397e-005      1.8312e-008     0.826569        -0.506951       0.0716264       0.138293        0.0243704       0.164958        0.906498        -0.34983        0.89848         -0.381849       0.0482912       0.144065        -0.00383829     0.163697        0.954927        -0.210277      
  1.5e+010        1.397e-005      1.8312e-008     0.803831        -0.534428       0.0809948       0.144036        0.0357694       0.171033        0.894581        -0.370516       0.884081        -0.404871       0.0552256       0.152194        0.00472741      0.17208         0.949126        -0.223345      
  1.6e+010        1.397e-005      1.8312e-008     0.780384        -0.561332       0.0903506       0.149376        0.0459539       0.178079        0.882021        -0.390812       0.869816        -0.427424       0.0620922       0.160148        0.0117689       0.181436        0.942686        -0.236495      
  1.7e+010        1.397e-005      1.8312e-008     0.756039        -0.586149       0.100362        0.153844        0.0574327       0.183366        0.868087        -0.410458       0.854411        -0.44933        0.0698321       0.167665        0.0204136       0.189873        0.93622         -0.249406      
  1.8e+010        1.397e-005      1.8312e-008     0.730901        -0.609904       0.109952        0.157622        0.0681458       0.188614        0.854689        -0.429932       0.838404        -0.470402       0.0772011       0.174733        0.0282779       0.198084        0.929832        -0.262141      
  1.9e+010        1.397e-005      1.8312e-008     0.706243        -0.631406       0.119647        0.161135        0.0800004       0.193022        0.841084        -0.448909       0.82213         -0.490052       0.0846579       0.181616        0.0372408       0.206073        0.922693        -0.274066      
  2e+010          1.397e-005      1.8312e-008     0.680189        -0.652528       0.129511        0.163607        0.0901276       0.195857        0.826525        -0.464844       0.805692        -0.50978        0.092859        0.187784        0.0453318       0.212474        0.915219        -0.285607      
  2.1e+010        1.397e-005      1.8312e-008     0.654809        -0.671978       0.139182        0.165588        0.101788        0.199644        0.81021         -0.480407       0.788787        -0.527996       0.101121        0.193801        0.054692        0.220554        0.907661        -0.297626      
  2.2e+010        1.397e-005      1.8312e-008     0.628914        -0.689352       0.149297        0.166954        0.11291         0.200811        0.794           -0.498041       0.77144         -0.545302       0.109903        0.199526        0.0642225       0.226123        0.900631        -0.309376      
  2.3e+010        1.397e-005      1.8312e-008     0.602704        -0.706147       0.15879         0.167507        0.123777        0.202473        0.782681        -0.515507       0.753493        -0.562473       0.117951        0.204112        0.0730855       0.231869        0.893756        -0.319548      
  2.4e+010        1.397e-005      1.8312e-008     0.576884        -0.722277       0.167299        0.167868        0.134165        0.203563        0.774018        -0.522862       0.73607         -0.578575       0.125803        0.207531        0.0824601       0.236261        0.886175        -0.326888      
  2.5e+010        1.397e-005      1.8312e-008     0.549752        -0.73751        0.176878        0.170071        0.143936        0.206569        0.771651        -0.528942       0.718163        -0.594038       0.134522        0.211748        0.0912772       0.241301        0.876923        -0.337666      
  2.6e+010        1.397e-005      1.8312e-008     0.524608        -0.750558       0.189042        0.167897        0.157462        0.205271        0.747531        -0.554996       0.700567        -0.608582       0.144881        0.21501         0.102173        0.245469        0.86401         -0.348831      
  2.7e+010        1.397e-005      1.8312e-008     0.49644         -0.763105       0.197179        0.166366        0.168291        0.20483         0.714075        -0.569986       0.680425        -0.623519       0.153653        0.220236        0.113033        0.252515        0.858111        -0.361759      
  2.8e+010        1.397e-005      1.8312e-008     0.470449        -0.773227       0.206684        0.164228        0.177968        0.201863        0.693576        -0.59143        0.661627        -0.636073       0.162643        0.22477         0.1214          0.255952        0.850945        -0.373986      
  2.9e+010        1.397e-005      1.8312e-008     0.444869        -0.783801       0.213684        0.162351        0.186274        0.200679        0.682045        -0.60176        0.643315        -0.649211       0.169616        0.227344        0.128995        0.259458        0.845541        -0.37998       
  3e+010          1.397e-005      1.8312e-008     0.4188          -0.791391       0.221928        0.161229        0.196406        0.199612        0.673623        -0.609217       0.624186        -0.659788       0.178291        0.229682        0.139437        0.262506        0.838545        -0.387946      
  3.1e+010        1.397e-005      1.8312e-008     0.391534        -0.800869       0.23042         0.158265        0.207213        0.197066        0.657657        -0.617697       0.605312        -0.671992       0.187374        0.231172        0.150623        0.264911        0.828455        -0.396774      
  3.2e+010        1.397e-005      1.8312e-008     0.367062        -0.806415       0.239216        0.155222        0.216118        0.19326         0.638716        -0.628878       0.586289        -0.681407       0.197287        0.233171        0.160467        0.266451        0.819555        -0.406657      
  3.3e+010        1.397e-005      1.8312e-008     0.340799        -0.810885       0.24727         0.152155        0.225301        0.191141        0.623821        -0.641731       0.565827        -0.69053        0.205983        0.235192        0.169837        0.269451        0.812379        -0.415664      
  3.4e+010        1.397e-005      1.8312e-008     0.313944        -0.814594       0.255161        0.147838        0.235028        0.187398        0.610544        -0.650829       0.545186        -0.699355       0.215203        0.235418        0.180141        0.271006        0.804471        -0.423187      
  3.5e+010        1.397e-005      1.8312e-008     0.291022        -0.819392       0.261945        0.143906        0.243387        0.182799        0.594719        -0.659109       0.527613        -0.707981       0.223628        0.235766        0.190221        0.271278        0.794833        -0.431266      
  3.6e+010        1.397e-005      1.8312e-008     0.267642        -0.821552       0.268656        0.139454        0.250271        0.178649        0.575619        -0.667732       0.509291        -0.714472       0.232462        0.235936        0.198853        0.272132        0.785419        -0.43901       
  3.7e+010        1.397e-005      1.8312e-008     0.245627        -0.822537       0.275166        0.134965        0.257869        0.174318        0.561432        -0.678242       0.490851        -0.719734       0.240309        0.235535        0.207386        0.271873        0.777851        -0.44757       
  3.8e+010        1.397e-005      1.8312e-008     0.223874        -0.823701       0.281597        0.130228        0.266787        0.169726        0.546404        -0.685615       0.472828        -0.725465       0.248431        0.234789        0.217953        0.271981        0.769516        -0.454012      
  3.9e+010        1.397e-005      1.8312e-008     0.201781        -0.825248       0.286961        0.125484        0.272648        0.163977        0.530223        -0.691997       0.455213        -0.731318       0.256118        0.234268        0.226158        0.270513        0.760679        -0.460819      
  4e+010          1.397e-005      1.8312e-008     0.180844        -0.82761        0.29286         0.120551        0.278979        0.159823        0.513575        -0.700046       0.438543        -0.737605       0.263846        0.233799        0.233711        0.271117        0.751457        -0.46775       
  4.1e+010        1.397e-005      1.8312e-008     0.158902        -0.829076       0.298422        0.116157        0.286586        0.155057        0.497546        -0.708046       0.420089        -0.743474       0.271289        0.233335        0.243663        0.270784        0.743141        -0.47564       
  4.2e+010        1.397e-005      1.8312e-008     0.138544        -0.825682       0.304276        0.110234        0.292769        0.147717        0.481293        -0.712555       0.402787        -0.744943       0.279431        0.231771        0.251325        0.267993        0.733656        -0.481142      
  4.3e+010        1.397e-005      1.8312e-008     0.116666        -0.82634        0.309184        0.104774        0.298079        0.143459        0.465616        -0.718133       0.384685        -0.75065        0.287312        0.230234        0.259922        0.268082        0.724873        -0.487862      
  4.4e+010        1.397e-005      1.8312e-008     0.100869        -0.826495       0.313444        0.100204        0.305168        0.139263        0.450325        -0.722598       0.371436        -0.753733       0.294023        0.229438        0.269211        0.268974        0.715971        -0.493536      
  4.5e+010        1.397e-005      1.8312e-008     0.0804691       -0.824935       0.31911         0.0954525       0.309976        0.13298         0.435124        -0.729454       0.353683        -0.756457       0.301688        0.228949        0.276026        0.266568        0.707949        -0.499847      
  4.6e+010        1.397e-005      1.8312e-008     0.0615065       -0.824922       0.324022        0.0890596       0.316114        0.127351        0.420412        -0.73233        0.3381          -0.761033       0.309659        0.226321        0.284867        0.265057        0.698645        -0.504938      
  4.7e+010        1.397e-005      1.8312e-008     0.0406438       -0.823583       0.328067        0.0831372       0.321739        0.121855        0.404856        -0.735091       0.320492        -0.765161       0.317332        0.224188        0.293259        0.264158        0.689629        -0.510121      
  4.8e+010        1.397e-005      1.8312e-008     0.0238865       -0.822624       0.333024        0.077522        0.327133        0.113549        0.389534        -0.74074        0.306462        -0.766594       0.325155        0.223233        0.303006        0.260511        0.681062        -0.515397      
