! VERSION = 6.00
!Data measured by ggf on Tue Jan 23 13:39:52 2018 using model file NPN_MEAS_SCALE
BEGIN_HEADER
 ICCAP_INPUTS
  vc         V  C GROUND SMU_C 0.2 SYNC       1 0.5 vb
  ve         V  E GROUND SMU_E 0 CON        0
  vs         V  S GROUND SMU_S 0 CON        0
  freq       F  LIST       1 74 100000000 200000000 300000000 400000000 500000000 600000000 700000000 800000000 900000000 1000000000 2000000000 3000000000 4000000000 5000000000 6000000000 7000000000 8000000000 9000000000 10000000000 11000000000 12000000000 13000000000 14000000000 15000000000 16000000000 17000000000 18000000000 19000000000 20000000000 21000000000 22000000000 23000000000 24000000000 25000000000 26000000000 27000000000 28000000000 29000000000 30000000000 31000000000 32000000000 33000000000 34000000000 35000000000 36000000000 37000000000 38000000000 39000000000 40000000000 41000000000 42000000000 43000000000 44000000000 45000000000 46000000000 47000000000 48000000000 49000000000 50000000000 51000000000 52000000000 53000000000 54000000000 55000000000 56000000000 57000000000 58000000000 59000000000 60000000000 61000000000 62000000000 63000000000 64000000000 65000000000
  vb         V  B GROUND SMU_B 0.015 LIN        2    0.68       1.04       37   0.01      
 ICCAP_OUTPUTS
  ic         I  C GROUND SMU_C M
  ib         I  B GROUND SMU_B M
  S          S  B C GROUND NWA M
  S_deemb    S B C GROUND n/a B
 ICCAP_VALUES
  TNOM "27"
  TEMP "27"
  TECHNO "SG13G2"
  LOT "EDJ802"
  WAFER "02"
  CHIP "(3.3)"
  MODULE "S439S"
  DEV_NAME "D12"
  DEV_GEOM_L "5.0"
  DEV_GEOM_W "0.07"
  NUM_OF_TRANS_RF "2"
  REMARKS "Nx=1; Power -30/-20dBm, Slope: 0.1dB/GHz"
  TIMEDATE "Tue Jan 23 13:21:27     2018"
  OPERATOR "ggf"
END_HEADER

BEGIN_DB
 ICCAP_VAR vc         1.18           
 ICCAP_VAR ve         0              
 ICCAP_VAR vs         0              
 ICCAP_VAR vb         0.68           

 #freq            ic              ib              R:S(1,1)        I:S(1,1)        R:S(1,2)        I:S(1,2)        R:S(2,1)        I:S(2,1)        R:S(2,2)        I:S(2,2)        R:S_deemb(1,1)  I:S_deemb(1,1)  R:S_deemb(1,2)  I:S_deemb(1,2)  R:S_deemb(2,1)  I:S_deemb(2,1)  R:S_deemb(2,2)  I:S_deemb(2,2) 
  1e+008          1.3958e-005     1.6904e-008     0.999578        -0.00415702     -5.4759e-005    0.00117224      -0.0586924      0.000608485     1.00005         -0.00267543     0.999602        -0.00285315     -6.59961e-005   0.00105196      -0.0588287      0.000430396     1.00009         -0.00125307    
  2e+008          1.3958e-005     1.6904e-008     1.00018         -0.00813144     9.38266e-005    0.00234713      -0.0570545      0.00210137      0.999948        -0.00546276     1.00016         -0.00575112     0.00013217      0.00219772      -0.057131       0.00193062      1.00002         -0.00306853    
  3e+008          1.3958e-005     1.6904e-008     1.00005         -0.0118782      3.44156e-005    0.00347868      -0.0572592      0.00355038      1.00008         -0.00811097     0.999954        -0.00854156     1.62616e-005    0.00326889      -0.057234       0.00320252      0.99996         -0.00462365    
  4e+008          1.3958e-005     1.6904e-008     1.00015         -0.0161113      6.1031e-005     0.00462499      -0.0564043      0.00481615      0.9998          -0.0108677      0.999871        -0.011619       5.39307e-005    0.00439624      -0.0564631      0.004282        0.999942        -0.00623739    
  5e+008          1.3958e-005     1.6904e-008     1.00005         -0.0206062      0.000103231     0.00575277      -0.0570075      0.00629097      0.99997         -0.0135543      0.999753        -0.0144491      7.80742e-005    0.00546508      -0.0570766      0.00568665      1.00001         -0.0078851     
  6e+008          1.3958e-005     1.6904e-008     0.999821        -0.0241908      0.00016239      0.00691017      -0.057018       0.00762284      0.999911        -0.0163112      0.99991         -0.0172988      8.44999e-005    0.00653678      -0.0570135      0.00683807      0.999907        -0.00953839    
  7e+008          1.3958e-005     1.6904e-008     0.999644        -0.0281456      0.000215684     0.00806055      -0.0570148      0.00908608      0.999801        -0.0190625      0.999644        -0.0204022      0.000157461     0.00766987      -0.0570842      0.0081867       0.999839        -0.0111322     
  8e+008          1.3958e-005     1.6904e-008     0.999409        -0.0320557      0.000252833     0.00919721      -0.0571501      0.0103993       0.999768        -0.021678       0.999499        -0.0229798      0.000159712     0.00872923      -0.0572177      0.00941542      0.999822        -0.012687      
  9e+008          1.3958e-005     1.6904e-008     0.999436        -0.0362521      0.00033196      0.0103576       -0.0565571      0.0120083       0.99971         -0.0244366      0.999491        -0.0261994      0.000178374     0.00981128      -0.0567298      0.0109201       0.999889        -0.0143025     
  1e+009          1.3958e-005     1.6904e-008     0.999109        -0.0402011      0.000447994     0.0115031       -0.057052       0.0135211       0.999418        -0.0272101      0.999436        -0.0289327      0.000315731     0.0109465       -0.0572471      0.0122831       0.999634        -0.0159799     
  2e+009          1.3958e-005     1.6904e-008     0.996302        -0.0801985      0.00163152      0.0229179       -0.0543912      0.0270167       0.997724        -0.0540887      0.99779         -0.0578553      0.00109322      0.0217636       -0.0551087      0.024598        0.998726        -0.0316513     
  3e+009          1.3958e-005     1.6904e-008     0.991316        -0.119826       0.00357093      0.0341856       -0.052989       0.0401719       0.994921        -0.0802678      0.995085        -0.0865248      0.00229544      0.032565        -0.0544645      0.0366454       0.997246        -0.0470362     
  4e+009          1.3958e-005     1.6904e-008     0.984725        -0.159012       0.0063134       0.0453031       -0.0503015      0.0536509       0.991282        -0.10644        0.991248        -0.115108       0.00406709      0.0432908       -0.0529402      0.0491272       0.995483        -0.062425      
  5e+009          1.3958e-005     1.6904e-008     0.976173        -0.197791       0.00978019      0.0561579       -0.045639       0.0667665       0.986864        -0.132282       0.986469        -0.143526       0.00627526      0.0538998       -0.0497797      0.0613287       0.993371        -0.0774901     
  6e+009          1.3958e-005     1.6904e-008     0.966063        -0.235558       0.0139303       0.0667419       -0.0406486      0.0790293       0.981179        -0.158015       0.980731        -0.171463       0.00896477      0.064367        -0.0465252      0.0729509       0.990718        -0.0924381     
  7e+009          1.3958e-005     1.6904e-008     0.953834        -0.273168       0.0188467       0.0770877       -0.0352653      0.0913617       0.975064        -0.183325       0.973961        -0.199092       0.0121701       0.0748124       -0.0433109      0.0847727       0.987726        -0.107454      
  8e+009          1.3958e-005     1.6904e-008     0.94054         -0.309323       0.0243754       0.0868682       -0.0290905      0.103112        0.967972        -0.207857       0.966116        -0.226161       0.0158045       0.0848357       -0.0393451      0.0963741       0.98444         -0.12204       
  9e+009          1.3958e-005     1.6904e-008     0.925379        -0.344128       0.030542        0.0962626       -0.0221581      0.114147        0.959961        -0.232353       0.957454        -0.253063       0.0199644       0.0947824       -0.034916       0.107464        0.980749        -0.13659       
  1e+010          1.3958e-005     1.6904e-008     0.908912        -0.380181       0.037303        0.105086        -0.0135947      0.125114        0.951183        -0.256438       0.948           -0.279345       0.0243481       0.104362        -0.029114       0.118781        0.976673        -0.150882      
  1.1e+010        1.3958e-005     1.6904e-008     0.890605        -0.412487       0.0444291       0.113552        -0.00613672     0.134961        0.942115        -0.279746       0.937275        -0.305886       0.029238        0.113832        -0.024364       0.129211        0.972459        -0.165085      
  1.2e+010        1.3958e-005     1.6904e-008     0.871169        -0.444585       0.052352        0.121572        0.00292373      0.144724        0.931787        -0.30277        0.925809        -0.330494       0.0345674       0.123161        -0.0185284      0.139843        0.967564        -0.179165      
  1.3e+010        1.3958e-005     1.6904e-008     0.850496        -0.475063       0.0604565       0.128909        0.0116285       0.153751        0.92051         -0.324694       0.913404        -0.355074       0.0401377       0.132145        -0.012935       0.150306        0.962528        -0.192819      
  1.4e+010        1.3958e-005     1.6904e-008     0.828948        -0.504619       0.0694797       0.135537        0.0219944       0.161987        0.909136        -0.346513       0.900539        -0.37905        0.0465403       0.140887        -0.0057804      0.160257        0.957069        -0.206467      
  1.5e+010        1.3958e-005     1.6904e-008     0.806465        -0.532059       0.0785726       0.141204        0.0332419       0.168242        0.897428        -0.367156       0.886384        -0.401956       0.053225        0.148859        0.00262097      0.168758        0.951447        -0.219419      
  1.6e+010        1.3958e-005     1.6904e-008     0.783161        -0.558975       0.0877221       0.146554        0.0431419       0.17515         0.885202        -0.387381       0.872257        -0.424453       0.0598971       0.156749        0.00941403      0.177883        0.945306        -0.232396      
  1.7e+010        1.3958e-005     1.6904e-008     0.758921        -0.583742       0.0975012       0.151022        0.054402        0.180317        0.871555        -0.406927       0.856945        -0.446248       0.0674124       0.164182        0.0178708       0.186112        0.939092        -0.245102      
  1.8e+010        1.3958e-005     1.6904e-008     0.734236        -0.607634       0.106831        0.154778        0.0649193       0.185707        0.858344        -0.426426       0.841431        -0.46733        0.0745282       0.171134        0.025518        0.194384        0.932877        -0.257778      
  1.9e+010        1.3958e-005     1.6904e-008     0.709747        -0.629117       0.116315        0.158319        0.0765062       0.190003        0.844999        -0.44539        0.825329        -0.486881       0.081776        0.17796         0.0342412       0.202156        0.925974        -0.269583      
  2e+010          1.3958e-005     1.6904e-008     0.683916        -0.650346       0.125947        0.160816        0.0862783       0.192895        0.830643        -0.461438       0.80915         -0.506626       0.0897347       0.184062        0.0419572       0.208495        0.918722        -0.281148      
  2.1e+010        1.3958e-005     1.6904e-008     0.658821        -0.670031       0.13543         0.162862        0.0976626       0.196706        0.814511        -0.477017       0.792603        -0.52498        0.097785        0.190061        0.0510215       0.216489        0.911357        -0.293087      
  2.2e+010        1.3958e-005     1.6904e-008     0.632702        -0.687384       0.145321        0.164355        0.108766        0.197934        0.798628        -0.494689       0.775034        -0.542278       0.106305        0.195818        0.0605192       0.222065        0.904663        -0.304735      
  2.3e+010        1.3958e-005     1.6904e-008     0.60722         -0.704111       0.154603        0.164947        0.119294        0.199916        0.787401        -0.512149       0.757849        -0.559164       0.114126        0.200346        0.0689556       0.228007        0.897852        -0.314829      
  2.4e+010        1.3958e-005     1.6904e-008     0.581558        -0.720677       0.162939        0.165383        0.12927         0.201014        0.778851        -0.519517       0.740709        -0.57564        0.12178         0.203781        0.0778982       0.232283        0.890393        -0.322148      
  2.5e+010        1.3958e-005     1.6904e-008     0.554631        -0.736503       0.172252        0.167758        0.139273        0.203976        0.776759        -0.525675       0.723164        -0.59163        0.130187        0.208127        0.0869735       0.237353        0.881436        -0.333014      
  2.6e+010        1.3958e-005     1.6904e-008     0.529069        -0.749338       0.184306        0.165808        0.153035        0.203166        0.752888        -0.551311       0.705094        -0.606039       0.140392        0.211527        0.098005        0.242023        0.868598        -0.343609      
  2.7e+010        1.3958e-005     1.6904e-008     0.50122         -0.761807       0.192173        0.164357        0.162486        0.202692        0.719723        -0.566948       0.685311        -0.620795       0.148813        0.216697        0.107385        0.248592        0.863247        -0.356956      
  2.8e+010        1.3958e-005     1.6904e-008     0.475135        -0.772687       0.201531        0.162254        0.172971        0.19972         0.699353        -0.588436       0.666658        -0.63413        0.157619        0.221146        0.116579        0.252164        0.856201        -0.369042      
  2.9e+010        1.3958e-005     1.6904e-008     0.449772        -0.783508       0.208406        0.160572        0.180651        0.199005        0.687919        -0.599459       0.648688        -0.647444       0.164389        0.223851        0.123359        0.255938        0.851118        -0.375669      
  3e+010          1.3958e-005     1.6904e-008     0.423757        -0.791313       0.216664        0.159662        0.190762        0.197696        0.679634        -0.606537       0.629697        -0.658198       0.173013        0.226391        0.133849        0.258697        0.844133        -0.383195      
  3.1e+010        1.3958e-005     1.6904e-008     0.396392        -0.800532       0.224814        0.156671        0.201117        0.195558        0.663953        -0.614986       0.610679        -0.670123       0.181725        0.227704        0.144413        0.261345        0.834352        -0.391872      
  3.2e+010        1.3958e-005     1.6904e-008     0.372235        -0.806516       0.233563        0.153954        0.210228        0.192029        0.645242        -0.626381       0.592158        -0.679906       0.19145         0.230003        0.154346        0.263214        0.82578         -0.401841      
  3.3e+010        1.3958e-005     1.6904e-008     0.346023        -0.811419       0.241596        0.150925        0.219006        0.190464        0.630221        -0.639852       0.571932        -0.689475       0.200098        0.232036        0.163085        0.266647        0.818684        -0.411485      
  3.4e+010        1.3958e-005     1.6904e-008     0.319248        -0.814745       0.249444        0.146942        0.228891        0.186589        0.617245        -0.648738       0.551287        -0.697835       0.209138        0.232559        0.173571        0.268062        0.811012        -0.418644      
  3.5e+010        1.3958e-005     1.6904e-008     0.296149        -0.820157       0.256189        0.143052        0.237024        0.181979        0.601446        -0.657124       0.533766        -0.707174       0.217492        0.232923        0.183392        0.268229        0.801453        -0.426788      
  3.6e+010        1.3958e-005     1.6904e-008     0.272832        -0.822072       0.26272         0.138665        0.244181        0.177399        0.582351        -0.665885       0.515468        -0.713365       0.226077        0.233068        0.192431        0.268682        0.792122        -0.434605      
  3.7e+010        1.3958e-005     1.6904e-008     0.251186        -0.823642       0.269159        0.134479        0.251242        0.173748        0.568561        -0.67639        0.497662        -0.719156       0.233716        0.232951        0.200119        0.268943        0.784969        -0.442978      
  3.8e+010        1.3958e-005     1.6904e-008     0.228817        -0.824991       0.275673        0.1299          0.260684        0.16893         0.553518        -0.683809       0.479037        -0.725291       0.241868        0.23238         0.211334        0.26897         0.776625        -0.44942       
  3.9e+010        1.3958e-005     1.6904e-008     0.206981        -0.826519       0.280772        0.125209        0.26594         0.16353         0.537303        -0.690427       0.461748        -0.731037       0.249221        0.231793        0.218729        0.267626        0.767877        -0.456454      
  4e+010          1.3958e-005     1.6904e-008     0.186426        -0.829136       0.286741        0.120505        0.272205        0.160201        0.520677        -0.699379       0.445612        -0.737488       0.256923        0.231596        0.225872        0.269097        0.759042        -0.4643        
  4.1e+010        1.3958e-005     1.6904e-008     0.163566        -0.830441       0.292318        0.116182        0.280261        0.155251        0.504797        -0.706959       0.426096        -0.743498       0.264342        0.231169        0.236372        0.268691        0.750721        -0.471626      
  4.2e+010        1.3958e-005     1.6904e-008     0.144048        -0.827262       0.298163        0.110559        0.286617        0.148156        0.488543        -0.711333       0.409824        -0.744899       0.272318        0.229907        0.244076        0.266204        0.741186        -0.476933      
  4.3e+010        1.3958e-005     1.6904e-008     0.120744        -0.82776        0.303318        0.104972        0.291649        0.143612        0.472988        -0.717043       0.390106        -0.75095        0.280518        0.228296        0.25249         0.265846        0.732616        -0.483695      
  4.4e+010        1.3958e-005     1.6904e-008     0.105683        -0.827754       0.307356        0.100651        0.298735        0.13944         0.457645        -0.721877       0.377646        -0.75359        0.286847        0.227681        0.26172         0.266755        0.723851        -0.489757      
  4.5e+010        1.3958e-005     1.6904e-008     0.0853649       -0.827277       0.312894        0.0958991       0.302784        0.134111        0.44257         -0.728913       0.360427        -0.757542       0.294362        0.227148        0.26729         0.265097        0.716068        -0.496184      
  4.6e+010        1.3958e-005     1.6904e-008     0.0661811       -0.82764        0.317998        0.0900553       0.309362        0.128082        0.427977        -0.731795       0.344744        -0.762619       0.302303        0.225198        0.276767        0.263319        0.706896        -0.501193      
  4.7e+010        1.3958e-005     1.6904e-008     0.0452213       -0.824903       0.322119        0.0838334       0.315527        0.123003        0.41229         -0.734876       0.326492        -0.765215       0.310146        0.222732        0.285532        0.263067        0.697907        -0.506747      
  4.8e+010        1.3958e-005     1.6904e-008     0.0281988       -0.825695       0.326897        0.0787747       0.320583        0.115166        0.39755         -0.740711       0.312855        -0.768775       0.317538        0.222357        0.294706        0.259844        0.69007         -0.511947      
