! VERSION = 6.00
!Data measured by ggf on Tue Jan 23 11:31:17 2018 using model file NPN_MEAS_SCALE
BEGIN_HEADER
 ICCAP_INPUTS
  vb         V  B GROUND GND 0 CON        0
  vc         V  C GROUND GND 0 CON        0
  ve         V  E GROUND SMU_E 0 CON        0
  vs         V  S GROUND SMU_S 0 CON        0
  freq       F  LIST       1 74 100000000 200000000 300000000 400000000 500000000 600000000 700000000 800000000 900000000 1000000000 2000000000 3000000000 4000000000 5000000000 6000000000 7000000000 8000000000 9000000000 10000000000 11000000000 12000000000 13000000000 14000000000 15000000000 16000000000 17000000000 18000000000 19000000000 20000000000 21000000000 22000000000 23000000000 24000000000 25000000000 26000000000 27000000000 28000000000 29000000000 30000000000 31000000000 32000000000 33000000000 34000000000 35000000000 36000000000 37000000000 38000000000 39000000000 40000000000 41000000000 42000000000 43000000000 44000000000 45000000000 46000000000 47000000000 48000000000 49000000000 50000000000 51000000000 52000000000 53000000000 54000000000 55000000000 56000000000 57000000000 58000000000 59000000000 60000000000 61000000000 62000000000 63000000000 64000000000 65000000000
 ICCAP_OUTPUTS
  S          S  B C Ground NWA M
 ICCAP_VALUES
  TNOM "27"
  TEMP "27"
  TECHNO "SG13G2"
  LOT "EDJ802"
  WAFER "02"
  CHIP "(3.3)"
  MODULE "S439S"
  DEV_NAME "D44"
  DEV_GEOM_L "0.9"
  DEV_GEOM_W "0.07"
  NUM_OF_TRANS_RF "1"
  REMARKS "Nx=8; Power -30/-20dBm, Slope: 0.1dB/GHz"
  TIMEDATE "Tue Jan 23 11:29:34     2018"
  OPERATOR "ggf"
END_HEADER

BEGIN_DB
 ICCAP_VAR vb         0              
 ICCAP_VAR vc         0              
 ICCAP_VAR ve         0              
 ICCAP_VAR vs         0              

 #freq            R:S(1,1)        I:S(1,1)        R:S(1,2)        I:S(1,2)        R:S(2,1)        I:S(2,1)        R:S(2,2)        I:S(2,2)       
  1e+008          0.99963         -0.000967527    -1.90199e-005   0.000167074     -0.000227674    0.000105665     0.999917        -0.00148563    
  2e+008          1.00002         -0.00240153     -1.14086e-005   0.000261047     -1.37665e-005   0.000355843     0.99985         -0.0024541     
  3e+008          0.999836        -0.00285721     2.40321e-005    0.00043202      -6.46876e-006   0.00042426      0.99993         -0.00378843    
  4e+008          1.00038         -0.00484101     -2.75147e-005   0.000568499     1.79517e-005    0.000603627     0.99975         -0.00512745    
  5e+008          1.00012         -0.00604888     1.24921e-005    0.000716369     -6.42087e-006   0.000606172     0.999877        -0.00625677    
  6e+008          1.00034         -0.00744464     8.68308e-006    0.000855724     3.54387e-005    0.00072079      0.99991         -0.00752053    
  7e+008          1.00021         -0.00866923     2.54264e-006    0.00100234      4.74708e-006    0.0010444       0.999748        -0.00885512    
  8e+008          1.00027         -0.0101507      1.96258e-005    0.00113003      -4.43422e-005   0.00107252      0.999786        -0.0100618     
  9e+008          1.00022         -0.0111175      2.13067e-005    0.00127235      2.70807e-005    0.0012966       0.999702        -0.0113867     
  1e+009          1.00007         -0.0125155      2.35223e-005    0.00138745      0.00013966      0.00144488      0.9997          -0.0126136     
  2e+009          0.9997          -0.0250128      7.37559e-005    0.00277548      0.000120694     0.00286976      0.999271        -0.0252152     
  3e+009          0.999148        -0.0378161      0.000172238     0.00422431      0.000211714     0.00421225      0.998638        -0.0376351     
  4e+009          0.998401        -0.0501466      0.000306839     0.00558568      0.000334504     0.00558785      0.99792         -0.0500851     
  5e+009          0.997456        -0.0624731      0.000493682     0.00697808      0.000444985     0.00697062      0.996983        -0.0625717     
  6e+009          0.996312        -0.0740848      0.000700374     0.00834921      0.000637746     0.00845524      0.995931        -0.0751948     
  7e+009          0.994759        -0.0883438      0.000942715     0.00979672      0.000935001     0.00971636      0.994549        -0.0877384     
  8e+009          0.993484        -0.0998369      0.0012305       0.0111895       0.00125722      0.0111358       0.992973        -0.0999326     
  9e+009          0.991296        -0.111271       0.00155833      0.0125429       0.00143837      0.0124375       0.991098        -0.112447      
  1e+010          0.989754        -0.125285       0.00191511      0.01393         0.00176229      0.0140012       0.98898         -0.124805      
  1.1e+010        0.987124        -0.136691       0.00238606      0.0152747       0.00228805      0.0153547       0.986942        -0.137098      
  1.2e+010        0.984687        -0.148839       0.00287457      0.0166862       0.00296155      0.0166684       0.984384        -0.149301      
  1.3e+010        0.981938        -0.160914       0.00345432      0.0179553       0.00349066      0.0179968       0.981416        -0.161095      
  1.4e+010        0.978712        -0.172836       0.00410575      0.0191858       0.00410376      0.0193021       0.978494        -0.173218      
  1.5e+010        0.976052        -0.184415       0.0047054       0.0203459       0.00476227      0.0202872       0.975558        -0.185091      
  1.6e+010        0.972597        -0.195976       0.00532154      0.0215411       0.00524486      0.0215614       0.972663        -0.196719      
  1.7e+010        0.969589        -0.207853       0.00604191      0.022735        0.0060829       0.0227374       0.968585        -0.208127      
  1.8e+010        0.965761        -0.219239       0.0067563       0.0237543       0.00664385      0.0237282       0.964991        -0.219907      
  1.9e+010        0.961809        -0.231183       0.00741552      0.0247787       0.0075535       0.0249289       0.961668        -0.232176      
  2e+010          0.957995        -0.241849       0.00810984      0.0258352       0.00810667      0.0258488       0.957549        -0.242304      
  2.1e+010        0.953468        -0.252851       0.00882263      0.0267528       0.00878166      0.0268265       0.951779        -0.251931      
  2.2e+010        0.949425        -0.263821       0.00954322      0.0278252       0.00966574      0.0277715       0.945895        -0.264002      
  2.3e+010        0.944577        -0.274639       0.0102392       0.0286163       0.0101967       0.0286736       0.944515        -0.276979      
  2.4e+010        0.940681        -0.28536        0.0108519       0.029642        0.0108641       0.0296739       0.944883        -0.28271       
  2.5e+010        0.935496        -0.2965         0.0115198       0.0309386       0.0114692       0.0310032       0.952892        -0.281293      
  2.6e+010        0.930491        -0.306585       0.0128859       0.0319432       0.0129204       0.0315906       0.946425        -0.303982      
  2.7e+010        0.925694        -0.316777       0.0136385       0.0324961       0.0136892       0.0325644       0.922321        -0.317655      
  2.8e+010        0.920733        -0.327272       0.0146188       0.0331646       0.0144557       0.0336523       0.911401        -0.336732      
  2.9e+010        0.91533         -0.337307       0.0152269       0.0337575       0.0151907       0.033933        0.907658        -0.346353      
  3e+010          0.909643        -0.346565       0.0156381       0.0347638       0.0155731       0.0348264       0.907794        -0.351858      
  3.1e+010        0.905361        -0.356604       0.0166464       0.0356781       0.0171573       0.0359466       0.902056        -0.359419      
  3.2e+010        0.899312        -0.366453       0.0179283       0.0367034       0.0180664       0.0362493       0.893564        -0.369288      
  3.3e+010        0.893754        -0.376962       0.0188303       0.0372767       0.0188349       0.0376057       0.888038        -0.380381      
  3.4e+010        0.886424        -0.386827       0.0199132       0.0381437       0.0203247       0.0383236       0.883642        -0.38894       
  3.5e+010        0.881079        -0.395464       0.0211402       0.0385138       0.0212891       0.0389573       0.878047        -0.396763      
  3.6e+010        0.874926        -0.404582       0.0221285       0.0390859       0.0226783       0.0388982       0.868999        -0.406124      
  3.7e+010        0.868927        -0.412588       0.0231309       0.0396827       0.0227438       0.0391909       0.864785        -0.415318      
  3.8e+010        0.863604        -0.422649       0.0243442       0.0401446       0.0245618       0.0400032       0.858783        -0.424161      
  3.9e+010        0.856644        -0.432658       0.0250602       0.0401974       0.0257912       0.0403128       0.851814        -0.432356      
  4e+010          0.849462        -0.440963       0.0261141       0.0406147       0.0263817       0.0404159       0.846038        -0.441519      
  4.1e+010        0.843756        -0.448732       0.0272405       0.0412076       0.0278742       0.0413848       0.838642        -0.45123       
  4.2e+010        0.83439         -0.458159       0.0288603       0.0416122       0.0290422       0.0416254       0.829202        -0.458603      
  4.3e+010        0.829272        -0.466896       0.0299482       0.0416026       0.0302277       0.0414492       0.823662        -0.464738      
  4.4e+010        0.820159        -0.473618       0.0306509       0.0411313       0.0314449       0.0416955       0.817027        -0.47202       
  4.5e+010        0.811998        -0.48296        0.0318552       0.0419295       0.0323717       0.0415426       0.810198        -0.481474      
  4.6e+010        0.804617        -0.488631       0.0335096       0.0417574       0.0332926       0.0418539       0.804241        -0.487323      
  4.7e+010        0.797703        -0.495978       0.0346002       0.041089        0.0346317       0.041286        0.797157        -0.493269      
  4.8e+010        0.790109        -0.501948       0.0350387       0.0405289       0.0357184       0.0409908       0.791047        -0.502803      
  4.9e+010        0.783303        -0.510094       0.035404        0.04082         0.0356345       0.0398089       0.786192        -0.509867      
  5e+010          0.77622         -0.514172       0.0362748       0.0408511       0.0360566       0.0410253       0.780136        -0.517235      
  5.1e+010        0.769652        -0.519952       0.0369014       0.0405971       0.0368103       0.0411438       0.773448        -0.525443      
  5.2e+010        0.76289         -0.52549        0.0372289       0.0399162       0.0378572       0.039576        0.765604        -0.535694      
  5.3e+010        0.757456        -0.534118       0.0388565       0.0413606       0.038455        0.0414303       0.75935         -0.542458      
  5.4e+010        0.75274         -0.538683       0.0394313       0.0407387       0.0403614       0.0408183       0.750911        -0.550826      
  5.5e+010        0.744023        -0.544149       0.0405802       0.0402769       0.0410366       0.0402156       0.740804        -0.55795       
  5.6e+010        0.743778        -0.550796       0.039207        0.039591        0.0403808       0.0393965       0.735806        -0.560829      
  5.7e+010        0.735705        -0.55953        0.0396601       0.0415726       0.0402993       0.0424716       0.732543        -0.568306      
  5.8e+010        0.732876        -0.569089       0.0415081       0.0431536       0.0421345       0.0432906       0.724635        -0.579079      
  5.9e+010        0.724081        -0.577641       0.0441096       0.0437369       0.0442024       0.0432702       0.71653         -0.585334      
  6e+010          0.717689        -0.584907       0.0462323       0.0415116       0.047007        0.0424763       0.708206        -0.591819      
  6.1e+010        0.708535        -0.59432        0.0456333       0.0416387       0.046828        0.0410997       0.69984         -0.599264      
  6.2e+010        0.70359         -0.601911       0.0486099       0.0421815       0.0480633       0.0409983       0.694366        -0.609109      
  6.3e+010        0.694496        -0.607652       0.0496425       0.0406947       0.0495257       0.0416787       0.6859          -0.613154      
  6.4e+010        0.689265        -0.619052       0.0518556       0.0403161       0.0524567       0.0408499       0.682491        -0.618564      
  6.5e+010        0.676969        -0.623113       0.0517089       0.0388972       0.0520256       0.0377879       0.671548        -0.630904      
END_DB

