! VERSION = 6.00
!Data measured by ggf on Tue Jan 23 11:30:40 2018 using model file NPN_MEAS_SCALE
BEGIN_HEADER
 ICCAP_INPUTS
  vb         V  B GROUND GND 0 CON        0
  vc         V  C GROUND GND 0 CON        0
  ve         V  E GROUND SMU_E 0 CON        0
  vs         V  S GROUND SMU_S 0 CON        0
  freq       F  LIST       1 74 100000000 200000000 300000000 400000000 500000000 600000000 700000000 800000000 900000000 1000000000 2000000000 3000000000 4000000000 5000000000 6000000000 7000000000 8000000000 9000000000 10000000000 11000000000 12000000000 13000000000 14000000000 15000000000 16000000000 17000000000 18000000000 19000000000 20000000000 21000000000 22000000000 23000000000 24000000000 25000000000 26000000000 27000000000 28000000000 29000000000 30000000000 31000000000 32000000000 33000000000 34000000000 35000000000 36000000000 37000000000 38000000000 39000000000 40000000000 41000000000 42000000000 43000000000 44000000000 45000000000 46000000000 47000000000 48000000000 49000000000 50000000000 51000000000 52000000000 53000000000 54000000000 55000000000 56000000000 57000000000 58000000000 59000000000 60000000000 61000000000 62000000000 63000000000 64000000000 65000000000
 ICCAP_OUTPUTS
  S          S  B C Ground NWA M
 ICCAP_VALUES
  TNOM "27"
  TEMP "27"
  TECHNO "SG13G2"
  LOT "EDJ802"
  WAFER "02"
  CHIP "(3.3)"
  MODULE "S439S"
  DEV_NAME "D44"
  DEV_GEOM_L "0.9"
  DEV_GEOM_W "0.07"
  NUM_OF_TRANS_RF "1"
  REMARKS "Nx=8; Power -30/-20dBm, Slope: 0.1dB/GHz"
  TIMEDATE "Tue Jan 23 11:29:34     2018"
  OPERATOR "ggf"
END_HEADER

BEGIN_DB
 ICCAP_VAR vb         0              
 ICCAP_VAR vc         0              
 ICCAP_VAR ve         0              
 ICCAP_VAR vs         0              

 #freq            R:S(1,1)        I:S(1,1)        R:S(1,2)        I:S(1,2)        R:S(2,1)        I:S(2,1)        R:S(2,2)        I:S(2,2)       
  1e+008          -0.981626       0.000364538     0.00620128      7.79479e-005    0.00615861      0.000227964     -0.983182       0.000891542    
  2e+008          -0.981473       0.00144123      0.00618803      0.000163809     0.0062703       0.000172482     -0.983298       0.00158675     
  3e+008          -0.9812         0.00274595      0.00618849      0.00025048      0.00618187      0.000286361     -0.983018       0.00242761     
  4e+008          -0.981017       0.00284586      0.00616274      0.000406307     0.00618867      0.000329964     -0.983041       0.00293374     
  5e+008          -0.981005       0.00392225      0.00618766      0.000493331     0.00615287      0.000505888     -0.982838       0.00366109     
  6e+008          -0.980739       0.00388484      0.0061877       0.000615353     0.00614909      0.000622836     -0.982709       0.0041937      
  7e+008          -0.980598       0.00463816      0.00620426      0.000721089     0.00619972      0.000789628     -0.98261        0.00487565     
  8e+008          -0.980373       0.00493658      0.006242        0.000817925     0.00617106      0.000864727     -0.9825         0.0053788      
  9e+008          -0.980171       0.00543782      0.0062435       0.000914166     0.00618516      0.000941259     -0.98228        0.00600371     
  1e+009          -0.980209       0.00587795      0.00625108      0.00099581      0.00620748      0.00103297      -0.982153       0.00657397     
  2e+009          -0.979058       0.0105007       0.00634245      0.0019379       0.00626594      0.00193203      -0.98096        0.0119268      
  3e+009          -0.977958       0.0146811       0.00644055      0.00285643      0.00641526      0.00279659      -0.979849       0.0167043      
  4e+009          -0.977401       0.0186579       0.00652037      0.00376661      0.00644759      0.00382688      -0.978949       0.0212441      
  5e+009          -0.976887       0.022688        0.00670986      0.00461935      0.00670138      0.0045953       -0.978571       0.0257746      
  6e+009          -0.97625        0.026915        0.00678139      0.00533856      0.0066947       0.0053568       -0.978099       0.0305292      
  7e+009          -0.975845       0.0308173       0.00680054      0.00610164      0.00679366      0.00604167      -0.977259       0.0350489      
  8e+009          -0.975015       0.035001        0.00678327      0.00694367      0.00671343      0.0068978       -0.976601       0.039562       
  9e+009          -0.974686       0.0396474       0.00688254      0.00777842      0.00677241      0.00772844      -0.976162       0.0441052      
  1e+010          -0.973773       0.0430459       0.00696065      0.00848208      0.00707166      0.00846585      -0.97552        0.0486372      
  1.1e+010        -0.972982       0.0468282       0.00686807      0.00910518      0.00673903      0.0090137       -0.974573       0.0534825      
  1.2e+010        -0.971951       0.0505218       0.00655403      0.00987326      0.00655425      0.00984262      -0.973405       0.0579808      
  1.3e+010        -0.971096       0.0550189       0.00614842      0.0109831       0.00622863      0.0109114       -0.972467       0.0620977      
  1.4e+010        -0.970332       0.0575143       0.00610897      0.0122815       0.00602302      0.0122256       -0.971531       0.0656902      
  1.5e+010        -0.969683       0.0610421       0.00640615      0.013553        0.00646195      0.0133549       -0.97086        0.0695426      
  1.6e+010        -0.969636       0.0647362       0.00660381      0.0143812       0.00638678      0.0142915       -0.970624       0.0738423      
  1.7e+010        -0.968597       0.0681063       0.00665709      0.0154475       0.00655563      0.0151286       -0.970704       0.0782276      
  1.8e+010        -0.968436       0.0712954       0.00680325      0.0165547       0.00659005      0.0163864       -0.970327       0.0824594      
  1.9e+010        -0.968526       0.0738658       0.00701152      0.0174665       0.0069738       0.0175059       -0.968614       0.0857588      
  2e+010          -0.968536       0.0786101       0.00734134      0.0183765       0.00730968      0.0179978       -0.968097       0.0906186      
  2.1e+010        -0.968681       0.0818514       0.00739897      0.0194894       0.00744218      0.0195523       -0.968883       0.0956958      
  2.2e+010        -0.96874        0.0858109       0.00786733      0.0206271       0.00815929      0.0202821       -0.969849       0.0969755      
  2.3e+010        -0.969123       0.0897296       0.00815731      0.0216184       0.00803883      0.021347        -0.966626       0.0965767      
  2.4e+010        -0.969184       0.0942969       0.00882142      0.0223443       0.00891894      0.0223859       -0.964717       0.100984       
  2.5e+010        -0.968705       0.0995146       0.00913672      0.0228529       0.00883634      0.0224472       -0.96696        0.115304       
  2.6e+010        -0.96804        0.103287        0.00942723      0.0236821       0.00950664      0.02349         -0.982054       0.131695       
  2.7e+010        -0.966994       0.107493        0.00964695      0.0245612       0.00964761      0.0245503       -0.98           0.151283       
  2.8e+010        -0.966468       0.111082        0.0095955       0.0250486       0.00971691      0.0251033       -0.96997        0.135959       
  2.9e+010        -0.965755       0.1157          0.00968674      0.0260113       0.0100515       0.0259542       -0.965529       0.130972       
  3e+010          -0.966429       0.119421        0.00991773      0.0273077       0.0102888       0.0265802       -0.960584       0.138323       
  3.1e+010        -0.963618       0.124896        0.0109419       0.0276711       0.0109177       0.0273523       -0.959793       0.144272       
  3.2e+010        -0.963209       0.127419        0.0108409       0.0282867       0.0109057       0.027796        -0.961097       0.147311       
  3.3e+010        -0.962371       0.131109        0.0107599       0.0288408       0.0111786       0.0284701       -0.96091        0.148671       
  3.4e+010        -0.961896       0.135343        0.0108847       0.0299639       0.0107054       0.0299751       -0.959342       0.153531       
  3.5e+010        -0.962354       0.138517        0.0114591       0.0308104       0.0116916       0.0309335       -0.957385       0.158659       
  3.6e+010        -0.962681       0.143688        0.0115702       0.0314245       0.0118662       0.0308676       -0.960953       0.16184        
  3.7e+010        -0.961055       0.148309        0.0118155       0.032707        0.011761        0.0320975       -0.9595         0.166511       
  3.8e+010        -0.960651       0.152577        0.012192        0.0335228       0.0124847       0.0333528       -0.959071       0.171234       
  3.9e+010        -0.959469       0.155647        0.0128461       0.0344866       0.0132747       0.0344528       -0.958402       0.177083       
  4e+010          -0.959735       0.159889        0.0132031       0.0351209       0.0134903       0.034361        -0.958156       0.18073        
  4.1e+010        -0.95794        0.164797        0.014031        0.035647        0.0137217       0.0360396       -0.958204       0.187767       
  4.2e+010        -0.957115       0.168779        0.0139103       0.0361818       0.0138381       0.0363887       -0.95183        0.19144        
  4.3e+010        -0.955349       0.169676        0.01431         0.0381422       0.0146259       0.036667        -0.952895       0.194089       
  4.4e+010        -0.955694       0.175538        0.0159754       0.0381477       0.0150992       0.0382501       -0.952891       0.198931       
  4.5e+010        -0.955843       0.177952        0.0159806       0.0380993       0.016154        0.0378042       -0.9533         0.202105       
  4.6e+010        -0.953867       0.183742        0.0162888       0.0390107       0.0162024       0.0392195       -0.95117        0.207279       
  4.7e+010        -0.953544       0.186169        0.0166612       0.0400852       0.0165389       0.0388951       -0.952326       0.212143       
  4.8e+010        -0.953588       0.192114        0.0179616       0.0399346       0.0176712       0.0403062       -0.951865       0.216506       
  4.9e+010        -0.954583       0.193867        0.017099        0.0400458       0.0194346       0.0389654       -0.950569       0.219756       
  5e+010          -0.952414       0.200741        0.0180558       0.041131        0.0174426       0.0396152       -0.949985       0.227773       
  5.1e+010        -0.951218       0.204099        0.0191284       0.0411102       0.018137        0.0411842       -0.947818       0.233008       
  5.2e+010        -0.949734       0.209008        0.0183394       0.0407076       0.0191679       0.0399085       -0.946114       0.235613       
  5.3e+010        -0.94847        0.210209        0.0174763       0.0427257       0.0175468       0.0409699       -0.944796       0.241002       
  5.4e+010        -0.946739       0.216286        0.0190566       0.0438          0.0177191       0.0436543       -0.942388       0.246219       
  5.5e+010        -0.946589       0.219736        0.0191825       0.0439809       0.0198899       0.0435322       -0.942063       0.247278       
  5.6e+010        -0.94479        0.224229        0.0199119       0.0445502       0.0200444       0.0435145       -0.941667       0.252287       
  5.7e+010        -0.943628       0.228328        0.0209224       0.04523         0.0205058       0.0446419       -0.939016       0.258155       
  5.8e+010        -0.940531       0.231529        0.0216351       0.0451147       0.0221551       0.0441418       -0.937859       0.260811       
  5.9e+010        -0.939492       0.234814        0.0205923       0.0450783       0.0211583       0.0431295       -0.935097       0.266458       
  6e+010          -0.939022       0.237429        0.0213981       0.0460173       0.01994         0.044549        -0.935018       0.269114       
  6.1e+010        -0.938428       0.239718        0.0215074       0.0456744       0.0223202       0.046704        -0.9347         0.273402       
  6.2e+010        -0.936624       0.242519        0.0216894       0.0478798       0.0232754       0.0450674       -0.931878       0.274729       
  6.3e+010        -0.936689       0.248663        0.0236063       0.0476848       0.0221026       0.0460981       -0.931435       0.27991        
  6.4e+010        -0.934625       0.24939         0.0238532       0.0473425       0.0233643       0.0469593       -0.928277       0.285721       
  6.5e+010        -0.935189       0.253966        0.0232392       0.0472989       0.0257146       0.0464953       -0.929722       0.287516       
END_DB

