! VERSION = 6.00
!Data measured by ggf on Tue Jan 23 12:06:34 2018 using model file NPN_MEAS_SCALE
BEGIN_HEADER
 ICCAP_INPUTS
  ve         V  E GROUND SMU_E 0.1 CON        0
  vc         V  C GROUND SMU_C 0.1 LIN        2    0.5        2          4    0.5       
  vs         V  S GROUND SMU_S 0.015 CON        0
  vb         V  B GROUND SMU_B 0.015 LIN        1    0.4        1.04       33   0.02      
 ICCAP_OUTPUTS
  ib         I  B GROUND SMU_B M
  ic         I  C GROUND SMU_C M
 ICCAP_VALUES
  TNOM "27"
  TEMP "27"
  TECHNO "SG13G2"
  LOT "EDJ802"
  WAFER "02"
  CHIP "(3.3)"
  MODULE "S439S"
  DEV_NAME "D44"
  DEV_GEOM_L "0.9"
  DEV_GEOM_W "0.07"
  NUM_OF_TRANS_RF "1"
  REMARKS "Nx=8; Power -30/-20dBm, Slope: 0.1dB/GHz"
  TIMEDATE "Tue Jan 23 11:29:34     2018"
  OPERATOR "ggf"
END_HEADER

BEGIN_DB
 ICCAP_VAR ve         0              
 ICCAP_VAR vc         0.5            
 ICCAP_VAR vs         0              

 #vb              ib              ic             
  0.4             1.6984e-010     1.4592e-009    
  0.42            9.66e-011       1.7118e-009    
  0.44            7.27e-011       2.2354e-009    
  0.46            7.044e-011      4.2096e-009    
  0.48            7.624e-011      8.4794e-009    
  0.5             8.738e-011      1.6896e-008    
  0.52            1.3442e-010     3.7186e-008    
  0.54            2.1382e-010     7.9822e-008    
  0.56            3.7484e-010     1.7166e-007    
  0.58            7.0132e-010     3.6748e-007    
  0.6             1.355e-009      7.8764e-007    
  0.62            2.685e-009      1.695e-006     
  0.64            5.4262e-009     3.6288e-006    
  0.66            1.1084e-008     7.7534e-006    
  0.68            2.2922e-008     1.6576e-005    
  0.7             4.7304e-008     3.5174e-005    
  0.72            9.7892e-008     7.4384e-005    
  0.74            2.0056e-007     0.00015536     
  0.76            4.057e-007      0.00031862     
  0.78            8.015e-007      0.00063648     
  0.8             1.5178e-006     0.0012108      
  0.82            2.7296e-006     0.0021712      
  0.84            4.6056e-006     0.0035998      
  0.86            7.3256e-006     0.0055118      
  0.88            1.11572e-005    0.0078738      
  0.9             1.6432e-005     0.010599       
  0.92            2.3822e-005     0.01367        
  0.94            3.4074e-005     0.017014       
  0.96            4.908e-005      0.020568       
  0.98            7.4348e-005     0.023902       
  1               0.00012644      0.026502       
  1.02            0.00022114      0.028612       
  1.04            0.00037456      0.030744       
END_DB

BEGIN_DB
 ICCAP_VAR ve         0              
 ICCAP_VAR vc         1              
 ICCAP_VAR vs         0              

 #vb              ib              ic             
  0.4             -3.5686e-010    2.2298e-009    
  0.42            -3.1668e-010    2.3084e-009    
  0.44            -2.8436e-010    2.8246e-009    
  0.46            -2.508e-010     4.766e-009     
  0.48            -2.1552e-010    8.9866e-009    
  0.5             -1.7568e-010    1.8128e-008    
  0.52            -1.1588e-010    3.7486e-008    
  0.54            -2.526e-011     8.005e-008     
  0.56            1.3196e-010     1.7194e-007    
  0.58            4.433e-010      3.6776e-007    
  0.6             1.0594e-009     7.8778e-007    
  0.62            2.3222e-009     1.6948e-006    
  0.64            4.942e-009      3.631e-006     
  0.66            1.0362e-008     7.7558e-006    
  0.68            2.1766e-008     1.6602e-005    
  0.7             4.5486e-008     3.5232e-005    
  0.72            9.4898e-008     7.4646e-005    
  0.74            1.9634e-007     0.00015636     
  0.76            4.0096e-007     0.00032222     
  0.78            8.0288e-007     0.00064888     
  0.8             1.5486e-006     0.001249       
  0.82            2.8586e-006     0.0022744      
  0.84            4.9882e-006     0.003834       
  0.86            8.2688e-006     0.005961       
  0.88            1.321e-005      0.0086312      
  0.9             2.0534e-005     0.011758       
  0.92            3.1474e-005     0.015338       
  0.94            4.7478e-005     0.019294       
  0.96            7.085e-005      0.023656       
  0.98            0.000103842     0.028332       
  1               0.00014994      0.033326       
  1.02            0.0002117       0.038354       
  1.04            0.00029912      0.042902       
END_DB

BEGIN_DB
 ICCAP_VAR ve         0              
 ICCAP_VAR vc         1.5            
 ICCAP_VAR vs         0              

 #vb              ib              ic             
  0.4             -2.271e-009     4.1012e-009    
  0.42            -2.1256e-009    4.0674e-009    
  0.44            -1.9872e-009    4.2482e-009    
  0.46            -1.8518e-009    5.9234e-009    
  0.48            -1.7364e-009    1.0518e-008    
  0.5             -1.6168e-009    1.926e-008     
  0.52            -1.5142e-009    3.8972e-008    
  0.54            -1.4144e-009    8.124e-008     
  0.56            -1.3164e-009    1.7324e-007    
  0.58            -1.204e-009     3.6892e-007    
  0.6             -1.0342e-009    7.887e-007     
  0.62            -7.052e-010     1.6956e-006    
  0.64            7.328e-011      3.6278e-006    
  0.66            1.9674e-009     7.7546e-006    
  0.68            6.631e-009      1.6594e-005    
  0.7             1.7728e-008     3.5254e-005    
  0.72            4.392e-008      7.478e-005     
  0.74            1.0352e-007     0.000157       
  0.76            2.3668e-007     0.00032516     
  0.78            5.2294e-007     0.00066036     
  0.8             1.1116e-006     0.0012876      
  0.82            2.274e-006      0.002385       
  0.84            4.4212e-006     0.0041008      
  0.86            8.21e-006       0.0064996      
  0.88            1.4726e-005     0.009581       
  0.9             2.5598e-005     0.013266       
  0.92            4.3574e-005     0.01758        
  0.94            7.2262e-005     0.022452       
  0.96            0.0001172       0.027914       
  0.98            0.00018422      0.033846       
  1               0.00028176      0.040234       
  1.02            0.00041456      0.046742       
  1.04            0.00058886      0.0528         
END_DB

BEGIN_DB
 ICCAP_VAR ve         0              
 ICCAP_VAR vc         2              
 ICCAP_VAR vs         0              

 #vb              ib              ic             
  0.4             -9.0014e-009    1.1824e-008    
  0.42            -8.5646e-009    1.1018e-008    
  0.44            -8.1532e-009    1.105e-008     
  0.46            -7.7784e-009    1.2454e-008    
  0.48            -7.4576e-009    1.6186e-008    
  0.5             -7.2424e-009    2.5104e-008    
  0.52            -7.1702e-009    4.4632e-008    
  0.54            -7.403e-009     8.7334e-008    
  0.56            -8.2324e-009    1.8014e-007    
  0.58            -1.0178e-008    3.7736e-007    
  0.6             -1.4322e-008    8.0072e-007    
  0.62            -2.285e-008     1.7152e-006    
  0.64            -3.9814e-008    3.6628e-006    
  0.66            -7.3144e-008    7.8178e-006    
  0.68            -1.3876e-007    1.6726e-005    
  0.7             -2.649e-007     3.5528e-005    
  0.72            -5.0812e-007    7.5418e-005    
  0.74            -9.667e-007     0.00015874     
  0.76            -1.8158e-006    0.00033044     
  0.78            -3.341e-006     0.00067694     
  0.8             -5.8826e-006    0.0013404      
  0.82            -9.698e-006     0.002539       
  0.84            -1.4324e-005    0.0044806      
  0.86            -1.803e-005     0.0072968      
  0.88            -1.7422e-005    0.0110438      
  0.9             -7.0716e-006    0.015694       
  0.92            2.1846e-005     0.02135        
  0.94            8.1842e-005     0.027962       
  0.96            0.00019152      0.035566       
  0.98            0.00036882      0.043836       
  1               0.00062686      0.05227        
  1.02            0.00095974      0.05984        
  1.04            0.0013826       0.066522       
END_DB

