! VERSION = 6.00
!Data measured by ggf on Tue Jan 23 12:06:35 2018 using model file NPN_MEAS_SCALE
BEGIN_HEADER
 ICCAP_INPUTS
  ve         V  E GROUND SMU_E 0.1 CON        0
  vc         V  C GROUND SMU_C 0.1 SYNC       1 1 vb
  vs         V  S GROUND SMU_S 0.015 CON        0
  vb         V  B GROUND SMU_B 0.015 LIN        1    -1         1.04       103  0.02      
 ICCAP_OUTPUTS
  ib         I  B GROUND SMU_B M
  ic         I  C GROUND SMU_C M
 ICCAP_VALUES
  TNOM "27"
  TEMP "27"
  TECHNO "SG13G2"
  LOT "EDJ802"
  WAFER "02"
  CHIP "(3.3)"
  MODULE "S439S"
  DEV_NAME "D44"
  DEV_GEOM_L "0.9"
  DEV_GEOM_W "0.07"
  NUM_OF_TRANS_RF "1"
  REMARKS "Nx=8; Power -30/-20dBm, Slope: 0.1dB/GHz"
  TIMEDATE "Tue Jan 23 11:29:34     2018"
  OPERATOR "ggf"
END_HEADER

BEGIN_DB
 ICCAP_VAR ve         0              
 ICCAP_VAR vs         0              

 #vb              vc              ib              ic             
  -1              0               -6.9402e-007    8.78e-010      
  -0.98           0.02            -6.1436e-007    1.6474e-009    
  -0.96           0.04            -5.4256e-007    1.264e-009     
  -0.94           0.06            -4.7876e-007    1.5722e-009    
  -0.92           0.08            -4.2104e-007    1.4576e-009    
  -0.9            0.1             -3.6996e-007    1.8852e-009    
  -0.88           0.12            -3.2406e-007    1.287e-009     
  -0.86           0.14            -2.8306e-007    1.4126e-009    
  -0.84           0.16            -2.469e-007     1.4014e-009    
  -0.82           0.18            -2.1438e-007    1.4088e-009    
  -0.8            0.2             -1.862e-007     1.3316e-009    
  -0.78           0.22            -1.6098e-007    8.766e-010     
  -0.76           0.24            -1.3882e-007    1.3212e-009    
  -0.74           0.26            -1.194e-007     1.1468e-009    
  -0.72           0.28            -1.0246e-007    1.1158e-009    
  -0.7            0.3             -8.7824e-008    1.2182e-009    
  -0.68           0.32            -7.492e-008     1.1802e-009    
  -0.66           0.34            -6.379e-008     1.635e-009     
  -0.64           0.36            -5.415e-008     1.3412e-009    
  -0.62           0.38            -4.5808e-008    1.6938e-009    
  -0.6            0.4             -3.8704e-008    1.6004e-009    
  -0.58           0.42            -3.2616e-008    1.5632e-009    
  -0.56           0.44            -2.738e-008     1.3434e-009    
  -0.54           0.46            -2.2962e-008    1.5698e-009    
  -0.52           0.48            -1.9236e-008    1.523e-009     
  -0.5            0.5             -1.606e-008     1.5752e-009    
  -0.48           0.52            -1.3426e-008    1.8188e-009    
  -0.46           0.54            -1.1212e-008    1.4342e-009    
  -0.44           0.56            -9.3874e-009    1.6256e-009    
  -0.42           0.58            -7.862e-009     1.6566e-009    
  -0.4            0.6             -6.622e-009     1.3604e-009    
  -0.38           0.62            -5.5936e-009    1.2404e-009    
  -0.36           0.64            -4.7612e-009    1.5866e-009    
  -0.34           0.66            -4.0996e-009    1.7292e-009    
  -0.32           0.68            -3.5454e-009    1.825e-009     
  -0.3            0.7             -3.1074e-009    1.1488e-009    
  -0.28           0.72            -2.774e-009     1.3848e-009    
  -0.26           0.74            -2.4934e-009    1.61e-009      
  -0.24           0.76            -2.291e-009     1.547e-009     
  -0.22           0.78            -2.1308e-009    1.1392e-009    
  -0.2            0.8             -1.9976e-009    1.9718e-009    
  -0.18           0.82            -1.912e-009     1.4868e-009    
  -0.16           0.84            -1.839e-009     1.6534e-009    
  -0.14           0.86            -1.7884e-009    1.6892e-009    
  -0.12           0.88            -1.7486e-009    1.3172e-009    
  -0.1            0.9             -1.724e-009     1.728e-009     
  -0.08           0.92            -1.703e-009     1.6514e-009    
  -0.06           0.94            -1.6988e-009    1.641e-009     
  -0.04           0.96            -1.6838e-009    1.4414e-009    
  -0.02           0.98            -1.6892e-009    1.2214e-009    
  0               1               -1.6788e-009    1.6282e-009    
  0.02            1.02            -1.6786e-009    1.7358e-009    
  0.04            1.04            -1.6772e-009    1.1278e-009    
  0.06            1.06            -1.6764e-009    1.4812e-009    
  0.08            1.08            -1.6764e-009    2.2058e-009    
  0.1             1.1             -1.6712e-009    1.5342e-009    
  0.12            1.12            -1.6814e-009    1.2336e-009    
  0.14            1.14            -1.671e-009     1.4978e-009    
  0.16            1.16            -1.6762e-009    1.2746e-009    
  0.18            1.18            -1.6796e-009    1.2814e-009    
  0.2             1.2             -1.6776e-009    2.0328e-009    
  0.22            1.22            -1.677e-009     1.426e-009     
  0.24            1.24            -1.6756e-009    1.171e-009     
  0.26            1.26            -1.6648e-009    1.5292e-009    
  0.28            1.28            -1.6752e-009    1.636e-009     
  0.3             1.3             -1.6736e-009    1.5408e-009    
  0.32            1.32            -1.6712e-009    1.8026e-009    
  0.34            1.34            -1.665e-009     1.5748e-009    
  0.36            1.36            -1.664e-009     1.2472e-009    
  0.38            1.38            -1.6752e-009    1.7786e-009    
  0.4             1.4             -1.6692e-009    1.772e-009     
  0.42            1.42            -1.6714e-009    2.3784e-009    
  0.44            1.44            -1.6692e-009    2.8644e-009    
  0.46            1.46            -1.6776e-009    4.1742e-009    
  0.48            1.48            -1.6632e-009    1.0782e-008    
  0.5             1.5             -1.6676e-009    1.557e-008     
  0.52            1.52            -1.6756e-009    4.0158e-008    
  0.54            1.54            -1.7018e-009    8.421e-008     
  0.56            1.56            -1.7566e-009    1.7522e-007    
  0.58            1.58            -1.909e-009     3.7158e-007    
  0.6             1.6             -2.2658e-009    7.915e-007     
  0.62            1.62            -3.0762e-009    1.7002e-006    
  0.64            1.64            -4.9258e-009    3.6372e-006    
  0.66            1.66            -8.9212e-009    7.7644e-006    
  0.68            1.68            -1.7854e-008    1.6624e-005    
  0.7             1.7             -3.6822e-008    3.5308e-005    
  0.72            1.72            -7.7654e-008    7.4956e-005    
  0.74            1.74            -1.6504e-007    0.00015764     
  0.76            1.76            -3.4324e-007    0.00032726     
  0.78            1.78            -6.9476e-007    0.00066804     
  0.8             1.8             -1.3474e-006    0.0013156      
  0.82            1.82            -2.3646e-006    0.0024742      
  0.84            1.84            -3.5352e-006    0.0043342      
  0.86            1.86            -3.9936e-006    0.0070232      
  0.88            1.88            -1.4144e-006    0.010602       
  0.9             1.9             8.3752e-006     0.01506        
  0.92            1.92            3.2934e-005     0.020546       
  0.94            1.94            8.4838e-005     0.027054       
  0.96            1.96            0.00018474      0.034698       
  0.98            1.98            0.00035776      0.04329        
  1               2               0.00062736      0.052282       
  1.02            2.02            0.00099656      0.060502       
  1.04            2.04            0.0014918       0.067892       
END_DB

