! VERSION = 6.00
!Data measured by ggf on Tue Jan 23 12:06:35 2018 using model file NPN_MEAS_SCALE
BEGIN_HEADER
 ICCAP_INPUTS
  vc         V  C GROUND SMU_C 0.1 LIN        1    0          2          81   0.025     
  vs         V  S GROUND SMU_S 0.015 CON        0
  ve         V  E GROUND SMU_E 0.1 CON        0
  ib         I  B GROUND SMU_B 2 LIST       2 6 1E-009 1.25E-005 2.5E-005 5E-005 0.0001 0.0002
 ICCAP_OUTPUTS
  ic         I  C GROUND SMU_C M
  vb         V  B GROUND SMU_B M
 ICCAP_VALUES
  TNOM "27"
  TEMP "27"
  TECHNO "SG13G2"
  LOT "EDJ802"
  WAFER "02"
  CHIP "(3.3)"
  MODULE "S439S"
  DEV_NAME "D44"
  DEV_GEOM_L "0.9"
  DEV_GEOM_W "0.07"
  NUM_OF_TRANS_RF "1"
  REMARKS "Nx=8; Power -30/-20dBm, Slope: 0.1dB/GHz"
  TIMEDATE "Tue Jan 23 11:29:34     2018"
  OPERATOR "ggf"
END_HEADER

BEGIN_DB
 ICCAP_VAR vs         0              
 ICCAP_VAR ve         0              
 ICCAP_VAR ib         1e-009         

 #vc              ic              vb             
  0               -7.068e-009     0.35036        
  0.025           -2.8596e-009    0.32336        
  0.05            -1.7636e-009    0.31284        
  0.075           -8.5404e-010    0.31092        
  0.1             -4.5126e-010    0.31472        
  0.125           -3.726e-011     0.32236        
  0.15            2.1286e-010     0.33236        
  0.175           4.7086e-010     0.34404        
  0.2             -3.87e-010      0.35472        
  0.225           -2.228e-010     0.36436        
  0.25            -1.45e-010      0.37468        
  0.275           -3.4e-012       0.38548        
  0.3             1.472e-010      0.39664        
  0.325           2.916e-010      0.40804        
  0.35            5.636e-010      0.4196         
  0.375           1.0254e-009     0.43132        
  0.4             1.5552e-009     0.44308        
  0.425           2.5116e-009     0.45488        
  0.45            3.9364e-009     0.46664        
  0.475           8.328e-009      0.47964        
  0.5             1.3618e-008     0.49476        
  0.525           2.0142e-008     0.50356        
  0.55            2.7602e-008     0.51212        
  0.575           3.7636e-008     0.52044        
  0.6             5.0854e-008     0.52848        
  0.625           6.7846e-008     0.53612        
  0.65            9.862e-008      0.54724        
  0.675           1.2448e-007     0.5524         
  0.7             1.4948e-007     0.55712        
  0.725           1.762e-007      0.5614         
  0.75            2.0448e-007     0.5652         
  0.775           2.328e-007      0.56856        
  0.8             2.6094e-007     0.57148        
  0.825           2.8806e-007     0.574          
  0.85            3.135e-007      0.57616        
  0.875           3.373e-007      0.57804        
  0.9             3.589e-007      0.57964        
  0.925           3.7888e-007     0.581          
  0.95            3.9726e-007     0.58224        
  0.975           4.1456e-007     0.58332        
  1               4.3092e-007     0.58436        
  1.025           4.4704e-007     0.58532        
  1.05            4.6314e-007     0.58624        
  1.075           4.8006e-007     0.58716        
  1.1             4.9786e-007     0.58812        
  1.125           5.1724e-007     0.58912        
  1.15            5.3844e-007     0.5902         
  1.175           5.6266e-007     0.59136        
  1.2             5.9068e-007     0.59264        
  1.225           6.222e-007      0.59404        
  1.25            6.594e-007      0.5956         
  1.275           7.0358e-007     0.59736        
  1.3             7.5584e-007     0.59924        
  1.325           8.1838e-007     0.6014         
  1.35            8.9544e-007     0.6038         
  1.375           9.9048e-007     0.60648        
  1.4             1.0978e-006     0.60924        
  1.425           1.1602e-006     0.61084        
  1.45            1.2476e-006     0.613          
  1.475           1.369e-006      0.61572        
  1.5             1.54e-006       0.61912        
  1.525           1.7828e-006     0.62336        
  1.55            2.1446e-006     0.62876        
  1.575           2.718e-006      0.6358         
  1.6             3.7352e-006     0.64552        
  1.625           1.234e-005      0.68196        
  1.65            3.8196e-005     0.7272         
  1.675           0.00082296      0.7864         
  1.7             0.0016936       0.80824        
  1.725           0.0028678       0.82568        
  1.75            0.004197        0.83956        
  1.775           0.0055798       0.85088        
  1.8             0.006961        0.86036        
  1.825           0.0083228       0.86856        
  1.85            0.0096664       0.87576        
  1.875           0.010996        0.8822         
  1.9             0.012296        0.88804        
  1.925           0.0136          0.89332        
  1.95            0.014892        0.8982         
  1.975           0.016176        0.90264        
  2               0.017458        0.90676        
END_DB

BEGIN_DB
 ICCAP_VAR vs         0              
 ICCAP_VAR ve         0              
 ICCAP_VAR ib         1.25e-005      

 #vc              ic              vb             
  0               -9.5358e-005    0.7852         
  0.025           0.00054788      0.80288        
  0.05            0.0013486       0.8182         
  0.075           0.0022554       0.83152        
  0.1             0.0032098       0.84304        
  0.125           0.0041574       0.853          
  0.15            0.0050648       0.86144        
  0.175           0.0058944       0.86856        
  0.2             0.0066286       0.8744         
  0.225           0.0072406       0.879          
  0.25            0.0077256       0.8824         
  0.275           0.008073        0.88468        
  0.3             0.0082982       0.88604        
  0.325           0.0084326       0.88668        
  0.35            0.0085056       0.88688        
  0.375           0.0085436       0.88688        
  0.4             0.0085644       0.88672        
  0.425           0.0085712       0.88648        
  0.45            0.0085722       0.88616        
  0.475           0.0085678       0.8858         
  0.5             0.0085604       0.88544        
  0.525           0.0085502       0.88508        
  0.55            0.008538        0.88468        
  0.575           0.0085246       0.88432        
  0.6             0.0085098       0.88392        
  0.625           0.0084942       0.88352        
  0.65            0.0084822       0.88308        
  0.675           0.008462        0.88268        
  0.7             0.0084418       0.88224        
  0.725           0.0084276       0.88184        
  0.75            0.0084084       0.88144        
  0.775           0.0083908       0.881          
  0.8             0.0083712       0.8806         
  0.825           0.0083526       0.88016        
  0.85            0.0083334       0.87976        
  0.875           0.008316        0.87936        
  0.9             0.0082942       0.87892        
  0.925           0.0082794       0.87852        
  0.95            0.0082562       0.87812        
  0.975           0.008238        0.87772        
  1               0.0082228       0.87732        
  1.025           0.0082052       0.87692        
  1.05            0.0081858       0.87652        
  1.075           0.0081678       0.87612        
  1.1             0.0081498       0.87568        
  1.125           0.008131        0.87536        
  1.15            0.0081152       0.87496        
  1.175           0.0081008       0.8746         
  1.2             0.0080894       0.87424        
  1.225           0.0080856       0.87396        
  1.25            0.008082        0.87364        
  1.275           0.0080826       0.8734         
  1.3             0.0080908       0.87316        
  1.325           0.0081058       0.873          
  1.35            0.0081312       0.87288        
  1.375           0.0081662       0.87284        
  1.4             0.0082154       0.87288        
  1.425           0.0082756       0.873          
  1.45            0.008358        0.87328        
  1.475           0.0084612       0.87364        
  1.5             0.0085864       0.87412        
  1.525           0.0087364       0.87476        
  1.55            0.0089146       0.87552        
  1.575           0.0091236       0.87652        
  1.6             0.0093696       0.87764        
  1.625           0.0096556       0.87892        
  1.65            0.0099874       0.88044        
  1.675           0.0103622       0.88216        
  1.7             0.010788        0.88404        
  1.725           0.0112642       0.88612        
  1.75            0.011784        0.88836        
  1.775           0.01237         0.89072        
  1.8             0.013008        0.89328        
  1.825           0.013702        0.89596        
  1.85            0.014448        0.89868        
  1.875           0.015246        0.90144        
  1.9             0.01609         0.90428        
  1.925           0.016972        0.90708        
  1.95            0.017906        0.90984        
  1.975           0.018874        0.9126         
  2               0.019872        0.91528        
END_DB

BEGIN_DB
 ICCAP_VAR vs         0              
 ICCAP_VAR ve         0              
 ICCAP_VAR ib         2.5e-005       

 #vc              ic              vb             
  0               -7.0148e-005    0.8076         
  0.025           0.00089216      0.82368        
  0.05            0.0019794       0.8378         
  0.075           0.003153        0.8506         
  0.1             0.0043708       0.8622         
  0.125           0.0055982       0.87268        
  0.15            0.006815        0.88208        
  0.175           0.0079934       0.89064        
  0.2             0.0091278       0.89828        
  0.225           0.0101764       0.90484        
  0.25            0.0111156       0.91044        
  0.275           0.01193         0.91496        
  0.3             0.012608        0.91852        
  0.325           0.013142        0.92108        
  0.35            0.013536        0.92276        
  0.375           0.013802        0.92376        
  0.4             0.013964        0.92416        
  0.425           0.014048        0.92408        
  0.45            0.01408         0.92376        
  0.475           0.014088        0.92328        
  0.5             0.014074        0.92268        
  0.525           0.014054        0.92208        
  0.55            0.014028        0.92144        
  0.575           0.013998        0.92076        
  0.6             0.013962        0.92008        
  0.625           0.013924        0.9194         
  0.65            0.013886        0.91872        
  0.675           0.013852        0.91808        
  0.7             0.01381         0.91736        
  0.725           0.013768        0.9166         
  0.75            0.013722        0.91592        
  0.775           0.013678        0.91524        
  0.8             0.01364         0.91456        
  0.825           0.013598        0.91384        
  0.85            0.013556        0.91316        
  0.875           0.013512        0.91244        
  0.9             0.01347         0.9118         
  0.925           0.013428        0.91112        
  0.95            0.013384        0.9104         
  0.975           0.013344        0.90972        
  1               0.013302        0.90908        
  1.025           0.013262        0.9084         
  1.05            0.013222        0.90776        
  1.075           0.01318         0.90708        
  1.1             0.01314         0.9064         
  1.125           0.013102        0.90576        
  1.15            0.013064        0.90516        
  1.175           0.013026        0.90452        
  1.2             0.012992        0.90388        
  1.225           0.012956        0.90328        
  1.25            0.012924        0.90268        
  1.275           0.0129          0.90212        
  1.3             0.012878        0.9016         
  1.325           0.012864        0.90108        
  1.35            0.012858        0.90064        
  1.375           0.012862        0.90024        
  1.4             0.012876        0.89988        
  1.425           0.0129          0.89956        
  1.45            0.012934        0.89932        
  1.475           0.01299         0.89916        
  1.5             0.013064        0.89912        
  1.525           0.01316         0.89912        
  1.55            0.013278        0.89928        
  1.575           0.013422        0.89948        
  1.6             0.013592        0.89984        
  1.625           0.013796        0.90032        
  1.65            0.014032        0.90096        
  1.675           0.014302        0.90172        
  1.7             0.014612        0.9026         
  1.725           0.014958        0.90364        
  1.75            0.01535         0.90476        
  1.775           0.015788        0.90608        
  1.8             0.016268        0.90748        
  1.825           0.016798        0.90904        
  1.85            0.017374        0.9106         
  1.875           0.017996        0.91236        
  1.9             0.018666        0.91412        
  1.925           0.019382        0.91596        
  1.95            0.020144        0.91784        
  1.975           0.02095         0.91972        
  2               0.0218          0.92164        
END_DB

BEGIN_DB
 ICCAP_VAR vs         0              
 ICCAP_VAR ve         0              
 ICCAP_VAR ib         5e-005         

 #vc              ic              vb             
  0               -6.6366e-005    0.82912        
  0.025           0.0011442       0.8436         
  0.05            0.00243         0.85668        
  0.075           0.0037654       0.86876        
  0.1             0.0051256       0.87988        
  0.125           0.0064924       0.8902         
  0.15            0.0078568       0.89968        
  0.175           0.0092026       0.9084         
  0.2             0.0105326       0.91652        
  0.225           0.011822        0.92392        
  0.25            0.013076        0.93064        
  0.275           0.014276        0.93676        
  0.3             0.015416        0.94224        
  0.325           0.016482        0.94704        
  0.35            0.01746         0.9512         
  0.375           0.018334        0.95464        
  0.4             0.01909         0.95736        
  0.425           0.019716        0.95936        
  0.45            0.020194        0.96064        
  0.475           0.02054         0.96128        
  0.5             0.020764        0.96136        
  0.525           0.020896        0.96112        
  0.55            0.020948        0.96052        
  0.575           0.020954        0.95968        
  0.6             0.020922        0.9588         
  0.625           0.020876        0.95788        
  0.65            0.02082         0.95688        
  0.675           0.020764        0.95592        
  0.7             0.0207          0.95488        
  0.725           0.020632        0.95388        
  0.75            0.020562        0.95288        
  0.775           0.02049         0.9518         
  0.8             0.02042         0.9508         
  0.825           0.020348        0.94976        
  0.85            0.020272        0.94876        
  0.875           0.020198        0.94772        
  0.9             0.020124        0.94676        
  0.925           0.020052        0.94572        
  0.95            0.01998         0.94472        
  0.975           0.01991         0.94372        
  1               0.019834        0.94276        
  1.025           0.019764        0.94176        
  1.05            0.019694        0.9408         
  1.075           0.019622        0.9398         
  1.1             0.01955         0.93884        
  1.125           0.019478        0.93792        
  1.15            0.019412        0.93696        
  1.175           0.019342        0.936          
  1.2             0.019274        0.93508        
  1.225           0.019214        0.93412        
  1.25            0.019152        0.93324        
  1.275           0.019092        0.93232        
  1.3             0.019036        0.93144        
  1.325           0.018982        0.9306         
  1.35            0.01894         0.92976        
  1.375           0.018896        0.92896        
  1.4             0.018862        0.9282         
  1.425           0.018836        0.92748        
  1.45            0.01882         0.92676        
  1.475           0.018818        0.92612        
  1.5             0.018826        0.92552        
  1.525           0.018854        0.925          
  1.55            0.018896        0.92456        
  1.575           0.01896         0.92416        
  1.6             0.019046        0.92384        
  1.625           0.019154        0.9236         
  1.65            0.019288        0.92348        
  1.675           0.019452        0.92344        
  1.7             0.019644        0.92352        
  1.725           0.019866        0.92364        
  1.75            0.020124        0.92392        
  1.775           0.02042         0.92424        
  1.8             0.020748        0.92472        
  1.825           0.02112         0.92524        
  1.85            0.021528        0.92588        
  1.875           0.021978        0.9266         
  1.9             0.02247         0.9274         
  1.925           0.023006        0.92828        
  1.95            0.023588        0.92916        
  1.975           0.024212        0.93016        
  2               0.024878        0.9312         
END_DB

BEGIN_DB
 ICCAP_VAR vs         0              
 ICCAP_VAR ve         0              
 ICCAP_VAR ib         0.0001         

 #vc              ic              vb             
  0               -8.3244e-005    0.85072        
  0.025           0.0013104       0.86416        
  0.05            0.0027446       0.87664        
  0.075           0.0042068       0.8882         
  0.1             0.005681        0.89904        
  0.125           0.0071532       0.90904        
  0.15            0.008618        0.91836        
  0.175           0.0100658       0.927          
  0.2             0.011502        0.93512        
  0.225           0.012912        0.94264        
  0.25            0.014296        0.94956        
  0.275           0.01564         0.956          
  0.3             0.016948        0.96188        
  0.325           0.018218        0.96728        
  0.35            0.019438        0.97224        
  0.375           0.020608        0.97664        
  0.4             0.021722        0.98064        
  0.425           0.022782        0.9842         
  0.45            0.02377         0.98724        
  0.475           0.024686        0.98984        
  0.5             0.025524        0.992          
  0.525           0.026284        0.9938         
  0.55            0.02695         0.99504        
  0.575           0.02752         0.99588        
  0.6             0.027982        0.99632        
  0.625           0.028344        0.99628        
  0.65            0.028594        0.99584        
  0.675           0.028748        0.99508        
  0.7             0.028824        0.99412        
  0.725           0.02884         0.99304        
  0.75            0.028812        0.99176        
  0.775           0.028752        0.99044        
  0.8             0.028672        0.98908        
