! VERSION = 6.00
!Data measured by ggf on Tue Jan 23 12:06:35 2018 using model file NPN_MEAS_SCALE
BEGIN_HEADER
 ICCAP_INPUTS
  vc         V  C GROUND SMU_C 0.1 CON        0
  vs         V  S GROUND SMU_S 0.015 CON        0
  vb         V  B GROUND SMU_B 0.015 LIN        1    0          -2         81   -0.025    
  ve         V  E GROUND SMU_E 0.1 CON        0
 ICCAP_OUTPUTS
  ic         I  C GROUND SMU_C M
  ib         I  B GROUND SMU_B M
 ICCAP_VALUES
  TNOM "27"
  TEMP "27"
  TECHNO "SG13G2"
  LOT "EDJ802"
  WAFER "02"
  CHIP "(3.3)"
  MODULE "S439S"
  DEV_NAME "D44"
  DEV_GEOM_L "0.9"
  DEV_GEOM_W "0.07"
  NUM_OF_TRANS_RF "1"
  REMARKS "Nx=8; Power -30/-20dBm, Slope: 0.1dB/GHz"
  TIMEDATE "Tue Jan 23 11:29:34     2018"
  OPERATOR "ggf"
END_HEADER

BEGIN_DB
 ICCAP_VAR vc         0              
 ICCAP_VAR vs         0              
 ICCAP_VAR ve         0              

 #vb              ic              ib             
  0               -1.429e-010     -6.188e-011    
  -0.025          3.6112e-010     -7.136e-011    
  -0.05           4.1746e-010     -7.548e-011    
  -0.075          5.1764e-010     -8.82e-011     
  -0.1            5.652e-010      -1.1296e-010   
  -0.125          5.5396e-010     -1.522e-010    
  -0.15           5.8428e-010     -2.0928e-010   
  -0.175          5.9796e-010     -2.9406e-010   
  -0.2            6.3904e-010     -4.1452e-010   
  -0.225          6.4054e-010     -5.8074e-010   
  -0.25           6.6694e-010     -8.1454e-010   
  -0.275          6.3254e-010     -1.1342e-009   
  -0.3            9.2894e-010     -1.5654e-009   
  -0.325          9.304e-010      -2.134e-009    
  -0.35           9.0862e-010     -2.8894e-009   
  -0.375          8.6828e-010     -3.8748e-009   
  -0.4            8.3952e-010     -5.1328e-009   
  -0.425          9.5716e-010     -6.763e-009    
  -0.45           9.656e-010      -8.8206e-009   
  -0.475          9.6232e-010     -1.1436e-008   
  -0.5            -7.962e-011     -1.4708e-008   
  -0.525          4.4134e-010     -1.8756e-008   
  -0.55           2.3498e-010     -2.3766e-008   
  -0.575          4.2574e-010     -2.9954e-008   
  -0.6            3.6622e-010     -3.747e-008    
  -0.625          4.212e-010      -4.6572e-008   
  -0.65           4.555e-010      -5.7646e-008   
  -0.675          5.1892e-010     -7.0884e-008   
  -0.7            6.0326e-010     -8.6802e-008   
  -0.725          6.0794e-010     -1.0566e-007   
  -0.75           6.983e-010      -1.279e-007    
  -0.775          5.3792e-010     -1.5458e-007   
  -0.8            7.987e-010      -1.8566e-007   
  -0.825          7.9124e-010     -2.2136e-007   
  -0.85           9.1886e-010     -2.639e-007    
  -0.875          9.9044e-010     -3.1276e-007   
  -0.9            2.5438e-009     -3.695e-007    
  -0.925          2.116e-010      -4.346e-007    
  -0.95           1.5824e-009     -5.0982e-007   
  -0.975          1.6458e-009     -5.96e-007     
  -1              1.6006e-009     -6.9416e-007   
  -1.025          1.8178e-009     -8.0562e-007   
  -1.05           1.958e-009      -9.3202e-007   
  -1.075          1.897e-009      -1.0756e-006   
  -1.1            2.478e-009      -1.2392e-006   
  -1.125          2.6056e-009     -1.4208e-006   
  -1.15           2.6874e-009     -1.6248e-006   
  -1.175          2.9248e-009     -1.8546e-006   
  -1.2            3.1562e-009     -2.1114e-006   
  -1.225          3.4758e-009     -2.3974e-006   
  -1.25           3.6858e-009     -2.714e-006    
  -1.275          3.9698e-009     -3.0694e-006   
  -1.3            4.35e-009       -3.459e-006    
  -1.325          4.6294e-009     -3.8936e-006   
  -1.35           4.9064e-009     -4.3718e-006   
  -1.375          5.3476e-009     -4.9006e-006   
  -1.4            5.5422e-009     -5.48e-006     
  -1.425          6.1434e-009     -6.1176e-006   
  -1.45           6.4868e-009     -6.8158e-006   
  -1.475          6.9646e-009     -7.5818e-006   
  -1.5            7.4318e-009     -8.415e-006    
  -1.525          7.9526e-009     -9.329e-006    
  -1.55           8.5592e-009     -1.03218e-005  
  -1.575          9.4132e-009     -1.14e-005     
  -1.6            9.7304e-009     -1.2568e-005   
  -1.625          1.04754e-008    -1.3846e-005   
  -1.65           1.12374e-008    -1.5224e-005   
  -1.675          1.232e-008      -1.6714e-005   
  -1.7            1.2336e-008     -1.8332e-005   
  -1.725          1.3584e-008     -2.0066e-005   
  -1.75           1.4474e-008     -2.195e-005    
  -1.775          1.5462e-008     -2.3966e-005   
  -1.8            1.6516e-008     -2.6146e-005   
  -1.825          1.7994e-008     -2.8476e-005   
  -1.85           1.9358e-008     -3.0988e-005   
  -1.875          2.0892e-008     -3.368e-005    
  -1.9            2.2614e-008     -3.658e-005    
  -1.925          2.4462e-008     -3.9648e-005   
  -1.95           2.6644e-008     -4.2952e-005   
  -1.975          2.9046e-008     -4.6456e-005   
  -2              3.1816e-008     -5.022e-005    
END_DB

