! VERSION = 6.00
!Data measured by ggf on Tue Jan 23 12:06:34 2018 using model file NPN_MEAS_SCALE
BEGIN_HEADER
 ICCAP_INPUTS
  vc         V  C GROUND SMU_C 0.1 SYNC       1 1 vb
  ve         V  E GROUND SMU_E 0 CON        0
  vs         V  S GROUND SMU_S 0 CON        0
  freq       F  LIST       1 74 100000000 200000000 300000000 400000000 500000000 600000000 700000000 800000000 900000000 1000000000 2000000000 3000000000 4000000000 5000000000 6000000000 7000000000 8000000000 9000000000 10000000000 11000000000 12000000000 13000000000 14000000000 15000000000 16000000000 17000000000 18000000000 19000000000 20000000000 21000000000 22000000000 23000000000 24000000000 25000000000 26000000000 27000000000 28000000000 29000000000 30000000000 31000000000 32000000000 33000000000 34000000000 35000000000 36000000000 37000000000 38000000000 39000000000 40000000000 41000000000 42000000000 43000000000 44000000000 45000000000 46000000000 47000000000 48000000000 49000000000 50000000000 51000000000 52000000000 53000000000 54000000000 55000000000 56000000000 57000000000 58000000000 59000000000 60000000000 61000000000 62000000000 63000000000 64000000000 65000000000
  vb         V  B GROUND SMU_B 0.015 LIN        2    0.68       1.04       37   0.01      
 ICCAP_OUTPUTS
  ic         I  C GROUND SMU_C M
  ib         I  B GROUND SMU_B M
  S          S  B C GROUND NWA M
  S_deemb    S B C GROUND n/a B
 ICCAP_VALUES
  TNOM "27"
  TEMP "27"
  TECHNO "SG13G2"
  LOT "EDJ802"
  WAFER "02"
  CHIP "(3.3)"
  MODULE "S439S"
  DEV_NAME "D44"
  DEV_GEOM_L "0.9"
  DEV_GEOM_W "0.07"
  NUM_OF_TRANS_RF "1"
  REMARKS "Nx=8; Power -30/-20dBm, Slope: 0.1dB/GHz"
  TIMEDATE "Tue Jan 23 11:29:34     2018"
  OPERATOR "ggf"
END_HEADER

BEGIN_DB
 ICCAP_VAR vc         1.68           
 ICCAP_VAR ve         0              
 ICCAP_VAR vs         0              
 ICCAP_VAR vb         0.68           

 #freq            ic              ib              R:S(1,1)        I:S(1,1)        R:S(1,2)        I:S(1,2)        R:S(2,1)        I:S(2,1)        R:S(2,2)        I:S(2,2)        R:S_deemb(1,1)  I:S_deemb(1,1)  R:S_deemb(1,2)  I:S_deemb(1,2)  R:S_deemb(2,1)  I:S_deemb(2,1)  R:S_deemb(2,2)  I:S_deemb(2,2) 
  1e+008          1.6568e-005     -1.741e-008     0.999616        -0.00282744     3.28373e-005    0.00101707      -0.0697005      0.000383302     1.00052         -0.00200851     0.999958        -0.00203773     6.41567e-005    0.000876657     -0.0698023      0.000183645     1.00035         -0.000460833   
  2e+008          1.6568e-005     -1.741e-008     1.00031         -0.00667379     -2.31628e-005   0.00191813      -0.0677109      0.0018692       1.00056         -0.00540788     1.00003         -0.00462773     6.01692e-005    0.0017811       -0.06771        0.00113492      1.00057         -0.00298216    
  3e+008          1.6568e-005     -1.741e-008     0.999959        -0.0104005      4.13939e-005    0.00296868      -0.0680337      0.00285018      1.00032         -0.00730889     1.00022         -0.00768665     -6.90269e-006   0.00265379      -0.0680396      0.00244351      1.0005          -0.00412611    
  4e+008          1.6568e-005     -1.741e-008     1.00033         -0.0138446      2.59602e-005    0.00397857      -0.0668801      0.00419542      1.00022         -0.00985638     0.99988         -0.00925063     7.95071e-005    0.00352789      -0.0669322      0.00349558      1.00043         -0.00475898    
  5e+008          1.6568e-005     -1.741e-008     1.00012         -0.0174607      0.000115084     0.00498265      -0.0677261      0.00547124      1.00029         -0.012368       1.00028         -0.0122736      3.88475e-005    0.00445155      -0.06782        0.00460079      1.00032         -0.00627507    
  6e+008          1.6568e-005     -1.741e-008     1.00017         -0.02122        0.000145427     0.00598998      -0.0676138      0.00670988      1.00017         -0.0149919      0.999797        -0.0139013      7.98931e-005    0.00531737      -0.0677177      0.00562419      1.00027         -0.00761818    
  7e+008          1.6568e-005     -1.741e-008     1.00022         -0.0247343      0.000189098     0.00698545      -0.0677389      0.00807973      1.00012         -0.0175601      0.99988         -0.0162904      8.63772e-005    0.00620098      -0.0677993      0.00657523      1.00032         -0.00891861    
  8e+008          1.6568e-005     -1.741e-008     0.999893        -0.0285085      0.000197378     0.00798055      -0.0679433      0.00942172      1.00002         -0.0200176      0.999577        -0.0185069      8.56404e-005    0.00710975      -0.0680568      0.0077983       1.0002          -0.0101861     
  9e+008          1.6568e-005     -1.741e-008     0.999679        -0.0317299      0.000288917     0.00896604      -0.0672711      0.0108169       1.00003         -0.0224981      0.999683        -0.020932       0.000153128     0.00797744      -0.0674227      0.00890868      1.00037         -0.0114436     
  1e+009          1.6568e-005     -1.741e-008     0.999725        -0.0353773      0.000302151     0.0099757       -0.0679496      0.0120454       0.999762        -0.0250503      0.999681        -0.023211       0.000168048     0.00891112      -0.0683035      0.0101549       1.00017         -0.0128156     
  2e+009          1.6568e-005     -1.741e-008     0.997256        -0.0705076      0.00127021      0.019815        -0.0652313      0.0244047       0.998406        -0.0500149      0.99882         -0.0464844      0.000645097     0.0177474       -0.0659715      0.0205403       0.999679        -0.0256615     
  3e+009          1.6568e-005     -1.741e-008     0.993532        -0.10625        0.00277379      0.029672        -0.0646943      0.0359938       0.995894        -0.0741964      0.997033        -0.0694858      0.00147094      0.0265206       -0.066276       0.0304746       0.998735        -0.038492      
  4e+009          1.6568e-005     -1.741e-008     0.98843         -0.141014       0.0049107       0.0393924       -0.0624427      0.0484416       0.992951        -0.0991612      0.994392        -0.0925884      0.00257954      0.0353568       -0.0652689      0.0411441       0.997288        -0.0510134     
  5e+009          1.6568e-005     -1.741e-008     0.981483        -0.175379       0.00761199      0.0489397       -0.0585576      0.0602828       0.988947        -0.123524       0.990963        -0.115626       0.00404644      0.0441406       -0.0628591      0.051363        0.995655        -0.0634882     
  6e+009          1.6568e-005     -1.741e-008     0.973322        -0.208967       0.0108687       0.0582971       -0.0544887      0.0715063       0.984289        -0.147664       0.987091        -0.139367       0.00582735      0.052806        -0.0604946      0.061244        0.993659        -0.0757842     
  7e+009          1.6568e-005     -1.741e-008     0.963333        -0.242939       0.0146996       0.067518        -0.0501229      0.0830504       0.979003        -0.171517       0.982281        -0.158845       0.00790766      0.0615212       -0.0585508      0.0715413       0.991508        -0.0878183     
  8e+009          1.6568e-005     -1.741e-008     0.952707        -0.275753       0.0191126       0.0762901       -0.0450887      0.0939788       0.972951        -0.19474        0.976748        -0.182311       0.0104053       0.0699768       -0.0559421      0.0814116       0.989203        -0.100058      
  9e+009          1.6568e-005     -1.741e-008     0.940983        -0.30785        0.024039        0.0848133       -0.0393727      0.104459        0.96599         -0.217958       0.971607        -0.206074       0.0131794       0.0784328       -0.0525786      0.0912223       0.986641        -0.111921      
  1e+010          1.6568e-005     -1.741e-008     0.927512        -0.340001       0.0294938       0.09292         -0.0322765      0.114702        0.958461        -0.240788       0.964881        -0.226837       0.0162145       0.0865921       -0.0483005      0.10104         0.983771        -0.123801      
  1.1e+010        1.6568e-005     -1.741e-008     0.912604        -0.37005        0.0352199       0.100758        -0.0261846      0.123997        0.950344        -0.263266       0.957563        -0.248573       0.0194726       0.0948404       -0.0454656      0.110068        0.980698        -0.13573       
  1.2e+010        1.6568e-005     -1.741e-008     0.896695        -0.399737       0.0415899       0.108271        -0.0187493      0.133896        0.94134         -0.285142       0.949551        -0.269864       0.0232177       0.102977        -0.0415756      0.119956        0.977232        -0.14734       
  1.3e+010        1.6568e-005     -1.741e-008     0.880033        -0.428444       0.0482189       0.115213        -0.0116193      0.142689        0.931515        -0.306281       0.94103         -0.290685       0.0270348       0.110884        -0.0379042      0.12912         0.973672        -0.15907       
  1.4e+010        1.6568e-005     -1.741e-008     0.861745        -0.455942       0.0555934       0.121685        -0.00277478     0.151023        0.921359        -0.32721        0.931852        -0.311283       0.0315397       0.118768        -0.0327733      0.138359        0.969722        -0.170308      
  1.5e+010        1.6568e-005     -1.741e-008     0.843654        -0.482379       0.0630892       0.127399        0.0070473       0.157613        0.911222        -0.347434       0.922187        -0.330666       0.0362989       0.126086        -0.0262995      0.14635         0.965978        -0.181296      
  1.6e+010        1.6568e-005     -1.741e-008     0.824098        -0.507567       0.0706777       0.132849        0.0153644       0.164688        0.900351        -0.367256       0.911902        -0.350885       0.0411037       0.133349        -0.0212643      0.155058        0.961519        -0.19251       
  1.7e+010        1.6568e-005     -1.741e-008     0.804258        -0.532236       0.078826        0.137678        0.0253636       0.170515        0.888147        -0.386273       0.901155        -0.369815       0.0464369       0.140355        -0.0149125      0.162704        0.956825        -0.203645      
  1.8e+010        1.6568e-005     -1.741e-008     0.783816        -0.555201       0.0866952       0.141922        0.0342569       0.176433        0.876347        -0.405589       0.890169        -0.388649       0.0516219       0.146981        -0.00941063     0.171092        0.952389        -0.214719      
  1.9e+010        1.6568e-005     -1.741e-008     0.762117        -0.577648       0.0946703       0.145918        0.0442827       0.181867        0.864402        -0.423938       0.878269        -0.406472       0.0567989       0.153755        -0.00330495     0.178956        0.947494        -0.22472       
  2e+010          1.6568e-005     -1.741e-008     0.740973        -0.59794        0.102928        0.149245        0.0530768       0.185546        0.851663        -0.440424       0.866199        -0.42404        0.0627066       0.159866        0.002805        0.18534         0.942262        -0.23501       
  2.1e+010        1.6568e-005     -1.741e-008     0.718813        -0.617719       0.111035        0.152036        0.0630302       0.190715        0.836828        -0.455719       0.854227        -0.441283       0.0686751       0.166           0.00956748      0.193675        0.936283        -0.245451      
  2.2e+010        1.6568e-005     -1.741e-008     0.696895        -0.636311       0.119742        0.154601        0.0730596       0.192943        0.82281         -0.472682       0.841279        -0.457356       0.0751386       0.172129        0.0165349       0.199886        0.931678        -0.25521       
  2.3e+010        1.6568e-005     -1.741e-008     0.674426        -0.653674       0.12796         0.156149        0.0827475       0.195948        0.81204         -0.49137        0.828636        -0.473398       0.0811672       0.177262        0.0233762       0.206253        0.926741        -0.265483      
  2.4e+010        1.6568e-005     -1.741e-008     0.652589        -0.671089       0.135343        0.157682        0.0920389       0.198461        0.805456        -0.49949        0.815691        -0.489096       0.0868818       0.181343        0.0306773       0.211564        0.921759        -0.270467      
  2.5e+010        1.6568e-005     -1.741e-008     0.628096        -0.687113       0.143893        0.160843        0.101264        0.202233        0.805543        -0.506819       0.801746        -0.504003       0.093411        0.18644         0.0377221       0.217404        0.916607        -0.279478      
  2.6e+010        1.6568e-005     -1.741e-008     0.605907        -0.701991       0.154725        0.160061        0.114071        0.202928        0.782235        -0.532638       0.788935        -0.518959       0.101992        0.19095         0.0466104       0.224074        0.905314        -0.29133       
  2.7e+010        1.6568e-005     -1.741e-008     0.583025        -0.715416       0.161854        0.15985         0.123152        0.204102        0.750267        -0.547962       0.774072        -0.532994       0.1083          0.196551        0.0539659       0.230528        0.899808        -0.303867      
  2.8e+010        1.6568e-005     -1.741e-008     0.559993        -0.727983       0.170246        0.159087        0.132742        0.202743        0.729172        -0.569156       0.75943         -0.546768       0.115248        0.201753        0.0612279       0.235238        0.894296        -0.315289      
  2.9e+010        1.6568e-005     -1.741e-008     0.537488        -0.740473       0.176609        0.158407        0.140316        0.202947        0.718091        -0.580846       0.745459        -0.560204       0.12059         0.205384        0.067266        0.239866        0.889907        -0.322751      
  3e+010          1.6568e-005     -1.741e-008     0.514121        -0.750587       0.184171        0.158814        0.149195        0.20331         0.710808        -0.58993        0.731209        -0.571988       0.127366        0.209161        0.0750803       0.244336        0.885171        -0.329978      
  3.1e+010        1.6568e-005     -1.741e-008     0.492348        -0.760794       0.192179        0.157317        0.159624        0.202738        0.696269        -0.597863       0.716185        -0.584634       0.134596        0.211803        0.0837781       0.248341        0.877984        -0.336195      
  3.2e+010        1.6568e-005     -1.741e-008     0.469063        -0.771049       0.200054        0.155996        0.16792         0.200488        0.678038        -0.609487       0.701651        -0.59657        0.142323        0.215837        0.0925477       0.252374        0.870376        -0.346308      
  3.3e+010        1.6568e-005     -1.741e-008     0.446214        -0.780202       0.207765        0.154431        0.176647        0.200219        0.662988        -0.622282       0.686055        -0.60778        0.14936         0.219636        0.0992802       0.256823        0.864105        -0.355391      
  3.4e+010        1.6568e-005     -1.741e-008     0.421854        -0.787563       0.215507        0.152339        0.186535        0.198505        0.650604        -0.632273       0.670662        -0.618724       0.157053        0.222242        0.107731        0.261091        0.858377        -0.362855      
  3.5e+010        1.6568e-005     -1.741e-008     0.400558        -0.794302       0.222307        0.149579        0.195457        0.195395        0.63574         -0.64074        0.655801        -0.628359       0.164261        0.224219        0.117157        0.262954        0.850585        -0.370619      
  3.6e+010        1.6568e-005     -1.741e-008     0.378864        -0.800006       0.229096        0.146804        0.20282         0.193018        0.61866         -0.648716       0.639393        -0.637947       0.171956        0.226867        0.124905        0.26627         0.843698        -0.377084      
  3.7e+010        1.6568e-005     -1.741e-008     0.357997        -0.805192       0.235987        0.143668        0.210586        0.190052        0.604753        -0.6603         0.625474        -0.646592       0.179376        0.228303        0.132969        0.269113        0.83656         -0.38667       
  3.8e+010        1.6568e-005     -1.741e-008     0.336887        -0.811866       0.242715        0.140053        0.21996         0.186836        0.590879        -0.66801        0.609968        -0.655079       0.186973        0.229943        0.14264         0.271455        0.829913        -0.392777      
  3.9e+010        1.6568e-005     -1.741e-008     0.313868        -0.816571       0.248264        0.136571        0.227264        0.182082        0.577356        -0.674784       0.593836        -0.663416       0.193854        0.231313        0.15078         0.272777        0.823627        -0.398934      
  4e+010          1.6568e-005     -1.741e-008     0.292223        -0.819745       0.254449        0.132571        0.233391        0.179027        0.560185        -0.683314       0.579           -0.672099       0.201622        0.232515        0.158041        0.274698        0.81357         -0.406191      
  4.1e+010        1.6568e-005     -1.741e-008     0.272988        -0.823211       0.260285        0.129079        0.241273        0.175894        0.545973        -0.692106       0.563863        -0.67944        0.208543        0.233415        0.165965        0.277292        0.808675        -0.412434      
  4.2e+010        1.6568e-005     -1.741e-008     0.250066        -0.824735       0.266427        0.124645        0.248162        0.170228        0.531531        -0.698241       0.547705        -0.686703       0.216571        0.234782        0.175359        0.277547        0.804964        -0.41896       
  4.3e+010        1.6568e-005     -1.741e-008     0.232378        -0.828121       0.271607        0.11974         0.253817        0.166358        0.516892        -0.704189       0.531899        -0.692464       0.224476        0.234591        0.182545        0.277283        0.795497        -0.426837      
  4.4e+010        1.6568e-005     -1.741e-008     0.21054         -0.827942       0.275801        0.11562         0.26076         0.161647        0.502168        -0.71059        0.517641        -0.698096       0.231075        0.234806        0.192737        0.278013        0.78783         -0.433914      
  4.5e+010        1.6568e-005     -1.741e-008     0.18974         -0.831176       0.281383        0.111617        0.266031        0.157038        0.488705        -0.716866       0.501648        -0.704856       0.238457        0.236032        0.199926        0.280151        0.780916        -0.4377        
  4.6e+010        1.6568e-005     -1.741e-008     0.171895        -0.828777       0.286244        0.106102        0.272143        0.152927        0.474186        -0.722835       0.487883        -0.710073       0.245811        0.234818        0.208006        0.278988        0.772954        -0.445661      
  4.7e+010        1.6568e-005     -1.741e-008     0.154804        -0.831937       0.289845        0.101323        0.277406        0.147028        0.460186        -0.727051       0.474449        -0.71505        0.25259         0.23447         0.216668        0.280232        0.765233        -0.451314      
  4.8e+010        1.6568e-005     -1.741e-008     0.134212        -0.829636       0.293722        0.0972869       0.282028        0.14141         0.447311        -0.733417       0.456983        -0.720226       0.259127        0.234824        0.224776        0.278537        0.759235        -0.454995      
