! VERSION = 6.00
!Data measured by ggf on Tue Jan 23 12:06:34 2018 using model file NPN_MEAS_SCALE
BEGIN_HEADER
 ICCAP_INPUTS
  vce        V  C GROUND SMU_C 0.015 LIN        2    1.8        -0.6       25   -0.1      
  vb         V  B GROUND SMU_B 0.015 CON        0
  ve         V  E GROUND SMU_E 0 CON        0
  vs         V  S GROUND SMU_S 0 CON        0
  freq       F  LIST       1 74 100000000 200000000 300000000 400000000 500000000 600000000 700000000 800000000 900000000 1000000000 2000000000 3000000000 4000000000 5000000000 6000000000 7000000000 8000000000 9000000000 10000000000 11000000000 12000000000 13000000000 14000000000 15000000000 16000000000 17000000000 18000000000 19000000000 20000000000 21000000000 22000000000 23000000000 24000000000 25000000000 26000000000 27000000000 28000000000 29000000000 30000000000 31000000000 32000000000 33000000000 34000000000 35000000000 36000000000 37000000000 38000000000 39000000000 40000000000 41000000000 42000000000 43000000000 44000000000 45000000000 46000000000 47000000000 48000000000 49000000000 50000000000 51000000000 52000000000 53000000000 54000000000 55000000000 56000000000 57000000000 58000000000 59000000000 60000000000 61000000000 62000000000 63000000000 64000000000 65000000000
 ICCAP_OUTPUTS
  S          S  B C GROUND NWA M
  ic         I  C GROUND SMU_C M
  S_deemb    S B C GROUND n/a B
 ICCAP_VALUES
  TNOM "27"
  TEMP "27"
  TECHNO "SG13G2"
  LOT "EDJ802"
  WAFER "02"
  CHIP "(3.3)"
  MODULE "S439S"
  DEV_NAME "D44"
  DEV_GEOM_L "0.9"
  DEV_GEOM_W "0.07"
  NUM_OF_TRANS_RF "1"
  REMARKS "Nx=8; Power -30/-20dBm, Slope: 0.1dB/GHz"
  TIMEDATE "Tue Jan 23 11:29:34     2018"
  OPERATOR "ggf"
END_HEADER

BEGIN_DB
 ICCAP_VAR vce        1.8            
 ICCAP_VAR vb         0              
 ICCAP_VAR ve         0              
 ICCAP_VAR vs         0              

 #freq            R:S(1,1)        I:S(1,1)        R:S(1,2)        I:S(1,2)        R:S(2,1)        I:S(2,1)        R:S(2,2)        I:S(2,2)        ic              R:S_deemb(1,1)  I:S_deemb(1,1)  R:S_deemb(1,2)  I:S_deemb(1,2)  R:S_deemb(2,1)  I:S_deemb(2,1)  R:S_deemb(2,2)  I:S_deemb(2,2) 
  1e+008          0.999666        -0.00253704     -1.19792e-005   0.00100976      -0.000327306    0.000745698     1.00028         -0.00205091     -6.386e-008     1.00004         -0.00156994     5.8282e-006     0.000842833     -0.00010051     0.00063979      1.00037         -0.000564663   
  2e+008          1.00019         -0.00601137     -2.50534e-006   0.00194024      0.00014686      0.00201508      1.00022         -0.00474884     -6.386e-008     1.00018         -0.00360936     4.03181e-006    0.00167921      0.000155534     0.0016596       1.00037         -0.00229417    
  3e+008          1.00005         -0.00916999     -4.25276e-007   0.00289019      1.07759e-005    0.00290627      1.00025         -0.00721393     -6.386e-008     1.00023         -0.00631319     -3.4806e-005    0.00245835      6.86692e-006    0.00248219      1.00033         -0.0034245     
  4e+008          1.0004          -0.0124397      5.09858e-005    0.003835        2.80669e-005    0.00387052      1.00013         -0.00966315     -6.386e-008     1.00006         -0.00759568     5.86592e-005    0.00326635      -9.94652e-006   0.00326667      1.0004          -0.00453483    
  5e+008          1.00008         -0.0157857      0.000105168     0.00480222      6.17693e-005    0.00476391      1.00015         -0.0121202      -6.386e-008     1.00002         -0.00973579     6.17653e-005    0.00408634      3.76958e-005    0.00415794      1.00031         -0.00586229    
  6e+008          1.00017         -0.0190736      0.000130489     0.00577751      0.00012555      0.00570925      1.0001          -0.0145742      -6.386e-008     0.999926        -0.0116261      7.67076e-005    0.00492199      4.57703e-005    0.00498868      1.00025         -0.00705278    
  7e+008          1.0001          -0.0222119      0.000161953     0.0067254       7.58245e-005    0.00673308      0.999977        -0.0171417      -6.386e-008     1.00002         -0.0135403      9.79589e-005    0.00572426      9.47115e-006    0.00568913      1.00031         -0.00828633    
  8e+008          0.999928        -0.0257537      0.000191134     0.00769853      0.000158085     0.00767898      0.99976         -0.0195234      -6.386e-008     0.999827        -0.0156016      9.04731e-005    0.00657009      0.00012172      0.00660756      1.00008         -0.00946344    
  9e+008          0.999967        -0.0286437      0.000240528     0.00866854      0.000113216     0.00874988      0.99991         -0.021978       -6.386e-008     0.999951        -0.0175244      0.000117478     0.00739869      -1.6599e-005    0.00745434      1.00034         -0.0105915     
  1e+009          0.999675        -0.0321763      0.000268041     0.00961614      0.000320069     0.00960385      0.99968         -0.0244277      -6.386e-008     0.999866        -0.0196638      0.000118522     0.00823259      5.43804e-005    0.00816387      1.00014         -0.0118176     
  2e+009          0.997911        -0.0639925      0.00112737      0.0191624       0.00111495      0.0190821       0.998409        -0.048677       -6.386e-008     0.99924         -0.0390285      0.000552207     0.0164218       0.000494319     0.0162472       0.999778        -0.0234958     
  3e+009          0.994563        -0.0964986      0.00246975      0.0286579       0.00251         0.0287007       0.996256        -0.0728522      -6.386e-008     0.997755        -0.0588802      0.0011701       0.0245508       0.00116939      0.0246074       0.999053        -0.0353388     
  4e+009          0.990373        -0.127904       0.00441084      0.0380375       0.00439761      0.0380649       0.993146        -0.0964661      -6.386e-008     0.996081        -0.078226       0.00211857      0.0327276       0.00207623      0.0327526       0.997742        -0.04668       
  5e+009          0.984797        -0.159371       0.00683243      0.047341        0.00688965      0.0473645       0.98953         -0.120131       -6.386e-008     0.993719        -0.0978242      0.00325869      0.0408949       0.00336321      0.0409289       0.996449        -0.0581289     
  6e+009          0.978016        -0.189963       0.009759        0.0564399       0.00967237      0.0563835       0.985228        -0.143675       -6.386e-008     0.990751        -0.117479       0.00467676      0.0489957       0.00465459      0.0488258       0.994878        -0.0694409     
  7e+009          0.969616        -0.221116       0.0132759       0.0654425       0.0132796       0.0654505       0.980128        -0.166911       -6.386e-008     0.987201        -0.135384       0.00636936      0.0570922       0.00638149      0.0571804       0.993107        -0.0806812     
  8e+009          0.960805        -0.251252       0.0172376       0.074053        0.0172501       0.0741793       0.974395        -0.189608       -6.386e-008     0.983228        -0.155234       0.00834981      0.0649904       0.00832411      0.0651722       0.991138        -0.0918899     
  9e+009          0.950851        -0.280172       0.0217526       0.0824445       0.0215528       0.0823899       0.967973        -0.212302       -6.386e-008     0.979308        -0.174281       0.0106666       0.0729214       0.0105936       0.0729454       0.989043        -0.102956      
  1e+010          0.939933        -0.310828       0.02673         0.0905175       0.0269851       0.0907642       0.9608          -0.23456        -6.386e-008     0.9746          -0.192854       0.0131617       0.080702        0.013537        0.0809075       0.98667         -0.113969      
  1.1e+010        0.927314        -0.337894       0.0320057       0.098359        0.0316562       0.0984725       0.953342        -0.2567         -6.386e-008     0.969047        -0.210926       0.0157922       0.0885          0.0155183       0.0884833       0.984176        -0.1251        
  1.2e+010        0.913893        -0.36623        0.0378866       0.105888        0.0381166       0.105984        0.94476         -0.278203       -6.386e-008     0.963111        -0.229961       0.0188434       0.0961948       0.0189754       0.0963471       0.981237        -0.136006      
  1.3e+010        0.899843        -0.393192       0.0439771       0.112941        0.0441541       0.112852        0.935497        -0.299107       -6.386e-008     0.957014        -0.248081       0.0219594       0.103786        0.022116        0.103685        0.978165        -0.146973      
  1.4e+010        0.884223        -0.419223       0.050836        0.119564        0.0508331       0.119776        0.925892        -0.319606       -6.386e-008     0.949959        -0.266082       0.0257183       0.111341        0.0256749       0.11144         0.974848        -0.157461      
  1.5e+010        0.868788        -0.444562       0.0578755       0.12561         0.057961        0.125205        0.91631         -0.339539       -6.386e-008     0.942679        -0.283932       0.0297085       0.118552        0.0298179       0.118216        0.971647        -0.167784      
  1.6e+010        0.852084        -0.468587       0.0649383       0.131316        0.0647123       0.131292        0.906048        -0.359121       -6.386e-008     0.934957        -0.301088       0.0336884       0.125614        0.0335357       0.125521        0.967889        -0.178281      
  1.7e+010        0.835198        -0.492264       0.0725971       0.136477        0.0721396       0.136218        0.894374        -0.377964       -6.386e-008     0.926851        -0.317965       0.0381824       0.132505        0.0377293       0.132141        0.963893        -0.188733      
  1.8e+010        0.81749         -0.514758       0.0800089       0.141019        0.079554        0.141087        0.883149        -0.397088       -6.386e-008     0.91861         -0.334692       0.0425048       0.139102        0.0421333       0.139088        0.960088        -0.199191      
  1.9e+010        0.798667        -0.536384       0.0874975       0.145495        0.0877174       0.145425        0.871753        -0.415539       -6.386e-008     0.909431        -0.350678       0.0468502       0.145861        0.0469493       0.145704        0.955867        -0.208766      
  2e+010          0.780361        -0.556788       0.0953666       0.149305        0.0948962       0.148782        0.859648        -0.431933       -6.386e-008     0.900442        -0.366706       0.0518736       0.152117        0.0515207       0.151446        0.951414        -0.218617      
  2.1e+010        0.761063        -0.576471       0.103088        0.152676        0.103374        0.152596        0.845366        -0.447319       -6.386e-008     0.89109         -0.382435       0.0569205       0.158415        0.057272        0.158334        0.946207        -0.228674      
  2.2e+010        0.741987        -0.595285       0.111474        0.155806        0.11106         0.154937        0.831668        -0.464296       -6.386e-008     0.881419        -0.397519       0.0624947       0.164725        0.062189        0.163768        0.942136        -0.238063      
  2.3e+010        0.721949        -0.612792       0.119427        0.157969        0.118622        0.157671        0.821643        -0.482996       -6.386e-008     0.871295        -0.41212        0.0676956       0.170158        0.066982        0.169561        0.938042        -0.247657      
  2.4e+010        0.702899        -0.630764       0.126615        0.160023        0.126137        0.159868        0.815296        -0.49121        -6.386e-008     0.861657        -0.427124       0.0727059       0.17459         0.0722453       0.174262        0.933394        -0.252642      
  2.5e+010        0.680888        -0.647086       0.134625        0.163708        0.133702        0.163855        0.815612        -0.498271       -6.386e-008     0.850103        -0.441369       0.0782878       0.179939        0.0773277       0.179751        0.928151        -0.261536      
  2.6e+010        0.661309        -0.662742       0.14543         0.163934        0.144112        0.164208        0.79337         -0.524401       -6.386e-008     0.840083        -0.455623       0.0858193       0.1851          0.084366        0.185306        0.918613        -0.272886      
  2.7e+010        0.641004        -0.676801       0.152394        0.164295        0.152128        0.164832        0.761937        -0.540162       -6.386e-008     0.828951        -0.4684         0.0911951       0.191135        0.0906912       0.191547        0.914307        -0.28514       
  2.8e+010        0.620761        -0.690721       0.160979        0.164295        0.160202        0.163718        0.741359        -0.561836       -6.386e-008     0.817866        -0.481544       0.09735         0.197028        0.096858        0.195687        0.910094        -0.296434      
  2.9e+010        0.599616        -0.70413        0.167285        0.164408        0.166289        0.164404        0.730627        -0.573467       -6.386e-008     0.806231        -0.494995       0.102089        0.201165        0.101076        0.200637        0.906136        -0.303319      
  3e+010          0.578964        -0.715518       0.174758        0.165511        0.173936        0.165041        0.723521        -0.582535       -6.386e-008     0.794709        -0.507133       0.108113        0.205711        0.107474        0.204834        0.901708        -0.31027       
  3.1e+010        0.558974        -0.727552       0.182643        0.164473        0.182176        0.164409        0.709278        -0.590904       -6.386e-008     0.783096        -0.519188       0.114782        0.20896         0.113813        0.208498        0.895072        -0.317088      
  3.2e+010        0.537793        -0.738891       0.190809        0.164043        0.189826        0.163432        0.691255        -0.602963       -6.386e-008     0.771125        -0.531754       0.1215          0.213721        0.120589        0.213118        0.888285        -0.327018      
  3.3e+010        0.51699         -0.749492       0.198511        0.163338        0.196659        0.163388        0.67667         -0.616409       -6.386e-008     0.759167        -0.543055       0.127849        0.218337        0.125842        0.217345        0.882893        -0.3363        
  3.4e+010        0.494108        -0.758455       0.206737        0.161971        0.205588        0.161949        0.664591        -0.626146       -6.386e-008     0.745635        -0.55459        0.135249        0.22213         0.133634        0.221518        0.877656        -0.343374      
  3.5e+010        0.475092        -0.766584       0.213615        0.159687        0.212887        0.159701        0.649852        -0.634993       -6.386e-008     0.733863        -0.564503       0.141751        0.224748        0.140807        0.224072        0.870472        -0.351222      
  3.6e+010        0.454299        -0.774113       0.220643        0.157527        0.2195          0.15736         0.633108        -0.643277       -6.386e-008     0.720693        -0.57422        0.14875         0.227909        0.147106        0.227441        0.863985        -0.357781      
  3.7e+010        0.434718        -0.780799       0.227973        0.155302        0.225963        0.155996        0.619442        -0.654813       -6.386e-008     0.708397        -0.583956       0.155828        0.230858        0.153749        0.23114         0.857815        -0.367063      
  3.8e+010        0.414737        -0.788659       0.235202        0.152388        0.234177        0.153043        0.605629        -0.663129       -6.386e-008     0.695617        -0.593573       0.162994        0.233361        0.161427        0.233751        0.851642        -0.373564      
  3.9e+010        0.393259        -0.795469       0.241041        0.149442        0.239988        0.149616        0.592117        -0.670021       -6.386e-008     0.682096        -0.603195       0.169525        0.235881        0.167659        0.235546        0.846135        -0.378868      
  4e+010          0.373042        -0.801075       0.247355        0.146075        0.24586         0.14694         0.575506        -0.678896       -6.386e-008     0.669277        -0.612456       0.176579        0.237761        0.174333        0.23818         0.837092        -0.386998      
  4.1e+010        0.354626        -0.806348       0.253654        0.142993        0.253282        0.144414        0.561179        -0.687802       -6.386e-008     0.657117        -0.621229       0.183274        0.239871        0.181629        0.241168        0.832119        -0.393805      
  4.2e+010        0.332925        -0.809421       0.260604        0.139149        0.259247        0.139183        0.546317        -0.694041       -6.386e-008     0.643279        -0.628541       0.191298        0.242488        0.189639        0.241897        0.827344        -0.400369      
  4.3e+010        0.31625         -0.814379       0.266407        0.13461         0.264288        0.136015        0.532209        -0.700303       -6.386e-008     0.631964        -0.635802       0.198918        0.243207        0.195653        0.243802        0.819376        -0.407986      
  4.4e+010        0.29443         -0.816459       0.270652        0.131032        0.271032        0.131777        0.517856        -0.70686        -6.386e-008     0.616612        -0.643994       0.205201        0.24464         0.204464        0.245259        0.81244         -0.4147        
  4.5e+010        0.274612        -0.820349       0.276815        0.127715        0.275028        0.128054        0.503951        -0.713571       -6.386e-008     0.60377         -0.65171        0.21242         0.246803        0.20986         0.246649        0.806124        -0.419643      
  4.6e+010        0.257389        -0.821559       0.28226         0.122929        0.280634        0.124489        0.490077        -0.719615       -6.386e-008     0.591625        -0.658079       0.219783        0.247222        0.217376        0.248038        0.799039        -0.427491      
  4.7e+010        0.240177        -0.824406       0.286759        0.118203        0.285297        0.119658        0.475898        -0.724254       -6.386e-008     0.579578        -0.664815       0.226834        0.247757        0.224363        0.248396        0.791576        -0.433625      
  4.8e+010        0.219911        -0.824673       0.290877        0.114473        0.290862        0.114235        0.463112        -0.730688       -6.386e-008     0.563287        -0.671034       0.233139        0.24896         0.232617        0.24839         0.785637        -0.437679      
  4.9e+010        0.202326        -0.829254       0.296541        0.109862        0.292807        0.109518        0.449078        -0.736428       -6.386e-008     0.551721        -0.679381       0.241663        0.249442        0.237671        0.247804        0.77709         -0.444101      
  5e+010          0.184377        -0.827879       0.30075         0.104732        0.299031        0.108332        0.434556        -0.742706       -6.386e-008     0.537045        -0.684806       0.248787        0.248526        0.245003        0.251402        0.769858        -0.451472      
  5.1e+010        0.168966        -0.827452       0.30448         0.100224        0.303629        0.101138        0.421448        -0.747326       -6.386e-008     0.52485         -0.688487       0.255166        0.248478        0.25368         0.248626        0.763421        -0.455349      
  5.2e+010        0.151638        -0.825521       0.307906        0.0952405       0.304527        0.0949082       0.406708        -0.752905       -6.386e-008     0.509978        -0.691482       0.261539        0.24848         0.257452        0.246498        0.756607        -0.459308      
