! VERSION = 6.00
!Data measured by ggf on Tue Jan 23 12:06:34 2018 using model file NPN_MEAS_SCALE
BEGIN_HEADER
 ICCAP_INPUTS
  vc         V  C GROUND SMU_C 0.1 SYNC       1 -0.5 vb
  ve         V  E GROUND SMU_E 0 CON        0
  vs         V  S GROUND SMU_S 0 CON        0
  freq       F  LIST       1 74 100000000 200000000 300000000 400000000 500000000 600000000 700000000 800000000 900000000 1000000000 2000000000 3000000000 4000000000 5000000000 6000000000 7000000000 8000000000 9000000000 10000000000 11000000000 12000000000 13000000000 14000000000 15000000000 16000000000 17000000000 18000000000 19000000000 20000000000 21000000000 22000000000 23000000000 24000000000 25000000000 26000000000 27000000000 28000000000 29000000000 30000000000 31000000000 32000000000 33000000000 34000000000 35000000000 36000000000 37000000000 38000000000 39000000000 40000000000 41000000000 42000000000 43000000000 44000000000 45000000000 46000000000 47000000000 48000000000 49000000000 50000000000 51000000000 52000000000 53000000000 54000000000 55000000000 56000000000 57000000000 58000000000 59000000000 60000000000 61000000000 62000000000 63000000000 64000000000 65000000000
  vb         V  B GROUND SMU_B 0.015 LIN        2    0.68       1.04       37   0.01      
 ICCAP_OUTPUTS
  ic         I  C GROUND SMU_C M
  ib         I  B GROUND SMU_B M
  S          S  B C GROUND NWA M
  S_deemb    S B C GROUND n/a B
 ICCAP_VALUES
  TNOM "27"
  TEMP "27"
  TECHNO "SG13G2"
  LOT "EDJ802"
  WAFER "02"
  CHIP "(3.3)"
  MODULE "S439S"
  DEV_NAME "D44"
  DEV_GEOM_L "0.9"
  DEV_GEOM_W "0.07"
  NUM_OF_TRANS_RF "1"
  REMARKS "Nx=8; Power -30/-20dBm, Slope: 0.1dB/GHz"
  TIMEDATE "Tue Jan 23 11:29:34     2018"
  OPERATOR "ggf"
END_HEADER

BEGIN_DB
 ICCAP_VAR vc         0.18           
 ICCAP_VAR ve         0              
 ICCAP_VAR vs         0              
 ICCAP_VAR vb         0.68           

 #freq            ic              ib              R:S(1,1)        I:S(1,1)        R:S(1,2)        I:S(1,2)        R:S(2,1)        I:S(2,1)        R:S(2,2)        I:S(2,2)        R:S_deemb(1,1)  I:S_deemb(1,1)  R:S_deemb(1,2)  I:S_deemb(1,2)  R:S_deemb(2,1)  I:S_deemb(2,1)  R:S_deemb(2,2)  I:S_deemb(2,2) 
  1e+008          1.6414e-005     6.3508e-008     0.999602        -0.00293112     6.22907e-005    0.00129683      -0.0692228      0.000532612     0.999775        -0.00266052     0.999973        -0.00195834     7.96695e-005    0.0011301       -0.069019       0.000340863     0.999859        -0.00116908    
  2e+008          1.6414e-005     6.3508e-008     1.00006         -0.0072779      0.000181941     0.00246012      -0.0670642      0.00206876      0.999874        -0.0062862      1.00005         -0.00486733     0.000186838     0.00219963      -0.0670675      0.00154739      1.00003         -0.00382357    
  3e+008          1.6414e-005     6.3508e-008     0.999858        -0.0109194      9.01553e-005    0.00375321      -0.0674338      0.00367466      0.999785        -0.00848026     1.00005         -0.00804873     5.22262e-005    0.00332196      -0.0674557      0.00302259      0.999875        -0.00467758    
  4e+008          1.6414e-005     6.3508e-008     1.00015         -0.0150798      0.000124512     0.00500164      -0.0663413      0.00536038      0.999502        -0.0114501      0.999822        -0.0102169      0.000125009     0.00443348      -0.0663903      0.00442071      0.999786        -0.00630582    
  5e+008          1.6414e-005     6.3508e-008     0.999876        -0.0186828      0.000188002     0.00623014      -0.0670791      0.006847        0.999649        -0.0142317      0.999841        -0.0126095      0.000133894     0.00551505      -0.0671241      0.00582158      0.999826        -0.00795231    
  6e+008          1.6414e-005     6.3508e-008     0.999807        -0.0228055      0.000257178     0.00744886      -0.067061       0.00824395      0.999518        -0.0171741      0.999593        -0.0153305      0.00018798      0.00659452      -0.0671602      0.00701279      0.999688        -0.00962749    
  7e+008          1.6414e-005     6.3508e-008     0.99979         -0.0264304      0.000272347     0.00866682      -0.0670193      0.00977428      0.99934         -0.0200506      0.999749        -0.0177268      0.000187516     0.00766718      -0.0671237      0.0081336       0.9997          -0.0111667     
  8e+008          1.6414e-005     6.3508e-008     0.999644        -0.0305147      0.000328363     0.00992736      -0.0672418      0.0114615       0.999192        -0.0229194      0.999597        -0.0203258      0.000200229     0.00880083      -0.0673251      0.0096983       0.999547        -0.0128262     
  9e+008          1.6414e-005     6.3508e-008     0.999434        -0.0340442      0.000436504     0.0111438       -0.0665287      0.0131644       0.999076        -0.0257539      0.999486        -0.022887       0.000279349     0.0098772       -0.0667225      0.0111082       0.999554        -0.014334      
  1e+009          1.6414e-005     6.3508e-008     0.999144        -0.0380603      0.000534411     0.0123733       -0.0672014      0.014725        0.998953        -0.0286325      0.999418        -0.0255071      0.000342753     0.0109945       -0.0675523      0.0124252       0.999475        -0.0159843     
  2e+009          1.6414e-005     6.3508e-008     0.996537        -0.0758764      0.00178856      0.0246463       -0.0640328      0.0293613       0.996578        -0.0569062      0.998198        -0.0508609      0.00104595      0.0219308       -0.0649766      0.0248738       0.998185        -0.0316837     
  3e+009          1.6414e-005     6.3508e-008     0.991898        -0.113729       0.00388257      0.0367485       -0.0628862      0.0435613       0.992814        -0.0837553      0.995817        -0.076093       0.00221534      0.0327204       -0.0649178      0.0369904       0.996088        -0.0462454     
  4e+009          1.6414e-005     6.3508e-008     0.985863        -0.150795       0.00677642      0.0486691       -0.0598515      0.0584042       0.988529        -0.111349       0.992852        -0.101216       0.00384293      0.043533        -0.0634106      0.0498849       0.993989        -0.0616454     
  5e+009          1.6414e-005     6.3508e-008     0.977752        -0.187379       0.0104588       0.0604239       -0.0548858      0.0724697       0.983275        -0.138052       0.98862         -0.126162       0.00590793      0.0543072       -0.060301       0.0622313       0.991495        -0.0762848     
  6e+009          1.6414e-005     6.3508e-008     0.968258        -0.222612       0.0148704       0.0717831       -0.0495119      0.0858463       0.977017        -0.164293       0.983674        -0.150784       0.00843068      0.0648873       -0.0571593      0.0740013       0.988463        -0.0905276     
  7e+009          1.6414e-005     6.3508e-008     0.95696         -0.259588       0.0200829       0.0829353       -0.0438055      0.0993347       0.97002         -0.190188       0.978275        -0.174987       0.0113608       0.07544         -0.0542496      0.0862718       0.985365        -0.104724      
  8e+009          1.6414e-005     6.3508e-008     0.944433        -0.292655       0.0259386       0.0935107       -0.0373212      0.112042        0.962152        -0.215197       0.971383        -0.198375       0.0147862       0.0856801       -0.0507083      0.0979451       0.981851        -0.118628      
  9e+009          1.6414e-005     6.3508e-008     0.930798        -0.326913       0.032525        0.103673        -0.0297363      0.124165        0.953526        -0.240158       0.964893        -0.223533       0.0186937       0.0958581       -0.0461961      0.109513        0.978197        -0.132436      
  1e+010          1.6414e-005     6.3508e-008     0.91524         -0.360523       0.0396738       0.113122        -0.0206846      0.136045        0.943988        -0.264383       0.956601        -0.246075       0.0228791       0.105585        -0.0407326      0.120955        0.974119        -0.145993      
  1.1e+010        1.6414e-005     6.3508e-008     0.898337        -0.391485       0.0472945       0.12234         -0.0125631      0.146831        0.933994        -0.28833        0.947859        -0.269165       0.0273798       0.115426        -0.036384       0.131761        0.969768        -0.159602      
  1.2e+010        1.6414e-005     6.3508e-008     0.880332        -0.421413       0.0556562       0.130998        -0.00302216     0.157586        0.922985        -0.311477       0.938197        -0.291074       0.0324641       0.125017        -0.0310102      0.143071        0.965087        -0.172901      
  1.3e+010        1.6414e-005     6.3508e-008     0.861149        -0.451441       0.0642812       0.138923        0.00634884      0.16737         0.911112        -0.333535       0.92806         -0.313803       0.0377115       0.13435         -0.0257161      0.153697        0.960017        -0.185885      
  1.4e+010        1.6414e-005     6.3508e-008     0.840758        -0.479349       0.0738086       0.14618         0.0174999       0.176531        0.898923        -0.355492       0.917102        -0.335348       0.0438015       0.143518        -0.018773       0.164382        0.954791        -0.198799      
  1.5e+010        1.6414e-005     6.3508e-008     0.82037         -0.505903       0.0833434       0.152372        0.0293903       0.183444        0.886691        -0.376264       0.905595        -0.356157       0.0500626       0.151859        -0.0107587      0.173477        0.949487        -0.210987      
  1.6e+010        1.6414e-005     6.3508e-008     0.798765        -0.53134        0.0931903       0.158339        0.0399532       0.191196        0.87357         -0.396819       0.893704        -0.376633       0.056614        0.160299        -0.00419913     0.183251        0.943448        -0.223588      
  1.7e+010        1.6414e-005     6.3508e-008     0.776369        -0.555547       0.103402        0.163266        0.0520977       0.196936        0.859349        -0.41617        0.880627        -0.396169       0.0635944       0.168107        0.0039551       0.191795        0.937335        -0.235733      
  1.8e+010        1.6414e-005     6.3508e-008     0.753694        -0.578308       0.113473        0.167656        0.0633143       0.203112        0.845387        -0.435786       0.867803        -0.415326       0.0705504       0.175781        0.0113088       0.201077        0.931242        -0.247963      
  1.9e+010        1.6414e-005     6.3508e-008     0.730065        -0.599945       0.12335         0.171513        0.0756439       0.208218        0.831212        -0.454424       0.854108        -0.433595       0.077385        0.18315         0.01957         0.209669        0.924627        -0.259088      
  2e+010          1.6414e-005     6.3508e-008     0.70673         -0.620005       0.133789        0.174557        0.0863774       0.211665        0.816499        -0.470636       0.840184        -0.451535       0.0852157       0.18988         0.0272442       0.21661         0.917724        -0.270056      
  2.1e+010        1.6414e-005     6.3508e-008     0.682687        -0.638943       0.143832        0.176995        0.0986365       0.216313        0.799991        -0.485938       0.825962        -0.468889       0.0929803       0.196491        0.0362052       0.225698        0.910352        -0.281368      
  2.2e+010        1.6414e-005     6.3508e-008     0.658919        -0.656205       0.154323        0.1789          0.110495        0.218102        0.783943        -0.502793       0.811211        -0.484767       0.101151        0.202828        0.0450835       0.232045        0.904037        -0.292143      
  2.3e+010        1.6414e-005     6.3508e-008     0.634873        -0.672606       0.164459        0.179928        0.121998        0.220339        0.771222        -0.520951       0.796726        -0.500597       0.108975        0.208407        0.0535987       0.238715        0.897429        -0.302677      
  2.4e+010        1.6414e-005     6.3508e-008     0.611147        -0.688796       0.17348         0.180684        0.133386        0.221928        0.762785        -0.529276       0.781889        -0.516207       0.116318        0.21251         0.0628195       0.244114        0.890808        -0.308677      
  2.5e+010        1.6414e-005     6.3508e-008     0.585497        -0.703349       0.183991        0.183284        0.144457        0.225014        0.760083        -0.53737        0.766208        -0.530906       0.124781        0.217682        0.0717537       0.249707        0.882877        -0.319018      
  2.6e+010        1.6414e-005     6.3508e-008     0.561855        -0.717389       0.196686        0.181096        0.158831        0.224566        0.734439        -0.561429       0.751211        -0.545861       0.135162        0.221743        0.082708        0.255966        0.869881        -0.33046       
  2.7e+010        1.6414e-005     6.3508e-008     0.536901        -0.729337       0.205306        0.179913        0.16988         0.224125        0.702082        -0.575228       0.734405        -0.558952       0.14337         0.227639        0.0921372       0.262972        0.863515        -0.342942      
  2.8e+010        1.6414e-005     6.3508e-008     0.513516        -0.73965        0.215157        0.177776        0.180218        0.221555        0.678736        -0.595391       0.718606        -0.570687       0.152118        0.232822        0.100722        0.267169        0.856043        -0.355426      
  2.9e+010        1.6414e-005     6.3508e-008     0.489436        -0.751208       0.222572        0.176221        0.189085        0.220758        0.667223        -0.605432       0.702987        -0.584434       0.158949        0.23623         0.108228        0.271961        0.850727        -0.361733      
  3e+010          1.6414e-005     6.3508e-008     0.465874        -0.759624       0.23144         0.175513        0.199867        0.219773        0.658267        -0.613912       0.687066        -0.595512       0.167322        0.239762        0.118434        0.275764        0.844258        -0.369006      
  3.1e+010        1.6414e-005     6.3508e-008     0.442645        -0.768851       0.240161        0.172461        0.211575        0.217311        0.641931        -0.62129        0.670891        -0.606834       0.175987        0.241711        0.129089        0.279193        0.8349          -0.376237      
  3.2e+010        1.6414e-005     6.3508e-008     0.418805        -0.776809       0.249444        0.170039        0.221152        0.214271        0.622748        -0.631725       0.654334        -0.61789        0.185275        0.245368        0.138768        0.282816        0.825987        -0.38584       
  3.3e+010        1.6414e-005     6.3508e-008     0.395046        -0.783895       0.258073        0.167194        0.230225        0.21257         0.606701        -0.6437         0.637496        -0.627738       0.193989        0.248639        0.146991        0.286637        0.818413        -0.395054      
  3.4e+010        1.6414e-005     6.3508e-008     0.370181        -0.789386       0.266946        0.163475        0.241629        0.208929        0.592893        -0.652287       0.619838        -0.637448       0.203557        0.250631        0.158446        0.289831        0.810764        -0.402229      
  3.5e+010        1.6414e-005     6.3508e-008     0.349506        -0.795091       0.27455         0.159354        0.25103         0.204688        0.576972        -0.659933       0.604805        -0.646232       0.212139        0.251911        0.168802        0.29137         0.801615        -0.409906      
  3.6e+010        1.6414e-005     6.3508e-008     0.326301        -0.799277       0.282139        0.155156        0.259158        0.200671        0.558445        -0.667498       0.587155        -0.654062       0.22126         0.25345         0.1777          0.29389         0.792542        -0.417257      
  3.7e+010        1.6414e-005     6.3508e-008     0.305735        -0.802986       0.289537        0.150551        0.267683        0.196527        0.544185        -0.676805       0.572037        -0.661782       0.229895        0.254197        0.187755        0.295615        0.784745        -0.425011      
  3.8e+010        1.6414e-005     6.3508e-008     0.284369        -0.806409       0.297007        0.145573        0.27808         0.191251        0.529327        -0.683455       0.555468        -0.667999       0.238789        0.254837        0.199013        0.296888        0.776483        -0.430844      
  3.9e+010        1.6414e-005     6.3508e-008     0.261563        -0.809235       0.302977        0.140691        0.284488        0.185015        0.514458        -0.689154       0.538169        -0.674736       0.246984        0.255519        0.207356        0.296156        0.768733        -0.436078      
  4e+010          1.6414e-005     6.3508e-008     0.240851        -0.81276        0.309416        0.135107        0.291727        0.180559        0.497481        -0.696788       0.523179        -0.682633       0.255726        0.255245        0.216466        0.297609        0.758558        -0.44361       
  4.1e+010        1.6414e-005     6.3508e-008     0.219771        -0.814286       0.315583        0.130154        0.300139        0.175535        0.481775        -0.704067       0.505894        -0.689008       0.263769        0.255473        0.226271        0.298581        0.751159        -0.450067      
  4.2e+010        1.6414e-005     6.3508e-008     0.198499        -0.813603       0.32202         0.124161        0.307108        0.168439        0.466451        -0.708115       0.489986        -0.692913       0.273052        0.255705        0.236501        0.297968        0.744377        -0.455294      
  4.3e+010        1.6414e-005     6.3508e-008     0.180251        -0.815501       0.327129        0.11788         0.31254         0.16314         0.451647        -0.713462       0.474957        -0.698158       0.281455        0.25419         0.244362        0.29777         0.734823        -0.462568      
  4.4e+010        1.6414e-005     6.3508e-008     0.16034         -0.814349       0.331536        0.112325        0.320021        0.157124        0.43676         -0.71814        0.459389        -0.702161       0.289354        0.253239        0.255068        0.297509        0.726102        -0.467867      
  4.5e+010        1.6414e-005     6.3508e-008     0.139022        -0.814698       0.337348        0.107369        0.325289        0.151552        0.422371        -0.724166       0.442334        -0.707247       0.297689        0.253532        0.263082        0.297513        0.718711        -0.472919      
  4.6e+010        1.6414e-005     6.3508e-008     0.121682        -0.813716       0.3422          0.100511        0.331541        0.145675        0.407744        -0.72802        0.428387        -0.711524       0.305984        0.251243        0.272683        0.296604        0.709428        -0.479078      
  4.7e+010        1.6414e-005     6.3508e-008     0.104031        -0.813619       0.346064        0.0945325       0.337116        0.138091        0.393149        -0.731449       0.41377         -0.715437       0.313591        0.249792        0.282386        0.294164        0.700505        -0.484331      
  4.8e+010        1.6414e-005     6.3508e-008     0.0848374       -0.811211       0.349879        0.0890079       0.3419          0.131272        0.379633        -0.737006       0.396915        -0.718123       0.320809        0.248621        0.290596        0.292052        0.693363        -0.488332      
