! VERSION = 6.00
!Data measured by ggf on Tue Jan 23 12:06:34 2018 using model file NPN_MEAS_SCALE
BEGIN_HEADER
 ICCAP_INPUTS
  vbe        V  B GROUND SMU_B 0.015 LIN        2    0.6        -1.8       25   -0.1      
  vc         V  C GROUND SMU_C 0.015 CON        0
  ve         V  E GROUND SMU_E 0 CON        0
  vs         V  S GROUND SMU_S 0 CON        0
  freq       F  LIST       1 74 100000000 200000000 300000000 400000000 500000000 600000000 700000000 800000000 900000000 1000000000 2000000000 3000000000 4000000000 5000000000 6000000000 7000000000 8000000000 9000000000 10000000000 11000000000 12000000000 13000000000 14000000000 15000000000 16000000000 17000000000 18000000000 19000000000 20000000000 21000000000 22000000000 23000000000 24000000000 25000000000 26000000000 27000000000 28000000000 29000000000 30000000000 31000000000 32000000000 33000000000 34000000000 35000000000 36000000000 37000000000 38000000000 39000000000 40000000000 41000000000 42000000000 43000000000 44000000000 45000000000 46000000000 47000000000 48000000000 49000000000 50000000000 51000000000 52000000000 53000000000 54000000000 55000000000 56000000000 57000000000 58000000000 59000000000 60000000000 61000000000 62000000000 63000000000 64000000000 65000000000
 ICCAP_OUTPUTS
  S          S  B C GROUND NWA M
  ib         I  B GROUND SMU_B M
  S_deemb    S B C GROUND n/a B
 ICCAP_VALUES
  TNOM "27"
  TEMP "27"
  TECHNO "SG13G2"
  LOT "EDJ802"
  WAFER "02"
  CHIP "(3.3)"
  MODULE "S439S"
  DEV_NAME "D44"
  DEV_GEOM_L "0.9"
  DEV_GEOM_W "0.07"
  NUM_OF_TRANS_RF "1"
  REMARKS "Nx=8; Power -30/-20dBm, Slope: 0.1dB/GHz"
  TIMEDATE "Tue Jan 23 11:29:34     2018"
  OPERATOR "ggf"
END_HEADER

BEGIN_DB
 ICCAP_VAR vbe        0.6            
 ICCAP_VAR vc         0              
 ICCAP_VAR ve         0              
 ICCAP_VAR vs         0              

 #freq            R:S(1,1)        I:S(1,1)        R:S(1,2)        I:S(1,2)        R:S(2,1)        I:S(2,1)        R:S(2,2)        I:S(2,2)        ib              R:S_deemb(1,1)  I:S_deemb(1,1)  R:S_deemb(1,2)  I:S_deemb(1,2)  R:S_deemb(2,1)  I:S_deemb(2,1)  R:S_deemb(2,2)  I:S_deemb(2,2) 
  1e+008          0.999309        -0.0029167      0.000241502     0.00141313      0.000146327     0.00144504      0.994229        -0.0023761      1.6972e-007     0.999681        -0.0019501      0.000258751     0.00124715      0.000371605     0.00134015      0.994313        -0.0008989     
  2e+008          0.999756        -0.0070667      0.000253976     0.00278992      0.000102896     0.00279307      0.994076        -0.00546728     1.6972e-007     0.99975         -0.00466575     0.000258177     0.00253045      0.000109296     0.0024387       0.994233        -0.00302792    
  3e+008          0.999921        -0.0109555      0.000279084     0.0041895       0.000232038     0.00421618      0.994092        -0.00867959     1.6972e-007     1.00011         -0.00809948     0.000239733     0.00376017      0.000223034     0.00379434      0.994181        -0.00491388    
  4e+008          1.0003          -0.0149257      0.000312597     0.00556257      0.000334565     0.00553706      0.99387         -0.0117873      1.6972e-007     0.999976        -0.0100813      0.000310141     0.00499689      0.000286788     0.00493662      0.994156        -0.00669197    
  5e+008          0.999863        -0.0186567      0.000372716     0.00699245      0.000387493     0.00693668      0.993749        -0.0147297      1.6972e-007     0.999827        -0.0126079      0.000313746     0.00628067      0.000348201     0.00633477      0.993928        -0.00851267    
  6e+008          0.999843        -0.0226793      0.000455271     0.00838019      0.000314911     0.00829956      0.993635        -0.0176289      1.6972e-007     0.999627        -0.0152333      0.000378907     0.00752978      0.000213197     0.00758271      0.993807        -0.010157      
  7e+008          0.999811        -0.026462       0.00049676      0.00975546      0.00047449      0.0097406       0.993738        -0.0208161      1.6972e-007     0.99977         -0.0177925      0.000401914     0.00876068      0.000377326     0.00870371      0.994104        -0.0120177     
  8e+008          0.999587        -0.0303094      0.000543543     0.0111272       0.000614151     0.0110098       0.993822        -0.0238258      1.6972e-007     0.999537        -0.0201599      0.000402824     0.0100059       0.000538786     0.00994619      0.994185        -0.0138273     
  9e+008          0.999416        -0.0339729      0.000683153     0.0125374       0.000699121     0.0125061       0.993654        -0.0267662      1.6972e-007     0.999465        -0.0228593      0.000509635     0.0112772       0.000520014     0.011222        0.994141        -0.0154536     
  1e+009          0.999117        -0.0380341      0.000751455     0.0138996       0.000754697     0.0137176       0.993323        -0.0297127      1.6972e-007     0.999389        -0.0255292      0.000539803     0.0125277       0.0004291       0.0122894       0.993856        -0.0171859     
  2e+009          0.996543        -0.0755796      0.00221124      0.0276658       0.00222433      0.0273745       0.991424        -0.0591623      1.6972e-007     0.99819         -0.0506578      0.00138969      0.0249698       0.00136182      0.0245856       0.993081        -0.0341689     
  3e+009          0.991743        -0.113711       0.00470113      0.0412432       0.00461364      0.0408067       0.986923        -0.0877404      1.6972e-007     0.995647        -0.0762276      0.00285562      0.0372646       0.00274577      0.0368373       0.990331        -0.0506093     
  4e+009          0.985582        -0.150751       0.0079971       0.0545594       0.00789433      0.0541661       0.981962        -0.115569       1.6972e-007     0.992539        -0.101382       0.0047573       0.0495157       0.00464677      0.0491154       0.987601        -0.0664051     
  5e+009          0.977567        -0.187355       0.0122668       0.0677036       0.0120436       0.0671241       0.976024        -0.143115       1.6972e-007     0.988385        -0.126392       0.0072463       0.0617481       0.00710776      0.0611586       0.984509        -0.0820662     
  6e+009          0.967804        -0.223534       0.0173684       0.0803117       0.0171605       0.0795981       0.969295        -0.170114       1.6972e-007     0.983219        -0.152036       0.0102717       0.0736734       0.0101734       0.0728343       0.981107        -0.0972495     
  7e+009          0.956125        -0.258615       0.0233613       0.0926309       0.023191        0.0918008       0.961769        -0.196429       1.6972e-007     0.977251        -0.17443        0.0137761       0.085522        0.0136908       0.0847517       0.977554        -0.112072      
  8e+009          0.943487        -0.293073       0.0301267       0.10432         0.0297369       0.103502        0.953326        -0.222216       1.6972e-007     0.970343        -0.199291       0.0178809       0.09704         0.0175483       0.0962333       0.973583        -0.126978      
  9e+009          0.929556        -0.325728       0.0377815       0.115791        0.0368936       0.114534        0.943435        -0.247605       1.6972e-007     0.963337        -0.222925       0.0226045       0.108742        0.0219765       0.10747         0.968756        -0.141528      
  1e+010          0.91395         -0.359876       0.0458284       0.125855        0.0455169       0.125118        0.934285        -0.272254       1.6972e-007     0.955002        -0.246079       0.0274592       0.1193          0.0273822       0.118437        0.965159        -0.155648      
  1.1e+010        0.89687         -0.390618       0.0547533       0.136331        0.0537147       0.135157        0.922343        -0.296632       1.6972e-007     0.945989        -0.269042       0.0329724       0.130717        0.0321726       0.129302        0.95895         -0.170149      
  1.2e+010        0.878557        -0.420875       0.0641393       0.145533        0.0635772       0.144287        0.910957        -0.320017       1.6972e-007     0.935981        -0.291401       0.0388578       0.141155        0.0383939       0.139834        0.953948        -0.183958      
  1.3e+010        0.859589        -0.450137       0.0740989       0.154249        0.0732543       0.152758        0.897869        -0.342507       1.6972e-007     0.925848        -0.313387       0.0451913       0.151663        0.0445385       0.149976        0.947734        -0.197792      
  1.4e+010        0.838747        -0.477205       0.0847799       0.161989        0.0837103       0.161041        0.885101        -0.364397       1.6972e-007     0.914182        -0.334204       0.0522377       0.161701        0.0513043       0.160438        0.941924        -0.210958      
  1.5e+010        0.818263        -0.504166       0.0953267       0.168419        0.0943991       0.166805        0.873136        -0.385529       1.6972e-007     0.902537        -0.355481       0.0593308       0.170651        0.0586374       0.168893        0.936969        -0.223666      
  1.6e+010        0.796308        -0.52885        0.106855        0.175179        0.104919        0.173521        0.85773         -0.406006       1.6972e-007     0.890019        -0.375308       0.0673335       0.18044         0.0657494       0.178337        0.928601        -0.236853      
  1.7e+010        0.77411         -0.552966       0.117944        0.179918        0.116048        0.178361        0.843977        -0.425393       1.6972e-007     0.876999        -0.394736       0.0751099       0.188447        0.0734499       0.186455        0.922951        -0.249164      
  1.8e+010        0.751508        -0.575227       0.129866        0.184954        0.127134        0.183523        0.827603        -0.445047       1.6972e-007     0.863992        -0.413397       0.0837279       0.197434        0.0813393       0.195373        0.914383        -0.262197      
  1.9e+010        0.727596        -0.596647       0.140462        0.188458        0.139469        0.186952        0.814353        -0.463444       1.6972e-007     0.849782        -0.431516       0.0912458       0.204848        0.0904242       0.202945        0.908632        -0.273094      
  2e+010          0.704751        -0.615885       0.152439        0.191559        0.149483        0.189799        0.798128        -0.479459       1.6972e-007     0.83603         -0.448491       0.100575        0.212232        0.0979442       0.209679        0.900096        -0.28443       
  2.1e+010        0.680581        -0.634348       0.163505        0.193801        0.161965        0.192694        0.780954        -0.494392       1.6972e-007     0.821379        -0.465346       0.109404        0.219152        0.108116        0.217545        0.891828        -0.295734      
  2.2e+010        0.65695         -0.651361       0.174481        0.195267        0.172585        0.193578        0.765593        -0.511115       1.6972e-007     0.806536        -0.480868       0.118108        0.225431        0.116476        0.223228        0.886123        -0.30643       
  2.3e+010        0.632847        -0.667227       0.18623         0.196249        0.183353        0.195002        0.751511        -0.529259       1.6972e-007     0.791631        -0.496135       0.127543        0.231677        0.124907        0.229525        0.878121        -0.317536      
  2.4e+010        0.609536        -0.683317       0.195867        0.196653        0.193711        0.195552        0.743385        -0.536849       1.6972e-007     0.777069        -0.511505       0.135537        0.235734        0.133585        0.233952        0.871608        -0.322727      
  2.5e+010        0.583855        -0.69692        0.207713        0.199333        0.204466        0.198116        0.739653        -0.544372       1.6972e-007     0.761015        -0.52526        0.145293        0.241371        0.142278        0.239113        0.862506        -0.332583      
  2.6e+010        0.560669        -0.710713       0.222268        0.196531        0.218345        0.19654         0.712212        -0.56811        1.6972e-007     0.746227        -0.539639       0.157673        0.245668        0.153607        0.244816        0.84759         -0.344564      
  2.7e+010        0.536588        -0.721652       0.231395        0.194672        0.228787        0.194442        0.679276        -0.581904       1.6972e-007     0.729968        -0.551185       0.166702        0.251469        0.163974        0.250364        0.840238        -0.357703      
  2.8e+010        0.512975        -0.732576       0.242193        0.191735        0.239107        0.191228        0.656046        -0.601683       1.6972e-007     0.713737        -0.563501       0.176743        0.256645        0.173708        0.254647        0.832561        -0.370286      
  2.9e+010        0.489294        -0.74336        0.250504        0.189708        0.246669        0.189296        0.643766        -0.611316       1.6972e-007     0.698061        -0.576161       0.184705        0.260135        0.180783        0.258236        0.82622         -0.37661       
  3e+010          0.465391        -0.751283       0.259714        0.188516        0.257236        0.187855        0.635156        -0.619608       1.6972e-007     0.68148         -0.58677        0.193561        0.263448        0.191192        0.261791        0.82006         -0.383586      
  3.1e+010        0.442726        -0.759904       0.269131        0.184892        0.266402        0.184878        0.618684        -0.626126       1.6972e-007     0.665609        -0.597124       0.203158        0.265237        0.199766        0.264108        0.810174        -0.390089      
  3.2e+010        0.418978        -0.767926       0.279109        0.181799        0.276208        0.181222        0.59903         -0.636512       1.6972e-007     0.64896         -0.608011       0.213522        0.268736        0.210569        0.267451        0.800511        -0.399994      
  3.3e+010        0.396264        -0.775319       0.288978        0.178297        0.285016        0.178627        0.5818          -0.648007       1.6972e-007     0.633148        -0.617638       0.223841        0.272062        0.219404        0.270644        0.791369        -0.40934       
  3.4e+010        0.371432        -0.780435       0.298261        0.174019        0.294478        0.173966        0.568333        -0.655943       1.6972e-007     0.61526         -0.626737       0.234092        0.273851        0.229655        0.272288        0.783769        -0.415779      
  3.5e+010        0.350562        -0.784926       0.306037        0.169097        0.303105        0.168918        0.552246        -0.662996       1.6972e-007     0.599453        -0.63405        0.243231        0.274505        0.239945        0.27284         0.774102        -0.422941      
  3.6e+010        0.328887        -0.788571       0.314167        0.164174        0.310698        0.164248        0.534423        -0.669248       1.6972e-007     0.583165        -0.640429       0.25324         0.275654        0.249026        0.274575        0.765057        -0.428717      
  3.7e+010        0.3085          -0.79231        0.322405        0.159064        0.317636        0.160209        0.518514        -0.678841       1.6972e-007     0.568142        -0.647926       0.263063        0.276451        0.257781        0.276071        0.755581        -0.437584      
  3.8e+010        0.287746        -0.7968         0.329932        0.153055        0.327424        0.153795        0.504211        -0.684951       1.6972e-007     0.55255         -0.65483        0.272429        0.276248        0.269251        0.276153        0.747573        -0.442667      
  3.9e+010        0.265631        -0.799404       0.336115        0.147672        0.333348        0.147397        0.489891        -0.690213       1.6972e-007     0.535857        -0.660799       0.281084        0.276705        0.2776          0.275261        0.740114        -0.447268      
  4e+010          0.244379        -0.80234        0.343626        0.141403        0.33961         0.142365        0.471368        -0.696637       1.6972e-007     0.519932        -0.667982       0.291422        0.276301        0.286412        0.275787        0.727659        -0.454229      
  4.1e+010        0.224876        -0.803174       0.350125        0.135576        0.347606        0.137173        0.455953        -0.703821       1.6972e-007     0.504056        -0.672694       0.300197        0.275934        0.296217        0.27661         0.720419        -0.460609      
  4.2e+010        0.203456        -0.803406       0.35653         0.12874         0.353571        0.129527        0.441275        -0.707853       1.6972e-007     0.488295        -0.677409       0.309956        0.27558         0.306202        0.275171        0.714162        -0.46561       
  4.3e+010        0.187478        -0.80608        0.361901        0.121983        0.35803         0.123343        0.426194        -0.712378       1.6972e-007     0.476126        -0.682254       0.318868        0.273823        0.313715        0.273644        0.703782        -0.472058      
  4.4e+010        0.165927        -0.803339       0.366917        0.115775        0.364185        0.117514        0.410826        -0.716979       1.6972e-007     0.458063        -0.684888       0.3279          0.27252         0.323325        0.272987        0.694492        -0.477504      
  4.5e+010        0.145825        -0.805246       0.372554        0.109674        0.369311        0.111119        0.396615        -0.721701       1.6972e-007     0.443046        -0.690853       0.336606        0.271728        0.331996        0.272182        0.686578        -0.481072      
  4.6e+010        0.129302        -0.802737       0.377967        0.102469        0.374757        0.104628        0.381973        -0.7256         1.6972e-007     0.429351        -0.692775       0.345735        0.269428        0.34128         0.27024         0.67724         -0.48728       
  4.7e+010        0.111744        -0.803212       0.381776        0.0957924       0.379678        0.0985484       0.367395        -0.728608       1.6972e-007     0.415136        -0.697056       0.353693        0.267319        0.349879        0.269204        0.66803         -0.492053      
  4.8e+010        0.09262         -0.800221       0.385638        0.089809        0.383667        0.0903308       0.354781        -0.733807       1.6972e-007     0.398188        -0.698717       0.361158        0.265819        0.35813         0.265292        0.661776        -0.495238      
  4.9e+010        0.075138        -0.802157       0.390346        0.0820886       0.385466        0.0835973       0.340292        -0.737405       1.6972e-007     0.384952        -0.704086       0.370566        0.262325        0.364438        0.262144        0.651648        -0.499701      
  5e+010          0.0576635       -0.79749        0.394992        0.0749782       0.392455        0.0791636       0.324216        -0.741173       1.6972e-007     0.368844        -0.705299       0.379527        0.259271        0.374562        0.262513        0.641331        -0.505613      
  5.1e+010        0.0439864       -0.793983       0.397149        0.0685248       0.395417        0.0691364       0.311589        -0.744246       1.6972e-007     0.356916        -0.70456        0.385445        0.256281        0.383085        0.255793        0.634697        -0.508147      
  5.2e+010        0.0271453       -0.789128       0.400761        0.0603681       0.395533        0.0630882       0.295805        -0.747095       1.6972e-007     0.340943        -0.703796       0.393991        0.252833        0.38633         0.253459        0.625209        -0.510626      
