#   Hz   S  RI   R   50
! 
0.000000e+00  -9.374724e-01 0.000000e+00 
1.875000e+07  -9.374429e-01 7.418556e-03 
3.750000e+07  -9.373545e-01 1.483642e-02 
5.625000e+07  -9.372072e-01 2.225291e-02 
7.500000e+07  -9.370011e-01 2.966734e-02 
9.375000e+07  -9.367361e-01 3.707901e-02 
1.125000e+08  -9.364123e-01 4.448724e-02 
1.312500e+08  -9.360297e-01 5.189135e-02 
1.500000e+08  -9.355885e-01 5.929065e-02 
1.687500e+08  -9.350888e-01 6.668446e-02 
1.875000e+08  -9.345305e-01 7.407209e-02 
2.062500e+08  -9.339138e-01 8.145287e-02 
2.250000e+08  -9.332389e-01 8.882613e-02 
2.437500e+08  -9.325059e-01 9.619118e-02 
2.625000e+08  -9.317148e-01 1.035474e-01 
2.812500e+08  -9.308658e-01 1.108940e-01 
3.000000e+08  -9.299592e-01 1.182304e-01 
3.187500e+08  -9.289949e-01 1.255560e-01 
3.375000e+08  -9.279734e-01 1.328700e-01 
3.562500e+08  -9.268946e-01 1.401718e-01 
3.750000e+08  -9.257588e-01 1.474608e-01 
3.937500e+08  -9.245663e-01 1.547363e-01 
4.125000e+08  -9.233172e-01 1.619977e-01 
4.312500e+08  -9.220117e-01 1.692443e-01 
4.500000e+08  -9.206501e-01 1.764754e-01 
4.687500e+08  -9.192327e-01 1.836906e-01 
4.875000e+08  -9.177597e-01 1.908890e-01 
5.062500e+08  -9.162313e-01 1.980702e-01 
5.250000e+08  -9.146478e-01 2.052335e-01 
5.437500e+08  -9.130096e-01 2.123783e-01 
5.625000e+08  -9.113168e-01 2.195040e-01 
5.812500e+08  -9.095699e-01 2.266099e-01 
6.000000e+08  -9.077691e-01 2.336955e-01 
6.187500e+08  -9.059146e-01 2.407603e-01 
6.375000e+08  -9.040070e-01 2.478035e-01 
6.562500e+08  -9.020464e-01 2.548247e-01 
6.750000e+08  -9.000333e-01 2.618233e-01 
6.937500e+08  -8.979679e-01 2.687987e-01 
7.125000e+08  -8.958506e-01 2.757504e-01 
7.312500e+08  -8.936819e-01 2.826778e-01 
7.500000e+08  -8.914620e-01 2.895804e-01 
7.687500e+08  -8.891914e-01 2.964576e-01 
7.875000e+08  -8.868705e-01 3.033089e-01 
8.062500e+08  -8.844995e-01 3.101339e-01 
8.250000e+08  -8.820790e-01 3.169319e-01 
8.437500e+08  -8.796093e-01 3.237025e-01 
8.625000e+08  -8.770909e-01 3.304452e-01 
8.812500e+08  -8.745242e-01 3.371595e-01 
9.000000e+08  -8.719096e-01 3.438449e-01 
9.187500e+08  -8.692475e-01 3.505009e-01 
9.375000e+08  -8.665384e-01 3.571272e-01 
9.562500e+08  -8.637827e-01 3.637231e-01 
9.750000e+08  -8.609809e-01 3.702884e-01 
9.937500e+08  -8.581334e-01 3.768224e-01 
1.012500e+09  -8.552407e-01 3.833249e-01 
1.031250e+09  -8.523033e-01 3.897954e-01 
1.050000e+09  -8.493216e-01 3.962334e-01 
1.068750e+09  -8.462960e-01 4.026386e-01 
1.087500e+09  -8.432272e-01 4.090106e-01 
1.106250e+09  -8.401155e-01 4.153489e-01 
1.125000e+09  -8.369615e-01 4.216532e-01 
1.143750e+09  -8.337656e-01 4.279232e-01 
1.162500e+09  -8.305283e-01 4.341584e-01 
1.181250e+09  -8.272502e-01 4.403585e-01 
1.200000e+09  -8.239316e-01 4.465232e-01 
1.218750e+09  -8.205733e-01 4.526521e-01 
1.237500e+09  -8.171755e-01 4.587449e-01 
1.256250e+09  -8.137390e-01 4.648013e-01 
1.275000e+09  -8.102641e-01 4.708210e-01 
1.293750e+09  -8.067513e-01 4.768036e-01 
1.312500e+09  -8.032013e-01 4.827489e-01 
1.331250e+09  -7.996145e-01 4.886566e-01 
1.350000e+09  -7.959915e-01 4.945264e-01 
1.368750e+09  -7.923327e-01 5.003581e-01 
1.387500e+09  -7.886386e-01 5.061513e-01 
1.406250e+09  -7.849100e-01 5.119060e-01 
1.425000e+09  -7.811471e-01 5.176217e-01 
1.443750e+09  -7.773506e-01 5.232982e-01 
1.462500e+09  -7.735211e-01 5.289355e-01 
1.481250e+09  -7.696589e-01 5.345331e-01 
1.500000e+09  -7.657647e-01 5.400911e-01 
1.518750e+09  -7.618390e-01 5.456090e-01 
1.537500e+09  -7.578824e-01 5.510868e-01 
1.556250e+09  -7.538952e-01 5.565243e-01 
1.575000e+09  -7.498782e-01 5.619212e-01 
1.593750e+09  -7.458318e-01 5.672775e-01 
1.612500e+09  -7.417565e-01 5.725930e-01 
1.631250e+09  -7.376529e-01 5.778675e-01 
1.650000e+09  -7.335215e-01 5.831009e-01 
1.668750e+09  -7.293629e-01 5.882931e-01 
1.687500e+09  -7.251775e-01 5.934439e-01 
1.706250e+09  -7.209659e-01 5.985533e-01 
1.725000e+09  -7.167286e-01 6.036210e-01 
1.743750e+09  -7.124662e-01 6.086471e-01 
1.762500e+09  -7.081791e-01 6.136315e-01 
1.781250e+09  -7.038679e-01 6.185740e-01 
1.800000e+09  -6.995331e-01 6.234746e-01 
1.818750e+09  -6.951752e-01 6.283331e-01 
1.837500e+09  -6.907947e-01 6.331497e-01 
1.856250e+09  -6.863922e-01 6.379241e-01 
1.875000e+09  -6.819682e-01 6.426564e-01 
1.893750e+09  -6.775231e-01 6.473465e-01 
1.912500e+09  -6.730575e-01 6.519944e-01 
1.931250e+09  -6.685718e-01 6.566001e-01 
1.950000e+09  -6.640667e-01 6.611635e-01 
1.968750e+09  -6.595425e-01 6.656846e-01 
1.987500e+09  -6.549998e-01 6.701635e-01 
2.006250e+09  -6.504391e-01 6.746001e-01 
2.025000e+09  -6.458608e-01 6.789944e-01 
2.043750e+09  -6.412655e-01 6.833465e-01 
2.062500e+09  -6.366535e-01 6.876564e-01 
2.081250e+09  -6.320255e-01 6.919241e-01 
2.100000e+09  -6.273819e-01 6.961496e-01 
2.118750e+09  -6.227232e-01 7.003330e-01 
2.137500e+09  -6.180497e-01 7.044743e-01 
2.156250e+09  -6.133621e-01 7.085736e-01 
2.175000e+09  -6.086607e-01 7.126310e-01 
2.193750e+09  -6.039460e-01 7.166465e-01 
2.212500e+09  -5.992185e-01 7.206201e-01 
2.231250e+09  -5.944787e-01 7.245520e-01 
2.250000e+09  -5.897269e-01 7.284422e-01 
2.268750e+09  -5.849636e-01 7.322909e-01 
2.287500e+09  -5.801893e-01 7.360980e-01 
2.306250e+09  -5.754044e-01 7.398637e-01 
2.325000e+09  -5.706093e-01 7.435882e-01 
2.343750e+09  -5.658044e-01 7.472714e-01 
2.362500e+09  -5.609903e-01 7.509135e-01 
2.381250e+09  -5.561672e-01 7.545147e-01 
2.400000e+09  -5.513357e-01 7.580750e-01 
2.418750e+09  -5.464960e-01 7.615946e-01 
2.437500e+09  -5.416487e-01 7.650736e-01 
2.456250e+09  -5.367942e-01 7.685121e-01 
2.475000e+09  -5.319328e-01 7.719103e-01 
2.493750e+09  -5.270649e-01 7.752683e-01 
2.512500e+09  -5.221909e-01 7.785862e-01 
2.531250e+09  -5.173112e-01 7.818642e-01 
2.550000e+09  -5.124262e-01 7.851025e-01 
2.568750e+09  -5.075362e-01 7.883011e-01 
2.587500e+09  -5.026417e-01 7.914603e-01 
2.606250e+09  -4.977430e-01 7.945802e-01 
2.625000e+09  -4.928404e-01 7.976610e-01 
2.643750e+09  -4.879344e-01 8.007029e-01 
2.662500e+09  -4.830252e-01 8.037059e-01 
2.681250e+09  -4.781132e-01 8.066703e-01 
2.700000e+09  -4.731988e-01 8.095964e-01 
2.718750e+09  -4.682824e-01 8.124841e-01 
2.737500e+09  -4.633641e-01 8.153338e-01 
2.756250e+09  -4.584444e-01 8.181455e-01 
2.775000e+09  -4.535236e-01 8.209196e-01 
2.793750e+09  -4.486021e-01 8.236562e-01 
2.812500e+09  -4.436801e-01 8.263554e-01 
2.831250e+09  -4.387579e-01 8.290175e-01 
2.850000e+09  -4.338359e-01 8.316427e-01 
2.868750e+09  -4.289143e-01 8.342311e-01 
2.887500e+09  -4.239935e-01 8.367830e-01 
2.906250e+09  -4.190738e-01 8.392985e-01 
2.925000e+09  -4.141554e-01 8.417779e-01 
2.943750e+09  -4.092386e-01 8.442214e-01 
2.962500e+09  -4.043238e-01 8.466292e-01 
2.981250e+09  -3.994111e-01 8.490014e-01 
3.000000e+09  -3.945009e-01 8.513384e-01 
3.018750e+09  -3.895934e-01 8.536402e-01 
3.037500e+09  -3.846890e-01 8.559072e-01 
3.056250e+09  -3.797878e-01 8.581395e-01 
3.075000e+09  -3.748901e-01 8.603373e-01 
3.093750e+09  -3.699961e-01 8.625009e-01 
3.112500e+09  -3.651062e-01 8.646305e-01 
3.131250e+09  -3.602205e-01 8.667263e-01 
3.150000e+09  -3.553394e-01 8.687885e-01 
3.168750e+09  -3.504629e-01 8.708173e-01 
3.187500e+09  -3.455914e-01 8.728130e-01 
3.206250e+09  -3.407251e-01 8.747758e-01 
3.225000e+09  -3.358642e-01 8.767059e-01 
3.243750e+09  -3.310089e-01 8.786035e-01 
3.262500e+09  -3.261594e-01 8.804688e-01 
3.281250e+09  -3.213160e-01 8.823021e-01 
3.300000e+09  -3.164789e-01 8.841036e-01 
3.318750e+09  -3.116482e-01 8.858735e-01 
3.337500e+09  -3.068241e-01 8.876121e-01 
3.356250e+09  -3.020069e-01 8.893195e-01 
3.375000e+09  -2.971967e-01 8.909960e-01 
3.393750e+09  -2.923938e-01 8.926418e-01 
3.412500e+09  -2.875983e-01 8.942572e-01 
3.431250e+09  -2.828103e-01 8.958424e-01 
3.450000e+09  -2.780301e-01 8.973975e-01 
3.468750e+09  -2.732579e-01 8.989228e-01 
3.487500e+09  -2.684937e-01 9.004186e-01 
3.506250e+09  -2.637378e-01 9.018851e-01 
3.525000e+09  -2.589904e-01 9.033224e-01 
3.543750e+09  -2.542515e-01 9.047309e-01 
3.562500e+09  -2.495214e-01 9.061106e-01 
3.581250e+09  -2.448002e-01 9.074620e-01 
3.600000e+09  -2.400880e-01 9.087852e-01 
3.618750e+09  -2.353850e-01 9.100803e-01 
3.637500e+09  -2.306914e-01 9.113477e-01 
3.656250e+09  -2.260071e-01 9.125875e-01 
3.675000e+09  -2.213325e-01 9.138000e-01 
3.693750e+09  -2.166677e-01 9.149855e-01 
3.712500e+09  -2.120127e-01 9.161440e-01 
3.731250e+09  -2.073676e-01 9.172759e-01 
3.750000e+09  -2.027327e-01 9.183813e-01 
3.768750e+09  -1.981080e-01 9.194605e-01 
3.787500e+09  -1.934937e-01 9.205137e-01 
3.806250e+09  -1.888898e-01 9.215411e-01 
3.825000e+09  -1.842965e-01 9.225429e-01 
3.843750e+09  -1.797138e-01 9.235194e-01 
3.862500e+09  -1.751419e-01 9.244707e-01 
3.881250e+09  -1.705809e-01 9.253971e-01 
3.900000e+09  -1.660309e-01 9.262988e-01 
3.918750e+09  -1.614920e-01 9.271760e-01 
3.937500e+09  -1.569643e-01 9.280289e-01 
3.956250e+09  -1.524478e-01 9.288577e-01 
3.975000e+09  -1.479426e-01 9.296626e-01 
3.993750e+09  -1.434489e-01 9.304439e-01 
4.012500e+09  -1.389667e-01 9.312017e-01 
4.031250e+09  -1.344962e-01 9.319363e-01 
4.050000e+09  -1.300373e-01 9.326478e-01 
4.068750e+09  -1.255901e-01 9.333365e-01 
4.087500e+09  -1.211548e-01 9.340025e-01 
4.106250e+09  -1.167314e-01 9.346461e-01 
4.125000e+09  -1.123200e-01 9.352675e-01 
4.143750e+09  -1.079206e-01 9.358669e-01 
4.162500e+09  -1.035334e-01 9.364444e-01 
4.181250e+09  -9.915828e-02 9.370003e-01 
4.200000e+09  -9.479541e-02 9.375347e-01 
4.218750e+09  -9.044483e-02 9.380479e-01 
4.237500e+09  -8.610660e-02 9.385401e-01 
4.256250e+09  -8.178077e-02 9.390114e-01 
4.275000e+09  -7.746739e-02 9.394620e-01 
4.293750e+09  -7.316652e-02 9.398922e-01 
4.312500e+09  -6.887820e-02 9.403021e-01 
4.331250e+09  -6.460249e-02 9.406919e-01 
4.350000e+09  -6.033941e-02 9.410618e-01 
4.368750e+09  -5.608903e-02 9.414120e-01 
4.387500e+09  -5.185137e-02 9.417427e-01 
4.406250e+09  -4.762649e-02 9.420540e-01 
4.425000e+09  -4.341441e-02 9.423461e-01 
4.443750e+09  -3.921518e-02 9.426193e-01 
4.462500e+09  -3.502882e-02 9.428736e-01 
4.481250e+09  -3.085538e-02 9.431093e-01 
4.500000e+09  -2.669488e-02 9.433266e-01 
4.518750e+09  -2.254735e-02 9.435256e-01 
4.537500e+09  -1.841282e-02 9.437065e-01 
4.556250e+09  -1.429131e-02 9.438695e-01 
4.575000e+09  -1.018286e-02 9.440148e-01 
4.593750e+09  -6.087487e-03 9.441424e-01 
4.612500e+09  -2.005209e-03 9.442527e-01 
4.631250e+09  2.063949e-03 9.443457e-01 
4.650000e+09  6.119970e-03 9.444217e-01 
4.668750e+09  1.016283e-02 9.444808e-01 
4.687500e+09  1.419252e-02 9.445231e-01 
4.706250e+09  1.820903e-02 9.445488e-01 
4.725000e+09  2.221233e-02 9.445582e-01 
4.743750e+09  2.620241e-02 9.445513e-01 
4.762500e+09  3.017926e-02 9.445283e-01 
4.781250e+09  3.414288e-02 9.444893e-01 
4.800000e+09  3.809325e-02 9.444347e-01 
4.818750e+09  4.203037e-02 9.443643e-01 
4.837500e+09  4.595422e-02 9.442786e-01 
4.856250e+09  4.986480e-02 9.441775e-01 
4.875000e+09  5.376211e-02 9.440613e-01 
4.893750e+09  5.764614e-02 9.439301e-01 
4.912500e+09  6.151689e-02 9.437840e-01 
4.931250e+09  6.537435e-02 9.436233e-01 
4.950000e+09  6.921854e-02 9.434480e-01 
4.968750e+09  7.304944e-02 9.432582e-01 
4.987500e+09  7.686706e-02 9.430543e-01 
5.006250e+09  8.067139e-02 9.428362e-01 
5.025000e+09  8.446245e-02 9.426042e-01 
5.043750e+09  8.824024e-02 9.423583e-01 
5.062500e+09  9.200476e-02 9.420987e-01 
5.081250e+09  9.575601e-02 9.418256e-01 
5.100000e+09  9.949401e-02 9.415391e-01 
5.118750e+09  1.032188e-01 9.412393e-01 
5.137500e+09  1.069303e-01 9.409264e-01 
5.156250e+09  1.106285e-01 9.406005e-01 
5.175000e+09  1.143136e-01 9.402618e-01 
5.193750e+09  1.179854e-01 9.399103e-01 
5.212500e+09  1.216440e-01 9.395462e-01 
5.231250e+09  1.252895e-01 9.391697e-01 
5.250000e+09  1.289217e-01 9.387808e-01 
5.268750e+09  1.325408e-01 9.383797e-01 
5.287500e+09  1.361468e-01 9.379665e-01 
5.306250e+09  1.397396e-01 9.375414e-01 
5.325000e+09  1.433193e-01 9.371045e-01 
5.343750e+09  1.468858e-01 9.366558e-01 
5.362500e+09  1.504393e-01 9.361956e-01 
5.381250e+09  1.539797e-01 9.357239e-01 
5.400000e+09  1.575070e-01 9.352409e-01 
5.418750e+09  1.610214e-01 9.347467e-01 
5.437500e+09  1.645226e-01 9.342414e-01 
5.456250e+09  1.680109e-01 9.337251e-01 
5.475000e+09  1.714862e-01 9.331979e-01 
5.493750e+09  1.749485e-01 9.326600e-01 
5.512500e+09  1.783979e-01 9.321115e-01 
5.531250e+09  1.818344e-01 9.315525e-01 
5.550000e+09  1.852580e-01 9.309830e-01 
5.568750e+09  1.886686e-01 9.304033e-01 
5.587500e+09  1.920665e-01 9.298134e-01 
5.606250e+09  1.954514e-01 9.292134e-01 
5.625000e+09  1.988236e-01 9.286035e-01 
5.643750e+09  2.021830e-01 9.279837e-01 
5.662500e+09  2.055296e-01 9.273542e-01 
5.681250e+09  2.088635e-01 9.267151e-01 
5.700000e+09  2.121847e-01 9.260664e-01 
5.718750e+09  2.154932e-01 9.254083e-01 
5.737500e+09  2.187890e-01 9.247409e-01 
5.756250e+09  2.220721e-01 9.240643e-01 
5.775000e+09  2.253427e-01 9.233785e-01 
5.793750e+09  2.286006e-01 9.226838e-01 
5.812500e+09  2.318460e-01 9.219801e-01 
5.831250e+09  2.350789e-01 9.212676e-01 
5.850000e+09  2.382993e-01 9.205464e-01 
5.868750e+09  2.415072e-01 9.198166e-01 
5.887500e+09  2.447026e-01 9.190783e-01 
5.906250e+09  2.478856e-01 9.183315e-01 
5.925000e+09  2.510562e-01 9.175764e-01 
5.943750e+09  2.542144e-01 9.168131e-01 
5.962500e+09  2.573603e-01 9.160416e-01 
5.981250e+09  2.604939e-01 9.152621e-01 
6.000000e+09  2.636152e-01 9.144746e-01 
6.018750e+09  2.667243e-01 9.136793e-01 
6.037500e+09  2.698211e-01 9.128762e-01 
6.056250e+09  2.729058e-01 9.120654e-01 
6.075000e+09  2.759783e-01 9.112470e-01 
6.093750e+09  2.790387e-01 9.104211e-01 
6.112500e+09  2.820869e-01 9.095877e-01 
6.131250e+09  2.851231e-01 9.087471e-01 
6.150000e+09  2.881473e-01 9.078991e-01 
6.168750e+09  2.911594e-01 9.070441e-01 
6.187500e+09  2.941596e-01 9.061819e-01 
6.206250e+09  2.971478e-01 9.053128e-01 
6.225000e+09  3.001241e-01 9.044367e-01 
6.243750e+09  3.030886e-01 9.035538e-01 
6.262500e+09  3.060412e-01 9.026641e-01 
6.281250e+09  3.089820e-01 9.017678e-01 
6.300000e+09  3.119109e-01 9.008649e-01 
6.318750e+09  3.148282e-01 8.999555e-01 
6.337500e+09  3.177337e-01 8.990396e-01 
6.356250e+09  3.206276e-01 8.981174e-01 
6.375000e+09  3.235098e-01 8.971890e-01 
6.393750e+09  3.263803e-01 8.962543e-01 
6.412500e+09  3.292393e-01 8.953135e-01 
6.431250e+09  3.320867e-01 8.943666e-01 
6.450000e+09  3.349227e-01 8.934138e-01 
6.468750e+09  3.377471e-01 8.924550e-01 
6.487500e+09  3.405601e-01 8.914905e-01 
6.506250e+09  3.433616e-01 8.905202e-01 
6.525000e+09  3.461518e-01 8.895442e-01 
6.543750e+09  3.489306e-01 8.885626e-01 
6.562500e+09  3.516981e-01 8.875754e-01 
6.581250e+09  3.544543e-01 8.865828e-01 
6.600000e+09  3.571993e-01 8.855848e-01 
6.618750e+09  3.599331e-01 8.845815e-01 
6.637500e+09  3.626556e-01 8.835729e-01 
6.656250e+09  3.653671e-01 8.825591e-01 
6.675000e+09  3.680674e-01 8.815401e-01 
6.693750e+09  3.707566e-01 8.805161e-01 
6.712500e+09  3.734348e-01 8.794872e-01 
6.731250e+09  3.761020e-01 8.784532e-01 
6.750000e+09  3.787582e-01 8.774145e-01 
6.768750e+09  3.814035e-01 8.763709e-01 
6.787500e+09  3.840379e-01 8.753226e-01 
6.806250e+09  3.866614e-01 8.742696e-01 
6.825000e+09  3.892741e-01 8.732120e-01 
6.843750e+09  3.918760e-01 8.721499e-01 
6.862500e+09  3.944671e-01 8.710832e-01 
6.881250e+09  3.970475e-01 8.700122e-01 
6.900000e+09  3.996172e-01 8.689368e-01 
6.918750e+09  4.021762e-01 8.678570e-01 
6.937500e+09  4.047246e-01 8.667731e-01 
6.956250e+09  4.072624e-01 8.656849e-01 
6.975000e+09  4.097897e-01 8.645927e-01 
6.993750e+09  4.123065e-01 8.634963e-01 
7.012500e+09  4.148127e-01 8.623960e-01 
7.031250e+09  4.173086e-01 8.612917e-01 
7.050000e+09  4.197940e-01 8.601834e-01 
7.068750e+09  4.222690e-01 8.590714e-01 
7.087500e+09  4.247337e-01 8.579556e-01 
7.106250e+09  4.271881e-01 8.568360e-01 
7.125000e+09  4.296322e-01 8.557128e-01 
7.143750e+09  4.320661e-01 8.545859e-01 
7.162500e+09  4.344898e-01 8.534555e-01 
7.181250e+09  4.369033e-01 8.523215e-01 
7.200000e+09  4.393067e-01 8.511841e-01 
7.218750e+09  4.417001e-01 8.500433e-01 
7.237500e+09  4.440833e-01 8.488991e-01 
7.256250e+09  4.464565e-01 8.477517e-01 
7.275000e+09  4.488198e-01 8.466009e-01 
7.293750e+09  4.511731e-01 8.454470e-01 
7.312500e+09  4.535165e-01 8.442899e-01 
7.331250e+09  4.558500e-01 8.431297e-01 
7.350000e+09  4.581736e-01 8.419664e-01 
7.368750e+09  4.604875e-01 8.408002e-01 
7.387500e+09  4.627916e-01 8.396309e-01 
7.406250e+09  4.650859e-01 8.384588e-01 
7.425000e+09  4.673706e-01 8.372838e-01 
7.443750e+09  4.696456e-01 8.361060e-01 
7.462500e+09  4.719109e-01 8.349254e-01 
7.481250e+09  4.741667e-01 8.337421e-01 
7.500000e+09  4.764129e-01 8.325561e-01 
7.518750e+09  4.786496e-01 8.313675e-01 
7.537500e+09  4.808767e-01 8.301763e-01 
7.556250e+09  4.830945e-01 8.289825e-01 
7.575000e+09  4.853028e-01 8.277862e-01 
7.593750e+09  4.875017e-01 8.265875e-01 
7.612500e+09  4.896913e-01 8.253864e-01 
7.631250e+09  4.918716e-01 8.241829e-01 
7.650000e+09  4.940426e-01 8.229771e-01 
7.668750e+09  4.962044e-01 8.217690e-01 
7.687500e+09  4.983570e-01 8.205586e-01 
7.706250e+09  5.005004e-01 8.193461e-01 
7.725000e+09  5.026346e-01 8.181314e-01 
7.743750e+09  5.047598e-01 8.169145e-01 
7.762500e+09  5.068759e-01 8.156956e-01 
7.781250e+09  5.089829e-01 8.144746e-01 
7.800000e+09  5.110810e-01 8.132517e-01 
7.818750e+09  5.131701e-01 8.120268e-01 
7.837500e+09  5.152503e-01 8.107999e-01 
7.856250e+09  5.173217e-01 8.095712e-01 
7.875000e+09  5.193841e-01 8.083406e-01 
7.893750e+09  5.214378e-01 8.071083e-01 
7.912500e+09  5.234826e-01 8.058741e-01 
7.931250e+09  5.255187e-01 8.046382e-01 
7.950000e+09  5.275461e-01 8.034006e-01 
7.968750e+09  5.295648e-01 8.021614e-01 
7.987500e+09  5.315749e-01 8.009205e-01 
8.006250e+09  5.335764e-01 7.996781e-01 
8.025000e+09  5.355693e-01 7.984340e-01 
8.043750e+09  5.375536e-01 7.971885e-01 
8.062500e+09  5.395295e-01 7.959415e-01 
8.081250e+09  5.414969e-01 7.946930e-01 
8.100000e+09  5.434558e-01 7.934431e-01 
8.118750e+09  5.454064e-01 7.921918e-01 
8.137500e+09  5.473486e-01 7.909392e-01 
8.156250e+09  5.492824e-01 7.896853e-01 
8.175000e+09  5.512080e-01 7.884300e-01 
8.193750e+09  5.531252e-01 7.871735e-01 
8.212500e+09  5.550343e-01 7.859158e-01 
8.231250e+09  5.569352e-01 7.846569e-01 
8.250000e+09  5.588279e-01 7.833969e-01 
8.268750e+09  5.607125e-01 7.821357e-01 
8.287500e+09  5.625890e-01 7.808734e-01 
8.306250e+09  5.644574e-01 7.796101e-01 
8.325000e+09  5.663178e-01 7.783457e-01 
8.343750e+09  5.681702e-01 7.770803e-01 
8.362500e+09  5.700147e-01 7.758139e-01 
8.381250e+09  5.718512e-01 7.745466e-01 
8.400000e+09  5.736799e-01 7.732783e-01 
8.418750e+09  5.755006e-01 7.720092e-01 
8.437500e+09  5.773136e-01 7.707392e-01 
8.456250e+09  5.791188e-01 7.694684e-01 
8.475000e+09  5.809162e-01 7.681967e-01 
8.493750e+09  5.827059e-01 7.669243e-01 
8.512500e+09  5.844880e-01 7.656511e-01 
8.531250e+09  5.862623e-01 7.643772e-01 
8.550000e+09  5.880291e-01 7.631026e-01 
8.568750e+09  5.897882e-01 7.618273e-01 
8.587500e+09  5.915398e-01 7.605514e-01 
8.606250e+09  5.932839e-01 7.592748e-01 
8.625000e+09  5.950205e-01 7.579977e-01 
8.643750e+09  5.967496e-01 7.567199e-01 
8.662500e+09  5.984713e-01 7.554417e-01 
8.681250e+09  6.001856e-01 7.541629e-01 
8.700000e+09  6.018925e-01 7.528835e-01 
8.718750e+09  6.035922e-01 7.516038e-01 
8.737500e+09  6.052845e-01 7.503235e-01 
8.756250e+09  6.069696e-01 7.490429e-01 
8.775000e+09  6.086474e-01 7.477618e-01 
