! VERSION = 6.00
!Data measured by ggf on Tue Jan 23 13:17:38 2018 using model file NPN_MEAS_SCALE
BEGIN_HEADER
 ICCAP_INPUTS
  ve         V  E GROUND SMU_E 0.2 CON        0
  vc         V  C GROUND SMU_C 0.2 SYNC       1 0 vb
  vs         V  S GROUND SMU_S 0.015 CON        0
  vb         V  B GROUND SMU_B 0.015 LIN        1    -1         1.04       103  0.02      
 ICCAP_OUTPUTS
  ib         I  B GROUND SMU_B M
  ic         I  C GROUND SMU_C M
 ICCAP_VALUES
  TNOM "27"
  TEMP "27"
  TECHNO "SG13G2"
  LOT "EDJ802"
  WAFER "02"
  CHIP "(3.3)"
  MODULE "S439S"
  DEV_NAME "D11"
  DEV_GEOM_L "5.0"
  DEV_GEOM_W "0.07"
  NUM_OF_TRANS_RF "1"
  REMARKS "Nx=2; Power -30/-20dBm, Slope: 0.1dB/GHz"
  TIMEDATE "Tue Jan 23 12:58:58     2018"
  OPERATOR "ggf"
END_HEADER

BEGIN_DB
 ICCAP_VAR ve         0              
 ICCAP_VAR vs         0              

 #vb              vc              ib              ic             
  -1              -1              -1.7952e-005    -0.005214      
  -0.98           -0.98           -1.439e-005     -0.0044588     
  -0.96           -0.96           -1.1372e-005    -0.0037742     
  -0.94           -0.94           -8.798e-006     -0.0031542     
  -0.92           -0.92           -6.6732e-006    -0.0026028     
  -0.9            -0.9            -4.9204e-006    -0.0021102     
  -0.88           -0.88           -3.5378e-006    -0.0016824     
  -0.86           -0.86           -2.4706e-006    -0.001317      
  -0.84           -0.84           -1.6788e-006    -0.001011      
  -0.82           -0.82           -1.113e-006     -0.00075964    
  -0.8            -0.8            -7.2986e-007    -0.00056104    
  -0.78           -0.78           -4.813e-007     -0.00040772    
  -0.76           -0.76           -3.2438e-007    -0.0002923     
  -0.74           -0.74           -2.2698e-007    -0.00020752    
  -0.72           -0.72           -1.6544e-007    -0.00014596    
  -0.7            -0.7            -1.2536e-007    -0.00010182    
  -0.68           -0.68           -9.8154e-008    -7.0308e-005   
  -0.66           -0.66           -7.8666e-008    -4.8024e-005   
  -0.64           -0.64           -6.398e-008     -3.2288e-005   
  -0.62           -0.62           -5.2456e-008    -2.1416e-005   
  -0.6            -0.6            -4.3276e-008    -1.3982e-005   
  -0.58           -0.58           -3.575e-008     -8.9654e-006   
  -0.56           -0.56           -2.9472e-008    -5.63e-006     
  -0.54           -0.54           -2.426e-008     -3.4534e-006   
  -0.52           -0.52           -1.9888e-008    -2.0522e-006   
  -0.5            -0.5            -1.6224e-008    -1.1768e-006   
  -0.48           -0.48           -1.3208e-008    -6.4858e-007   
  -0.46           -0.46           -1.0704e-008    -3.4414e-007   
  -0.44           -0.44           -8.6218e-009    -1.7496e-007   
  -0.42           -0.42           -6.8988e-009    -8.6174e-008   
  -0.4            -0.4            -5.4888e-009    -4.132e-008    
  -0.38           -0.38           -4.3304e-009    -1.649e-008    
  -0.36           -0.36           -3.395e-009     -5.706e-009    
  -0.34           -0.34           -2.6384e-009    -5.384e-009    
  -0.32           -0.32           -2.0306e-009    -2.0462e-009   
  -0.3            -0.3            -1.5508e-009    -2.177e-010    
  -0.28           -0.28           -1.17e-009      -6.356e-010    
  -0.26           -0.26           -8.8064e-010    -3.736e-010    
  -0.24           -0.24           -6.4484e-010    -1.354e-010    
  -0.22           -0.22           -4.688e-010     -2.888e-010    
  -0.2            -0.2            -3.317e-010     -3.348e-010    
  -0.18           -0.18           -2.3084e-010    -1.38e-010     
  -0.16           -0.16           -1.5468e-010    -1.378e-010    
  -0.14           -0.14           -9.964e-011     -1.524e-010    
  -0.12           -0.12           -6.05e-011      -1.95e-010     
  -0.1            -0.1            -3.066e-011     -9.48e-011     
  -0.08           -0.08           -1.264e-011     -1.738e-010    
  -0.06           -0.06           -2.92e-012      -1.584e-010    
  -0.04           -0.04           7.78e-012       -1.868e-010    
  -0.02           -0.02           1.374e-011      -1.494e-010    
  0               0               1.866e-011      -9.16e-011     
  0.02            0.02            1.532e-011      -1.926e-010    
  0.04            0.04            1.858e-011      -1.628e-010    
  0.06            0.06            2.014e-011      -2.008e-010    
  0.08            0.08            1.866e-011      -1.07e-010     
  0.1             0.1             1.984e-011      -2.11e-010     
  0.12            0.12            1.832e-011      -1.26e-010     
  0.14            0.14            2.352e-011      -1.68e-010     
  0.16            0.16            2.074e-011      -1.716e-010    
  0.18            0.18            1.638e-011      -1.452e-010    
  0.2             0.2             2.024e-011      -2.066e-010    
  0.22            0.22            2.182e-011      -6.16e-011     
  0.24            0.24            2.126e-011      -1.364e-010    
  0.26            0.26            2.026e-011      -1.948e-010    
  0.28            0.28            2.208e-011      -6.66e-011     
  0.3             0.3             1.966e-011      -1.948e-010    
  0.32            0.32            2.004e-011      -1.484e-010    
  0.34            0.34            2.28e-011       -6.18e-011     
  0.36            0.36            2.106e-011      -9.76e-011     
  0.38            0.38            2.326e-011      -1.36e-011     
  0.4             0.4             2.614e-011      2.076e-010     
  0.42            0.42            2.336e-011      4.326e-010     
  0.44            0.44            3.03e-011       1.114e-009     
  0.46            0.46            3.144e-011      2.5668e-009    
  0.48            0.48            3.628e-011      6.3288e-009    
  0.5             0.5             5.116e-011      1.4262e-008    
  0.52            0.52            8.702e-011      3.1156e-008    
  0.54            0.54            1.4256e-010     6.66e-008      
  0.56            0.56            2.5726e-010     1.4116e-007    
  0.58            0.58            5.0448e-010     3.0128e-007    
  0.6             0.6             1.001e-009      6.4486e-007    
  0.62            0.62            2.0462e-009     1.3866e-006    
  0.64            0.64            4.235e-009      2.967e-006     
  0.66            0.66            8.8148e-009     6.3392e-006    
  0.68            0.68            1.8446e-008     1.3568e-005    
  0.7             0.7             3.8612e-008     2.884e-005     
  0.72            0.72            8.097e-008      6.1238e-005    
  0.74            0.74            1.6894e-007     0.00012888     
  0.76            0.76            3.5016e-007     0.00026816     
  0.78            0.78            7.1778e-007     0.00054912     
  0.8             0.8             1.4312e-006     0.00108664     
  0.82            0.82            2.7664e-006     0.0020632      
  0.84            0.84            5.1036e-006     0.0036664      
  0.86            0.86            8.9836e-006     0.0060286      
  0.88            0.88            1.5278e-005     0.009191       
  0.9             0.9             2.5322e-005     0.013086       
  0.92            0.92            4.145e-005      0.017732       
  0.94            0.94            6.6838e-005     0.023064       
  0.96            0.96            0.000106562     0.029134       
  0.98            0.98            0.00016638      0.035828       
  1               1               0.0002547       0.043132       
  1.02            1.02            0.00037814      0.050376       
  1.04            1.04            0.00056114      0.056596       
END_DB

