! VERSION = 6.00
!Data measured by ggf on Tue Jan 23 13:17:38 2018 using model file NPN_MEAS_SCALE
BEGIN_HEADER
 ICCAP_INPUTS
  vc         V  C GROUND SMU_C 0.2 LIN        1    0          2          81   0.025     
  vs         V  S GROUND SMU_S 0.015 CON        0
  ve         V  E GROUND SMU_E 0.2 CON        0
  ib         I  B GROUND SMU_B 2 LIST       2 6 1E-009 6.25E-006 1.25E-005 2.5E-005 5E-005 0.0001
 ICCAP_OUTPUTS
  ic         I  C GROUND SMU_C M
  vb         V  B GROUND SMU_B M
 ICCAP_VALUES
  TNOM "27"
  TEMP "27"
  TECHNO "SG13G2"
  LOT "EDJ802"
  WAFER "02"
  CHIP "(3.3)"
  MODULE "S439S"
  DEV_NAME "D11"
  DEV_GEOM_L "5.0"
  DEV_GEOM_W "0.07"
  NUM_OF_TRANS_RF "1"
  REMARKS "Nx=2; Power -30/-20dBm, Slope: 0.1dB/GHz"
  TIMEDATE "Tue Jan 23 12:58:58     2018"
  OPERATOR "ggf"
END_HEADER

BEGIN_DB
 ICCAP_VAR vs         0              
 ICCAP_VAR ve         0              
 ICCAP_VAR ib         1e-009         

 #vc              ic              vb             
  0               -5.3602e-009    0.35152        
  0.025           -2.4022e-009    0.32756        
  0.05            -1.5856e-009    0.32008        
  0.075           -7.8102e-010    0.32004        
  0.1             -4.2342e-010    0.32516        
  0.125           -9.33e-011      0.33364        
  0.15            1.8406e-010     0.34432        
  0.175           3.5658e-010     0.3566         
  0.2             5.691e-010      0.37004        
  0.225           -3.67e-010      0.38212        
  0.25            -1.002e-010     0.39296        
  0.275           8.72e-011       0.40428        
  0.3             3.37e-010       0.41604        
  0.325           5.924e-010      0.42808        
  0.35            1.02e-009       0.44024        
  0.375           1.7688e-009     0.4526         
  0.4             3.062e-009      0.465          
  0.425           4.8522e-009     0.47736        
  0.45            1.1052e-008     0.49424        
  0.475           1.9194e-008     0.50928        
  0.5             2.8668e-008     0.51844        
  0.525           3.9872e-008     0.52728        
  0.55            5.4726e-008     0.53568        
  0.575           7.3932e-008     0.5436         
  0.6             9.82e-008       0.55156        
  0.625           1.2206e-007     0.557          
  0.65            1.475e-007      0.56192        
  0.675           1.7402e-007     0.5662         
  0.7             2.0148e-007     0.56992        
  0.725           2.2804e-007     0.57312        
  0.75            2.5348e-007     0.57584        
  0.775           2.7662e-007     0.57808        
  0.8             2.9722e-007     0.57988        
  0.825           3.1554e-007     0.5814         
  0.85            3.3134e-007     0.58268        
  0.875           3.4548e-007     0.58372        
  0.9             3.579e-007      0.58464        
  0.925           3.6924e-007     0.58544        
  0.95            3.794e-007      0.58616        
  0.975           3.8854e-007     0.58676        
  1               3.9842e-007     0.58744        
  1.025           4.0794e-007     0.58804        
  1.05            4.1762e-007     0.58868        
  1.075           4.2784e-007     0.58928        
  1.1             4.3976e-007     0.59004        
  1.125           4.532e-007      0.59084        
  1.15            4.683e-007      0.59172        
  1.175           4.859e-007      0.59268        
  1.2             5.0614e-007     0.5938         
  1.225           5.3006e-007     0.59504        
  1.25            5.5808e-007     0.5964         
  1.275           5.919e-007      0.59796        
  1.3             6.312e-007      0.59968        
  1.325           6.786e-007      0.6016         
  1.35            7.3682e-007     0.6038         
  1.375           8.0884e-007     0.60632        
  1.4             8.9986e-007     0.60916        
  1.425           1.01566e-006    0.6124         
  1.45            1.156e-006      0.61592        
  1.475           1.2282e-006     0.61772        
  1.5             1.3376e-006     0.62024        
  1.525           1.4964e-006     0.6236         
  1.55            1.7354e-006     0.62796        
  1.575           2.1084e-006     0.63376        
  1.6             2.739e-006      0.64176        
  1.625           3.9786e-006     0.65356        
  1.65            2.7386e-005     0.72312        
  1.675           0.00078254      0.78924        
  1.7             0.0016262       0.81016        
  1.725           0.002776        0.82632        
  1.75            0.0041094       0.83876        
  1.775           0.0055188       0.84872        
  1.8             0.006951        0.85684        
  1.825           0.008382        0.86368        
  1.85            0.0098112       0.8696         
  1.875           0.0112384       0.87472        
  1.9             0.012652        0.87924        
  1.925           0.014068        0.88328        
  1.95            0.015494        0.88688        
  1.975           0.01692         0.89004        
  2               0.018344        0.89292        
END_DB

BEGIN_DB
 ICCAP_VAR vs         0              
 ICCAP_VAR ve         0              
 ICCAP_VAR ib         6.25e-006      

 #vc              ic              vb             
  0               -0.00012144     0.76524        
  0.025           0.0002295       0.78432        
  0.05            0.00072144      0.80032        
  0.075           0.0013134       0.8134         
  0.1             0.0019446       0.82396        
  0.125           0.002549        0.8322         
  0.15            0.003087        0.83848        
  0.175           0.003521        0.84308        
  0.2             0.0038404       0.84612        
  0.225           0.0040474       0.84796        
  0.25            0.0041714       0.84896        
  0.275           0.0042426       0.84948        
  0.3             0.0042832       0.84968        
  0.325           0.0043094       0.84976        
  0.35            0.0043258       0.84972        
  0.375           0.0043352       0.84964        
  0.4             0.0043432       0.84952        
  0.425           0.004344        0.8494         
  0.45            0.0043488       0.84924        
  0.475           0.0043482       0.84908        
  0.5             0.0043478       0.84888        
  0.525           0.0043452       0.84872        
  0.55            0.0043444       0.84852        
  0.575           0.0043418       0.84832        
  0.6             0.0043384       0.84812        
  0.625           0.0043362       0.84792        
  0.65            0.0043306       0.84772        
  0.675           0.004328        0.84752        
  0.7             0.0043228       0.84732        
  0.725           0.004318        0.84708        
  0.75            0.0043146       0.84688        
  0.775           0.0043094       0.84668        
  0.8             0.0043044       0.84648        
  0.825           0.0042984       0.84628        
  0.85            0.004295        0.84608        
  0.875           0.00429         0.84588        
  0.9             0.0042852       0.84568        
  0.925           0.00428         0.84544        
  0.95            0.0042744       0.84524        
  0.975           0.0042684       0.84504        
  1               0.0042638       0.84484        
  1.025           0.0042586       0.84464        
  1.05            0.0042524       0.84444        
  1.075           0.00425         0.84424        
  1.1             0.0042464       0.84408        
  1.125           0.0042444       0.84388        
  1.15            0.0042394       0.84372        
  1.175           0.004244        0.84356        
  1.2             0.0042478       0.84344        
  1.225           0.0042564       0.84336        
  1.25            0.004267        0.84328        
  1.275           0.0042836       0.84328        
  1.3             0.0043072       0.84332        
  1.325           0.0043366       0.84344        
  1.35            0.004378        0.8436         
  1.375           0.0044304       0.84384        
  1.4             0.0044944       0.84424        
  1.425           0.0045736       0.84472        
  1.45            0.0046732       0.84532        
  1.475           0.0047934       0.84604        
  1.5             0.0049392       0.84696        
  1.525           0.0051144       0.84804        
  1.55            0.005327        0.84936        
  1.575           0.0055794       0.8508         
  1.6             0.00587         0.85256        
  1.625           0.0062262       0.85452        
  1.65            0.0066402       0.85672        
  1.675           0.0071222       0.85916        
  1.7             0.0076718       0.8618         
  1.725           0.008305        0.86468        
  1.75            0.009018        0.86768        
  1.775           0.0098138       0.87076        
  1.8             0.01068         0.87392        
  1.825           0.011616        0.87712        
  1.85            0.012614        0.88016        
  1.875           0.013674        0.8832         
  1.9             0.014784        0.88608        
  1.925           0.015944        0.88884        
  1.95            0.017138        0.8914         
  1.975           0.018364        0.89376        
  2               0.019622        0.89592        
END_DB

BEGIN_DB
 ICCAP_VAR vs         0              
 ICCAP_VAR ve         0              
 ICCAP_VAR ib         1.25e-005      

 #vc              ic              vb             
  0               -9.782e-005     0.79004        
  0.025           0.00057582      0.8076         
  0.05            0.0014254       0.8226         
  0.075           0.0023874       0.83528        
  0.1             0.0033878       0.846          
  0.125           0.0043624       0.85492        
  0.15            0.005257        0.86216        
  0.175           0.006039        0.86792        
  0.2             0.00669         0.87232        
  0.225           0.0071896       0.87548        
  0.25            0.0075398       0.87756        
  0.275           0.0077596       0.87868        
  0.3             0.0078856       0.8792         
  0.325           0.0079582       0.87936        
  0.35            0.0079966       0.87924        
  0.375           0.0080108       0.87908        
  0.4             0.0080178       0.8788         
  0.425           0.0080184       0.87852        
  0.45            0.0080172       0.8782         
  0.475           0.008009        0.87784        
  0.5             0.0079976       0.87744        
  0.525           0.0079854       0.87708        
  0.55            0.0079742       0.87668        
  0.575           0.007959        0.87632        
  0.6             0.0079464       0.87596        
  0.625           0.0079332       0.87556        
  0.65            0.007917        0.87516        
  0.675           0.0078986       0.87472        
  0.7             0.0078832       0.87436        
  0.725           0.0078678       0.87396        
  0.75            0.00785         0.87356        
  0.775           0.0078282       0.87316        
  0.8             0.0078174       0.8728         
  0.825           0.0077992       0.8724         
  0.85            0.0077832       0.872          
  0.875           0.0077666       0.8716         
  0.9             0.0077488       0.87124        
  0.925           0.0077296       0.87088        
  0.95            0.0077102       0.87044        
  0.975           0.0076972       0.87008        
  1               0.0076764       0.86972        
  1.025           0.0076588       0.86932        
  1.05            0.0076418       0.86896        
  1.075           0.0076278       0.8686         
  1.1             0.007615        0.8682         
  1.125           0.0075956       0.86784        
  1.15            0.0075858       0.86752        
  1.175           0.0075734       0.86716        
  1.2             0.0075658       0.86684        
  1.225           0.0075624       0.86656        
  1.25            0.0075626       0.86628        
  1.275           0.0075666       0.86604        
  1.3             0.0075772       0.8658         
  1.325           0.0075976       0.86564        
  1.35            0.0076262       0.86556        
  1.375           0.0076682       0.86552        
  1.4             0.007724        0.86552        
  1.425           0.0077942       0.86564        
  1.45            0.0078828       0.86584        
  1.475           0.0079978       0.86616        
  1.5             0.008132        0.8666         
  1.525           0.0082942       0.86716        
  1.55            0.0084948       0.86784        
  1.575           0.008721        0.86868        
  1.6             0.0089888       0.8696         
  1.625           0.0092988       0.87072        
  1.65            0.0096556       0.872          
  1.675           0.0100636       0.87344        
  1.7             0.0105212       0.87496        
  1.725           0.0110404       0.87664        
  1.75            0.01162         0.87852        
  1.775           0.01227         0.88048        
  1.8             0.012976        0.88248        
  1.825           0.013748        0.8846         
  1.85            0.014582        0.88672        
  1.875           0.01548         0.88884        
  1.9             0.016438        0.89092        
  1.925           0.01744         0.89292        
  1.95            0.018492        0.89488        
  1.975           0.019598        0.89676        
  2               0.020746        0.89852        
END_DB

BEGIN_DB
 ICCAP_VAR vs         0              
 ICCAP_VAR ve         0              
 ICCAP_VAR ib         2.5e-005       

 #vc              ic              vb             
  0               -7.2892e-005    0.81196        
  0.025           0.00096514      0.82784        
  0.05            0.0021638       0.84176        
  0.075           0.0034688       0.85412        
  0.1             0.004826        0.86512        
  0.125           0.0061894       0.87484        
  0.15            0.0075252       0.88344        
  0.175           0.0087888       0.89096        
  0.2             0.0099504       0.89732        
  0.225           0.0109566       0.90244        
  0.25            0.011786        0.90636        
  0.275           0.012432        0.90916        
  0.3             0.012906        0.91096        
  0.325           0.013228        0.91204        
  0.35            0.013416        0.91244        
  0.375           0.013514        0.9124         
  0.4             0.01356         0.91208        
  0.425           0.013572        0.9116         
  0.45            0.013564        0.91108        
  0.475           0.013546        0.91048        
  0.5             0.01352         0.90984        
  0.525           0.013492        0.9092         
  0.55            0.01346         0.90856        
  0.575           0.013426        0.90788        
  0.6             0.013386        0.9072         
  0.625           0.01335         0.90652        
  0.65            0.013312        0.90588        
  0.675           0.013274        0.9052         
  0.7             0.013232        0.90452        
  0.725           0.013188        0.9038         
  0.75            0.013146        0.90316        
  0.775           0.013104        0.90248        
  0.8             0.01307         0.90184        
  0.825           0.013026        0.90116        
  0.85            0.012984        0.90052        
  0.875           0.01295         0.89988        
  0.9             0.012906        0.8992         
  0.925           0.012862        0.89852        
  0.95            0.012822        0.89788        
  0.975           0.01278         0.89724        
  1               0.01274         0.8966         
  1.025           0.0127          0.89596        
  1.05            0.01266         0.89532        
  1.075           0.012622        0.89468        
  1.1             0.012584        0.89408        
  1.125           0.012546        0.89344        
  1.15            0.012498        0.8928         
  1.175           0.012466        0.8922         
  1.2             0.012436        0.89164        
  1.225           0.012404        0.891          
  1.25            0.012382        0.89048        
  1.275           0.012356        0.88996        
  1.3             0.01234         0.88944        
  1.325           0.012332        0.88896        
  1.35            0.012332        0.88852        
  1.375           0.012342        0.88812        
  1.4             0.012362        0.8878         
  1.425           0.0124          0.88748        
  1.45            0.012452        0.88724        
  1.475           0.01252         0.88712        
  1.5             0.012618        0.887          
  1.525           0.01273         0.887          
  1.55            0.012868        0.88704        
  1.575           0.013032        0.8872         
  1.6             0.013232        0.88748        
  1.625           0.013466        0.88784        
  1.65            0.013738        0.88832        
  1.675           0.01405         0.88892        
  1.7             0.014404        0.88956        
  1.725           0.014804        0.89036        
  1.75            0.015252        0.89124        
  1.775           0.015754        0.8922         
  1.8             0.016304        0.89324        
  1.825           0.016912        0.89436        
  1.85            0.017572        0.89552        
  1.875           0.018288        0.89676        
  1.9             0.019062        0.89792        
  1.925           0.019888        0.89916        
  1.95            0.020768        0.90032        
  1.975           0.021706        0.90152        
  2               0.022688        0.90264        
END_DB

BEGIN_DB
 ICCAP_VAR vs         0              
 ICCAP_VAR ve         0              
 ICCAP_VAR ib         5e-005         

 #vc              ic              vb             
  0               -6.7864e-005    0.83296        
  0.025           0.001276        0.84712        
  0.05            0.0027226       0.85988        
  0.075           0.004239        0.87144        
  0.1             0.0057884       0.88196        
  0.125           0.0073496       0.89164        
  0.15            0.0089116       0.90044        
  0.175           0.010451        0.90856        
  0.2             0.011968        0.91592        
  0.225           0.01343         0.92256        
  0.25            0.014832        0.92848        
  0.275           0.016152        0.93368        
  0.3             0.017352        0.93804        
  0.325           0.018404        0.94152        
  0.35            0.019254        0.94404        
  0.375           0.019892        0.94564        
  0.4             0.020334        0.94636        
  0.425           0.020608        0.94652        
  0.45            0.020758        0.94624        
  0.475           0.020826        0.94564        
  0.5             0.020834        0.94484        
  0.525           0.02081         0.94396        
  0.55            0.020764        0.943          
  0.575           0.020712        0.942          
  0.6             0.02065         0.941          
  0.625           0.020586        0.93996        
  0.65            0.020514        0.93896        
  0.675           0.020444        0.93796        
  0.7             0.020368        0.93696        
  0.725           0.020298        0.93592        
  0.75            0.020222        0.93488        
  0.775           0.020148        0.93388        
  0.8             0.020074        0.93288        
