! VERSION = 6.00
BEGIN_HEADER
 ICCAP_INPUTS
  vc         V  C GROUND SMU_C 0.1 SYNC       1 0.25 vb
  vb         V  B GROUND SMU_B 0.015 LIN        2    0.88       0.96       5    0.02      
  ve         V  E GROUND SMU_E 0 CON        0
  vs         V  S GROUND SMU_S 0 CON        0
  freq       F  LIST       1 74 100000000 200000000 300000000 400000000 500000000 600000000 700000000 800000000 900000000 1000000000 2000000000 3000000000 4000000000 5000000000 6000000000 7000000000 8000000000 9000000000 10000000000 11000000000 12000000000 13000000000 14000000000 15000000000 16000000000 17000000000 18000000000 19000000000 20000000000 21000000000 22000000000 23000000000 24000000000 25000000000 26000000000 27000000000 28000000000 29000000000 30000000000 31000000000 32000000000 33000000000 34000000000 35000000000 36000000000 37000000000 38000000000 39000000000 40000000000 41000000000 42000000000 43000000000 44000000000 45000000000 46000000000 47000000000 48000000000 49000000000 50000000000 51000000000 52000000000 53000000000 54000000000 55000000000 56000000000 57000000000 58000000000 59000000000 60000000000 61000000000 62000000000 63000000000 64000000000 65000000000
 ICCAP_OUTPUTS
  ic         I  C GROUND SMU_C B
  S_deemb    S  B C GROUND n/a B
  GU         U
  GMAG       U
  h          H
  GU_f       U
  h21_f      U
END_HEADER

BEGIN_DB
 ICCAP_VAR vc         1.13           
 ICCAP_VAR vb         0.88           
 ICCAP_VAR ve         0              
 ICCAP_VAR vs         0              

 #freq            ic              R:S_deemb(1,1)  I:S_deemb(1,1)  R:S_deemb(1,2)  I:S_deemb(1,2)  R:S_deemb(2,1)  I:S_deemb(2,1)  R:S_deemb(2,2)  I:S_deemb(2,2)  R:GU(1,1)       I:GU(1,1)       R:GMAG(1,1)     I:GMAG(1,1)     R:h(1,1)        I:h(1,1)        R:h(1,2)        I:h(1,2)        R:h(2,1)        I:h(2,1)        R:h(2,2)        I:h(2,2)        R:GU_f(1,1)     I:GU_f(1,1)     R:h21_f(1,1)    I:h21_f(1,1)   
  1e+008          0.0098152       0.963467        -0.0120407      -2.12341e-006   0.00115288      -15.691         0.29112         0.982764        0.0228651       83770.5         0               1383.59         -13542.1        2688.95         -220.459        0.00287203      0.0318229       432.304         -47.9211        0.000777097     0.0047887       2.89431e+010    0               4.34952e+010    0              
  2e+008          0.0098152       0.963879        -0.0265889      2.34748e-005    0.0022308       -15.5973        0.334167        0.993272        -0.000655727    148265          0               241.128         -6988.86        2587.41         -677.477        0.015766        0.0588795       410.519         -114.733        0.00272928      0.00916922      7.70104e+010    0               8.52501e+010    0              
  3e+008          0.0098152       0.963273        -0.0407098      9.49889e-005    0.0033889       -15.5529        0.421993        0.9955          -0.0186832      83704.5         0               121.695         -4587.64        2372.53         -975.74         0.034683        0.0816781       374.984         -158.833        0.00567685      0.0128257       8.67952e+010    0               1.22171e+011    0              
  4e+008          0.0098152       0.962847        -0.0537442      0.000186889     0.00441537      -15.5474        0.534679        0.995965        -0.0326681      51088.5         0               93.377          -3518.89        2134.82         -1206.31        0.055902        0.095319        337.084         -194.117        0.00901407      0.015025        9.04111e+010    0               1.55593e+011    0              
  5e+008          0.0098152       0.96202         -0.0683223      0.000256332     0.00556549      -15.5528        0.666019        0.995749        -0.0459791      63414.5         0               52.5365         -2793.61        1841.22         -1344.51        0.0774546       0.103811        290.755         -215.479        0.0124294       0.01641         1.25911e+011    0               1.80949e+011    0              
  6e+008          0.0098152       0.961084        -0.0825642      0.000344978     0.00657112      -15.5549        0.794975        0.995088        -0.0578967      73602.2         0               34.7757         -2366.74        1534.43         -1415.77        0.095773        0.102254        242.349         -226.358        0.0153279       0.0162066       1.62778e+011    0               1.98971e+011    0              
  7e+008          0.0098152       0.959519        -0.0958307      0.000467124     0.00771165      -15.5137        0.913688        0.993879        -0.0699206      65353.9         0               27.5924         -2011.33        1343.99         -1411.7         0.112044        0.105144        211.876         -225.025        0.0178762       0.0166632       1.78951e+011    0               2.16353e+011    0              
  8e+008          0.0098152       0.957316        -0.108928       0.000615846     0.00876533      -15.5082        1.04893         0.992609        -0.0812267      48838.6         0               27.4195         -1768.74        1167.44         -1376.38        0.124391        0.103671        183.962         -219.561        0.0198573       0.0164523       1.76796e+011    0               2.29154e+011    0              
  9e+008          0.0098152       0.955647        -0.122311       0.000771339     0.00986164      -15.5074        1.18945         0.991035        -0.0924339      44532.9         0               25.3904         -1572.11        1017.35         -1350.66        0.137348        0.101643        160.14          -215.713        0.0219502       0.0161397       1.89925e+011    0               2.41792e+011    0              
  1e+009          0.0098152       0.953548        -0.135928       0.000957634     0.0109302       -15.4698        1.32481         0.989507        -0.103682       36803.3         0               24.431          -1414.88        874.138         -1304.71        0.147219        0.0966549       137.183         -208.06         0.0234881       0.0153369       1.91842e+011    0               2.49215e+011    0              
  2e+009          0.0098152       0.921365        -0.266213       0.00353803      0.0213459       -15.18          2.59727         0.963703        -0.208855       27055           0               13.0658         -711.647        287.443         -847.701        0.189753        0.0629971       44.1359         -135.292        0.030302        0.0100702       3.28968e+011    0               2.84618e+011    0              
  3e+009          0.0098152       0.86904         -0.387581       0.00772388      0.0309744       -14.6596        3.74493         0.922458        -0.30467        13214.1         0               11.2162         -473.834        138.389         -591.848        0.198777        0.0446508       20.6227         -94.3334        0.0317109       0.00726044      3.44858e+011    0               2.89684e+011    0              
  4e+009          0.0098152       0.802415        -0.49398        0.0130488       0.0394709       -14.0246        4.81901         0.869938        -0.388855       8557.93         0               11.6039         -356.529        81.6168         -455.377        0.203475        0.0343222       11.394          -72.7212        0.0325206       0.00558257      3.70036e+011    0               2.94434e+011    0              
  5e+009          0.0098152       0.724182        -0.58495        0.0193359       0.0468182       -13.294         5.71977         0.808847        -0.460994       5306.2          0               11.8762         -285.462        55.3512         -370.308        0.207046        0.0281336       7.17066         -59.2663        0.0331568       0.00458855      3.64218e+011    0               2.98492e+011    0              
  6e+009          0.0098152       0.639215        -0.661299       0.0261695       0.0527688       -12.4248        6.45725         0.742055        -0.521067       4130.77         0               11.3335         -237.458        38.8792         -307.734        0.206233        0.0230748       4.55779         -49.1225        0.0329422       0.00383823      3.85626e+011    0               2.96001e+011    0              
  7e+009          0.0098152       0.550224        -0.720009       0.0333094       0.0577092       -11.5893        7.06037         0.672491        -0.569073       3051.03         0               11.6196         -203.332        30.7384         -267.181        0.209535        0.0205892       3.1814          -42.7621        0.0335433       0.00338083      3.86653e+011    0               3.00162e+011    0              
  8e+009          0.0098152       0.460989        -0.765163       0.0404555       0.0611254       -10.7229        7.49228         0.602921        -0.604158       2257.65         0               11.5496         -178.084        24.5597         -233.169        0.208742        0.0178447       2.24457         -37.3202        0.0334172       0.00300718      3.80118e+011    0               2.99101e+011    0              
  9e+009          0.0098152       0.374109        -0.797491       0.0474037       0.0636758       -9.86121        7.80484         0.53461         -0.630174       1893.23         0               11.3108         -158.018        20.4196         -207.093        0.20871         0.0162027       1.58802         -33.1258        0.033395        0.00277906      3.91601e+011    0               2.98475e+011    0              
  1e+010          0.0098152       0.289757        -0.818039       0.0541324       0.065192        -9.05268        8.07047         0.4694          -0.647087       1493.43         0               11.8809         -142.629        16.4916         -186.57         0.208633        0.0134126       0.869922        -29.9092        0.0334092       0.00225499      3.86449e+011    0               2.99219e+011    0              
  1.1e+010        0.0098152       0.211922        -0.829103       0.0603759       0.0661011       -8.27995        8.12188         0.407583        -0.658335       1288.45         0               11.1214         -129.077        15.7316         -169.322        0.208805        0.0141399       0.867928        -27.1           0.033421        0.00255235      3.94845e+011    0               2.98252e+011    0              
  1.2e+010        0.0098152       0.138105        -0.832161       0.0662571       0.0663333       -7.55988        8.21386         0.349192        -0.661394       1064.58         0               11.6551         -118.496        13.336          -155.585        0.209282        0.0120604       0.388187        -24.9571        0.0335335       0.00211241      3.91535e+011    0               2.99521e+011    0              
  1.3e+010        0.0098152       0.0709639       -0.829214       0.0714887       0.0660033       -6.89879        8.18155         0.295645        -0.659411       904.113         0               11.6315         -109.373        12.4265         -143.39         0.209006        0.0117413       0.256388        -23.0235        0.0335421       0.00210423      3.9089e+011     0               2.99323e+011    0              
  1.4e+010        0.0098152       0.00983051      -0.820508       0.0765116       0.0654384       -6.32849        8.10584         0.247674        -0.654327       713.397         0               11.8676         -101.452        11.8593         -133.872        0.210483        0.0110838       0.171023        -21.5286        0.0338067       0.00199353      3.73933e+011    0               3.0141e+011     0              
  1.5e+010        0.0098152       -0.0473777      -0.810598       0.081227        0.0645381       -5.72306        8.05856         0.203701        -0.647003       652.644         0               12.0771         -94.5038        9.74584         -124.399        0.209352        0.00870467      -0.245922       -19.9612        0.033476        0.00154023      3.83203e+011    0               2.9944e+011     0              
  1.6e+010        0.0098152       -0.0966957      -0.796842       0.0850975       0.0631655       -5.24305        7.88176         0.162967        -0.636767       546.716         0               11.8912         -88.5281        9.82648         -116.419        0.209048        0.00907571      -0.152401       -18.6898        0.0335013       0.0017767       3.74111e+011    0               2.99047e+011    0              
  1.7e+010        0.0098152       -0.143906       -0.781531       0.0890166       0.0619632       -4.75536        7.75905         0.126048        -0.625373       492.342         0               12.0262         -83.0394        8.74228         -109.393        0.208965        0.00774532      -0.372114       -17.5414        0.033399        0.00151289      3.77209e+011    0               2.98271e+011    0              
  1.8e+010        0.0098152       -0.185029       -0.766024       0.0922563       0.0603619       -4.36865        7.57732         0.0936622       -0.614052       428.782         0               11.8012         -78.4514        8.65            -103.088        0.20836         0.00780622      -0.313295       -16.5387        0.0333456       0.00170332      3.72727e+011    0               2.97749e+011    0              
  1.9e+010        0.0098152       -0.223487       -0.74794        0.0947571       0.0587908       -3.99808        7.45873         0.0627755       -0.60085        398.663         0               12.0099         -74.9331        8.30638         -97.6827        0.207674        0.00773063      -0.410817       -15.7658        0.0334231       0.00163508      3.79364e+011    0               2.99652e+011    0              
  2e+010          0.0098152       -0.255296       -0.72999        0.097269        0.0572495       -3.61331        7.22463         0.0360052       -0.585407       360.889         0               11.9629         -70.5631        8.15028         -92.0485        0.206382        0.00803992      -0.432711       -14.7756        0.0331157       0.00179023      3.79941e+011    0               2.95639e+011    0              
  2.1e+010        0.0098152       -0.287398       -0.713017       0.099431        0.0557334       -3.37343        7.09252         0.0103285       -0.571832       316.834         0               12.0869         -67.8341        8.06925         -88.2674        0.207334        0.0076786       -0.427444       -14.2893        0.033547        0.00170983      3.73796e+011    0               3.00209e+011    0              
  2.2e+010        0.0098152       -0.317517       -0.69581        0.101982        0.0547791       -3.02943        6.9368          -0.0133045      -0.560591       325.1           0               11.8623         -64.3025        7.45095         -84.0844        0.207616        0.00793322      -0.583626       -13.5728        0.0334568       0.00166646      3.96672e+011    0               2.98878e+011    0              
  2.3e+010        0.0098152       -0.341297       -0.679613       0.103913        0.0532889       -2.81639        6.72784         -0.0306675      -0.547449       279.856         0               11.7829         -61.3338        7.66864         -80.3608        0.207356        0.0082203       -0.489513       -12.9514        0.0334075       0.00185666      3.84765e+011    0               2.98096e+011    0              
  2.4e+010        0.0098152       -0.362465       -0.664086       0.105446        0.0519172       -2.60106        6.58955         -0.0442228      -0.532326       252.494         0               12.0877         -59.0502        7.18054         -77.0337        0.20602         0.00688961      -0.597842       -12.4103        0.0331424       0.0015651       3.81362e+011    0               2.98193e+011    0              
  2.5e+010        0.0098152       -0.382145       -0.643939       0.106571        0.0502584       -2.36573        6.36362         -0.0620433      -0.516631       223.255         0               12.2927         -56.2928        7.56552         -73.3327        0.20501         0.00796941      -0.542266       -11.809         0.0330693       0.00181476      3.73543e+011    0               2.95537e+011    0              
  2.6e+010        0.0098152       -0.402436       -0.623842       0.108163        0.0487741       -2.17737        6.20267         -0.0835143      -0.496809       189.598         0               12.833          -53.8971        7.24309         -70.8007        0.207162        0.00610958      -0.64895        -11.4642        0.0336063       0.0013082       3.58006e+011    0               2.98547e+011    0              
  2.7e+010        0.0098152       -0.425888       -0.609829       0.109612        0.0475446       -2.017          6.09222         -0.100718       -0.491704       193.029         0               12.2536         -52.2953        7.22114         -68.2815        0.207567        0.00754329      -0.593415       -11.1404        0.0338932       0.0016823       3.75124e+011    0               3.01216e+011    0              
  2.8e+010        0.0098152       -0.445376       -0.593789       0.11103         0.0459054       -1.81385        5.95177         -0.118556       -0.483453       192.386         0               11.9228         -50.3962        6.86518         -65.547         0.207265        0.00778006      -0.630282       -10.7228        0.0339176       0.00190248      3.88369e+011    0               3.00756e+011    0              
  2.9e+010        0.0098152       -0.459177       -0.583344       0.111798        0.0453299       -1.69501        5.79444         -0.123273       -0.47423        185.796         0               11.7425         -48.6472        7.08995         -63.1576        0.205869        0.00931749      -0.570998       -10.2973        0.0336451       0.00216496      3.95291e+011    0               2.99081e+011    0              
  3e+010          0.0098152       -0.47052        -0.569693       0.112722        0.0450746       -1.60046        5.65369         -0.130305       -0.463162       169.941         0               11.916          -46.911         7.44931         -61.5065        0.207128        0.0104187       -0.544532       -10.023         0.0338389       0.00212591      3.91084e+011    0               3.01135e+011    0              
  3.1e+010        0.0098152       -0.485227       -0.552314       0.113992        0.0430879       -1.4488         5.53354         -0.143595       -0.450731       153.302         0               12.0911         -45.3542        6.91396         -59.2852        0.206804        0.00828867      -0.63352        -9.69414        0.0337925       0.00186701      3.83827e+011    0               3.01159e+011    0              
  3.2e+010        0.0098152       -0.498045       -0.537256       0.114966        0.0420409       -1.29914        5.4122          -0.155894       -0.440515       149.704         0               12.0907         -43.832         6.64524         -57.3797        0.207159        0.0082343       -0.708844       -9.40006        0.0338777       0.00180565      3.91531e+011    0               3.01656e+011    0              
  3.3e+010        0.0098152       -0.508165       -0.525297       0.115541        0.0407743       -1.21607        5.25041         -0.16363        -0.431354       135.188         0               12.0244         -42.3108        6.88407         -55.4166        0.206605        0.0089077       -0.623203       -9.07484        0.0338682       0.00210162      3.83692e+011    0               3.00175e+011    0              
  3.4e+010        0.0098152       -0.518899       -0.510601       0.116233        0.0402291       -1.1312         5.1412          -0.169907       -0.422473       127.094         0               12.1512         -41.0377        7.10586         -53.8847        0.207131        0.00986647      -0.612151       -8.8539         0.0339911       0.00209008      3.83302e+011    0               3.01751e+011    0              
