! VERSION = 6.00
!Data measured by ggf on Tue Jan 23 13:17:37 2018 using model file NPN_MEAS_SCALE
BEGIN_HEADER
 ICCAP_INPUTS
  vc         V  C GROUND SMU_C 0.2 SYNC       1 0.25 vb
  ve         V  E GROUND SMU_E 0 CON        0
  vs         V  S GROUND SMU_S 0 CON        0
  freq       F  LIST       1 74 100000000 200000000 300000000 400000000 500000000 600000000 700000000 800000000 900000000 1000000000 2000000000 3000000000 4000000000 5000000000 6000000000 7000000000 8000000000 9000000000 10000000000 11000000000 12000000000 13000000000 14000000000 15000000000 16000000000 17000000000 18000000000 19000000000 20000000000 21000000000 22000000000 23000000000 24000000000 25000000000 26000000000 27000000000 28000000000 29000000000 30000000000 31000000000 32000000000 33000000000 34000000000 35000000000 36000000000 37000000000 38000000000 39000000000 40000000000 41000000000 42000000000 43000000000 44000000000 45000000000 46000000000 47000000000 48000000000 49000000000 50000000000 51000000000 52000000000 53000000000 54000000000 55000000000 56000000000 57000000000 58000000000 59000000000 60000000000 61000000000 62000000000 63000000000 64000000000 65000000000
  vb         V  B GROUND SMU_B 0.015 LIN        2    0.68       1.04       37   0.01      
 ICCAP_OUTPUTS
  ic         I  C GROUND SMU_C M
  ib         I  B GROUND SMU_B M
  S          S  B C GROUND NWA M
  S_deemb    S B C GROUND n/a B
 ICCAP_VALUES
  TNOM "27"
  TEMP "27"
  TECHNO "SG13G2"
  LOT "EDJ802"
  WAFER "02"
  CHIP "(3.3)"
  MODULE "S439S"
  DEV_NAME "D11"
  DEV_GEOM_L "5.0"
  DEV_GEOM_W "0.07"
  NUM_OF_TRANS_RF "1"
  REMARKS "Nx=2; Power -30/-20dBm, Slope: 0.1dB/GHz"
  TIMEDATE "Tue Jan 23 12:58:58     2018"
  OPERATOR "ggf"
END_HEADER

BEGIN_DB
 ICCAP_VAR vc         0.93           
 ICCAP_VAR ve         0              
 ICCAP_VAR vs         0              
 ICCAP_VAR vb         0.68           

 #freq            ic              ib              R:S(1,1)        I:S(1,1)        R:S(1,2)        I:S(1,2)        R:S(2,1)        I:S(2,1)        R:S(2,2)        I:S(2,2)        R:S_deemb(1,1)  I:S_deemb(1,1)  R:S_deemb(1,2)  I:S_deemb(1,2)  R:S_deemb(2,1)  I:S_deemb(2,1)  R:S_deemb(2,2)  I:S_deemb(2,2) 
  1e+008          1.357e-005      1.8662e-008     0.999294        -0.00339805     -2.55313e-005   0.0011711       -0.0569358      0.000398815     1.00012         -0.00263273     0.999477        -0.00260698     -2.40553e-005   0.00101573      -0.0568783      0.000542775     0.99996         -0.00143611    
  2e+008          1.357e-005      1.8662e-008     1.00003         -0.00737345     2.51359e-005    0.00231692      -0.0553338      0.00204298      0.999968        -0.00504005     0.999823        -0.00572392     1.52492e-005    0.00213826      -0.0553791      0.00179802      0.99964         -0.0022935     
  3e+008          1.357e-005      1.8662e-008     0.999957        -0.0115062      5.34847e-005    0.00354091      -0.0555909      0.00346954      1.00008         -0.00761339     0.999653        -0.00847711     7.36859e-005    0.00338019      -0.0556285      0.00311104      0.999972        -0.00435507    
  4e+008          1.357e-005      1.8662e-008     1.00045         -0.0154367      6.03983e-005    0.00468081      -0.0546185      0.00500186      0.999726        -0.0103577      0.99989         -0.0113463      5.48117e-005    0.00441914      -0.0545904      0.00461004      0.999834        -0.00593541    
  5e+008          1.357e-005      1.8662e-008     1.00023         -0.0200081      0.000104061     0.00582954      -0.0553429      0.00625875      0.999888        -0.0128004      0.999722        -0.0142976      6.26682e-005    0.00557211      -0.0553638      0.00565174      0.999836        -0.0074311     
  6e+008          1.357e-005      1.8662e-008     0.999894        -0.0236151      0.000172471     0.00700328      -0.0552749      0.00766096      0.9999          -0.0153666      0.999652        -0.0172654      9.97843e-005    0.0066601       -0.0553005      0.00694848      0.999783        -0.00889434    
  7e+008          1.357e-005      1.8662e-008     0.999778        -0.0276373      0.000204728     0.00813319      -0.0552644      0.00909344      0.999586        -0.0180061      0.999521        -0.0202507      0.00012117      0.00777796      -0.0552473      0.00830243      0.99963         -0.0103952     
  8e+008          1.357e-005      1.8662e-008     0.999599        -0.0316458      0.000261676     0.00932375      -0.0554659      0.0105467       0.999576        -0.0205264      0.999515        -0.0230238      0.00017446      0.00889098      -0.0555717      0.00952577      0.999676        -0.0118774     
  9e+008          1.357e-005      1.8662e-008     0.999502        -0.035461       0.000356772     0.0104417       -0.055004       0.0120345       0.999442        -0.0231251      0.999356        -0.0259949      0.000254883     0.00994608      -0.0551381      0.0110584       0.999521        -0.0134139     
  1e+009          1.357e-005      1.8662e-008     0.999264        -0.0395487      0.000444709     0.0116315       -0.0554463      0.0133971       0.999307        -0.0256253      0.999267        -0.0288087      0.000310182     0.0110955       -0.0555346      0.0123019       0.999493        -0.0148726     
  2e+009          1.357e-005      1.8662e-008     0.996454        -0.0789196      0.00158932      0.0231961       -0.0526831      0.0270094       0.997568        -0.0511682      0.997586        -0.0577019      0.00100852      0.0221021       -0.0533786      0.0247374       0.998578        -0.0295324     
  3e+009          1.357e-005      1.8662e-008     0.991583        -0.118842       0.00357291      0.0345976       -0.0514262      0.0402064       0.994971        -0.0759438      0.994821        -0.0865798      0.00230865      0.0330821       -0.0529481      0.0368176       0.997231        -0.0437052     
  4e+009          1.357e-005      1.8662e-008     0.985094        -0.157307       0.00626978      0.0458152       -0.0486025      0.0535387       0.991598        -0.100665       0.991091        -0.11493        0.004051        0.0439112       -0.0512336      0.0491468       0.995553        -0.0579795     
  5e+009          1.357e-005      1.8662e-008     0.976809        -0.195506       0.00970845      0.0568486       -0.0441723      0.0667129       0.987347        -0.125135       0.986407        -0.143116       0.00629127      0.0547056       -0.0482372      0.0617028       0.993553        -0.072007      
  6e+009          1.357e-005      1.8662e-008     0.966595        -0.232492       0.0138413       0.0675544       -0.0392712      0.0790319       0.982419        -0.149495       0.980536        -0.171181       0.00903909      0.065333        -0.0448748      0.0733534       0.991192        -0.0859281     
  7e+009          1.357e-005      1.8662e-008     0.95432         -0.271299       0.0187257       0.078077        -0.0339204      0.0914963       0.976739        -0.173543       0.973365        -0.199024       0.0121755       0.075948        -0.0416755      0.0853012       0.988542        -0.0997991     
  8e+009          1.357e-005      1.8662e-008     0.941217        -0.306515       0.0242618       0.0880203       -0.0278455      0.103313        0.970286        -0.196835       0.96582         -0.226715       0.0159169       0.0861336       -0.0377725      0.0970112       0.985565        -0.113326      
  9e+009          1.357e-005      1.8662e-008     0.92638         -0.341508       0.0303792       0.0976131       -0.0209479      0.114469        0.962886        -0.220268       0.956895        -0.252895       0.0199298       0.0962515       -0.0332692      0.108084        0.982144        -0.126957      
  1e+010          1.357e-005      1.8662e-008     0.90986         -0.376761       0.0371048       0.106584        -0.0126438      0.125322        0.954752        -0.242991       0.947194        -0.280198       0.0245108       0.105975        -0.0277491      0.119273        0.978444        -0.140171      
  1.1e+010        1.357e-005      1.8662e-008     0.891676        -0.408765       0.0442326       0.115293        -0.0051274      0.13545         0.946512        -0.26545        0.936454        -0.304799       0.0292761       0.115635        -0.022987       0.130034        0.974599        -0.153524      
  1.2e+010        1.357e-005      1.8662e-008     0.872414        -0.44052        0.0521232       0.123467        0.00374172      0.145312        0.936974        -0.287373       0.924794        -0.330159       0.0346344       0.125071        -0.0170725      0.14081         0.970187        -0.166635      
  1.3e+010        1.357e-005      1.8662e-008     0.852122        -0.471046       0.0601911       0.131007        0.0124121       0.154462        0.926685        -0.308294       0.912604        -0.354797       0.0401567       0.134238        -0.0114052      0.151164        0.965656        -0.179306      
  1.4e+010        1.357e-005      1.8662e-008     0.830224        -0.500062       0.0692372       0.137879        0.0227624       0.162768        0.916053        -0.329263       0.899188        -0.37857        0.0466296       0.143128        -0.00421657     0.161307        0.960715        -0.192093      
  1.5e+010        1.357e-005      1.8662e-008     0.808424        -0.527536       0.0783342       0.143892        0.033809        0.169231        0.905419        -0.349042       0.88537         -0.401676       0.053276        0.151419        0.00396336      0.17002         0.955673        -0.204152      
  1.6e+010        1.357e-005      1.8662e-008     0.785128        -0.553588       0.0874754       0.149403        0.0436343       0.176316        0.894039        -0.36857        0.870783        -0.423891       0.0600106       0.159334        0.0107148       0.179193        0.950074        -0.216377      
  1.7e+010        1.357e-005      1.8662e-008     0.761664        -0.578645       0.0972509       0.154166        0.0547848       0.181706        0.881438        -0.387294       0.856033        -0.445441       0.067414        0.166996        0.0190969       0.187474        0.944422        -0.228234      
  1.8e+010        1.357e-005      1.8662e-008     0.737008        -0.601806       0.106686        0.158195        0.0652227       0.187203        0.869231        -0.406147       0.839966        -0.466117       0.0745757       0.174164        0.026742        0.195766        0.938818        -0.2401        
  1.9e+010        1.357e-005      1.8662e-008     0.711852        -0.624416       0.116231        0.161963        0.076689        0.191834        0.85675         -0.424518       0.823831        -0.48656        0.0818755       0.181205        0.0352619       0.203715        0.932435        -0.251202      
  2e+010          1.357e-005      1.8662e-008     0.68696         -0.644337       0.125985        0.164774        0.0867487       0.194957        0.843598        -0.439919       0.807359        -0.505252       0.089879        0.187431        0.0431879       0.210197        0.925908        -0.261858      
  2.1e+010        1.357e-005      1.8662e-008     0.661503        -0.663968       0.135554        0.167093        0.0979835       0.199196        0.828354        -0.454875       0.790531        -0.524098       0.0980039       0.193668        0.0522387       0.218491        0.919151        -0.273077      
  2.2e+010        1.357e-005      1.8662e-008     0.636155        -0.681688       0.145573        0.168836        0.108903        0.200414        0.81338         -0.471845       0.773282        -0.541103       0.1065          0.199589        0.0613232       0.223876        0.912932        -0.284081      
  2.3e+010        1.357e-005      1.8662e-008     0.610259        -0.698336       0.154993        0.169698        0.11948         0.202735        0.803326        -0.489144       0.755937        -0.557972       0.114354        0.204429        0.0697284       0.23017         0.906965        -0.293529      
  2.4e+010        1.357e-005      1.8662e-008     0.585246        -0.71485        0.163432        0.170427        0.129846        0.203952        0.795878        -0.49612        0.738936        -0.574361       0.122034        0.207982        0.079113        0.23446         0.899981        -0.300614      
  2.5e+010        1.357e-005      1.8662e-008     0.557547        -0.729438       0.173033        0.173078        0.139698        0.207437        0.794921        -0.50134        0.719779        -0.589714       0.130573        0.212289        0.0878173       0.239708        0.891269        -0.310943      
  2.6e+010        1.357e-005      1.8662e-008     0.53243         -0.743008       0.185401        0.171408        0.153512        0.207193        0.773043        -0.527025       0.702708        -0.604819       0.141119        0.216018        0.0987422       0.244826        0.879894        -0.320779      
  2.7e+010        1.357e-005      1.8662e-008     0.506178        -0.755          0.193478        0.169942        0.163298        0.206396        0.740439        -0.54261        0.683425        -0.617909       0.149325        0.221322        0.107878        0.251256        0.875377        -0.333207      
  2.8e+010        1.357e-005      1.8662e-008     0.479461        -0.766374       0.203147        0.168195        0.173651        0.203967        0.720855        -0.564312       0.664297        -0.631961       0.158312        0.226145        0.117167        0.255205        0.869313        -0.345012      
  2.9e+010        1.357e-005      1.8662e-008     0.453487        -0.77685        0.210405        0.166482        0.181784        0.203255        0.710832        -0.574088       0.645349        -0.645008       0.165419        0.228915        0.124467        0.258911        0.864768        -0.35042       
  3e+010          1.357e-005      1.8662e-008     0.427017        -0.784878       0.218696        0.165643        0.191876        0.202328        0.703819        -0.581511       0.626072        -0.656355       0.173836        0.231427        0.134537        0.262004        0.858362        -0.357808      
  3.1e+010        1.357e-005      1.8662e-008     0.401157        -0.792695       0.227365        0.162806        0.202663        0.200447        0.688933        -0.589768       0.606913        -0.666961       0.182903        0.232741        0.145461        0.264861        0.849036        -0.366196      
  3.2e+010        1.357e-005      1.8662e-008     0.376095        -0.799581       0.2362          0.160221        0.211571        0.196833        0.671661        -0.601473       0.588153        -0.677454       0.192484        0.235578        0.154956        0.266801        0.841528        -0.375738      
  3.3e+010        1.357e-005      1.8662e-008     0.35039         -0.805053       0.244298        0.157           0.220552        0.195259        0.657886        -0.614344       0.568707        -0.686651       0.200993        0.237408        0.163467        0.270172        0.834986        -0.383557      
  3.4e+010        1.357e-005      1.8662e-008     0.323796        -0.808562       0.252276        0.153302        0.230583        0.191061        0.645709        -0.623839       0.54805         -0.695216       0.210106        0.238312        0.174194        0.271664        0.827792        -0.39144       
  3.5e+010        1.357e-005      1.8662e-008     0.300901        -0.811896       0.259299        0.149445        0.238778        0.186516        0.631409        -0.632249       0.529874        -0.702664       0.218364        0.238642        0.183823        0.271482        0.819394        -0.398903      
  3.6e+010        1.357e-005      1.8662e-008     0.27817         -0.813693       0.266078        0.144833        0.245896        0.182162        0.613097        -0.642085       0.511028        -0.708524       0.227079        0.238556        0.192753        0.271877        0.810867        -0.407368      
  3.7e+010        1.357e-005      1.8662e-008     0.255946        -0.815259       0.272816        0.140824        0.25328         0.179088        0.600662        -0.652148       0.493392        -0.714132       0.234845        0.239071        0.200422        0.273491        0.804452        -0.41435       
  3.8e+010        1.357e-005      1.8662e-008     0.23487         -0.81802        0.279445        0.136324        0.26205         0.174884        0.586816        -0.660067       0.476498        -0.720594       0.242983        0.238975        0.210389        0.273987        0.796712        -0.42068       
  3.9e+010        1.357e-005      1.8662e-008     0.212224        -0.818914       0.28458         0.131542        0.268904        0.168385        0.571599        -0.667322       0.457878        -0.725482       0.250305        0.238299        0.219791        0.272068        0.788748        -0.427307      
  4e+010          1.357e-005      1.8662e-008     0.191131        -0.819494       0.290677        0.12695         0.274715        0.164752        0.556725        -0.676616       0.440462        -0.73054        0.258159        0.238071        0.226914        0.272743        0.781237        -0.434791      
  4.1e+010        1.357e-005      1.8662e-008     0.170901        -0.820582       0.296252        0.122429        0.282839        0.160942        0.540802        -0.685273       0.42335         -0.736286       0.265316        0.237627        0.235828        0.274162        0.773274        -0.442016      
  4.2e+010        1.357e-005      1.8662e-008     0.15048         -0.819625       0.302251        0.116736        0.287831        0.153035        0.524213        -0.689424       0.407294        -0.73907        0.273599        0.237009        0.24394         0.271259        0.764227        -0.446956      
  4.3e+010        1.357e-005      1.8662e-008     0.132301        -0.820294       0.306993        0.111709        0.292701        0.14934         0.511009        -0.695542       0.391172        -0.743181       0.28101         0.235923        0.250631        0.271023        0.756911        -0.453544      
  4.4e+010        1.357e-005      1.8662e-008     0.111547        -0.818124       0.311           0.106952        0.29979         0.144988        0.496757        -0.701372       0.373429        -0.746265       0.287929        0.234394        0.260162        0.271188        0.749725        -0.458965      
  4.5e+010        1.357e-005      1.8662e-008     0.0919138       -0.818877       0.316484        0.102378        0.304714        0.139968        0.482141        -0.709153       0.357218        -0.750849       0.295641        0.234316        0.267723        0.270472        0.742816        -0.465219      
  4.6e+010        1.357e-005      1.8662e-008     0.0742522       -0.816324       0.321215        0.0966302       0.311072        0.134597        0.468245        -0.71311        0.341861        -0.752178       0.302532        0.232462        0.276105        0.269763        0.734453        -0.470409      
  4.7e+010        1.357e-005      1.8662e-008     0.0571466       -0.817533       0.325323        0.0915058       0.316609        0.129195        0.452989        -0.716994       0.32826         -0.756698       0.309869        0.231414        0.28477         0.269262        0.726115        -0.475925      
  4.8e+010        1.357e-005      1.8662e-008     0.0385407       -0.81458        0.330201        0.0862725       0.322079        0.120609        0.43832         -0.72373        0.311701        -0.75807        0.31778         0.230077        0.294097        0.264516        0.718795        -0.481897      
