! VERSION = 6.00
!Data measured by ggf on Tue Jan 23 13:17:38 2018 using model file NPN_MEAS_SCALE
BEGIN_HEADER
 ICCAP_INPUTS
  vbe        V  B GROUND SMU_B 0.015 LIN        2    0.6        -1.8       25   -0.1      
  vc         V  C GROUND SMU_C 0.015 CON        0
  ve         V  E GROUND SMU_E 0 CON        0
  vs         V  S GROUND SMU_S 0 CON        0
  freq       F  LIST       1 74 100000000 200000000 300000000 400000000 500000000 600000000 700000000 800000000 900000000 1000000000 2000000000 3000000000 4000000000 5000000000 6000000000 7000000000 8000000000 9000000000 10000000000 11000000000 12000000000 13000000000 14000000000 15000000000 16000000000 17000000000 18000000000 19000000000 20000000000 21000000000 22000000000 23000000000 24000000000 25000000000 26000000000 27000000000 28000000000 29000000000 30000000000 31000000000 32000000000 33000000000 34000000000 35000000000 36000000000 37000000000 38000000000 39000000000 40000000000 41000000000 42000000000 43000000000 44000000000 45000000000 46000000000 47000000000 48000000000 49000000000 50000000000 51000000000 52000000000 53000000000 54000000000 55000000000 56000000000 57000000000 58000000000 59000000000 60000000000 61000000000 62000000000 63000000000 64000000000 65000000000
 ICCAP_OUTPUTS
  S          S  B C GROUND NWA M
  ib         I  B GROUND SMU_B M
  S_deemb    S B C GROUND n/a B
 ICCAP_VALUES
  TNOM "27"
  TEMP "27"
  TECHNO "SG13G2"
  LOT "EDJ802"
  WAFER "02"
  CHIP "(3.3)"
  MODULE "S439S"
  DEV_NAME "D11"
  DEV_GEOM_L "5.0"
  DEV_GEOM_W "0.07"
  NUM_OF_TRANS_RF "1"
  REMARKS "Nx=2; Power -30/-20dBm, Slope: 0.1dB/GHz"
  TIMEDATE "Tue Jan 23 12:58:58     2018"
  OPERATOR "ggf"
END_HEADER

BEGIN_DB
 ICCAP_VAR vbe        0.6            
 ICCAP_VAR vc         0              
 ICCAP_VAR ve         0              
 ICCAP_VAR vs         0              

 #freq            R:S(1,1)        I:S(1,1)        R:S(1,2)        I:S(1,2)        R:S(2,1)        I:S(2,1)        R:S(2,2)        I:S(2,2)        ib              R:S_deemb(1,1)  I:S_deemb(1,1)  R:S_deemb(1,2)  I:S_deemb(1,2)  R:S_deemb(2,1)  I:S_deemb(2,1)  R:S_deemb(2,2)  I:S_deemb(2,2) 
  1e+008          0.999568        -0.00366287     0.000151248     0.00153784      0.000315146     0.00140468      0.994788        -0.00281392     1.4392e-007     0.999751        -0.00287627     0.000152313     0.00138307      0.000375104     0.00160643      0.994626        -0.00162845    
  2e+008          1.00008         -0.00810479     0.000202207     0.00310541      0.000146476     0.00306901      0.994725        -0.00563153     1.4392e-007     0.999881        -0.00646045     0.000190388     0.00292747      8.65529e-005    0.00294874      0.994401        -0.00290496    
  3e+008          0.999946        -0.0124402      0.00024748      0.00467675      0.000219855     0.00452253      0.994751        -0.00879981     1.4392e-007     0.999646        -0.00941616     0.000263698     0.0045169       0.000168823     0.00434415      0.994651        -0.00556452    
  4e+008          1.00005         -0.0168382      0.000275476     0.00626936      0.000314462     0.00615993      0.994488        -0.0120141      1.4392e-007     0.999491        -0.0127568      0.00026241      0.00600907      0.00032494      0.0060077       0.994604        -0.00762395    
  5e+008          0.999801        -0.0208643      0.000390545     0.00783108      0.000295134     0.00778285      0.994431        -0.0149084      1.4392e-007     0.999298        -0.0151642      0.000337293     0.00757556      0.000248318     0.00749174      0.994391        -0.00957766    
  6e+008          0.999734        -0.0261697      0.000466099     0.00941126      0.000421124     0.00920301      0.994365        -0.0178145      1.4392e-007     0.999509        -0.0198313      0.000376574     0.00907065      0.000371742     0.00885716      0.994264        -0.0113899     
  7e+008          0.999664        -0.0295177      0.00053876      0.010944        0.000489502     0.0108704       0.994314        -0.0209163      1.4392e-007     0.999421        -0.0221429      0.000432564     0.010592        0.000481193     0.0105086       0.99438         -0.0133585     
  8e+008          0.999336        -0.0338072      0.000619754     0.0124993       0.000573067     0.0123748       0.994598        -0.0239251      1.4392e-007     0.999272        -0.0252013      0.00050296      0.0120707       0.000443011     0.0118514       0.994729        -0.015335      
  9e+008          0.999165        -0.0380241      0.000730313     0.0140799       0.000766647     0.0139035       0.994193        -0.0269131      1.4392e-007     0.999045        -0.0285767      0.000590701     0.0135889       0.000601553     0.013477        0.994312        -0.0172708     
  1e+009          0.998895        -0.0423116      0.000876882     0.0155944       0.000889914     0.0154355       0.993905        -0.0299084      1.4392e-007     0.99893         -0.0315928      0.000696397     0.0150646       0.000770009     0.0149623       0.994139        -0.0192337     
  2e+009          0.995605        -0.0841115      0.00265384      0.0310246       0.00264259      0.0307886       0.991567        -0.0594303      1.4392e-007     0.996853        -0.0629506      0.00189197      0.0299607       0.00185899      0.0297426       0.99276         -0.0379692     
  3e+009          0.989735        -0.126113       0.00569153      0.0462434       0.00557414      0.0458683       0.987136        -0.0875685      1.4392e-007     0.993222        -0.093978       0.00402348      0.0448181       0.00387173      0.044396        0.989782        -0.0556584     
  4e+009          0.982135        -0.167002       0.00974352      0.0610066       0.00964254      0.0605768       0.982475        -0.115674       1.4392e-007     0.988566        -0.124858       0.00682903      0.0592979       0.00672514      0.0587923       0.98709         -0.0734943     
  5e+009          0.972268        -0.207138       0.0149064       0.0755429       0.0147074       0.0750159       0.976645        -0.143194       1.4392e-007     0.982507        -0.155145       0.0104283       0.0737636       0.0102415       0.0733126       0.983836        -0.0908031     
  6e+009          0.960565        -0.24596        0.0210352       0.0894377       0.0206048       0.0886554       0.969739        -0.170447       1.4392e-007     0.975373        -0.18525        0.0147635       0.0878155       0.0144664       0.0870094       0.979878        -0.107914      
  7e+009          0.946326        -0.285608       0.0282247       0.102913        0.0279807       0.102064        0.962116        -0.19706        1.4392e-007     0.96645         -0.214231       0.019726        0.101708        0.0195533       0.100813        0.975692        -0.124706      
  8e+009          0.931432        -0.322699       0.0362903       0.115563        0.0357879       0.11484         0.953443        -0.222729       1.4392e-007     0.957373        -0.244119       0.0255257       0.115001        0.025076        0.114319        0.970924        -0.141039      
  9e+009          0.914134        -0.359034       0.0452931       0.12783         0.0443773       0.126679        0.943153        -0.248448       1.4392e-007     0.946245        -0.272079       0.0318907       0.128302        0.0311489       0.127011        0.965078        -0.157512      
  1e+010          0.895365        -0.394939       0.0547666       0.13856         0.0544585       0.137841        0.933383        -0.273203       1.4392e-007     0.934477        -0.300515       0.0387482       0.140351        0.0383942       0.13949         0.960213        -0.173256      
  1.1e+010        0.87477         -0.427414       0.0652392       0.149618        0.0640339       0.148495        0.921525        -0.297436       1.4392e-007     0.921475        -0.326152       0.0463088       0.153079        0.0451544       0.151832        0.953208        -0.189145      
  1.2e+010        0.85301         -0.459456       0.0762488       0.159224        0.0754894       0.157976        0.90958         -0.320806       1.4392e-007     0.907409        -0.35242        0.054333        0.164716        0.053736        0.163381        0.946819        -0.204412      
  1.3e+010        0.830237        -0.489631       0.0877509       0.16822         0.0867332       0.166712        0.896115        -0.342971       1.4392e-007     0.892711        -0.377373       0.0628556       0.176236        0.0621296       0.174522        0.939489        -0.219208      
  1.4e+010        0.806146        -0.518571       0.100145        0.175933        0.0990397       0.174966        0.882968        -0.364982       1.4392e-007     0.877065        -0.401762       0.0723304       0.18693         0.0714128       0.185799        0.932392        -0.233885      
  1.5e+010        0.781838        -0.545323       0.112366        0.182236        0.111212        0.180613        0.870193        -0.38538        1.4392e-007     0.86056         -0.424858       0.0818666       0.196456        0.0809743       0.194701        0.9255          -0.247356      
  1.6e+010        0.756359        -0.571189       0.125436        0.188642        0.123268        0.187145        0.854682        -0.405635       1.4392e-007     0.84366         -0.447629       0.0922438       0.206438        0.0902412       0.204557        0.916039        -0.261493      
  1.7e+010        0.730334        -0.594796       0.13812         0.192992        0.135985        0.191466        0.840323        -0.424543       1.4392e-007     0.825947        -0.468505       0.102508        0.214727        0.100629        0.212894        0.908779        -0.274385      
  1.8e+010        0.703856        -0.616982       0.151556        0.197355        0.148512        0.196047        0.823913        -0.443729       1.4392e-007     0.807681        -0.488894       0.113566        0.223543        0.110821        0.221522        0.899115        -0.287931      
  1.9e+010        0.677249        -0.63734        0.163561        0.200247        0.162314        0.198697        0.809912        -0.461828       1.4392e-007     0.789424        -0.507677       0.123391        0.230742        0.122367        0.228805        0.89132         -0.29961       
  2e+010          0.6504          -0.656439       0.176827        0.202381        0.173295        0.200598        0.793557        -0.476717       1.4392e-007     0.770573        -0.526228       0.135093        0.237515        0.13181         0.234976        0.881467        -0.310895      
  2.1e+010        0.623473        -0.674239       0.189197        0.203715        0.187136        0.202777        0.776218        -0.491191       1.4392e-007     0.751569        -0.543753       0.146369        0.24389         0.144465        0.242434        0.872332        -0.322625      
  2.2e+010        0.596639        -0.689853       0.201288        0.204055        0.198762        0.202602        0.759923        -0.507853       1.4392e-007     0.732029        -0.559137       0.157335        0.249439        0.155049        0.247377        0.864692        -0.334284      
  2.3e+010        0.569843        -0.704799       0.213948        0.20398         0.21037         0.203007        0.746612        -0.524775       1.4392e-007     0.71297         -0.574771       0.168685        0.254665        0.165256        0.252823        0.855573        -0.344626      
  2.4e+010        0.543242        -0.719299       0.224435        0.203237        0.221692        0.202522        0.737916        -0.530626       1.4392e-007     0.693668        -0.589718       0.178802        0.257421        0.176181        0.255955        0.847021        -0.350799      
  2.5e+010        0.515299        -0.732272       0.237093        0.20505         0.232814        0.204306        0.733777        -0.536073       1.4392e-007     0.673876        -0.603796       0.190501        0.261405        0.186288        0.259654        0.83522         -0.361152      
  2.6e+010        0.489314        -0.743837       0.252693        0.200955        0.247992        0.201515        0.707742        -0.559475       1.4392e-007     0.654976        -0.616962       0.204824        0.264109        0.199602        0.263547        0.819677        -0.370647      
  2.7e+010        0.461231        -0.753719       0.262561        0.19779         0.259346        0.198178        0.673943        -0.573634       1.4392e-007     0.633072        -0.628163       0.21582         0.269095        0.212307        0.268689        0.812694        -0.383648      
  2.8e+010        0.435554        -0.762378       0.27391         0.193467        0.269527        0.193294        0.652819        -0.592803       1.4392e-007     0.613543        -0.639205       0.227602        0.272783        0.223089        0.271301        0.804265        -0.394785      
  2.9e+010        0.40926         -0.770868       0.282729        0.190132        0.278541        0.190774        0.641629        -0.602076       1.4392e-007     0.593207        -0.650425       0.236983        0.274936        0.232394        0.274154        0.7983          -0.400661      
  3e+010          0.382753        -0.776545       0.292632        0.187504        0.288747        0.187868        0.63348         -0.608409       1.4392e-007     0.572981        -0.659467       0.247568        0.276259        0.243291        0.275489        0.79055         -0.407112      
  3.1e+010        0.356844        -0.78334        0.302414        0.1825          0.299237        0.183376        0.617075        -0.615607       1.4392e-007     0.553263        -0.669085       0.258558        0.276013        0.255069        0.275945        0.779214        -0.415082      
  3.2e+010        0.33229         -0.787173       0.312506        0.177794        0.308226        0.177704        0.598309        -0.625642       1.4392e-007     0.5337          -0.676012       0.270477        0.277437        0.266064        0.276161        0.769286        -0.423915      
  3.3e+010        0.306387        -0.790296       0.322504        0.172762        0.317687        0.174291        0.582582        -0.637537       1.4392e-007     0.512835        -0.682723       0.281776        0.278504        0.276239        0.27842         0.760422        -0.431997      
  3.4e+010        0.280574        -0.791516       0.331503        0.166732        0.327825        0.16801         0.569108        -0.64567        1.4392e-007     0.491878        -0.688501       0.292885        0.277611        0.288265        0.278089        0.751402        -0.439102      
  3.5e+010        0.25815         -0.794322       0.339132        0.160594        0.33561         0.16157         0.554014        -0.652123       1.4392e-007     0.473796        -0.695102       0.302687        0.276015        0.298464        0.27607         0.741512        -0.445045      
  3.6e+010        0.235944        -0.79482        0.346769        0.154175        0.342404        0.155798        0.535217        -0.65963        1.4392e-007     0.454889        -0.699059       0.313199        0.274582        0.308109        0.275086        0.731403        -0.451761      
  3.7e+010        0.215034        -0.794515       0.354448        0.147877        0.349391        0.15089         0.520825        -0.668816       1.4392e-007     0.437756        -0.702097       0.322872        0.273382        0.316395        0.275095        0.722708        -0.458957      
  3.8e+010        0.193471        -0.794574       0.3613          0.141002        0.358753        0.143514        0.506481        -0.675109       1.4392e-007     0.41919         -0.70554        0.332238        0.271091        0.328515        0.272709        0.71385         -0.464073      
  3.9e+010        0.17238         -0.794306       0.3669          0.134411        0.364156        0.135998        0.490652        -0.680551       1.4392e-007     0.401695        -0.708493       0.34086         0.26898         0.337165        0.269525        0.70447         -0.469403      
  4e+010          0.153102        -0.794575       0.373889        0.127492        0.369282        0.130364        0.474268        -0.688239       1.4392e-007     0.385999        -0.712306       0.350666        0.266899        0.34467         0.268131        0.694779        -0.476184      
  4.1e+010        0.133426        -0.794571       0.380061        0.121036        0.376973        0.123936        0.457466        -0.694936       1.4392e-007     0.368957        -0.716381       0.359341        0.264918        0.35455         0.266905        0.685076        -0.482215      
  4.2e+010        0.113755        -0.790676       0.385391        0.113198        0.38154         0.114502        0.441531        -0.697395       1.4392e-007     0.352437        -0.715514       0.367958        0.262171        0.363343        0.262535        0.675813        -0.485589      
  4.3e+010        0.0941696       -0.791024       0.390545        0.106336        0.385759        0.109928        0.427109        -0.702441       1.4392e-007     0.334522        -0.719465       0.376808        0.259324        0.370138        0.261196        0.666549        -0.491725      
  4.4e+010        0.0777606       -0.788281       0.395089        0.099837        0.392273        0.102467        0.412227        -0.706129       1.4392e-007     0.321398        -0.719938       0.385041        0.256325        0.380549        0.25792         0.657829        -0.495385      
  4.5e+010        0.0589774       -0.786956       0.400533        0.0932521       0.395793        0.0963042       0.397587        -0.712292       1.4392e-007     0.305278        -0.721589       0.393678        0.254356        0.387445        0.255663        0.650184        -0.500414      
  4.6e+010        0.0425621       -0.784814       0.405508        0.0854265       0.401383        0.0898572       0.383084        -0.714694       1.4392e-007     0.291436        -0.72279        0.401727        0.250642        0.395678        0.253764        0.640436        -0.504498      
  4.7e+010        0.0235439       -0.78263        0.409244        0.0784144       0.40646         0.0823923       0.367879        -0.717104       1.4392e-007     0.274427        -0.72383        0.40968         0.247392        0.405177        0.250702        0.631203        -0.508513      
  4.8e+010        0.00700619      -0.780376       0.413684        0.0714472       0.410336        0.0732558       0.352805        -0.722308       1.4392e-007     0.260534        -0.724926       0.417898        0.244237        0.413267        0.245002        0.622874        -0.513519      
  4.9e+010        -0.0083764      -0.77846        0.417739        0.0636552       0.412767        0.0676498       0.341107        -0.724543       1.4392e-007     0.247834        -0.724692       0.425899        0.240454        0.418671        0.242508        0.615563        -0.516342      
  5e+010          -0.0263688      -0.776289       0.422526        0.0559512       0.41981         0.0618166       0.325423        -0.725982       1.4392e-007     0.232312        -0.728219       0.43474         0.235864        0.429083        0.240989        0.605312        -0.520236      
  5.1e+010        -0.0415187      -0.770947       0.425339        0.0483707       0.422137        0.0514553       0.312223        -0.728328       1.4392e-007     0.218404        -0.725267       0.441675        0.23138         0.436447        0.233246        0.59732         -0.523545      
  5.2e+010        -0.0576397      -0.767974       0.42826         0.039025        0.422322        0.0442755       0.298453        -0.731308       1.4392e-007     0.204867        -0.725914       0.449656        0.225865        0.440668        0.229345        0.589264        -0.526141      
