! VERSION = 6.00
!Data measured by ggf on Tue Jan 23 13:21:05 2018 using model file NPN_MEAS_SCALE
BEGIN_HEADER
 ICCAP_INPUTS
  vb         V  B GROUND GND 0 CON        0
  vc         V  C GROUND GND 0 CON        0
  ve         V  E GROUND SMU_E 0 CON        0
  vs         V  S GROUND SMU_S 0 CON        0
  freq       F  LIST       1 74 100000000 200000000 300000000 400000000 500000000 600000000 700000000 800000000 900000000 1000000000 2000000000 3000000000 4000000000 5000000000 6000000000 7000000000 8000000000 9000000000 10000000000 11000000000 12000000000 13000000000 14000000000 15000000000 16000000000 17000000000 18000000000 19000000000 20000000000 21000000000 22000000000 23000000000 24000000000 25000000000 26000000000 27000000000 28000000000 29000000000 30000000000 31000000000 32000000000 33000000000 34000000000 35000000000 36000000000 37000000000 38000000000 39000000000 40000000000 41000000000 42000000000 43000000000 44000000000 45000000000 46000000000 47000000000 48000000000 49000000000 50000000000 51000000000 52000000000 53000000000 54000000000 55000000000 56000000000 57000000000 58000000000 59000000000 60000000000 61000000000 62000000000 63000000000 64000000000 65000000000
 ICCAP_OUTPUTS
  S          S  B C Ground NWA M
 ICCAP_VALUES
  TNOM "27"
  TEMP "27"
  TECHNO "SG13G2"
  LOT "EDJ802"
  WAFER "02"
  CHIP "(3.3)"
  MODULE "S439S"
  DEV_NAME "D11"
  DEV_GEOM_L "5.0"
  DEV_GEOM_W "0.07"
  NUM_OF_TRANS_RF "1"
  REMARKS "Nx=2; Power -30/-20dBm, Slope: 0.1dB/GHz"
  TIMEDATE "Tue Jan 23 12:58:58     2018"
  OPERATOR "ggf"
END_HEADER

BEGIN_DB
 ICCAP_VAR vb         0              
 ICCAP_VAR vc         0              
 ICCAP_VAR ve         0              
 ICCAP_VAR vs         0              

 #freq            R:S(1,1)        I:S(1,1)        R:S(1,2)        I:S(1,2)        R:S(2,1)        I:S(2,1)        R:S(2,2)        I:S(2,2)       
  1e+008          0.999981        -0.00130084     9.53989e-006    0.000120264     0.000130694     9.69548e-005    0.999963        -0.00141852    
  2e+008          1.00003         -0.00237523     -4.43173e-005   0.000149568     6.76982e-005    3.22305e-005    0.999937        -0.00238959    
  3e+008          1.00012         -0.00332923     5.45372e-006    0.000209486     -3.28547e-005   0.000148305     1.00014         -0.00347996    
  4e+008          1.00033         -0.00448219     -1.53132e-005   0.000228475     3.92685e-005    0.000271563     0.999888        -0.00462379    
  5e+008          1.00039         -0.00614435     -1.08695e-005   0.000287138     3.92803e-005    0.000259971     1.00001         -0.00565973    
  6e+008          1.00004         -0.00688081     2.75027e-005    0.000374301     -5.89007e-005   0.000386733     1.00007         -0.00676055    
  7e+008          1.00016         -0.0077314      -9.06575e-006   0.000391485     -2.08151e-006   0.000442518     1.00005         -0.00791823    
  8e+008          1.00013         -0.00906402     4.60054e-006    0.000469514     -2.80198e-005   0.000455981     1.00007         -0.00897662    
  9e+008          1.00022         -0.0100375      4.17874e-005    0.000549156     4.85161e-005    0.000504895     0.999976        -0.0101188     
  1e+009          1.00001         -0.0112596      -5.55001e-006   0.000561747     3.22949e-005    0.000583137     0.999974        -0.0112173     
  2e+009          0.99986         -0.0223885      -1.1197e-005    0.00119617      6.56052e-005    0.00117808      0.999747        -0.022447      
  3e+009          0.999245        -0.0335597      5.44285e-005    0.00177004      1.60639e-005    0.00174235      0.999328        -0.0333371     
  4e+009          0.998783        -0.04456        9.87881e-005    0.00236441      5.33136e-005    0.00230766      0.998708        -0.0443145     
  5e+009          0.997922        -0.0556172      0.000188905     0.00294618      0.000122418     0.00299433      0.997994        -0.0554111     
  6e+009          0.996989        -0.0664458      0.000252632     0.00355539      0.000182684     0.00357181      0.996887        -0.0666964     
  7e+009          0.995613        -0.0779055      0.000341779     0.00414323      0.00037629      0.00421104      0.995991        -0.0776413     
  8e+009          0.994646        -0.0887721      0.00046138      0.00477609      0.000434493     0.00471233      0.994655        -0.0884509     
  9e+009          0.992899        -0.0990064      0.000564203     0.00533961      0.000623162     0.00531507      0.993102        -0.0995055     
  1e+010          0.991689        -0.111671       0.000777617     0.0059772       0.000707669     0.00595362      0.991438        -0.11067       
  1.1e+010        0.989342        -0.120866       0.000931249     0.00655872      0.000882096     0.00653305      0.989791        -0.121316      
  1.2e+010        0.987462        -0.132439       0.00120235      0.00720175      0.00123         0.00725741      0.987814        -0.1322        
  1.3e+010        0.985208        -0.142986       0.00148705      0.00777471      0.00152295      0.00766837      0.985061        -0.142756      
  1.4e+010        0.982841        -0.153945       0.00183648      0.00825671      0.0018322       0.00830431      0.982874        -0.153456      
  1.5e+010        0.980608        -0.164266       0.00212528      0.0087126       0.00213614      0.00875229      0.980482        -0.163904      
  1.6e+010        0.977837        -0.175233       0.00244504      0.00918507      0.00243246      0.00929853      0.978226        -0.174176      
  1.7e+010        0.974881        -0.185264       0.00278561      0.00963436      0.00283539      0.00956909      0.974575        -0.18458       
  1.8e+010        0.971828        -0.195819       0.00314348      0.00997852      0.00309674      0.01014         0.971589        -0.195099      
  1.9e+010        0.969125        -0.205599       0.00349083      0.0103487       0.00360839      0.0104336       0.969281        -0.206199      
  2e+010          0.965109        -0.215959       0.00381279      0.0106973       0.00382218      0.0106872       0.965573        -0.214869      
  2.1e+010        0.962104        -0.226197       0.00411309      0.0109154       0.00423817      0.010962        0.95999         -0.223456      
  2.2e+010        0.958191        -0.23573        0.00441927      0.0112383       0.00441839      0.0111843       0.954711        -0.234799      
  2.3e+010        0.954676        -0.245239       0.00464316      0.0114147       0.00459977      0.0113621       0.954855        -0.246325      
  2.4e+010        0.951326        -0.255257       0.00479027      0.0117069       0.00477741      0.0117747       0.955463        -0.248932      
  2.5e+010        0.947325        -0.266083       0.00486         0.0121075       0.00482433      0.0121124       0.963907        -0.243526      
  2.6e+010        0.943383        -0.27497        0.00555617      0.0126122       0.00568386      0.01257         0.96001         -0.267082      
  2.7e+010        0.938436        -0.284037       0.00578806      0.0126426       0.00545015      0.0125599       0.934503        -0.281573      
  2.8e+010        0.933895        -0.29366        0.00609043      0.0127407       0.00605529      0.0127828       0.927108        -0.300762      
  2.9e+010        0.929869        -0.302926       0.00613974      0.0128856       0.00624748      0.0129895       0.923848        -0.310535      
  3e+010          0.925146        -0.311964       0.00585307      0.0132888       0.00604186      0.0131819       0.924688        -0.313012      
  3.1e+010        0.919612        -0.323061       0.00630724      0.0138548       0.00623764      0.0139401       0.920665        -0.318872      
  3.2e+010        0.914948        -0.330963       0.00655389      0.0144198       0.00663031      0.0141345       0.912967        -0.328347      
  3.3e+010        0.909057        -0.339012       0.00704157      0.0145767       0.00680833      0.014611        0.908902        -0.339285      
  3.4e+010        0.902737        -0.347605       0.0073168       0.0149065       0.00750873      0.0148467       0.906065        -0.346792      
  3.5e+010        0.89716         -0.356168       0.00762128      0.0151627       0.00781166      0.0150333       0.901773        -0.353862      
  3.6e+010        0.890719        -0.363741       0.00793445      0.0155003       0.00818489      0.015013        0.893415        -0.363472      
  3.7e+010        0.886294        -0.370686       0.00831142      0.0158641       0.00849788      0.0157624       0.890155        -0.372488      
  3.8e+010        0.880989        -0.377022       0.00892621      0.0162077       0.00899576      0.0163991       0.885259        -0.380656      
  3.9e+010        0.875681        -0.385418       0.00904588      0.0164099       0.00908218      0.0166393       0.879038        -0.387975      
  4e+010          0.870734        -0.393518       0.00961016      0.0166614       0.00977106      0.0167964       0.873399        -0.397655      
  4.1e+010        0.865873        -0.401133       0.0102291       0.0171524       0.0098205       0.0174556       0.867572        -0.405913      
  4.2e+010        0.859295        -0.407866       0.0111572       0.0174484       0.012143        0.0179778       0.861198        -0.413615      
  4.3e+010        0.853044        -0.415017       0.0117815       0.0175753       0.0115045       0.0174919       0.854809        -0.420324      
  4.4e+010        0.848965        -0.422399       0.0123542       0.0175425       0.0121408       0.0175621       0.848287        -0.427088      
  4.5e+010        0.843307        -0.429924       0.0132745       0.0179919       0.0136343       0.0178778       0.842367        -0.43638       
  4.6e+010        0.837552        -0.436966       0.0143428       0.0180139       0.0143818       0.0182788       0.836475        -0.441806      
  4.7e+010        0.830031        -0.443933       0.0152799       0.017649        0.0160509       0.0181804       0.8285          -0.44747       
  4.8e+010        0.825467        -0.452427       0.0159107       0.0170847       0.0160201       0.0173985       0.822276        -0.456372      
  4.9e+010        0.821506        -0.456189       0.0167779       0.0166526       0.0173488       0.0167068       0.817483        -0.461234      
  5e+010          0.816181        -0.46409        0.0176137       0.0161188       0.0171491       0.0163248       0.811264        -0.466641      
  5.1e+010        0.807362        -0.47054        0.018305        0.0153551       0.018428        0.0153471       0.80533         -0.472828      
  5.2e+010        0.800904        -0.478313       0.0185517       0.0137851       0.0192203       0.0136045       0.799851        -0.479512      
  5.3e+010        0.798504        -0.482464       0.0193567       0.0144036       0.0192636       0.0142514       0.794503        -0.486281      
  5.4e+010        0.791178        -0.489379       0.0196704       0.0127937       0.0199098       0.0128731       0.787935        -0.492205      
  5.5e+010        0.787157        -0.493444       0.0202846       0.0118628       0.0202501       0.0116042       0.779529        -0.498324      
  5.6e+010        0.78229         -0.500269       0.0186698       0.00939738      0.0193915       0.00950888      0.776202        -0.498971      
  5.7e+010        0.779253        -0.507281       0.0172992       0.0105995       0.0175072       0.010519        0.775718        -0.504737      
  5.8e+010        0.774327        -0.515579       0.0174097       0.0117137       0.0176558       0.0118157       0.773268        -0.514941      
  5.9e+010        0.768201        -0.523225       0.0190109       0.0121895       0.0192943       0.0115437       0.767901        -0.521323      
  6e+010          0.764708        -0.531759       0.0196404       0.0105687       0.0202472       0.0111089       0.76168         -0.529237      
  6.1e+010        0.758938        -0.54055        0.0188185       0.0104993       0.019346        0.00974239      0.756344        -0.537634      
  6.2e+010        0.751531        -0.546221       0.0200539       0.0109976       0.019778        0.0103624       0.753301        -0.548921      
  6.3e+010        0.749135        -0.558875       0.020499        0.0100939       0.0208104       0.0104498       0.745346        -0.554636      
  6.4e+010        0.74046         -0.563364       0.0220759       0.00962197      0.0223818       0.00960505      0.743326        -0.560139      
  6.5e+010        0.731351        -0.573196       0.0216323       0.00788705      0.0218378       0.0076031       0.73456         -0.574283      
END_DB

