! VERSION = 6.00
!Data measured by ggf on Tue Jan 23 13:39:52 2018 using model file NPN_MEAS_SCALE
BEGIN_HEADER
 ICCAP_INPUTS
  ve         V  E GROUND SMU_E 0.2 CON        0
  vc         V  C GROUND SMU_C 0.2 SYNC       1 0 vb
  vs         V  S GROUND SMU_S 0.015 CON        0
  vb         V  B GROUND SMU_B 0.015 LIN        1    -1         1.04       103  0.02      
 ICCAP_OUTPUTS
  ib         I  B GROUND SMU_B M
  ic         I  C GROUND SMU_C M
 ICCAP_VALUES
  TNOM "27"
  TEMP "27"
  TECHNO "SG13G2"
  LOT "EDJ802"
  WAFER "02"
  CHIP "(3.3)"
  MODULE "S439S"
  DEV_NAME "D12"
  DEV_GEOM_L "5.0"
  DEV_GEOM_W "0.07"
  NUM_OF_TRANS_RF "2"
  REMARKS "Nx=1; Power -30/-20dBm, Slope: 0.1dB/GHz"
  TIMEDATE "Tue Jan 23 13:21:27     2018"
  OPERATOR "ggf"
END_HEADER

BEGIN_DB
 ICCAP_VAR ve         0              
 ICCAP_VAR vs         0              

 #vb              vc              ib              ic             
  -1              -1              -2.005e-005     -0.0063362     
  -0.98           -0.98           -1.6052e-005    -0.0054216     
  -0.96           -0.96           -1.2658e-005    -0.0045922     
  -0.94           -0.94           -9.7712e-006    -0.0038394     
  -0.92           -0.92           -7.385e-006     -0.0031692     
  -0.9            -0.9            -5.4282e-006    -0.0025702     
  -0.88           -0.88           -3.8794e-006    -0.0020492     
  -0.86           -0.86           -2.6888e-006    -0.0016036     
  -0.84           -0.84           -1.8102e-006    -0.0012302     
  -0.82           -0.82           -1.1862e-006    -0.00092344    
  -0.8            -0.8            -7.6914e-007    -0.0006809     
  -0.78           -0.78           -5.0094e-007    -0.00049396    
  -0.76           -0.76           -3.3518e-007    -0.0003536     
  -0.74           -0.74           -2.3344e-007    -0.00025094    
  -0.72           -0.72           -1.6994e-007    -0.00017676    
  -0.7            -0.7            -1.2878e-007    -0.00012372    
  -0.68           -0.68           -1.0088e-007    -8.5854e-005   
  -0.66           -0.66           -8.0852e-008    -5.901e-005    
  -0.64           -0.64           -6.5776e-008    -3.9954e-005   
  -0.62           -0.62           -5.393e-008     -2.6688e-005   
  -0.6            -0.6            -4.4508e-008    -1.7524e-005   
  -0.58           -0.58           -3.6802e-008    -1.1292e-005   
  -0.56           -0.56           -3.0388e-008    -7.116e-006    
  -0.54           -0.54           -2.5046e-008    -4.3676e-006   
  -0.52           -0.52           -2.0578e-008    -2.5934e-006   
  -0.5            -0.5            -1.683e-008     -1.484e-006    
  -0.48           -0.48           -1.3726e-008    -8.1392e-007   
  -0.46           -0.46           -1.1158e-008    -4.2962e-007   
  -0.44           -0.44           -9.0102e-009    -2.1778e-007   
  -0.42           -0.42           -7.2284e-009    -1.0612e-007   
  -0.4            -0.4            -5.7686e-009    -5.1282e-008   
  -0.38           -0.38           -4.5746e-009    -2.1596e-008   
  -0.36           -0.36           -3.595e-009     -1.0792e-008   
  -0.34           -0.34           -2.8074e-009    -6.726e-009    
  -0.32           -0.32           -2.171e-009     -2.6436e-009   
  -0.3            -0.3            -1.669e-009     -5.9032e-010   
  -0.28           -0.28           -1.2718e-009    2.2918e-010    
  -0.26           -0.26           -9.5704e-010    -3.512e-010    
  -0.24           -0.24           -7.0994e-010    -2.444e-010    
  -0.22           -0.22           -5.178e-010     -3.132e-010    
  -0.2            -0.2            -3.7134e-010    -2.706e-010    
  -0.18           -0.18           -2.5824e-010    -2.054e-010    
  -0.16           -0.16           -1.7724e-010    -2.186e-010    
  -0.14           -0.14           -1.167e-010     -2.202e-010    
  -0.12           -0.12           -7.152e-011     -1.94e-011     
  -0.1            -0.1            -3.82e-011      -1.808e-010    
  -0.08           -0.08           -1.69e-011      -2.434e-010    
  -0.06           -0.06           -2.86e-012      -1.536e-010    
  -0.04           -0.04           7.8e-012        -2.666e-010    
  -0.02           -0.02           1.114e-011      -2.592e-010    
  0               0               1.714e-011      -1.022e-010    
  0.02            0.02            1.858e-011      -1.77e-010     
  0.04            0.04            1.92e-011       -1.882e-010    
  0.06            0.06            1.942e-011      -2.092e-010    
  0.08            0.08            1.918e-011      -1.264e-010    
  0.1             0.1             1.996e-011      -1.628e-010    
  0.12            0.12            1.936e-011      -1.57e-010     
  0.14            0.14            1.978e-011      -1.1e-010      
  0.16            0.16            1.872e-011      -1.952e-010    
  0.18            0.18            2.104e-011      -1.34e-010     
  0.2             0.2             2.062e-011      -1.798e-010    
  0.22            0.22            2.076e-011      -6.38e-011     
  0.24            0.24            2.172e-011      -1.128e-010    
  0.26            0.26            2.076e-011      -1.04e-010     
  0.28            0.28            2.046e-011      -4.58e-011     
  0.3             0.3             2.096e-011      -1.122e-010    
  0.32            0.32            2.144e-011      -4.94e-011     
  0.34            0.34            2.156e-011      -1.144e-010    
  0.36            0.36            2.36e-011       -3.58e-011     
  0.38            0.38            2.082e-011      -8.02e-011     
  0.4             0.4             2.434e-011      1.55e-010      
  0.42            0.42            2.726e-011      4.782e-010     
  0.44            0.44            2.814e-011      1.2368e-009    
  0.46            0.46            3.226e-011      2.6042e-009    
  0.48            0.48            3.724e-011      7.714e-009     
  0.5             0.5             5.76e-011       1.5494e-008    
  0.52            0.52            8.676e-011      3.2318e-008    
  0.54            0.54            1.4316e-010     6.8314e-008    
  0.56            0.56            2.5444e-010     1.4562e-007    
  0.58            0.58            4.9154e-010     3.1078e-007    
  0.6             0.6             9.908e-010      6.6516e-007    
  0.62            0.62            2.0162e-009     1.4286e-006    
  0.64            0.64            4.1968e-009     3.0584e-006    
  0.66            0.66            8.7504e-009     6.5348e-006    
  0.68            0.68            1.8376e-008     1.3984e-005    
  0.7             0.7             3.8488e-008     2.9704e-005    
  0.72            0.72            8.1002e-008     6.3044e-005    
  0.74            0.74            1.6886e-007     0.00013256     
  0.76            0.76            3.4972e-007     0.00027536     
  0.78            0.78            7.1482e-007     0.00056266     
  0.8             0.8             1.4222e-006     0.00111012     
  0.82            0.82            2.746e-006      0.0020972      
  0.84            0.84            5.0398e-006     0.0037064      
  0.86            0.86            8.8094e-006     0.0060602      
  0.88            0.88            1.4866e-005     0.0091944      
  0.9             0.9             2.441e-005      0.013038       
  0.92            0.92            3.9668e-005     0.017614       
  0.94            0.94            6.3618e-005     0.022852       
  0.96            0.96            0.000101002     0.028814       
  0.98            0.98            0.0001573       0.035394       
  1               1               0.00024048      0.042598       
  1.02            1.02            0.00035688      0.049894       
  1.04            1.04            0.00052594      0.056348       
END_DB

