! VERSION = 6.00
!Data measured by ggf on Tue Jan 23 13:39:52 2018 using model file NPN_MEAS_SCALE
BEGIN_HEADER
 ICCAP_INPUTS
  vc         V  C GROUND SMU_C 0.2 LIN        1    0          2          81   0.025     
  ve         V  E GROUND SMU_E 0.2 CON        0
  vs         V  S GROUND SMU_S 0.015 CON        0
  vb         V  B GROUND SMU_B 0.015 LIN        2    0.6        1          9    0.05      
 ICCAP_OUTPUTS
  ic         I  C DEFAULT SMU_C M
  ib         I  B GROUND SMU_B M
 ICCAP_VALUES
  TNOM "27"
  TEMP "27"
  TECHNO "SG13G2"
  LOT "EDJ802"
  WAFER "02"
  CHIP "(3.3)"
  MODULE "S439S"
  DEV_NAME "D12"
  DEV_GEOM_L "5.0"
  DEV_GEOM_W "0.07"
  NUM_OF_TRANS_RF "2"
  REMARKS "Nx=1; Power -30/-20dBm, Slope: 0.1dB/GHz"
  TIMEDATE "Tue Jan 23 13:21:27     2018"
  OPERATOR "ggf"
END_HEADER

BEGIN_DB
 ICCAP_VAR ve         0              
 ICCAP_VAR vs         0              
 ICCAP_VAR vb         0.6            

 #vc              ic              ib             
  0               -2.5032e-006    1.2536e-007    
  0.025           -5.9202e-007    8.3116e-008    
  0.05            1.5584e-007     5.7906e-008    
  0.075           4.5108e-007     4.1668e-008    
  0.1             5.6884e-007     3.0328e-008    
  0.125           6.1762e-007     2.216e-008     
  0.15            6.3896e-007     1.6386e-008    
  0.175           6.493e-007      1.2324e-008    
  0.2             6.5478e-007     9.2316e-009    
  0.225           6.582e-007      6.996e-009     
  0.25            6.6024e-007     5.32e-009      
  0.275           6.618e-007      4.0844e-009    
  0.3             6.6276e-007     3.195e-009     
  0.325           6.636e-007      2.5466e-009    
  0.35            6.6412e-007     2.0734e-009    
  0.375           6.6436e-007     1.7412e-009    
  0.4             6.6482e-007     1.4886e-009    
  0.425           6.6514e-007     1.3066e-009    
  0.45            6.652e-007      1.177e-009     
  0.475           6.6544e-007     1.0794e-009    
  0.5             6.657e-007      1.03072e-009   
  0.525           6.6576e-007     9.8974e-010    
  0.55            6.6578e-007     9.6402e-010    
  0.575           6.6598e-007     9.4704e-010    
  0.6             6.6602e-007     9.3538e-010    
  0.625           6.661e-007      9.2496e-010    
  0.65            6.6618e-007     9.1668e-010    
  0.675           6.6608e-007     9.1276e-010    
  0.7             6.6626e-007     9.0596e-010    
  0.725           6.6616e-007     9.0142e-010    
  0.75            6.6628e-007     8.9694e-010    
  0.775           6.6636e-007     8.8882e-010    
  0.8             6.6606e-007     8.8124e-010    
  0.825           6.6626e-007     8.7506e-010    
  0.85            6.6626e-007     8.6564e-010    
  0.875           6.6606e-007     8.52e-010      
  0.9             6.6602e-007     8.4424e-010    
  0.925           6.6608e-007     8.2672e-010    
  0.95            6.6606e-007     8.1098e-010    
  0.975           6.6614e-007     7.9154e-010    
  1               6.6618e-007     7.7006e-010    
  1.025           6.66e-007       7.4456e-010    
  1.05            6.6596e-007     7.153e-010     
  1.075           6.6596e-007     6.7902e-010    
  1.1             6.66e-007       6.444e-010     
  1.125           6.6598e-007     5.9856e-010    
  1.15            6.6606e-007     5.4644e-010    
  1.175           6.6592e-007     4.8678e-010    
  1.2             6.6592e-007     4.1686e-010    
  1.225           6.6598e-007     3.404e-010     
  1.25            6.6594e-007     2.5086e-010    
  1.275           6.6608e-007     1.5268e-010    
  1.3             6.6604e-007     3.874e-011     
  1.325           6.6622e-007     -8.664e-011    
  1.35            6.663e-007      -2.2284e-010   
  1.375           6.6628e-007     -3.7956e-010   
  1.4             6.6646e-007     -5.4874e-010   
  1.425           6.665e-007      -7.3516e-010   
  1.45            6.6658e-007     -9.445e-010    
  1.475           6.6678e-007     -1.1694e-009   
  1.5             6.6704e-007     -1.4166e-009   
  1.525           6.6732e-007     -1.6916e-009   
  1.55            6.6746e-007     -1.9836e-009   
  1.575           6.6764e-007     -2.3002e-009   
  1.6             6.6814e-007     -2.6452e-009   
  1.625           6.6852e-007     -3.0264e-009   
  1.65            6.6894e-007     -3.4342e-009   
  1.675           6.6944e-007     -3.8736e-009   
  1.7             6.696e-007      -4.3614e-009   
  1.725           6.7012e-007     -4.879e-009    
  1.75            6.7072e-007     -5.4438e-009   
  1.775           6.7118e-007     -6.0556e-009   
  1.8             6.7198e-007     -6.7232e-009   
  1.825           6.7264e-007     -7.4302e-009   
  1.85            6.733e-007      -8.2018e-009   
  1.875           6.7394e-007     -9.0374e-009   
  1.9             6.7484e-007     -9.9332e-009   
  1.925           6.7582e-007     -1.0897e-008   
  1.95            6.7704e-007     -1.1962e-008   
  1.975           6.7808e-007     -1.308e-008    
  2               6.7928e-007     -1.4306e-008   
END_DB

BEGIN_DB
 ICCAP_VAR ve         0              
 ICCAP_VAR vs         0              
 ICCAP_VAR vb         0.65           

 #vc              ic              ib             
  0               -1.4338e-005    3.6152e-007    
  0.025           -3.2936e-006    2.0794e-007    
  0.05            1.3602e-006     1.299e-007     
  0.075           3.231e-006      8.7426e-008    
  0.1             3.9662e-006     6.2148e-008    
  0.125           4.2556e-006     4.6048e-008    
  0.15            4.3726e-006     3.4788e-008    
  0.175           4.4222e-006     2.7006e-008    
  0.2             4.4436e-006     2.1206e-008    
  0.225           4.4572e-006     1.7192e-008    
  0.25            4.4628e-006     1.4172e-008    
  0.275           4.4682e-006     1.1906e-008    
  0.3             4.4698e-006     1.0266e-008    
  0.325           4.4712e-006     9.0114e-009    
  0.35            4.4738e-006     8.1006e-009    
  0.375           4.476e-006      7.4576e-009    
  0.4             4.4766e-006     6.9894e-009    
  0.425           4.4776e-006     6.6394e-009    
  0.45            4.478e-006      6.3914e-009    
  0.475           4.4786e-006     6.2066e-009    
  0.5             4.4798e-006     6.0748e-009    
  0.525           4.478e-006      5.9812e-009    
  0.55            4.4802e-006     5.9186e-009    
  0.575           4.4796e-006     5.8718e-009    
  0.6             4.4804e-006     5.8396e-009    
  0.625           4.4822e-006     5.8208e-009    
  0.65            4.4804e-006     5.801e-009     
  0.675           4.4808e-006     5.7872e-009    
  0.7             4.481e-006      5.774e-009     
  0.725           4.4816e-006     5.7636e-009    
  0.75            4.4794e-006     5.759e-009     
  0.775           4.4818e-006     5.7396e-009    
  0.8             4.4818e-006     5.7362e-009    
  0.825           4.4812e-006     5.7252e-009    
  0.85            4.48e-006       5.7092e-009    
  0.875           4.482e-006      5.6986e-009    
  0.9             4.4812e-006     5.6792e-009    
  0.925           4.4824e-006     5.6644e-009    
  0.95            4.4804e-006     5.6386e-009    
  0.975           4.4816e-006     5.615e-009     
  1               4.481e-006      5.5798e-009    
  1.025           4.4808e-006     5.5382e-009    
  1.05            4.4806e-006     5.4912e-009    
  1.075           4.4802e-006     5.4256e-009    
  1.1             4.4796e-006     5.3518e-009    
  1.125           4.48e-006       5.2606e-009    
  1.15            4.4796e-006     5.1502e-009    
  1.175           4.4792e-006     5.0132e-009    
  1.2             4.4794e-006     4.8492e-009    
  1.225           4.4796e-006     4.6666e-009    
  1.25            4.479e-006      4.4418e-009    
  1.275           4.479e-006      4.1798e-009    
  1.3             4.4778e-006     3.8788e-009    
  1.325           4.4796e-006     3.5306e-009    
  1.35            4.4776e-006     3.137e-009     
  1.375           4.4788e-006     2.6824e-009    
  1.4             4.4794e-006     2.1636e-009    
  1.425           4.4778e-006     1.5914e-009    
  1.45            4.479e-006      9.4326e-010    
  1.475           4.4808e-006     2.2098e-010    
  1.5             4.481e-006      -5.905e-010    
  1.525           4.476e-006      -1.4836e-009   
  1.55            4.4788e-006     -2.4766e-009   
  1.575           4.4818e-006     -3.5744e-009   
  1.6             4.4828e-006     -4.7888e-009   
  1.625           4.483e-006      -6.1254e-009   
  1.65            4.4846e-006     -7.6034e-009   
  1.675           4.4866e-006     -9.2182e-009   
  1.7             4.4858e-006     -1.10032e-008  
  1.725           4.4836e-006     -1.2952e-008   
  1.75            4.49e-006       -1.5104e-008   
  1.775           4.4924e-006     -1.7466e-008   
  1.8             4.4954e-006     -2.0052e-008   
  1.825           4.4966e-006     -2.2884e-008   
  1.85            4.5e-006        -2.5982e-008   
  1.875           4.5028e-006     -2.938e-008    
  1.9             4.5068e-006     -3.306e-008    
  1.925           4.5116e-006     -3.7094e-008   
  1.95            4.514e-006      -4.1496e-008   
  1.975           4.5208e-006     -4.6312e-008   
  2               4.5242e-006     -5.1538e-008   
END_DB

BEGIN_DB
 ICCAP_VAR ve         0              
 ICCAP_VAR vs         0              
 ICCAP_VAR vb         0.7            

 #vc              ic              ib             
  0               -5.7796e-005    1.252e-006     
  0.025           -1.2152e-005    6.9892e-007    
  0.05            1.1194e-005     3.9774e-007    
  0.075           2.1966e-005     2.415e-007     
  0.1             2.6512e-005     1.6228e-007    
  0.125           2.8342e-005     1.1916e-007    
  0.15            2.9076e-005     9.4226e-008    
  0.175           2.9382e-005     7.7714e-008    
  0.2             2.9504e-005     6.6498e-008    
  0.225           2.9568e-005     5.8404e-008    
  0.25            2.9602e-005     5.2802e-008    
  0.275           2.9624e-005     4.8652e-008    
  0.3             2.9636e-005     4.5652e-008    
  0.325           2.965e-005      4.3464e-008    
  0.35            2.9662e-005     4.179e-008     
  0.375           2.9672e-005     4.0574e-008    
  0.4             2.9674e-005     3.9708e-008    
  0.425           2.9686e-005     3.9066e-008    
  0.45            2.9692e-005     3.8636e-008    
  0.475           2.9694e-005     3.829e-008     
  0.5             2.9704e-005     3.802e-008     
  0.525           2.9706e-005     3.7798e-008    
  0.55            2.9706e-005     3.7652e-008    
  0.575           2.9718e-005     3.7516e-008    
  0.6             2.9724e-005     3.745e-008     
  0.625           2.9724e-005     3.737e-008     
  0.65            2.9726e-005     3.7314e-008    
  0.675           2.9724e-005     3.7276e-008    
  0.7             2.973e-005      3.7228e-008    
  0.725           2.9736e-005     3.719e-008     
  0.75            2.9734e-005     3.7152e-008    
  0.775           2.9738e-005     3.7078e-008    
  0.8             2.9742e-005     3.7068e-008    
  0.825           2.9744e-005     3.7036e-008    
  0.85            2.975e-005      3.6962e-008    
  0.875           2.9742e-005     3.6936e-008    
  0.9             2.9746e-005     3.6892e-008    
  0.925           2.9744e-005     3.6878e-008    
  0.95            2.975e-005      3.6834e-008    
  0.975           2.9742e-005     3.6772e-008    
  1               2.9744e-005     3.6688e-008    
  1.025           2.9752e-005     3.6568e-008    
  1.05            2.9744e-005     3.6394e-008    
  1.075           2.9754e-005     3.6254e-008    
  1.1             2.9758e-005     3.603e-008     
  1.125           2.975e-005      3.5714e-008    
  1.15            2.976e-005      3.532e-008     
  1.175           2.9754e-005     3.4858e-008    
  1.2             2.9754e-005     3.4276e-008    
  1.225           2.9754e-005     3.3556e-008    
  1.25            2.9748e-005     3.2666e-008    
  1.275           2.9754e-005     3.1612e-008    
  1.3             2.9752e-005     3.0332e-008    
  1.325           2.975e-005      2.8894e-008    
  1.35            2.9758e-005     2.7176e-008    
  1.375           2.9754e-005     2.5182e-008    
  1.4             2.9756e-005     2.2888e-008    
  1.425           2.9756e-005     2.0266e-008    
  1.45            2.9766e-005     1.7276e-008    
  1.475           2.976e-005      1.3886e-008    
  1.5             2.9768e-005     1.0078e-008    
  1.525           2.9768e-005     5.786e-009     
  1.55            2.9764e-005     9.4944e-010    
  1.575           2.9766e-005     -4.349e-009    
  1.6             2.9762e-005     -1.027e-008    
  1.625           2.9776e-005     -1.6868e-008   
  1.65            2.9792e-005     -2.4162e-008   
  1.675           2.9796e-005     -3.227e-008    
  1.7             2.98e-005       -4.1194e-008   
  1.725           2.981e-005      -5.111e-008    
  1.75            2.982e-005      -6.1926e-008   
  1.775           2.9824e-005     -7.4014e-008   
  1.8             2.9838e-005     -8.72e-008     
  1.825           2.985e-005      -1.0177e-007   
  1.85            2.9876e-005     -1.1756e-007   
  1.875           2.9886e-005     -1.3514e-007   
  1.9             2.9904e-005     -1.5426e-007   
  1.925           2.9922e-005     -1.7554e-007   
  1.95            2.995e-005      -1.9898e-007   
  1.975           2.9974e-005     -2.239e-007    
  2               3.0002e-005     -2.5162e-007   
END_DB

BEGIN_DB
 ICCAP_VAR ve         0              
 ICCAP_VAR vs         0              
 ICCAP_VAR vb         0.75           

 #vc              ic              ib             
  0               -0.00011902     4.2164e-006    
  0.025           2.2246e-005     2.4974e-006    
  0.05            0.00010256      1.4982e-006    
  0.075           0.00014748      9.2092e-007    
  0.1             0.00017056      6.062e-007     
  0.125           0.00018128      4.4538e-007    
  0.15            0.00018592      3.642e-007     
  0.175           0.00018796      3.2022e-007    
  0.2             0.00018882      2.9444e-007    
  0.225           0.00018924      2.7832e-007    
  0.25            0.00018952      2.6698e-007    
  0.275           0.00018968      2.5896e-007    
  0.3             0.00018986      2.533e-007     
  0.325           0.00018996      2.4922e-007    
  0.35            0.0001901       2.4612e-007    
  0.375           0.00019022      2.4372e-007    
  0.4             0.00019036      2.4208e-007    
  0.425           0.00019046      2.4076e-007    
  0.45            0.00019054      2.399e-007     
  0.475           0.00019066      2.3902e-007    
  0.5             0.00019074      2.3854e-007    
  0.525           0.00019082      2.3752e-007    
  0.55            0.0001909       2.3762e-007    
  0.575           0.00019102      2.3742e-007    
  0.6             0.00019108      2.37e-007      
  0.625           0.00019116      2.3708e-007    
  0.65            0.0001912       2.3682e-007    
  0.675           0.0001913       2.3686e-007    
  0.7             0.00019138      2.3682e-007    
  0.725           0.00019146      2.3642e-007    
  0.75            0.00019154      2.3626e-007    
  0.775           0.00019162      2.3648e-007    
  0.8             0.00019168      2.3602e-007    
  0.825           0.00019174      2.359e-007     
  0.85            0.00019178      2.3586e-007    
  0.875           0.00019186      2.3586e-007    
  0.9             0.00019194      2.357e-007     
  0.925           0.00019198      2.3574e-007    
  0.95            0.00019204      2.3526e-007    
  0.975           0.00019208      2.3532e-007    
  1               0.0001922       2.3532e-007    
  1.025           0.00019228      2.3474e-007    
  1.05            0.0001923       2.3438e-007    
  1.075           0.00019234      2.3394e-007    
  1.1             0.00019232      2.3304e-007    
  1.125           0.00019242      2.3244e-007    
  1.15            0.00019248      2.3118e-007    
  1.175           0.00019254      2.2946e-007    
  1.2             0.00019258      2.27e-007      
  1.225           0.00019264      2.2412e-007    
  1.25            0.00019268      2.204e-007     
  1.275           0.00019274      2.16e-007      
  1.3             0.00019278      2.1078e-007    
  1.325           0.00019284      2.0418e-007    
  1.35            0.00019288      1.965e-007     
  1.375           0.0001929       1.8714e-007    
  1.4             0.000193        1.7678e-007    
  1.425           0.00019308      1.6398e-007    
  1.45            0.0001931       1.4928e-007    
  1.475           0.00019322      1.3262e-007    
  1.5             0.00019328      1.1384e-007    
  1.525           0.00019332      9.2538e-008    
  1.55            0.0001934       6.8184e-008    
  1.575           0.00019344      4.091e-008     
  1.6             0.0001935       1.055e-008     
  1.625           0.00019358      -2.3338e-008   
  1.65            0.00019364      -6.1228e-008   
  1.675           0.0001937       -1.03614e-007  
  1.7             0.00019386      -1.502e-007    
  1.725           0.00019394      -2.0184e-007   
  1.75            0.00019404      -2.5886e-007   
  1.775           0.00019412      -3.2274e-007   
  1.8             0.0001943       -3.926e-007    
  1.825           0.0001944       -4.6972e-007   
  1.85            0.00019452      -5.544e-007    
  1.875           0.00019468      -6.4842e-007   
  1.9             0.00019486      -7.5096e-007   
  1.925           0.00019498      -8.6416e-007   
  1.95            0.00019522      -9.8846e-007   
  1.975           0.0001954       -1.12522e-006  
  2               0.00019562      -1.275e-006    
END_DB

BEGIN_DB
 ICCAP_VAR ve         0              
 ICCAP_VAR vs         0              
 ICCAP_VAR vb         0.8            

 #vc              ic              ib             
  0               -8.472e-005     1.7426e-005    
  0.025           0.00045808      9.8622e-006    
  0.05            0.00073412      6.067e-006     
  0.075           0.00088244      4.0214e-006    
  0.1             0.00096764      2.8394e-006    
  0.125           0.00101646      2.159e-006     
  0.15            0.0010429       1.7862e-006    
  0.175           0.00105668      1.5956e-006    
  0.2             0.00106394      1.4992e-006    
  0.225           0.0010684       1.4494e-006    
  0.25            0.00107136      1.4214e-006    
  0.275           0.00107364      1.4042e-006    
  0.3             0.001076        1.3928e-006    
  0.325           0.00107786      1.3856e-006    
  0.35            0.0010799       1.3816e-006    
  0.375           0.00108174      1.3794e-006    
  0.4             0.0010836       1.3764e-006    
  0.425           0.0010856       1.3746e-006    
  0.45            0.0010873       1.3756e-006    
  0.475           0.00108904      1.3752e-006    
  0.5             0.00109078      1.3752e-006    
  0.525           0.0010925       1.3768e-006    
  0.55            0.00109434      1.3778e-006    
  0.575           0.00109586      1.3782e-006    
  0.6             0.00109746      1.3804e-006    
  0.625           0.00109926      1.3812e-006    
  0.65            0.00110086      1.3836e-006    
  0.675           0.00110272      1.3842e-006    
  0.7             0.00110426      1.3856e-006    
  0.725           0.00110602      1.3864e-006    
  0.75            0.00110768      1.389e-006     
  0.775           0.00110936      1.3908e-006    
  0.8             0.00111106      1.3934e-006    
