! VERSION = 6.00
!Data measured by ggf on Mon Jan 29 08:56:39 2018 using model file NPN_MEAS_SCALE
BEGIN_HEADER
 ICCAP_INPUTS
  vc         V  C GROUND SMU_C 0.1 CON        1.2
  ve         V  E GROUND SMU_E 0.1 CON        0
  vs         V  S GROUND SMU_S 0.015 CON        0
  freq       F  LIST       1 74 100000000 200000000 300000000 400000000 500000000 600000000 700000000 800000000 900000000 1000000000 2000000000 3000000000 4000000000 5000000000 6000000000 7000000000 8000000000 9000000000 10000000000 11000000000 12000000000 13000000000 14000000000 15000000000 16000000000 17000000000 18000000000 19000000000 20000000000 21000000000 22000000000 23000000000 24000000000 25000000000 26000000000 27000000000 28000000000 29000000000 30000000000 31000000000 32000000000 33000000000 34000000000 35000000000 36000000000 37000000000 38000000000 39000000000 40000000000 41000000000 42000000000 43000000000 44000000000 45000000000 46000000000 47000000000 48000000000 49000000000 50000000000 51000000000 52000000000 53000000000 54000000000 55000000000 56000000000 57000000000 58000000000 59000000000 60000000000 61000000000 62000000000 63000000000 64000000000 65000000000
  vb         V  B GROUND SMU_B 0.015 LIN        2    0.68       1.04       37   0.01      
 ICCAP_OUTPUTS
  ic         I  C GROUND SMU_C M
  ib         I  B GROUND SMU_B M
  S          S  B C GROUND NWA M
  S_deemb    S B C GROUND n/a B
 ICCAP_VALUES
  TNOM "27"
  TEMP "27"
  TECHNO "SG13G2"
  LOT "EDJ802"
  WAFER "02"
  CHIP "(3.3)"
  MODULE "S439S"
  DEV_NAME "D12"
  DEV_GEOM_L "5.0"
  DEV_GEOM_W "0.07"
  NUM_OF_TRANS_RF "2"
  REMARKS "Nx=1; Power -30/-20dBm, Slope: 0.1dB/GHz"
  TIMEDATE "Tue Jan 23 13:21:27     2018"
  OPERATOR "ggf"
END_HEADER

BEGIN_DB
 ICCAP_VAR vc         1.2            
 ICCAP_VAR ve         0              
 ICCAP_VAR vs         0              
 ICCAP_VAR vb         0.68           

 #freq            ic              ib              R:S(1,1)        I:S(1,1)        R:S(1,2)        I:S(1,2)        R:S(2,1)        I:S(2,1)        R:S(2,2)        I:S(2,2)        R:S_deemb(1,1)  I:S_deemb(1,1)  R:S_deemb(1,2)  I:S_deemb(1,2)  R:S_deemb(2,1)  I:S_deemb(2,1)  R:S_deemb(2,2)  I:S_deemb(2,2) 
  1e+008          1.3962e-005     1.696e-008      0.999734        -0.00412129     -3.5728e-005    0.00112853      -0.0590134      0.000589509     0.999996        -0.00300405     0.999757        -0.0028172      -4.6923e-005    0.00100827      -0.0591496      0.000410904     1.00004         -0.00158179    
  2e+008          1.3962e-005     1.696e-008      0.999963        -0.00816393     3.34469e-005    0.00225908      -0.0569737      0.0017995       1.00015         -0.00613909     0.999946        -0.00578415     7.19462e-005    0.00210951      -0.0570493      0.00162874      1.00022         -0.00374448    
  3e+008          1.3962e-005     1.696e-008      1.00003         -0.0118446      3.61304e-005    0.00344347      -0.0572623      0.00353538      1.00009         -0.00819549     0.99994         -0.00850808     1.80928e-005    0.0032337       -0.0572372      0.00318751      0.999967        -0.00470815    
  4e+008          1.3962e-005     1.696e-008      1.00012         -0.0161293      8.22644e-005    0.00462163      -0.0564947      0.00492641      0.999825        -0.0109993      0.999844        -0.0116371      7.51585e-005    0.00439299      -0.0565542      0.0043918       0.999968        -0.00636892    
  5e+008          1.3962e-005     1.696e-008      0.999876        -0.0198362      9.3454e-005     0.00576352      -0.0570953      0.00628043      0.999995        -0.0135831      0.999573        -0.0136805      6.83596e-005    0.00547579      -0.0571642      0.00567583      1.00003         -0.00791369    
  6e+008          1.3962e-005     1.696e-008      0.99967         -0.0241397      0.000168349     0.00686087      -0.0569971      0.00763913      0.999939        -0.0162481      0.999754        -0.0172488      9.08274e-005    0.00648755      -0.0569927      0.00685457      0.999937        -0.00947515    
  7e+008          1.3962e-005     1.696e-008      0.999778        -0.0280657      0.000215675     0.00805591      -0.0569677      0.00904763      0.999722        -0.0190174      0.999781        -0.0203212      0.000157517     0.00766524      -0.0570369      0.00814867      0.999764        -0.0110877     
  8e+008          1.3962e-005     1.696e-008      0.999435        -0.0320612      0.0003032       0.00919049      -0.0571897      0.010476        0.999651        -0.0217696      0.999522        -0.0229851      0.000210111     0.00872296      -0.0572579      0.00949175      0.999702        -0.0127796     
  9e+008          1.3962e-005     1.696e-008      0.999526        -0.0361223      0.000329646     0.0103527       -0.0566298      0.0119881       0.999668        -0.0244111      0.99958         -0.0260686      0.000176158     0.00980632      -0.0568022      0.0108991       0.999846        -0.0142774     
  1e+009          1.3962e-005     1.696e-008      0.999169        -0.039931       0.000428496     0.0114814       -0.0570325      0.0135886       0.999436        -0.0271069      0.999495        -0.0286619      0.000296602     0.0109246       -0.0572283      0.0123509       0.99965         -0.0158765     
  2e+009          1.3962e-005     1.696e-008      0.996336        -0.0797279      0.00162824      0.0228896       -0.0543272      0.0270693       0.99772         -0.0539748      0.997813        -0.0573839      0.00109099      0.0217352       -0.0550454      0.0246522       0.99872         -0.0315375     
  3e+009          1.3962e-005     1.696e-008      0.991383        -0.119661       0.00360332      0.0341598       -0.0530902      0.040187        0.994988        -0.0802763      0.995146        -0.0863576      0.00232886      0.0325401       -0.0545661      0.0366569       0.997313        -0.0470423     
  4e+009          1.3962e-005     1.696e-008      0.984736        -0.15873        0.0062851       0.0452154       -0.0502675      0.0535481       0.991346        -0.106351       0.991247        -0.114825       0.00404322      0.0432015       -0.0529009      0.0490258       0.995543        -0.0623332     
  5e+009          1.3962e-005     1.696e-008      0.976249        -0.197174       0.00972551      0.0560819       -0.0457762      0.0665128       0.986803        -0.132198       0.986509        -0.142903       0.00622599      0.0538201       -0.0499012      0.0610666       0.993305        -0.0774084     
  6e+009          1.3962e-005     1.696e-008      0.966249        -0.234323       0.0139301       0.0666349       -0.0406961      0.078952        0.98132         -0.157977       0.980834        -0.170212       0.00897418      0.0642581       -0.0465644      0.0728688       0.990857        -0.0923901     
  7e+009          1.3962e-005     1.696e-008      0.953935        -0.273464       0.0187912       0.076967        -0.0352252      0.091317        0.975121        -0.183277       0.974086        -0.199381       0.0121233       0.0746868       -0.043268       0.0847307       0.987779        -0.107401      
  8e+009          1.3962e-005     1.696e-008      0.940692        -0.308348       0.0243017       0.0867397       -0.0291909      0.102973        0.968038        -0.207917       0.966179        -0.225166       0.0157442       0.0846981       -0.0394304      0.0962238       0.984511        -0.122093      
  9e+009          1.3962e-005     1.696e-008      0.925622        -0.344412       0.0305          0.0961387       -0.0221394      0.114084        0.960117        -0.232431       0.957727        -0.253324       0.0199329       0.0946531       -0.0348928      0.107402        0.980913        -0.136651      
  1e+010          1.3962e-005     1.696e-008      0.909128        -0.379705       0.0372229       0.104899        -0.01368        0.124886        0.951331        -0.256577       0.948163        -0.278838       0.0242888       0.104162        -0.0291733      0.118539        0.976836        -0.151005      
  1.1e+010        1.3962e-005     1.696e-008      0.891034        -0.412071       0.0443317       0.113409        -0.00630778     0.134845        0.942159        -0.279801       0.937657        -0.30541        0.0291573       0.113674        -0.0245218      0.12907         0.97251         -0.165134      
  1.2e+010        1.3962e-005     1.696e-008      0.871519        -0.444092       0.0522447       0.1214          0.0028481       0.144573        0.931831        -0.30281        0.926096        -0.329945       0.0344826       0.122969        -0.0185834      0.139677        0.967612        -0.179198      
  1.3e+010        1.3962e-005     1.696e-008      0.850886        -0.474656       0.0603133       0.128716        0.0115274       0.153568        0.920535        -0.32476        0.913741        -0.354601       0.0400205       0.131926        -0.0130105      0.150103        0.962562        -0.192879      
  1.4e+010        1.3962e-005     1.696e-008      0.829285        -0.503933       0.0693198       0.135371        0.0219373       0.161859        0.909312        -0.346553       0.900774        -0.378295       0.0464042       0.140689        -0.0058171      0.160112        0.957252        -0.206479      
  1.5e+010        1.3962e-005     1.696e-008      0.807078        -0.531451       0.0784302       0.141076        0.0330491       0.167991        0.897425        -0.367374       0.886908        -0.401229       0.0531002       0.148701        0.00246589      0.168466        0.951479        -0.219637      
  1.6e+010        1.3962e-005     1.696e-008      0.78369         -0.558233       0.0875255       0.14635         0.0429382       0.17479         0.885202        -0.38753        0.872668        -0.423593       0.0597322       0.156501        0.00927061      0.177473        0.945332        -0.232542      
  1.7e+010        1.3962e-005     1.696e-008      0.759738        -0.583205       0.0973015       0.150867        0.0542201       0.180017        0.871623        -0.407174       0.857686        -0.445538       0.0672328       0.163982        0.0177368       0.185765        0.939208        -0.245336      
  1.8e+010        1.3962e-005     1.696e-008      0.735057        -0.60692        0.106622        0.154616        0.0647501       0.185332        0.858383        -0.426509       0.842139        -0.466426       0.0743426       0.170919        0.0254158       0.193956        0.932933        -0.257849      
  1.9e+010        1.3962e-005     1.696e-008      0.710396        -0.628828       0.116074        0.158132        0.0761623       0.18987         0.845129        -0.445735       0.825945        -0.486443       0.081561        0.177716        0.0339091       0.201945        0.926181        -0.269902      
  2e+010          1.3962e-005     1.696e-008      0.684729        -0.64972        0.125731        0.160694        0.0859346       0.192631        0.83077         -0.46157        0.809865        -0.505796       0.0895321       0.183882        0.0416545       0.208139        0.918884        -0.281249      
  2.1e+010        1.3962e-005     1.696e-008      0.659516        -0.669264       0.135143        0.162733        0.0973544       0.196701        0.814674        -0.477119       0.793161        -0.524022       0.0975115       0.189855        0.0506986       0.216403        0.911553        -0.293151      
  2.2e+010        1.3962e-005     1.696e-008      0.633746        -0.686841       0.145025        0.164206        0.108245        0.197739        0.798618        -0.494913       0.776009        -0.541461       0.106023        0.195588        0.0600146       0.221731        0.904714        -0.304961      
  2.3e+010        1.3962e-005     1.696e-008      0.607986        -0.703644       0.154323        0.164842        0.118847        0.199818        0.787631        -0.512342       0.75855         -0.558485       0.113851        0.200164        0.0685046       0.227788        0.898143        -0.314966      
  2.4e+010        1.3962e-005     1.696e-008      0.58271         -0.720274       0.162598        0.165245        0.129119        0.200726        0.778958        -0.519985       0.741825        -0.574923       0.121446        0.203552        0.0777971       0.231943        0.890626        -0.322595      
  2.5e+010        1.3962e-005     1.696e-008      0.555489        -0.73569        0.17196         0.167722        0.138804        0.203631        0.77681         -0.525806       0.723868        -0.590544       0.129884        0.208006        0.086564        0.236866        0.881529        -0.333128      
  2.6e+010        1.3962e-005     1.696e-008      0.52993         -0.749002       0.183832        0.165726        0.152541        0.203193        0.752841        -0.552031       0.705929        -0.605454       0.139913        0.211321        0.0974744       0.241924        0.868753        -0.344349      
  2.7e+010        1.3962e-005     1.696e-008      0.502539        -0.761478       0.191835        0.164212        0.162254        0.202475        0.719584        -0.567046       0.686631        -0.620081       0.148483        0.216447        0.107184        0.248294        0.863139        -0.357089      
  2.8e+010        1.3962e-005     1.696e-008      0.476454        -0.772257       0.201041        0.16226         0.172491        0.199778        0.699418        -0.588703       0.667959        -0.633304       0.15708         0.221008        0.116035        0.25208         0.856366        -0.3693        
  2.9e+010        1.3962e-005     1.696e-008      0.450783        -0.78287        0.208018        0.160418        0.180647        0.198984        0.688188        -0.599103       0.649592        -0.646466       0.164004        0.223557        0.12334         0.255895        0.851293        -0.375209      
  3e+010          1.3962e-005     1.696e-008      0.42438         -0.790789       0.216252        0.159577        0.190187        0.197943        0.679831        -0.60643        0.630227        -0.657457       0.172589        0.226166        0.133152        0.25877         0.844321        -0.383024      
  3.1e+010        1.3962e-005     1.696e-008      0.397195        -0.800168       0.224531        0.156692        0.200221        0.195154        0.663806        -0.615339       0.611456        -0.669483       0.181408        0.227638        0.143579        0.260635        0.834335        -0.392282      
  3.2e+010        1.3962e-005     1.696e-008      0.373101        -0.806329       0.233201        0.153896        0.209878        0.192062        0.644954        -0.626805       0.59305         -0.679435       0.191076        0.22983         0.153953        0.263142        0.825632        -0.402382      
  3.3e+010        1.3962e-005     1.696e-008      0.346617        -0.811129       0.241181        0.150837        0.218731        0.189924        0.630309        -0.639911       0.572503        -0.688963       0.199671        0.231803        0.162956        0.265976        0.818812        -0.411506      
  3.4e+010        1.3962e-005     1.696e-008      0.320234        -0.815219       0.249008        0.147006        0.228592        0.18623         0.616975        -0.648839       0.552533        -0.698029       0.20864         0.232493        0.173361        0.26759         0.81078         -0.418842      
  3.5e+010        1.3962e-005     1.696e-008      0.297357        -0.819698       0.255707        0.142826        0.236961        0.182076        0.601645        -0.657127       0.53495         -0.706273       0.217023        0.232513        0.183259        0.268307        0.801676        -0.426718      
  3.6e+010        1.3962e-005     1.696e-008      0.273756        -0.821827       0.262487        0.138638        0.243624        0.177483        0.582316        -0.66594        0.516417        -0.712794       0.225817        0.232959        0.191781        0.268576        0.792121        -0.434681      
  3.7e+010        1.3962e-005     1.696e-008      0.252287        -0.823741       0.268771        0.134468        0.250668        0.174026        0.568604        -0.676498       0.498927        -0.718906       0.23328         0.232813        0.199375        0.269047        0.785074        -0.443088      
  3.8e+010        1.3962e-005     1.696e-008      0.230235        -0.82507        0.27519         0.129818        0.260242        0.169795        0.553503        -0.684107       0.480642        -0.724919       0.241352        0.232136        0.21051         0.269762        0.776738        -0.449764      
  3.9e+010        1.3962e-005     1.696e-008      0.207132        -0.826441       0.280523        0.12514         0.266121        0.163277        0.536643        -0.690849       0.461893        -0.730889       0.248994        0.231628        0.219037        0.267424        0.767346        -0.457155      
  4e+010          1.3962e-005     1.696e-008      0.18756         -0.828227       0.286363        0.1204          0.271871        0.159229        0.520665        -0.699883       0.446577        -0.736058       0.256525        0.231343        0.22585         0.267914        0.759259        -0.464823      
  4.1e+010        1.3962e-005     1.696e-008      0.165728        -0.830219       0.292025        0.116299        0.279307        0.155326        0.504536        -0.707163       0.428448        -0.742493       0.263937        0.231204        0.235258        0.26842         0.750553        -0.471968      
  4.2e+010        1.3962e-005     1.696e-008      0.144701        -0.827788       0.297788        0.110731        0.285392        0.148321        0.488248        -0.711794       0.410781        -0.74528        0.271847        0.229975        0.242676        0.265931        0.741097        -0.477575      
  4.3e+010        1.3962e-005     1.696e-008      0.123151        -0.828206       0.302647        0.10515         0.29105         0.143733        0.472772        -0.717208       0.39299         -0.750585       0.279671        0.228265        0.251737        0.265779        0.732482        -0.483987      
  4.4e+010        1.3962e-005     1.696e-008      0.106788        -0.828628       0.306937        0.100836        0.297481        0.138487        0.457562        -0.722084       0.379273        -0.754162       0.286302        0.227754        0.260716        0.265241        0.723902        -0.49002       
  4.5e+010        1.3962e-005     1.696e-008      0.0869866       -0.827534       0.312536        0.0961137       0.302904        0.133928        0.44234         -0.729173       0.362351        -0.75722        0.293856        0.227269        0.267468        0.264978        0.715942        -0.496572      
  4.6e+010        1.3962e-005     1.696e-008      0.0688291       -0.827106       0.317653        0.0901897       0.30901         0.128635        0.427652        -0.732081       0.34752         -0.761035       0.301808        0.225233        0.276082        0.263807        0.706684        -0.501679      
  4.7e+010        1.3962e-005     1.696e-008      0.0478737       -0.825234       0.32165         0.0841812       0.315039        0.122465        0.411976        -0.734941       0.329643        -0.764575       0.309429        0.222969        0.28516         0.262312        0.697626        -0.506975      
  4.8e+010        1.3962e-005     1.696e-008      0.030692        -0.825486       0.326442        0.078784        0.320189        0.115146        0.396631        -0.741443       0.315611        -0.767576       0.317007        0.222214        0.294248        0.259693        0.689436        -0.513187      
