! VERSION = 6.00
!Data measured by ggf on Tue Jan 23 13:39:52 2018 using model file NPN_MEAS_SCALE
BEGIN_HEADER
 ICCAP_INPUTS
  vbe        V  B GROUND SMU_B 0.015 LIN        2    0.6        -1.8       25   -0.1      
  vc         V  C GROUND SMU_C 0.015 CON        0
  ve         V  E GROUND SMU_E 0 CON        0
  vs         V  S GROUND SMU_S 0 CON        0
  freq       F  LIST       1 74 100000000 200000000 300000000 400000000 500000000 600000000 700000000 800000000 900000000 1000000000 2000000000 3000000000 4000000000 5000000000 6000000000 7000000000 8000000000 9000000000 10000000000 11000000000 12000000000 13000000000 14000000000 15000000000 16000000000 17000000000 18000000000 19000000000 20000000000 21000000000 22000000000 23000000000 24000000000 25000000000 26000000000 27000000000 28000000000 29000000000 30000000000 31000000000 32000000000 33000000000 34000000000 35000000000 36000000000 37000000000 38000000000 39000000000 40000000000 41000000000 42000000000 43000000000 44000000000 45000000000 46000000000 47000000000 48000000000 49000000000 50000000000 51000000000 52000000000 53000000000 54000000000 55000000000 56000000000 57000000000 58000000000 59000000000 60000000000 61000000000 62000000000 63000000000 64000000000 65000000000
 ICCAP_OUTPUTS
  S          S  B C GROUND NWA M
  ib         I  B GROUND SMU_B M
  S_deemb    S B C GROUND n/a B
 ICCAP_VALUES
  TNOM "27"
  TEMP "27"
  TECHNO "SG13G2"
  LOT "EDJ802"
  WAFER "02"
  CHIP "(3.3)"
  MODULE "S439S"
  DEV_NAME "D12"
  DEV_GEOM_L "5.0"
  DEV_GEOM_W "0.07"
  NUM_OF_TRANS_RF "2"
  REMARKS "Nx=1; Power -30/-20dBm, Slope: 0.1dB/GHz"
  TIMEDATE "Tue Jan 23 13:21:27     2018"
  OPERATOR "ggf"
END_HEADER

BEGIN_DB
 ICCAP_VAR vbe        0.6            
 ICCAP_VAR vc         0              
 ICCAP_VAR ve         0              
 ICCAP_VAR vs         0              

 #freq            R:S(1,1)        I:S(1,1)        R:S(1,2)        I:S(1,2)        R:S(2,1)        I:S(2,1)        R:S(2,2)        I:S(2,2)        ib              R:S_deemb(1,1)  I:S_deemb(1,1)  R:S_deemb(1,2)  I:S_deemb(1,2)  R:S_deemb(2,1)  I:S_deemb(2,1)  R:S_deemb(2,2)  I:S_deemb(2,2) 
  1e+008          0.999443        -0.00417545     9.2688e-005     0.00158407      0.000140244     0.00161412      0.994722        -0.00302785     1.2126e-007     0.999466        -0.00287549     8.08892e-005    0.00146436      7.61567e-006    0.00151782      0.994761        -0.00161699    
  2e+008          1.00035         -0.0087424      0.000187616     0.00312284      0.000271885     0.0032362       0.994749        -0.00613786     1.2126e-007     1.00034         -0.00636623     0.000223868     0.00297407      0.000196422     0.00320499      0.99482         -0.00376109    
  3e+008          1.00005         -0.0127124      0.000241358     0.00475501      0.000237795     0.00477361      0.994797        -0.00943967     1.2126e-007     0.999959        -0.00938223     0.000218513     0.0045464       0.000253345     0.00462584      0.994678        -0.00597768    
  4e+008          1.00013         -0.0170951      0.000269703     0.00637528      0.000234249     0.00627834      0.994489        -0.0127991      1.2126e-007     0.999859        -0.0126096      0.000254041     0.00614799      0.000164366     0.00600824      0.994641        -0.00820161    
  5e+008          0.999938        -0.0213984      0.000341315     0.00794048      0.000363061     0.00786153      0.994431        -0.0159038      1.2126e-007     0.999643        -0.0152508      0.000302425     0.00765471      0.000274831     0.00760332      0.994487        -0.0102761     
  6e+008          0.999753        -0.0258994      0.000436416     0.00949965      0.000316417     0.00933546      0.994397        -0.018959       1.2126e-007     0.999854        -0.0190196      0.000339661     0.00912929      0.000306857     0.00895114      0.994411        -0.0122362     
  7e+008          0.999612        -0.0301354      0.000485229     0.0110893       0.00055137      0.0109913       0.994375        -0.0223505      1.2126e-007     0.99963         -0.0224044      0.000401594     0.0107017       0.000461014     0.0105534       0.994441        -0.0144769     
  8e+008          0.999376        -0.0344231      0.000578487     0.0126474       0.00055158      0.0126435       0.994502        -0.0255407      1.2126e-007     0.999488        -0.0253623      0.000451937     0.0121836       0.000457745     0.0121926       0.994593        -0.0166133     
  9e+008          0.999259        -0.0386349      0.000692099     0.0142303       0.000573097     0.0141515       0.994255        -0.0288273      1.2126e-007     0.999338        -0.028601       0.000496664     0.0136892       0.000372367     0.0136534       0.994478        -0.0187678     
  1e+009          0.998801        -0.0428922      0.000817269     0.0158019       0.000876932     0.0156134       0.994034        -0.0320089      1.2126e-007     0.99916         -0.0316457      0.000633304     0.0152515       0.000657081     0.0150429       0.994305        -0.0208595     
  2e+009          0.995547        -0.0856426      0.00267804      0.0314076       0.00273174      0.0311239       0.99164         -0.0634234      1.2126e-007     0.997165        -0.0633576      0.00193566      0.0302845       0.00191997      0.0300222       0.992859        -0.041168      
  3e+009          0.989582        -0.127942       0.00588242      0.0468017       0.00574673      0.0464425       0.986673        -0.093728       1.2126e-007     0.993636        -0.094772       0.00415713      0.0452835       0.00407299      0.0449453       0.989458        -0.0608487     
  4e+009          0.981689        -0.169487       0.010041        0.061775        0.00999216      0.0613327       0.981307        -0.123627       1.2126e-007     0.988696        -0.125831       0.0070186       0.0599805       0.00703798      0.0595888       0.986283        -0.0801742     
  5e+009          0.971492        -0.210359       0.0154004       0.0763851       0.0152743       0.0758797       0.974723        -0.152986       1.2126e-007     0.982502        -0.156522       0.0107153       0.0745353       0.0106799       0.0739695       0.98239         -0.0990363     
  6e+009          0.959761        -0.249517       0.021746        0.0903938       0.021454        0.0897285       0.966768        -0.181813       1.2126e-007     0.975364        -0.186072       0.0151411       0.0886956       0.01496         0.0879863       0.977901        -0.117435      
  7e+009          0.945324        -0.289632       0.0292117       0.103946        0.0289611       0.10316         0.958175        -0.209891       1.2126e-007     0.966715        -0.216544       0.0203823       0.102715        0.0201525       0.101842        0.972889        -0.135646      
  8e+009          0.92966         -0.326826       0.0375344       0.116642        0.0369937       0.115985        0.948452        -0.23702        1.2126e-007     0.956732        -0.245045       0.026275        0.116108        0.0258238       0.115457        0.967457        -0.153339      
  9e+009          0.912198        -0.363329       0.0468469       0.12886         0.0459292       0.127772        0.93713         -0.263925       1.2126e-007     0.946051        -0.274099       0.0330215       0.12945         0.0321536       0.128292        0.960968        -0.170951      
  1e+010          0.892963        -0.400353       0.0566204       0.139532        0.0564343       0.138834        0.926397        -0.289933       1.2126e-007     0.934094        -0.301942       0.0398765       0.141532        0.0398381       0.140821        0.955432        -0.18776       
  1.1e+010        0.872249        -0.433287       0.0674133       0.150525        0.066277        0.149454        0.913244        -0.315259       1.2126e-007     0.921104        -0.32969        0.0478729       0.154322        0.0469078       0.153119        0.947653        -0.204866      
  1.2e+010        0.850123        -0.465571       0.078727        0.159977        0.0781957       0.158874        0.90015         -0.339633       1.2126e-007     0.907062        -0.355192       0.0560971       0.165949        0.0556719       0.164712        0.94044         -0.221126      
  1.3e+010        0.826806        -0.496106       0.0905313       0.168787        0.0897258       0.167403        0.885273        -0.362698       1.2126e-007     0.892038        -0.380564       0.0649165       0.177402        0.0642828       0.175984        0.932177        -0.236947      
  1.4e+010        0.802498        -0.525182       0.103224        0.176309        0.102323        0.17547         0.871012        -0.385504       1.2126e-007     0.87632         -0.404884       0.0746222       0.188115        0.0738268       0.187078        0.924201        -0.252566      
  1.5e+010        0.777581        -0.55192        0.115694        0.182274        0.114696        0.180833        0.856875        -0.406734       1.2126e-007     0.859552        -0.427842       0.0844441       0.19744         0.0836473       0.19577         0.916443        -0.26703       
  1.6e+010        0.751927        -0.578031       0.129069        0.188416        0.127091        0.186901        0.840216        -0.427557       1.2126e-007     0.842834        -0.450352       0.095064        0.207417        0.0932957       0.205417        0.906114        -0.281923      
  1.7e+010        0.7253          -0.601789       0.141955        0.192434        0.139869        0.191082        0.824527        -0.447149       1.2126e-007     0.824782        -0.471922       0.105666        0.215537        0.103744        0.213828        0.897981        -0.295663      
  1.8e+010        0.698329        -0.6244         0.155538        0.196427        0.152778        0.195105        0.806811        -0.466773       1.2126e-007     0.80651         -0.49255        0.116965        0.22417         0.114389        0.222121        0.887341        -0.30996       
  1.9e+010        0.671776        -0.644395       0.167748        0.198936        0.166694        0.197432        0.791676        -0.485424       1.2126e-007     0.787787        -0.51136        0.127045        0.231095        0.126147        0.229286        0.878752        -0.322445      
  2e+010          0.644249        -0.663756       0.181151        0.200677        0.177953        0.199179        0.773847        -0.500614       1.2126e-007     0.769233        -0.5299         0.139029        0.237799        0.136036        0.235575        0.867773        -0.334414      
  2.1e+010        0.617172        -0.681712       0.193562        0.201596        0.191826        0.200626        0.755384        -0.515514       1.2126e-007     0.749993        -0.547195       0.150396        0.243884        0.148692        0.242487        0.857712        -0.346801      
  2.2e+010        0.589878        -0.697238       0.205732        0.201462        0.203448        0.200296        0.737971        -0.532623       1.2126e-007     0.730446        -0.563099       0.161704        0.249146        0.159613        0.247435        0.849305        -0.358975      
  2.3e+010        0.562951        -0.711984       0.218361        0.20098         0.215411        0.200347        0.723317        -0.549475       1.2126e-007     0.710904        -0.578603       0.173179        0.253981        0.170297        0.252644        0.839106        -0.369859      
  2.4e+010        0.535984        -0.726592       0.228839        0.199789        0.226333        0.199165        0.713231        -0.555759       1.2126e-007     0.691738        -0.59366        0.183429        0.256542        0.180968        0.255219        0.829782        -0.376411      
  2.5e+010        0.50838         -0.739639       0.241524        0.201219        0.238344        0.200647        0.707276        -0.561878       1.2126e-007     0.672756        -0.607321       0.195383        0.260579        0.192239        0.259199        0.816964        -0.387157      
  2.6e+010        0.482079        -0.751055       0.256843        0.196722        0.252487        0.197133        0.67947         -0.585169       1.2126e-007     0.653149        -0.620372       0.209437        0.26289         0.204682        0.26227         0.800171        -0.397437      
  2.7e+010        0.453303        -0.760894       0.266726        0.193031        0.263949        0.193643        0.645412        -0.598879       1.2126e-007     0.631464        -0.632388       0.221123        0.267248        0.218328        0.267104        0.792406        -0.4108        
  2.8e+010        0.427444        -0.769307       0.277853        0.188486        0.273746        0.188498        0.623534        -0.618037       1.2126e-007     0.611569        -0.64324        0.232829        0.270827        0.228483        0.269613        0.78303         -0.422627      
  2.9e+010        0.401189        -0.777557       0.286467        0.184798        0.282693        0.185601        0.610847        -0.627523       1.2126e-007     0.591399        -0.654245       0.242198        0.272598        0.237858        0.272273        0.776108        -0.428771      
  3e+010          0.374919        -0.783494       0.296157        0.181863        0.292696        0.182345        0.601274        -0.633417       1.2126e-007     0.571359        -0.663314       0.252904        0.273716        0.248993        0.273294        0.767547        -0.435361      
  3.1e+010        0.348283        -0.790725       0.305609        0.176681        0.303222        0.177           0.583805        -0.64043        1.2126e-007     0.5522          -0.673029       0.26384         0.273566        0.26123         0.273095        0.755277        -0.443314      
  3.2e+010        0.324164        -0.794446       0.315539        0.171636        0.31236         0.171695        0.563675        -0.650137       1.2126e-007     0.532639        -0.680239       0.275907        0.274251        0.272535        0.273541        0.744307        -0.452649      
  3.3e+010        0.298205        -0.797244       0.325459        0.166349        0.321258        0.167592        0.54692         -0.661448       1.2126e-007     0.511547        -0.687321       0.287553        0.274966        0.282832        0.274857        0.734641        -0.461229      
  3.4e+010        0.272061        -0.79839        0.334291        0.159937        0.331012        0.161119        0.532431        -0.668846       1.2126e-007     0.490516        -0.693105       0.298574        0.273648        0.294516        0.273924        0.724914        -0.467669      
  3.5e+010        0.249994        -0.801216       0.341619        0.153758        0.338826        0.154415        0.515932        -0.675495       1.2126e-007     0.472917        -0.699162       0.308549        0.272081        0.30524         0.272028        0.713902        -0.474491      
  3.6e+010        0.227357        -0.801845       0.348999        0.147037        0.345286        0.148328        0.495923        -0.682134       1.2126e-007     0.454643        -0.70337        0.319209        0.270337        0.314784        0.270855        0.702513        -0.480926      
  3.7e+010        0.205793        -0.801752       0.356519        0.140532        0.352505        0.143122        0.480388        -0.691001       1.2126e-007     0.436095        -0.707213       0.328956        0.268494        0.323576        0.269976        0.69298         -0.488742      
  3.8e+010        0.184495        -0.801543       0.363143        0.133607        0.361331        0.135497        0.465139        -0.696485       1.2126e-007     0.417948        -0.711017       0.338192        0.265722        0.335495        0.267038        0.683717        -0.493625      
  3.9e+010        0.163176        -0.801451       0.368759        0.126804        0.365657        0.128039        0.447982        -0.701444       1.2126e-007     0.400438        -0.71467        0.347138        0.263423        0.343196        0.263495        0.673137        -0.499681      
  4e+010          0.144           -0.802509       0.375505        0.119535        0.372062        0.122679        0.430536        -0.708226       1.2126e-007     0.384986        -0.718657       0.356831        0.261118        0.351798        0.263195        0.662424        -0.506046      
  4.1e+010        0.122737        -0.8029         0.381508        0.11334         0.379072        0.115053        0.41339         -0.713926       1.2126e-007     0.366803        -0.722779       0.365626        0.259096        0.362583        0.259707        0.651914        -0.512257      
  4.2e+010        0.104098        -0.798722       0.386971        0.105323        0.383773        0.106507        0.397112        -0.716217       1.2126e-007     0.350944        -0.722686       0.374291        0.255502        0.369601        0.255462        0.641384        -0.515982      
  4.3e+010        0.0821614       -0.79809        0.391846        0.0978274       0.388335        0.100856        0.381426        -0.720064       1.2126e-007     0.332206        -0.726601       0.383205        0.251888        0.378365        0.253738        0.631683        -0.521053      
  4.4e+010        0.067728        -0.796699       0.396208        0.0915091       0.394036        0.0924397       0.36576         -0.722988       1.2126e-007     0.31989         -0.727121       0.390915        0.24942         0.388252        0.249589        0.62152         -0.525404      
  4.5e+010        0.0491236       -0.794612       0.401887        0.0845924       0.39791         0.0867491       0.350344        -0.728275       1.2126e-007     0.303795        -0.728316       0.399618        0.246856        0.394267        0.247724        0.612439        -0.530623      
  4.6e+010        0.0311876       -0.793131       0.406966        0.0765443       0.403883        0.080712        0.335461        -0.729334       1.2126e-007     0.288709        -0.730659       0.408576        0.242641        0.403406        0.24582         0.602002        -0.534021      
  4.7e+010        0.0116269       -0.789508       0.410809        0.0686578       0.40913         0.0721881       0.319985        -0.730497       1.2126e-007     0.271734        -0.731254       0.417016        0.238279        0.413045        0.24133         0.592116        -0.537475      
  4.8e+010        -0.00404508     -0.789302       0.415196        0.0615803       0.412977        0.0624865       0.305181        -0.735106       1.2126e-007     0.259245        -0.732817       0.424964        0.235834        0.422008        0.235829        0.58361         -0.541743      
  4.9e+010        -0.0202823      -0.786054       0.418698        0.0528295       0.415683        0.0555006       0.293321        -0.736359       1.2126e-007     0.244257        -0.733915       0.432254        0.229807        0.427528        0.231389        0.575631        -0.544681      
  5e+010          -0.0380274      -0.785264       0.423662        0.0445248       0.421743        0.0495162       0.277619        -0.737419       1.2126e-007     0.229663        -0.736506       0.441679        0.225538        0.437465        0.229964        0.56454         -0.548219      
  5.1e+010        -0.0543636      -0.778942       0.425889        0.0361095       0.423234        0.038644        0.264434        -0.73927        1.2126e-007     0.215606        -0.733878       0.448622        0.220076        0.44448         0.221858        0.556335        -0.551027      
  5.2e+010        -0.0697699      -0.776104       0.428078        0.0264787       0.423416        0.0303415       0.250125        -0.741753       1.2126e-007     0.202764        -0.73416        0.456302        0.214238        0.449102        0.216648        0.546615        -0.554775      
