! VERSION = 6.00
!Data measured by ggf on Tue Jan 23 15:39:01 2018 using model file NPN_MEAS_SCALE
BEGIN_HEADER
 ICCAP_INPUTS
  ve         V  E GROUND SMU_E 0.2 CON        0
  vc         V  C GROUND SMU_C 0.2 SYNC       1 2 vb
  vs         V  S GROUND SMU_S 0.015 CON        0
  vb         V  B GROUND SMU_B 0.015 LIN        1    -1         1          101  0.02      
 ICCAP_OUTPUTS
  ib         I  B GROUND SMU_B M
  ic         I  C GROUND SMU_C M
 ICCAP_VALUES
  TNOM "27"
  TEMP "27"
  TECHNO "SG13G2"
  LOT "EDJ802"
  WAFER "02"
  CHIP "(3.3)"
  MODULE "S439S"
  DEV_NAME "D04"
  DEV_GEOM_L "2.5"
  DEV_GEOM_W "0.07"
  NUM_OF_TRANS_RF "1"
  REMARKS "Nx=4; Power -30/-20dBm, Slope: 0.1dB/GHz"
  TIMEDATE "Tue Jan 23 14:27:30     2018"
  OPERATOR "ggf"
END_HEADER

BEGIN_DB
 ICCAP_VAR ve         0              
 ICCAP_VAR vs         0              

 #vb              vc              ib              ic             
  -1              1               -1.6674e-006    8.928e-009     
  -0.98           1.02            -1.4794e-006    1.5208e-009    
  -0.96           1.04            -1.3092e-006    8.554e-010     
  -0.94           1.06            -1.158e-006     7.406e-010     
  -0.92           1.08            -1.0202e-006    -5.276e-010    
  -0.9            1.1             -8.982e-007     -4.948e-010    
  -0.88           1.12            -7.885e-007     -7.314e-010    
  -0.86           1.14            -6.9032e-007    -5.706e-010    
  -0.84           1.16            -6.0308e-007    -7.018e-010    
  -0.82           1.18            -5.2504e-007    -7.344e-010    
  -0.8            1.2             -4.5636e-007    2.698e-010     
  -0.78           1.22            -3.953e-007     -6.444e-010    
  -0.76           1.24            -3.4168e-007    -1.0206e-009   
  -0.74           1.26            -2.944e-007     -8.114e-010    
  -0.72           1.28            -2.5274e-007    -5.628e-010    
  -0.7            1.3             -2.164e-007     4.5e-011       
  -0.68           1.32            -1.8448e-007    -2.026e-010    
  -0.66           1.34            -1.5708e-007    -3.498e-010    
  -0.64           1.36            -1.329e-007     -2.41e-010     
  -0.62           1.38            -1.123e-007     3.248e-010     
  -0.6            1.4             -9.4662e-008    -6.178e-010    
  -0.58           1.42            -7.936e-008     5.898e-010     
  -0.56           1.44            -6.6206e-008    -8.598e-010    
  -0.54           1.46            -5.5052e-008    -8.004e-010    
  -0.52           1.48            -4.5568e-008    -6.83e-010     
  -0.5            1.5             -3.7504e-008    5.67e-010      
  -0.48           1.52            -3.0754e-008    -8.458e-010    
  -0.46           1.54            -2.5056e-008    -4.356e-010    
  -0.44           1.56            -2.0352e-008    -5.138e-010    
  -0.42           1.58            -1.6396e-008    5.554e-010     
  -0.4            1.6             -1.3148e-008    9e-011         
  -0.38           1.62            -1.049e-008     -4.18e-010     
  -0.36           1.64            -8.2916e-009    -7.944e-010    
  -0.34           1.66            -6.5176e-009    6.402e-010     
  -0.32           1.68            -5.074e-009     -8.546e-010    
  -0.3            1.7             -3.923e-009     6.42e-010      
  -0.28           1.72            -3.0018e-009    -1.93e-010     
  -0.26           1.74            -2.2814e-009    4.554e-010     
  -0.24           1.76            -1.7106e-009    -8.048e-010    
  -0.22           1.78            -1.2758e-009    -1.428e-010    
  -0.2            1.8             -9.392e-010     -7.106e-010    
  -0.18           1.82            -6.861e-010     -8.776e-010    
  -0.16           1.84            -4.9572e-010    -5.446e-010    
  -0.14           1.86            -3.5364e-010    -4.552e-010    
  -0.12           1.88            -2.5288e-010    -7.24e-010     
  -0.1            1.9             -1.7996e-010    -6.744e-010    
  -0.08           1.92            -1.263e-010     3.95e-010      
  -0.06           1.94            -9.29e-011      -8.86e-011     
  -0.04           1.96            -7.482e-011     -3.656e-010    
  -0.02           1.98            -5.938e-011     -4.494e-010    
  0               2               -4.862e-011     -1.0686e-009   
  0.02            2.02            -4.442e-011     -8.616e-010    
  0.04            2.04            -4.336e-011     -1.1424e-009   
  0.06            2.06            -4.266e-011     -5.004e-010    
  0.08            2.08            -4.142e-011     1.93e-010      
  0.1             2.1             -4.15e-011      -7.488e-010    
  0.12            2.12            -4.082e-011     7.46e-010      
  0.14            2.14            -4.192e-011     -6.432e-010    
  0.16            2.16            -4.544e-011     -2.2e-011      
  0.18            2.18            -4.518e-011     -6.85e-010     
  0.2             2.2             -4.58e-011      -4.932e-010    
  0.22            2.22            -4.36e-011      -1.92e-010     
  0.24            2.24            -4.6e-011       -5.97e-010     
  0.26            2.26            -4.48e-011      -2.938e-010    
  0.28            2.28            -4.404e-011     -4.374e-010    
  0.3             2.3             -4.368e-011     -1.1766e-009   
  0.32            2.32            -4.666e-011     -1.5724e-009   
  0.34            2.34            -4.56e-011      -4.374e-010    
  0.36            2.36            -4.34e-011      -1.2842e-009   
  0.38            2.38            -4.332e-011     2.568e-010     
  0.4             2.4             -4.354e-011     1.8684e-009    
  0.42            2.42            -4.272e-011     2.39e-010      
  0.44            2.44            -3.818e-011     1.6206e-009    
  0.46            2.46            -3.924e-011     3.2756e-009    
  0.48            2.48            -3.68e-011      1.0458e-008    
  0.5             2.5             -3.122e-011     2.0244e-008    
  0.52            2.52            -3.954e-011     4.3932e-008    
  0.54            2.54            -6.388e-011     9.2568e-008    
  0.56            2.56            -1.2162e-010    1.9478e-007    
  0.58            2.58            -2.512e-010     4.1698e-007    
  0.6             2.6             -5.7004e-010    8.9192e-007    
  0.62            2.62            -1.2958e-009    1.9204e-006    
  0.64            2.64            -2.9008e-009    4.1118e-006    
  0.66            2.66            -6.445e-009     8.7986e-006    
  0.68            2.68            -1.4234e-008    1.8874e-005    
  0.7             2.7             -3.0508e-008    4.0202e-005    
  0.72            2.72            -6.446e-008     8.578e-005     
  0.74            2.74            -1.3264e-007    0.00018176     
  0.76            2.76            -2.5596e-007    0.00038302     
  0.78            2.78            -4.4388e-007    0.00080142     
  0.8             2.8             -6.1454e-007    0.0016422      
  0.82            2.82            -4.9976e-007    0.0032786      
  0.84            2.84            -3.913e-007     0.0061932      
  0.86            2.86            -2.3296e-006    0.0105134      
  0.88            2.88            2.104e-005      0.013124       
  0.9             2.9             8.3646e-005     0.015284       
  0.92            2.92            0.00021092      0.018316       
  0.94            2.94            0.00044516      0.022546       
  0.96            2.96            0.00085434      0.02797        
  0.98            2.98            0.0015156       0.03426        
  1               3               0.002501        0.041072       
END_DB

