! VERSION = 6.00
!Data measured by ggf on Tue Jan 23 15:04:55 2018 using model file NPN_MEAS_SCALE
BEGIN_HEADER
 ICCAP_INPUTS
  ve         V  E GROUND SMU_E 0.2 CON        0
  vc         V  C GROUND SMU_C 0.2 LIN        2    0.5        2.5        5    0.5       
  vs         V  S GROUND SMU_S 0.015 CON        0
  vb         V  B GROUND SMU_B 0.015 LIN        1    0.4        1          31   0.02      
 ICCAP_OUTPUTS
  ib         I  B GROUND SMU_B M
  ic         I  C GROUND SMU_C M
 ICCAP_VALUES
  TNOM "27"
  TEMP "27"
  TECHNO "SG13G2"
  LOT "EDJ802"
  WAFER "02"
  CHIP "(3.3)"
  MODULE "S439S"
  DEV_NAME "D04"
  DEV_GEOM_L "2.5"
  DEV_GEOM_W "0.07"
  NUM_OF_TRANS_RF "1"
  REMARKS "Nx=4; Power -30/-20dBm, Slope: 0.1dB/GHz"
  TIMEDATE "Tue Jan 23 14:27:30     2018"
  OPERATOR "ggf"
END_HEADER

BEGIN_DB
 ICCAP_VAR ve         0              
 ICCAP_VAR vc         0.5            
 ICCAP_VAR vs         0              

 #vb              ib              ic             
  0.4             1.7988e-010     1.38e-009      
  0.42            1.0832e-010     1.8304e-009    
  0.44            8.472e-011      2.528e-009     
  0.46            7.688e-011      4.7812e-009    
  0.48            8.108e-011      9.416e-009     
  0.5             9.258e-011      1.9898e-008    
  0.52            1.3288e-010     4.1904e-008    
  0.54            2.2334e-010     8.9738e-008    
  0.56            4.012e-010      1.9312e-007    
  0.58            7.8382e-010     4.1344e-007    
  0.6             1.5594e-009     8.8628e-007    
  0.62            3.1686e-009     1.909e-006     
  0.64            6.5054e-009     4.0876e-006    
  0.66            1.3454e-008     8.739e-006     
  0.68            2.7992e-008     1.8704e-005    
  0.7             5.8184e-008     3.9784e-005    
  0.72            1.2104e-007     8.4434e-005    
  0.74            2.517e-007      0.00017732     
  0.76            5.1956e-007     0.000367       
  0.78            1.0608e-006     0.00074314     
  0.8             2.116e-006      0.0014402      
  0.82            4.5134e-006     0.0025946      
  0.84            1.5474e-005     0.0036262      
  0.86            4.1438e-005     0.004403       
  0.88            8.7888e-005     0.005378       
  0.9             0.00016398      0.0066606      
  0.92            0.00028326      0.008298       
  0.94            0.00045954      0.0102646      
  0.96            0.00071284      0.012548       
  0.98            0.00106054      0.015042       
  1               0.0015422       0.017618       
END_DB

BEGIN_DB
 ICCAP_VAR ve         0              
 ICCAP_VAR vc         1              
 ICCAP_VAR vs         0              

 #vb              ib              ic             
  0.4             -6.94e-012      2.0246e-009    
  0.42            5.74e-012       2.0264e-009    
  0.44            1.582e-011      2.6406e-009    
  0.46            2.322e-011      4.8792e-009    
  0.48            3.35e-011       9.5566e-009    
  0.5             5.412e-011      2.0078e-008    
  0.52            1.0232e-010     4.1978e-008    
  0.54            1.8846e-010     9.0006e-008    
  0.56            3.6464e-010     1.9358e-007    
  0.58            7.274e-010      4.1442e-007    
  0.6             1.4678e-009     8.8806e-007    
  0.62            3.0088e-009     1.9122e-006    
  0.64            6.2196e-009     4.0954e-006    
  0.66            1.2906e-008     8.7576e-006    
  0.68            2.7006e-008     1.8766e-005    
  0.7             5.6442e-008     3.9912e-005    
  0.72            1.1836e-007     8.4816e-005    
  0.74            2.471e-007      0.00017852     
  0.76            5.1276e-007     0.000371       
  0.78            1.052e-006      0.00075656     
  0.8             2.0986e-006     0.001484       
  0.82            4.0626e-006     0.002763       
  0.84            8.069e-006      0.004686       
  0.86            2.5062e-005     0.006064       
  0.88            6.3114e-005     0.0070708      
  0.9             0.00012944      0.0083574      
  0.92            0.00023694      0.0101066      
  0.94            0.00039774      0.012308       
  0.96            0.00063034      0.014956       
  0.98            0.00094594      0.017962       
  1               0.001361        0.02131        
END_DB

BEGIN_DB
 ICCAP_VAR ve         0              
 ICCAP_VAR vc         1.5            
 ICCAP_VAR vs         0              

 #vb              ib              ic             
  0.4             -1.1e-011       2.2042e-009    
  0.42            -8.2e-013       2.2416e-009    
  0.44            5.92e-012       2.8426e-009    
  0.46            1.524e-011      5.0408e-009    
  0.48            2.818e-011      9.5702e-009    
  0.5             4.576e-011      2.0218e-008    
  0.52            8.966e-011      4.2154e-008    
  0.54            1.731e-010      9.0088e-008    
  0.56            3.3232e-010     1.9366e-007    
  0.58            6.7546e-010     4.1468e-007    
  0.6             1.378e-009      8.889e-007     
  0.62            2.8304e-009     1.9144e-006    
  0.64            5.8858e-009     4.0996e-006    
  0.66            1.2248e-008     8.7692e-006    
  0.68            2.5784e-008     1.8796e-005    
  0.7             5.4098e-008     3.9996e-005    
  0.72            1.1404e-007     8.5086e-005    
  0.74            2.3962e-007     0.00017948     
  0.76            5.0126e-007     0.00037434     
  0.78            1.0412e-006     0.00076874     
  0.8             2.1116e-006     0.0015246      
  0.82            4.174e-006      0.002886       
  0.84            7.9574e-006     0.005061       
  0.86            1.861e-005      0.007443       
  0.88            5.0488e-005     0.00871        
  0.9             0.000111086     0.0100568      
  0.92            0.00021424      0.011908       
  0.94            0.0003735       0.014348       
  0.96            0.0006079       0.017354       
  0.98            0.00093264      0.020804       
  1               0.0013686       0.024664       
END_DB

BEGIN_DB
 ICCAP_VAR ve         0              
 ICCAP_VAR vc         2              
 ICCAP_VAR vs         0              

 #vb              ib              ic             
  0.4             -3.1e-011       2.9638e-009    
  0.42            -1.778e-011     2.6662e-009    
  0.44            -8.54e-012      3.1558e-009    
  0.46            -3.38e-012      5.2284e-009    
  0.48            9.26e-012       9.4164e-009    
  0.5             2.404e-011      2.0362e-008    
  0.52            6.274e-011      4.2258e-008    
  0.54            1.3e-010        9.0306e-008    
  0.56            2.671e-010      1.9402e-007    
  0.58            5.5304e-010     4.1508e-007    
  0.6             1.1446e-009     8.895e-007     
  0.62            2.3822e-009     1.916e-006     
  0.64            5.0118e-009     4.1026e-006    
  0.66            1.0606e-008     8.7768e-006    
  0.68            2.2534e-008     1.882e-005     
  0.7             4.7908e-008     4.0072e-005    
  0.72            1.0244e-007     8.5332e-005    
  0.74            2.1844e-007     0.00018036     
  0.76            4.6512e-007     0.00037748     
  0.78            9.8932e-007     0.00078072     
  0.8             2.0702e-006     0.0015662      
  0.82            4.2514e-006     0.0030176      
  0.84            8.3906e-006     0.0054152      
  0.86            1.7332e-005     0.0085466      
  0.88            4.6168e-005     0.0102848      
  0.9             0.00010483      0.011792       
  0.92            0.0002096       0.013846       
  0.94            0.00037736      0.016616       
  0.96            0.00063114      0.020102       
  0.98            0.00099286      0.024138       
  1               0.0014904       0.028656       
END_DB

BEGIN_DB
 ICCAP_VAR ve         0              
 ICCAP_VAR vc         2.5            
 ICCAP_VAR vs         0              

 #vb              ib              ic             
  0.4             -8.202e-011     2.9832e-009    
  0.42            -7.126e-011     2.7782e-009    
  0.44            -6.05e-011      3.3756e-009    
  0.46            -5.622e-011     6.0408e-009    
  0.48            -4.956e-011     8.9662e-009    
  0.5             -5.05e-011      2.0484e-008    
  0.52            -4.598e-011     4.2386e-008    
  0.54            -4.86e-011      9.0518e-008    
  0.56            -5.98e-011      1.9454e-007    
  0.58            -6.934e-011     4.1486e-007    
  0.6             -7.888e-011     8.9088e-007    
  0.62            -4.51e-011      1.9136e-006    
  0.64            1.2498e-010     4.1062e-006    
  0.66            8.1506e-010     8.7944e-006    
  0.68            2.8576e-009     1.8868e-005    
  0.7             8.7162e-009     4.0156e-005    
  0.72            2.4678e-008     8.5608e-005    
  0.74            6.6864e-008     0.0001812      
  0.76            1.769e-007      0.00038088     
  0.78            4.6516e-007     0.0007935      
  0.8             1.1926e-006     0.001612       
  0.82            2.9154e-006     0.0031674      
  0.84            6.3632e-006     0.0058366      
  0.86            1.3106e-005     0.0096078      
  0.88            4.075e-005      0.01185        
  0.9             0.000101564     0.013626       
  0.92            0.0002155       0.016038       
  0.94            0.00040658      0.019344       
  0.96            0.00070934      0.023546       
  0.98            0.00116         0.028418       
  1               0.0018004       0.033822       
END_DB

