! VERSION = 6.00
!Data measured by ggf on Tue Jan 23 15:04:56 2018 using model file NPN_MEAS_SCALE
BEGIN_HEADER
 ICCAP_INPUTS
  vc         V  C GROUND SMU_C 0.2 LIN        1    0          3          61   0.05      
  vs         V  S GROUND SMU_S 0.015 CON        0
  ve         V  E GROUND SMU_E 0.2 CON        0
  ib         I  B GROUND SMU_B 2 LIST       2 6 1E-009 6.25E-007 1.25E-006 2.5E-006 5E-006 1E-005
 ICCAP_OUTPUTS
  ic         I  C GROUND SMU_C M
  vb         V  B GROUND SMU_B M
 ICCAP_VALUES
  TNOM "27"
  TEMP "27"
  TECHNO "SG13G2"
  LOT "EDJ802"
  WAFER "02"
  CHIP "(3.3)"
  MODULE "S439S"
  DEV_NAME "D04"
  DEV_GEOM_L "2.5"
  DEV_GEOM_W "0.07"
  NUM_OF_TRANS_RF "1"
  REMARKS "Nx=4; Power -30/-20dBm, Slope: 0.1dB/GHz"
  TIMEDATE "Tue Jan 23 14:27:30     2018"
  OPERATOR "ggf"
END_HEADER

BEGIN_DB
 ICCAP_VAR vs         0              
 ICCAP_VAR ve         0              
 ICCAP_VAR ib         1e-009         

 #vc              ic              vb             
  0               -9.486e-009     0.4192         
  0.05            -9.206e-010     0.40384        
  0.1             3.698e-010      0.40912        
  0.15            3.766e-009      0.43072        
  0.2             1.8838e-009     0.44548        
  0.25            2.9862e-009     0.46152        
  0.3             1.129e-008      0.4862         
  0.35            1.9454e-008     0.49932        
  0.4             3.1052e-008     0.51232        
  0.45            4.9998e-008     0.52492        
  0.5             7.8082e-008     0.53688        
  0.55            1.1418e-007     0.54716        
  0.6             1.551e-007      0.55512        
  0.65            2.1032e-007     0.56292        
  0.7             2.7202e-007     0.5696         
  0.75            3.3648e-007     0.57504        
  0.8             3.9742e-007     0.57928        
  0.85            4.4038e-007     0.58192        
  0.9             4.7756e-007     0.58404        
  0.95            5.0996e-007     0.58564        
  1               5.3588e-007     0.58692        
  1.05            5.5728e-007     0.58788        
  1.1             5.738e-007      0.5886         
  1.15            5.8758e-007     0.5892         
  1.2             5.9768e-007     0.58968        
  1.25            6.0606e-007     0.59           
  1.3             6.138e-007      0.59032        
  1.35            6.1918e-007     0.59052        
  1.4             6.2492e-007     0.59072        
  1.45            6.2876e-007     0.59092        
  1.5             6.3224e-007     0.59108        
  1.55            6.371e-007      0.59124        
  1.6             6.4158e-007     0.59144        
  1.65            6.4652e-007     0.59164        
  1.7             6.519e-007      0.59188        
  1.75            6.5842e-007     0.59216        
  1.8             6.6724e-007     0.59248        
  1.85            6.7666e-007     0.59288        
  1.9             6.8956e-007     0.59332        
  1.95            7.0228e-007     0.59384        
  2               7.196e-007      0.59448        
  2.05            7.4124e-007     0.59528        
  2.1             7.7372e-007     0.59648        
  2.15            8.1444e-007     0.59788        
  2.2             8.6756e-007     0.59956        
  2.25            9.3782e-007     0.60164        
  2.3             1.0218e-006     0.60404        
  2.35            1.1428e-006     0.60712        
  2.4             1.3262e-006     0.61116        
  2.45            1.617e-006      0.61672        
  2.5             2.1544e-006     0.62472        
  2.55            3.3892e-006     0.63764        
  2.6             8.4046e-006     0.66572        
  2.65            0.00039144      0.77212        
  2.7             0.0012446       0.79248        
  2.75            0.0022024       0.80864        
  2.8             0.003787        0.82456        
  2.85            0.0110976       0.86356        
  2.9             0.011922        0.86836        
  2.95            0.012576        0.87244        
  3               0.01316         0.8762         
END_DB

BEGIN_DB
 ICCAP_VAR vs         0              
 ICCAP_VAR ve         0              
 ICCAP_VAR ib         6.25e-007      

 #vc              ic              vb             
  0               -1.2598e-005    0.64208        
  0.05            1.0114e-005     0.68916        
  0.1             9.6492e-005     0.72744        
  0.15            0.0002424       0.74984        
  0.2             0.0003465       0.75904        
  0.25            0.00039376      0.76236        
  0.3             0.00041528      0.76376        
  0.35            0.00042644      0.76444        
  0.4             0.00043384      0.76488        
  0.45            0.000439        0.76516        
  0.5             0.00044308      0.76536        
  0.55            0.00044634      0.76552        
  0.6             0.00044916      0.76568        
  0.65            0.00045142      0.76576        
  0.7             0.00045368      0.76584        
  0.75            0.0004552       0.76596        
  0.8             0.00045678      0.766          
  0.85            0.00045794      0.76604        
  0.9             0.00045912      0.76608        
  0.95            0.00046016      0.76612        
  1               0.00046122      0.76616        
  1.05            0.00046196      0.76616        
  1.1             0.00046282      0.76616        
  1.15            0.00046352      0.76616        
  1.2             0.0004643       0.76616        
  1.25            0.00046464      0.7662         
  1.3             0.0004654       0.7662         
  1.35            0.00046576      0.7662         
  1.4             0.00046638      0.7662         
  1.45            0.00046714      0.7662         
  1.5             0.00046798      0.76624        
  1.55            0.00046866      0.76624        
  1.6             0.00046986      0.76632        
  1.65            0.00047128      0.76636        
  1.7             0.00047328      0.76644        
  1.75            0.00047628      0.7666         
  1.8             0.00047926      0.76676        
  1.85            0.00048364      0.76696        
  1.9             0.00048928      0.76724        
  1.95            0.00049628      0.7676         
  2               0.00050538      0.76808        
  2.05            0.00051682      0.76868        
  2.1             0.00053184      0.7694         
  2.15            0.00055162      0.77036        
  2.2             0.0005743       0.77148        
  2.25            0.0006057       0.77288        
  2.3             0.0006452       0.7746         
  2.35            0.00069788      0.77672        
  2.4             0.00076736      0.77936        
  2.45            0.00086194      0.78244        
  2.5             0.00099524      0.78644        
  2.55            0.0011824       0.7912         
  2.6             0.0014524       0.79696        
  2.65            0.0018572       0.80392        
  2.7             0.0024558       0.81192        
  2.75            0.0034056       0.82152        
  2.8             0.0055256       0.83668        
  2.85            0.0112374       0.86448        
  2.9             0.011996        0.86892        
  2.95            0.012628        0.87284        
  3               0.0132          0.87656        
END_DB

BEGIN_DB
 ICCAP_VAR vs         0              
 ICCAP_VAR ve         0              
 ICCAP_VAR ib         1.25e-006      

 #vc              ic              vb             
  0               -2.4596e-005    0.66668        
  0.05            2.8234e-005     0.71252        
  0.1             0.00019984      0.74768        
  0.15            0.00045288      0.7678         
  0.2             0.0006463       0.77708        
  0.25            0.00075482      0.78116        
  0.3             0.00080894      0.783          
  0.35            0.0008374       0.78388        
  0.4             0.00085524      0.7844         
  0.45            0.0008674       0.78472        
  0.5             0.00087664      0.785          
  0.55            0.00088408      0.78516        
  0.6             0.00088954      0.78528        
  0.65            0.00089478      0.7854         
  0.7             0.00089898      0.78548        
  0.75            0.0009021       0.78552        
  0.8             0.00090508      0.78556        
  0.85            0.0009074       0.7856         
  0.9             0.0009097       0.7856         
  0.95            0.00091124      0.7856         
  1               0.00091286      0.7856         
  1.05            0.00091446      0.7856         
  1.1             0.00091642      0.7856         
  1.15            0.00091722      0.7856         
  1.2             0.00091966      0.78556        
  1.25            0.00091934      0.78552        
  1.3             0.00092012      0.78548        
  1.35            0.00092066      0.78548        
  1.4             0.0009218       0.78544        
  1.45            0.00092276      0.7854         
  1.5             0.00092374      0.7854         
  1.55            0.00092506      0.78536        
  1.6             0.0009263       0.78536        
  1.65            0.00092834      0.78536        
  1.7             0.00093142      0.78544        
  1.75            0.00093498      0.78548        
  1.8             0.00094002      0.7856         
  1.85            0.00094674      0.78572        
  1.9             0.00095542      0.78592        
  1.95            0.00096682      0.78624        
  2               0.00098082      0.7866         
  2.05            0.00099902      0.78704        
  2.1             0.001023        0.78768        
  2.15            0.0010522       0.7884         
  2.2             0.00108834      0.78932        
  2.25            0.0011361       0.79048        
  2.3             0.0011952       0.79184        
  2.35            0.0012732       0.7936         
  2.4             0.001371        0.7956         
  2.45            0.0015008       0.79812        
  2.5             0.0016772       0.80124        
  2.55            0.0019092       0.80488        
  2.6             0.0022272       0.80928        
  2.65            0.0026886       0.81472        
  2.7             0.003353        0.82124        
  2.75            0.0044568       0.82992        
  2.8             0.0101388       0.859          
  2.85            0.0113468       0.8652         
  2.9             0.012058        0.86944        
  2.95            0.01267         0.87328        
  3               0.013232        0.87692        
END_DB

BEGIN_DB
 ICCAP_VAR vs         0              
 ICCAP_VAR ve         0              
 ICCAP_VAR ib         2.5e-006       

 #vc              ic              vb             
  0               -4.2164e-005    0.69208        
  0.05            7.7046e-005     0.73584        
  0.1             0.00038354      0.76688        
  0.15            0.00075712      0.78388        
  0.2             0.00105068      0.79252        
  0.25            0.0012646       0.79748        
  0.3             0.0014216       0.80068        
  0.35            0.0015286       0.80256        
  0.4             0.0015998       0.8038         
  0.45            0.0016466       0.80456        
  0.5             0.0016798       0.805          
  0.55            0.0017022       0.80532        
  0.6             0.0017202       0.80552        
  0.65            0.0017346       0.80572        
  0.7             0.001745        0.80576        
  0.75            0.0017546       0.8058         
  0.8             0.0017616       0.80584        
  0.85            0.0017672       0.80584        
  0.9             0.0017724       0.80584        
  0.95            0.0017762       0.80584        
  1               0.0017802       0.80576        
  1.05            0.0017822       0.80572        
  1.1             0.0017846       0.80564        
  1.15            0.0017862       0.8056         
  1.2             0.0017884       0.80548        
  1.25            0.0017892       0.80544        
  1.3             0.0017914       0.80536        
  1.35            0.001792        0.80532        
  1.4             0.0017922       0.8052         
  1.45            0.0017938       0.80512        
  1.5             0.0017968       0.80508        
  1.55            0.0017966       0.805          
  1.6             0.0017988       0.80496        
  1.65            0.0017996       0.80488        
  1.7             0.0018026       0.8048         
  1.75            0.001807        0.8048         
  1.8             0.0018138       0.80484        
  1.85            0.0018236       0.80488        
  1.9             0.0018354       0.80504        
  1.95            0.001852        0.8052         
  2               0.0018738       0.8054         
  2.05            0.0018976       0.80572        
  2.1             0.0019318       0.80616        
  2.15            0.0019728       0.80668        
  2.2             0.002026        0.80736        
  2.25            0.0020942       0.80828        
  2.3             0.0021782       0.80932        
  2.35            0.002286        0.81068        
  2.4             0.0024198       0.81224        
  2.45            0.0025922       0.8142         
  2.5             0.0028196       0.8166         
  2.55            0.0031142       0.81952        
  2.6             0.003514        0.82304        
  2.65            0.0040856       0.82752        
  2.7             0.004967        0.8336         
  2.75            0.007002        0.84496        
  2.8             0.010695        0.86196        
  2.85            0.011538        0.8666         
  2.9             0.012178        0.87044        
  2.95            0.012758        0.87408        
  3               0.013304        0.87756        
END_DB

BEGIN_DB
 ICCAP_VAR vs         0              
 ICCAP_VAR ve         0              
 ICCAP_VAR ib         5e-006         

 #vc              ic              vb             
  0               -5.9726e-005    0.71856        
  0.05            0.00018948      0.75896        
  0.1             0.00065296      0.78456        
  0.15            0.00110748      0.798          
  0.2             0.0014582       0.80524        
  0.25            0.0017412       0.80996        
  0.3             0.0019878       0.81352        
  0.35            0.0022026       0.81632        
  0.4             0.0023998       0.81868        
  0.45            0.0025738       0.82064        
  0.5             0.0027298       0.82224        
  0.55            0.002867        0.8236         
  0.6             0.0029824       0.82464        
  0.65            0.0030786       0.82548        
  0.7             0.0031566       0.82608        
  0.75            0.0032154       0.82652        
  0.8             0.0032634       0.8268         
  0.85            0.0032992       0.82696        
  0.9             0.0033258       0.82708        
  0.95            0.003346        0.82712        
  1               0.0033614       0.82704        
  1.05            0.0033736       0.827          
  1.1             0.0033832       0.82692        
  1.15            0.0033918       0.82684        
  1.2             0.0033954       0.82672        
  1.25            0.0034002       0.82652        
  1.3             0.0034024       0.8264         
  1.35            0.0034064       0.82628        
  1.4             0.0034064       0.82608        
  1.45            0.0034086       0.82592        
  1.5             0.003407        0.82576        
  1.55            0.00341         0.8256         
  1.6             0.0034082       0.82544        
  1.65            0.00341         0.82532        
  1.7             0.0034124       0.82516        
  1.75            0.0034186       0.82504        
  1.8             0.003427        0.82492        
  1.85            0.0034338       0.82488        
  1.9             0.0034502       0.82484        
  1.95            0.003469        0.82488        
  2               0.0034994       0.82496        
  2.05            0.0035292       0.82512        
  2.1             0.0035752       0.82536        
  2.15            0.0036364       0.82568        
  2.2             0.0037066       0.82616        
  2.25            0.003799        0.8268         
  2.3             0.003918        0.8276         
  2.35            0.0040674       0.82864        
  2.4             0.0042562       0.82992        
  2.45            0.004497        0.83152        
  2.5             0.0048168       0.83356        
  2.55            0.0052466       0.8362         
  2.6             0.005857        0.83968        
  2.65            0.0068636       0.84488        
  2.7             0.0088298       0.85408        
  2.75            0.0104144       0.8612         
  2.8             0.0112294       0.86544        
  2.85            0.011838        0.86896        
  2.9             0.012388        0.87224        
  2.95            0.012916        0.8756         
  3               0.013436        0.87884        
END_DB

BEGIN_DB
 ICCAP_VAR vs         0              
 ICCAP_VAR ve         0              
 ICCAP_VAR ib         1e-005         

 #vc              ic              vb             
  0               -6.2762e-005    0.74508        
  0.05            0.0003665       0.78008        
  0.1             0.00093216      0.8002         
  0.15            0.0014264       0.811          
  0.2             0.001806        0.81708        
  0.25            0.0021178       0.82108        
  0.3             0.0023976       0.82432        
  0.35            0.0026512       0.82696        
  0.4             0.0028934       0.82932        
  0.45            0.0031214       0.83136        
  0.5             0.0033404       0.83324        
  0.55            0.0035528       0.83492        
  0.6             0.0037532       0.8364         
  0.65            0.0039464       0.83784        
  0.7             0.004136        0.83912        
  0.75            0.0043148       0.84028        
  0.8             0.0044866       0.84132        
  0.85            0.0046548       0.84228        
  0.9             0.0048128       0.84312        
  0.95            0.0049616       0.84392        
  1               0.0051082       0.84464        
  1.05            0.005241        0.8452         
  1.1             0.0053672       0.84572        
  1.15            0.0054826       0.8462         
  1.2             0.0055894       0.84652        
  1.25            0.0056846       0.8468         
  1.3             0.0057662       0.847          
  1.35            0.00584         0.84712        
  1.4             0.0058988       0.84716        
  1.45            0.0059502       0.84716        
  1.5             0.005993        0.84708        
  1.55            0.0060232       0.84696        
  1.6             0.0060512       0.8468         
  1.65            0.0060738       0.8466         
  1.7             0.0060928       0.8464         
  1.75            0.0061068       0.8462         
  1.8             0.0061284       0.846          
  1.85            0.0061444       0.84584        
  1.9             0.006168        0.84572        
  1.95            0.0062048       0.8456         
  2               0.0062458       0.84556        
  2.05            0.0062998       0.8456         
  2.1             0.006367        0.84572        
  2.15            0.0064568       0.84596        
  2.2             0.006572        0.84628        
  2.25            0.0067162       0.8468         
  2.3             0.0069008       0.84752        
  2.35            0.007142        0.84852        
