! VERSION = 6.00
!Data measured by ggf on Tue Jan 23 15:04:56 2018 using model file NPN_MEAS_SCALE
BEGIN_HEADER
 ICCAP_INPUTS
  vc         V  C GROUND SMU_C 0.2 LIN        1    0          3          61   0.05      
  ve         V  E GROUND SMU_E 0.2 CON        0
  vs         V  S GROUND SMU_S 0.015 CON        0
  vb         V  B GROUND SMU_B 0.015 LIN        2    0.6        0.9        7    0.05      
 ICCAP_OUTPUTS
  ic         I  C DEFAULT SMU_C M
  ib         I  B GROUND SMU_B M
 ICCAP_VALUES
  TNOM "27"
  TEMP "27"
  TECHNO "SG13G2"
  LOT "EDJ802"
  WAFER "02"
  CHIP "(3.3)"
  MODULE "S439S"
  DEV_NAME "D04"
  DEV_GEOM_L "2.5"
  DEV_GEOM_W "0.07"
  NUM_OF_TRANS_RF "1"
  REMARKS "Nx=4; Power -30/-20dBm, Slope: 0.1dB/GHz"
  TIMEDATE "Tue Jan 23 14:27:30     2018"
  OPERATOR "ggf"
END_HEADER

BEGIN_DB
 ICCAP_VAR ve         0              
 ICCAP_VAR vs         0              
 ICCAP_VAR vb         0.6            

 #vc              ic              ib             
  0               -3.1564e-006    1.9332e-007    
  0.05            2.3154e-007     5.9312e-008    
  0.1             7.7406e-007     2.2338e-008    
  0.15            8.635e-007      9.417e-009     
  0.2             8.7978e-007     4.5352e-009    
  0.25            8.844e-007      2.61e-009      
  0.3             8.8544e-007     1.8998e-009    
  0.35            8.8712e-007     1.6654e-009    
  0.4             8.8676e-007     1.5822e-009    
  0.45            8.8748e-007     1.542e-009     
  0.5             8.8806e-007     1.5204e-009    
  0.55            8.877e-007      1.5034e-009    
  0.6             8.888e-007      1.4812e-009    
  0.65            8.893e-007      1.469e-009     
  0.7             8.8936e-007     1.4534e-009    
  0.75            8.8958e-007     1.4492e-009    
  0.8             8.8974e-007     1.434e-009     
  0.85            8.897e-007      1.428e-009     
  0.9             8.9018e-007     1.4156e-009    
  0.95            8.9002e-007     1.4108e-009    
  1               8.901e-007      1.4044e-009    
  1.05            8.9018e-007     1.4018e-009    
  1.1             8.909e-007      1.3966e-009    
  1.15            8.916e-007      1.3864e-009    
  1.2             8.915e-007      1.3824e-009    
  1.25            8.9156e-007     1.3804e-009    
  1.3             8.9176e-007     1.3754e-009    
  1.35            8.9204e-007     1.3684e-009    
  1.4             8.919e-007      1.3672e-009    
  1.45            8.9204e-007     1.36e-009      
  1.5             8.9226e-007     1.3506e-009    
  1.55            8.9306e-007     1.3442e-009    
  1.6             8.9174e-007     1.3356e-009    
  1.65            8.9204e-007     1.3222e-009    
  1.7             8.9304e-007     1.309e-009     
  1.75            8.9234e-007     1.2886e-009    
  1.8             8.93e-007       1.2696e-009    
  1.85            8.924e-007      1.234e-009     
  1.9             8.9186e-007     1.212e-009     
  1.95            8.9296e-007     1.1726e-009    
  2               8.9244e-007     1.1246e-009    
  2.05            8.9298e-007     1.071e-009     
  2.1             8.9292e-007     9.992e-010     
  2.15            8.9284e-007     9.2672e-010    
  2.2             8.9316e-007     8.4222e-010    
  2.25            8.9332e-007     7.3518e-010    
  2.3             8.9404e-007     6.1572e-010    
  2.35            8.942e-007      4.7178e-010    
  2.4             8.9472e-007     3.1178e-010    
  2.45            8.9422e-007     1.2704e-010    
  2.5             8.9456e-007     -9.056e-011    
  2.55            8.9478e-007     -3.292e-010    
  2.6             8.9576e-007     -6.0092e-010   
  2.65            8.958e-007      -9.1794e-010   
  2.7             8.9584e-007     -1.2722e-009   
  2.75            8.9686e-007     -1.6694e-009   
  2.8             8.976e-007      -2.1206e-009   
  2.85            8.9858e-007     -2.6248e-009   
  2.9             8.9908e-007     -3.1936e-009   
  2.95            8.999e-007      -3.837e-009    
  3               9.0038e-007     -4.5498e-009   
END_DB

BEGIN_DB
 ICCAP_VAR ve         0              
 ICCAP_VAR vs         0              
 ICCAP_VAR vb         0.65           

 #vc              ic              ib             
  0               -1.587e-005     7.8348e-007    
  0.05            1.8948e-006     2.0366e-007    
  0.1             5.284e-006      6.7726e-008    
  0.15            5.84e-006       3.0066e-008    
  0.2             5.9348e-006     1.7388e-008    
  0.25            5.9568e-006     1.254e-008     
  0.3             5.9686e-006     1.0638e-008    
  0.35            5.9718e-006     9.904e-009     
  0.4             5.973e-006      9.5738e-009    
  0.45            5.979e-006      9.4106e-009    
  0.5             5.9782e-006     9.2842e-009    
  0.55            5.9828e-006     9.1636e-009    
  0.6             5.9832e-006     9.0894e-009    
  0.65            5.986e-006      9.0006e-009    
  0.7             5.9922e-006     8.9506e-009    
  0.75            5.9866e-006     8.879e-009     
  0.8             5.989e-006      8.8444e-009    
  0.85            5.9882e-006     8.782e-009     
  0.9             5.9932e-006     8.7614e-009    
  0.95            5.9934e-006     8.7202e-009    
  1               5.9914e-006     8.683e-009     
  1.05            5.9936e-006     8.6438e-009    
  1.1             5.996e-006      8.6162e-009    
  1.15            5.9956e-006     8.607e-009     
  1.2             5.9986e-006     8.5628e-009    
  1.25            5.9952e-006     8.5646e-009    
  1.3             6.0026e-006     8.5258e-009    
  1.35            5.9978e-006     8.5166e-009    
  1.4             5.9984e-006     8.4878e-009    
  1.45            5.9994e-006     8.4688e-009    
  1.5             5.9986e-006     8.435e-009     
  1.55            6.0004e-006     8.3974e-009    
  1.6             6.0018e-006     8.3376e-009    
  1.65            5.999e-006      8.2964e-009    
  1.7             6.0026e-006     8.223e-009     
  1.75            6.0048e-006     8.126e-009     
  1.8             6.004e-006      8.0112e-009    
  1.85            6.0038e-006     7.8682e-009    
  1.9             6.006e-006      7.6784e-009    
  1.95            6.0044e-006     7.4882e-009    
  2               6.0086e-006     7.237e-009     
  2.05            6.0052e-006     6.935e-009     
  2.1             6.0086e-006     6.5728e-009    
  2.15            6.0074e-006     6.1284e-009    
  2.2             6.0064e-006     5.628e-009     
  2.25            6.009e-006      5.0332e-009    
  2.3             6.0132e-006     4.3604e-009    
  2.35            6.0136e-006     3.5534e-009    
  2.4             6.0106e-006     2.6242e-009    
  2.45            6.0162e-006     1.5794e-009    
  2.5             6.017e-006      3.2612e-010    
  2.55            6.0156e-006     -1.0582e-009   
  2.6             6.013e-006      -2.6266e-009   
  2.65            6.0204e-006     -4.4678e-009   
  2.7             6.0236e-006     -6.5066e-009   
  2.75            6.0208e-006     -8.8306e-009   
  2.8             6.0258e-006     -1.1508e-008   
  2.85            6.033e-006      -1.4446e-008   
  2.9             6.0352e-006     -1.7798e-008   
  2.95            6.0414e-006     -2.1612e-008   
  3               6.0406e-006     -2.582e-008    
END_DB

BEGIN_DB
 ICCAP_VAR ve         0              
 ICCAP_VAR vs         0              
 ICCAP_VAR vb         0.7            

 #vc              ic              ib             
  0               -4.8016e-005    3.0932e-006    
  0.05            1.6426e-005     8.6548e-007    
  0.1             3.505e-005      2.6302e-007    
  0.15            3.8804e-005     1.1968e-007    
  0.2             3.9446e-005     8.1234e-008    
  0.25            3.9612e-005     6.7912e-008    
  0.3             3.9684e-005     6.266e-008     
  0.35            3.9726e-005     6.0404e-008    
  0.4             3.975e-005      5.9182e-008    
  0.45            3.9768e-005     5.843e-008     
  0.5             3.979e-005      5.7816e-008    
  0.55            3.9818e-005     5.7298e-008    
  0.6             3.9834e-005     5.6912e-008    
  0.65            3.9844e-005     5.6526e-008    
  0.7             3.9856e-005     5.625e-008     
  0.75            3.9874e-005     5.5938e-008    
  0.8             3.9884e-005     5.5692e-008    
  0.85            3.9906e-005     5.5498e-008    
  0.9             3.9918e-005     5.5306e-008    
  0.95            3.9922e-005     5.5126e-008    
  1               3.9926e-005     5.496e-008     
  1.05            3.9932e-005     5.4824e-008    
  1.1             3.9942e-005     5.4704e-008    
  1.15            3.9954e-005     5.457e-008     
  1.2             3.9958e-005     5.449e-008     
  1.25            3.9972e-005     5.4364e-008    
  1.3             3.997e-005      5.4292e-008    
  1.35            3.9998e-005     5.4168e-008    
  1.4             4.0008e-005     5.4046e-008    
  1.45            3.9994e-005     5.3934e-008    
  1.5             4.002e-005      5.3796e-008    
  1.55            4.0022e-005     5.3626e-008    
  1.6             4.0024e-005     5.339e-008     
  1.65            4.0016e-005     5.3104e-008    
  1.7             4.0034e-005     5.274e-008     
  1.75            4.0046e-005     5.2302e-008    
  1.8             4.0046e-005     5.168e-008     
  1.85            4.005e-005      5.0968e-008    
  1.9             4.0076e-005     5.0032e-008    
  1.95            4.0082e-005     4.8946e-008    
  2               4.0076e-005     4.7584e-008    
  2.05            4.0104e-005     4.5938e-008    
  2.1             4.0092e-005     4.393e-008     
  2.15            4.0104e-005     4.1552e-008    
  2.2             4.0124e-005     3.8768e-008    
  2.25            4.0118e-005     3.5442e-008    
  2.3             4.0126e-005     3.1552e-008    
  2.35            4.0148e-005     2.6984e-008    
  2.4             4.0152e-005     2.1752e-008    
  2.45            4.0168e-005     1.5684e-008    
  2.5             4.0174e-005     8.6462e-009    
  2.55            4.0172e-005     5.7084e-010    
  2.6             4.0184e-005     -8.5908e-009   
  2.65            4.0204e-005     -1.9166e-008   
  2.7             4.023e-005      -3.1068e-008   
  2.75            4.0254e-005     -4.4668e-008   
  2.8             4.028e-005      -6.0302e-008   
  2.85            4.0302e-005     -7.7668e-008   
  2.9             4.0338e-005     -9.74e-008     
  2.95            4.0364e-005     -1.1976e-007   
  3               4.0392e-005     -1.4468e-007   
END_DB

BEGIN_DB
 ICCAP_VAR ve         0              
 ICCAP_VAR vs         0              
 ICCAP_VAR vb         0.75           

 #vc              ic              ib             
  0               -6.0812e-005    1.1452e-005    
  0.05            0.0001364       3.8226e-006    
  0.1             0.00021744      1.3648e-006    
  0.15            0.00024514      6.334e-007     
  0.2             0.00025166      4.5308e-007    
  0.25            0.00025346      4.0178e-007    
  0.3             0.00025426      3.823e-007     
  0.35            0.00025482      3.7322e-007    
  0.4             0.00025502      3.6746e-007    
  0.45            0.00025544      3.6366e-007    
  0.5             0.0002557       3.6076e-007    
  0.55            0.00025592      3.585e-007     
  0.6             0.00025614      3.5644e-007    
  0.65            0.00025638      3.5502e-007    
  0.7             0.00025668      3.5358e-007    
  0.75            0.0002568       3.526e-007     
  0.8             0.0002571       3.5148e-007    
  0.85            0.00025718      3.5064e-007    
  0.9             0.0002575       3.4998e-007    
  0.95            0.00025766      3.495e-007     
  1               0.0002578       3.4878e-007    
  1.05            0.00025804      3.4856e-007    
  1.1             0.00025822      3.4802e-007    
  1.15            0.00025844      3.4752e-007    
  1.2             0.00025854      3.4736e-007    
  1.25            0.00025876      3.4718e-007    
  1.3             0.00025888      3.4692e-007    
  1.35            0.00025914      3.4656e-007    
  1.4             0.00025924      3.4598e-007    
  1.45            0.00025952      3.4594e-007    
  1.5             0.00025962      3.4552e-007    
  1.55            0.00025986      3.4488e-007    
  1.6             0.00025998      3.4384e-007    
  1.65            0.00026014      3.4258e-007    
  1.7             0.00026036      3.4144e-007    
  1.75            0.0002605       3.3934e-007    
  1.8             0.00026066      3.369e-007     
  1.85            0.00026072      3.3338e-007    
  1.9             0.00026092      3.2894e-007    
  1.95            0.0002611       3.2366e-007    
  2               0.0002613       3.1676e-007    
  2.05            0.00026152      3.087e-007     
  2.1             0.00026166      2.983e-007     
  2.15            0.0002619       2.8616e-007    
  2.2             0.00026202      2.716e-007     
  2.25            0.0002622       2.5386e-007    
  2.3             0.00026238      2.3352e-007    
  2.35            0.0002625       2.0876e-007    
  2.4             0.00026276      1.8026e-007    
  2.45            0.00026292      1.4736e-007    
  2.5             0.00026322      1.0836e-007    
  2.55            0.00026338      6.4162e-008    
  2.6             0.00026354      1.3312e-008    
  2.65            0.00026366      -4.5784e-008   
  2.7             0.00026396      -1.1226e-007   
  2.75            0.00026412      -1.8846e-007   
  2.8             0.00026448      -2.7662e-007   
  2.85            0.00026478      -3.7462e-007   
  2.9             0.000265        -4.8656e-007   
  2.95            0.00026538      -6.1498e-007   
  3               0.0002656       -7.5678e-007   
END_DB

BEGIN_DB
 ICCAP_VAR ve         0              
 ICCAP_VAR vs         0              
 ICCAP_VAR vb         0.8            

 #vc              ic              ib             
  0               -3.6884e-005    5.1408e-005    
  0.05            0.0005606       2.0944e-005    
  0.1             0.00093074      9.9506e-006    
  0.15            0.0011612       5.5902e-006    
  0.2             0.0012916       3.7252e-006    
  0.25            0.0013628       2.8496e-006    
  0.3             0.001399        2.4394e-006    
  0.35            0.0014166       2.264e-006     
  0.4             0.0014274       2.1796e-006    
  0.45            0.0014342       2.1374e-006    
  0.5             0.0014398       2.1088e-006    
  0.55            0.001445        2.0914e-006    
  0.6             0.0014498       2.0774e-006    
  0.65            0.0014544       2.0728e-006    
  0.7             0.0014588       2.0662e-006    
  0.75            0.0014632       2.0632e-006    
  0.8             0.0014674       2.0612e-006    
  0.85            0.001472        2.0622e-006    
  0.9             0.0014756       2.0632e-006    
  0.95            0.00148         2.0626e-006    
  1               0.0014838       2.0652e-006    
  1.05            0.0014882       2.0678e-006    
  1.1             0.0014924       2.0714e-006    
  1.15            0.001496        2.0746e-006    
  1.2             0.0015          2.0782e-006    
  1.25            0.0015044       2.0818e-006    
  1.3             0.0015082       2.0874e-006    
  1.35            0.0015124       2.0916e-006    
  1.4             0.0015166       2.0928e-006    
  1.45            0.0015204       2.1008e-006    
  1.5             0.0015246       2.105e-006     
  1.55            0.0015288       2.1092e-006    
  1.6             0.0015328       2.1128e-006    
  1.65            0.001537        2.1162e-006    
  1.7             0.001541        2.1176e-006    
  1.75            0.0015452       2.1156e-006    
  1.8             0.0015492       2.1124e-006    
  1.85            0.0015536       2.1072e-006    
  1.9             0.001558        2.0958e-006    
  1.95            0.0015622       2.0808e-006    
  2               0.0015664       2.0604e-006    
  2.05            0.0015708       2.0332e-006    
  2.1             0.0015748       1.9964e-006    
  2.15            0.0015798       1.953e-006     
  2.2             0.0015838       1.896e-006     
  2.25            0.0015886       1.8246e-006    
  2.3             0.0015934       1.7396e-006    
  2.35            0.0015978       1.6342e-006    
  2.4             0.0016028       1.5122e-006    
  2.45            0.0016076       1.3636e-006    
  2.5             0.0016122       1.1882e-006    
  2.55            0.0016172       9.884e-007     
  2.6             0.0016222       7.5252e-007    
  2.65            0.0016272       4.7674e-007    
  2.7             0.0016328       1.6072e-007    
  2.75            0.001638        -2.033e-007    
  2.8             0.0016434       -6.2836e-007   
  2.85            0.0016492       -1.10422e-006  
  2.9             0.0016558       -1.6546e-006   
  2.95            0.0016614       -2.286e-006    
  3               0.0016674       -2.992e-006    
END_DB

BEGIN_DB
 ICCAP_VAR ve         0              
 ICCAP_VAR vs         0              
 ICCAP_VAR vb         0.85           

 #vc              ic              ib             
  0               -3.521e-005     0.00025364     
  0.05            0.0011096       0.00013102     
  0.1             0.0019096       7.7e-005       
  0.15            0.0024368       5.4754e-005    
  0.2             0.0027808       4.5156e-005    
  0.25            0.0030376       3.9904e-005    
  0.3             0.003258        3.6236e-005    
  0.35            0.0034556       3.3326e-005    
  0.4             0.0036466       3.0744e-005    
  0.45            0.0038286       2.847e-005     
  0.5             0.0040058       2.64e-005      
  0.55            0.0041816       2.4498e-005    
  0.6             0.0043496       2.281e-005     
  0.65            0.004513        2.1254e-005    
  0.7             0.004675        1.9818e-005    
  0.75            0.0048284       1.857e-005     
  0.8             0.004977        1.7404e-005    
  0.85            0.0051232       1.638e-005     
  0.9             0.0052604       1.546e-005     
  0.95            0.0053912       1.4664e-005    
  1               0.0055186       1.3944e-005    
  1.05            0.0056356       1.3332e-005    
  1.1             0.0057478       1.2812e-005    
  1.15            0.0058502       1.2384e-005    
  1.2             0.0059452       1.2056e-005    
  1.25            0.0060358       1.1778e-005    
  1.3             0.006118        1.1572e-005    
  1.35            0.0061946       1.1426e-005    
  1.4             0.0062686       1.1326e-005    
  1.45            0.0063378       1.1276e-005    
  1.5             0.006402        1.124e-005     
  1.55            0.0064662       1.1252e-005    
  1.6             0.0065268       1.1288e-005    
  1.65            0.0065862       1.1322e-005    
  1.7             0.0066452       1.1368e-005    
  1.75            0.0067036       1.1436e-005    
  1.8             0.0067624       1.1492e-005    
  1.85            0.0068204       1.1554e-005    
  1.9             0.0068786       1.16e-005      
  1.95            0.0069388       1.1636e-005    
  2               0.0069982       1.1644e-005    
  2.05            0.007059        1.1636e-005    
  2.1             0.0071206       1.1592e-005    
  2.15            0.0071836       1.1508e-005    
  2.2             0.0072462       1.1384e-005    
  2.25            0.0073122       1.1184e-005    
  2.3             0.0073788       1.0916e-005    
  2.35            0.007448        1.0578e-005    
