! VERSION = 6.00
!Data measured by ggf on Tue Jan 23 15:04:55 2018 using model file NPN_MEAS_SCALE
BEGIN_HEADER
 ICCAP_INPUTS
  vc         V  C GROUND SMU_C 0.2 SYNC       1 0.25 vb
  ve         V  E GROUND SMU_E 0 CON        0
  vs         V  S GROUND SMU_S 0 CON        0
  freq       F  LIST       1 74 100000000 200000000 300000000 400000000 500000000 600000000 700000000 800000000 900000000 1000000000 2000000000 3000000000 4000000000 5000000000 6000000000 7000000000 8000000000 9000000000 10000000000 11000000000 12000000000 13000000000 14000000000 15000000000 16000000000 17000000000 18000000000 19000000000 20000000000 21000000000 22000000000 23000000000 24000000000 25000000000 26000000000 27000000000 28000000000 29000000000 30000000000 31000000000 32000000000 33000000000 34000000000 35000000000 36000000000 37000000000 38000000000 39000000000 40000000000 41000000000 42000000000 43000000000 44000000000 45000000000 46000000000 47000000000 48000000000 49000000000 50000000000 51000000000 52000000000 53000000000 54000000000 55000000000 56000000000 57000000000 58000000000 59000000000 60000000000 61000000000 62000000000 63000000000 64000000000 65000000000
  vb         V  B GROUND SMU_B 0.015 LIN        2    0.74       0.87       27   0.005     
 ICCAP_OUTPUTS
  ic         I  C GROUND SMU_C M
  ib         I  B GROUND SMU_B M
  S          S  B C GROUND NWA M
  S_deemb    S B C GROUND n/a B
 ICCAP_VALUES
  TNOM "27"
  TEMP "27"
  TECHNO "SG13G2"
  LOT "EDJ802"
  WAFER "02"
  CHIP "(3.3)"
  MODULE "S439S"
  DEV_NAME "D04"
  DEV_GEOM_L "2.5"
  DEV_GEOM_W "0.07"
  NUM_OF_TRANS_RF "1"
  REMARKS "Nx=4; Power -30/-20dBm, Slope: 0.1dB/GHz"
  TIMEDATE "Tue Jan 23 14:27:30     2018"
  OPERATOR "ggf"
END_HEADER

BEGIN_DB
 ICCAP_VAR vc         0.99           
 ICCAP_VAR ve         0              
 ICCAP_VAR vs         0              
 ICCAP_VAR vb         0.74           

 #freq            ic              ib              R:S(1,1)        I:S(1,1)        R:S(1,2)        I:S(1,2)        R:S(2,1)        I:S(2,1)        R:S(2,2)        I:S(2,2)        R:S_deemb(1,1)  I:S_deemb(1,1)  R:S_deemb(1,2)  I:S_deemb(1,2)  R:S_deemb(2,1)  I:S_deemb(2,1)  R:S_deemb(2,2)  I:S_deemb(2,2) 
  1e+008          0.0001785       2.4408e-007     0.998485        -0.00377915     3.33204e-005    0.000882172     -0.723329       -0.00595106     1.00062         -0.0024178      0.998507        -0.00278229     -2.74835e-005   0.000761385     -0.723806       -0.0070086      1.00051         -0.00124787    
  2e+008          0.0001785       2.4408e-007     0.999194        -0.00920167     5.76103e-005    0.00185168      -0.70374        0.000522565     1.00037         -0.0053535      0.998994        -0.00676947     5.79269e-005    0.00158922      -0.704147       -0.00172332     1.00009         -0.00240696    
  3e+008          0.0001785       2.4408e-007     0.999056        -0.0147478      2.49176e-005    0.00278322      -0.706422       0.00534719      1.00034         -0.0081631      0.998644        -0.0113055      1.241e-005      0.00252065      -0.706801       0.00256698      1.0001          -0.00477172    
  4e+008          0.0001785       2.4408e-007     0.999533        -0.0198391      8.17038e-005    0.00371712      -0.697291       0.0103424       1.00024         -0.0108694      0.999073        -0.0152831      5.61195e-005    0.00337087      -0.697666       0.00680182      1.00017         -0.0062608     
  5e+008          0.0001785       2.4408e-007     0.999131        -0.0250711      9.53044e-005    0.00466985      -0.705285       0.0145708       1.00025         -0.0135221      0.998576        -0.0187061      5.25139e-005    0.00425025      -0.705604       0.00970966      1.00006         -0.00774791    
  6e+008          0.0001785       2.4408e-007     0.999023        -0.0304802      0.000169156     0.00556002      -0.705242       0.0188471       1.00017         -0.0162491      0.998862        -0.0233051      0.000132004     0.0050825       -0.705692       0.0132119       0.999936        -0.00935923    
  7e+008          0.0001785       2.4408e-007     0.998809        -0.0356585      0.000189473     0.00649767      -0.705463       0.0244729       0.999941        -0.0189964      0.99849         -0.0275002      0.000134559     0.00591152      -0.705954       0.017928        0.999818        -0.010844      
  8e+008          0.0001785       2.4408e-007     0.998376        -0.041023       0.000242884     0.00741769      -0.707651       0.0294291       0.999796        -0.0216279      0.998217        -0.0316277      0.000171092     0.00675103      -0.708321       0.0219339       0.999744        -0.0123677     
  9e+008          0.0001785       2.4408e-007     0.99807         -0.0459411      0.00032972      0.0083446       -0.701971       0.0350782       0.999729        -0.0243066      0.997898        -0.0355101      0.000234821     0.00758975      -0.702725       0.0267927       0.999729        -0.0139138     
  1e+009          0.0001785       2.4408e-007     0.997671        -0.0512877      0.000388539     0.00924555      -0.708131       0.0410083       0.999533        -0.0269714      0.997826        -0.0395182      0.000228661     0.00840216      -0.709053       0.0316822       0.999613        -0.0153812     
  2e+009          0.0001785       2.4408e-007     0.992696        -0.10142        0.00150617      0.0184667       -0.688522       0.0826635       0.997464        -0.0534611      0.994493        -0.0782511      0.00100143      0.0168128       -0.691047       0.0644485       0.998351        -0.0301539     
  3e+009          0.0001785       2.4408e-007     0.984904        -0.152581       0.00329844      0.0274423       -0.69197        0.120383        0.99448         -0.0795159      0.989697        -0.11778        0.00216077      0.0250888       -0.697361       0.0927909       0.996834        -0.0445621     
  4e+009          0.0001785       2.4408e-007     0.973886        -0.201502       0.00572789      0.0362266       -0.684837       0.164041        0.990454        -0.104939       0.982596        -0.155943       0.00364885      0.0332699       -0.694489       0.127948        0.994874        -0.0585862     
  5e+009          0.0001785       2.4408e-007     0.96022         -0.248917       0.0088105       0.0448239       -0.665586       0.201604        0.985444        -0.130494       0.974148        -0.192854       0.0056208       0.0413611       -0.680275       0.157825        0.992521        -0.072871      
  6e+009          0.0001785       2.4408e-007     0.943871        -0.296086       0.0124292       0.0529995       -0.647673       0.238457        0.979498        -0.155762       0.963894        -0.230842       0.00794293      0.0491731       -0.668266       0.187775        0.989691        -0.0868584     
  7e+009          0.0001785       2.4408e-007     0.924412        -0.340836       0.0167393       0.0610569       -0.63193        0.275144        0.973159        -0.180358       0.951542        -0.266057       0.0107395       0.0570684       -0.659501       0.217718        0.98696         -0.100765      
  8e+009          0.0001785       2.4408e-007     0.903514        -0.384436       0.0215658       0.0684858       -0.614149       0.3093          0.965305        -0.204263       0.938434        -0.301601       0.0139395       0.0645372       -0.649386       0.246094        0.983139        -0.114218      
  9e+009          0.0001785       2.4408e-007     0.880723        -0.425768       0.0268623       0.0756151       -0.591829       0.34035         0.956727        -0.22806        0.923716        -0.335462       0.0173971       0.0719246       -0.635054       0.272432        0.979211        -0.127836      
  1e+010          0.0001785       2.4408e-007     0.855362        -0.465504       0.032639        0.0820835       -0.565626       0.371262        0.947206        -0.251131       0.907195        -0.36781        0.0212209       0.0788824       -0.617793       0.299589        0.974737        -0.141017      
  1.1e+010        0.0001785       2.4408e-007     0.828366        -0.502755       0.0386772       0.0882779       -0.544895       0.397047        0.937495        -0.273435       0.889658        -0.400111       0.0253208       0.0857238       -0.605736       0.322066        0.970072        -0.153865      
  1.2e+010        0.0001785       2.4408e-007     0.798994        -0.538849       0.0453342       0.0939311       -0.520983       0.427846        0.92664         -0.295103       0.87014         -0.432094       0.0298474       0.0923898       -0.592108       0.350917        0.965189        -0.166526      
  1.3e+010        0.0001785       2.4408e-007     0.768391        -0.572704       0.0520394       0.0990067       -0.498263       0.455479        0.914962        -0.315441       0.84981         -0.462603       0.034473        0.0987931       -0.5799         0.377201        0.95987         -0.178364      
  1.4e+010        0.0001785       2.4408e-007     0.737316        -0.602678       0.0594421       0.10339         -0.467001       0.474602        0.903239        -0.336239       0.828649        -0.489935       0.0398197       0.104822        -0.558097       0.397053        0.954396        -0.191173      
  1.5e+010        0.0001785       2.4408e-007     0.706765        -0.63077        0.0667212       0.107052        -0.430997       0.490354        0.891119        -0.355649       0.807612        -0.516497       0.0452179       0.110306        -0.530648       0.41534         0.9484          -0.203058      
  1.6e+010        0.0001785       2.4408e-007     0.673729        -0.656449       0.0740412       0.110319        -0.405092       0.508244        0.87842         -0.374165       0.784565        -0.54137        0.0506669       0.115554        -0.514101       0.434924        0.941823        -0.214408      
  1.7e+010        0.0001785       2.4408e-007     0.641675        -0.680904       0.0816287       0.112865        -0.372205       0.520377        0.864587        -0.392179       0.762309        -0.566019       0.0565436       0.120427        -0.489855       0.451057        0.935513        -0.225699      
  1.8e+010        0.0001785       2.4408e-007     0.608588        -0.702353       0.0889074       0.114929        -0.345292       0.535068        0.851282        -0.409943       0.738297        -0.588146       0.062208        0.12501         -0.471985       0.469028        0.929072        -0.23664       
  1.9e+010        0.0001785       2.4408e-007     0.573935        -0.723026       0.0962842       0.11664         -0.317022       0.550174        0.83821         -0.427037       0.712731        -0.611163       0.0681435       0.129272        -0.452747       0.488584        0.922249        -0.246911      
  2e+010          0.0001785       2.4408e-007     0.541421        -0.740128       0.103541        0.117649        -0.289202       0.556306        0.823708        -0.441258       0.689142        -0.629851       0.0742616       0.133018        -0.431778       0.499883        0.914698        -0.256738      
  2.1e+010        0.0001785       2.4408e-007     0.507608        -0.756669       0.110606        0.118243        -0.262741       0.568919        0.8076          -0.45479        0.663246        -0.64927        0.0804192       0.136583        -0.413737       0.518869        0.907148        -0.266565      
  2.2e+010        0.0001785       2.4408e-007     0.475702        -0.770387       0.117791        0.118452        -0.23063        0.571126        0.79231         -0.470695       0.638978        -0.666163       0.0867974       0.139838        -0.387744       0.528553        0.900373        -0.276929      
  2.3e+010        0.0001785       2.4408e-007     0.443079        -0.782099       0.124453        0.118029        -0.202614       0.574918        0.781819        -0.486352       0.613734        -0.68181        0.0925974       0.142302        -0.365374       0.538147        0.893875        -0.285071      
  2.4e+010        0.0001785       2.4408e-007     0.411176        -0.794622       0.130427        0.117588        -0.176016       0.578233        0.774074        -0.491443       0.589291        -0.697602       0.098261        0.14407         -0.341627       0.548034        0.886754        -0.290241      
  2.5e+010        0.0001785       2.4408e-007     0.377628        -0.80326        0.137304        0.118441        -0.154001       0.582522        0.772481        -0.495066       0.562867        -0.709664       0.104515        0.146218        -0.319726       0.556928        0.878243        -0.298934      
  2.6e+010        0.0001785       2.4408e-007     0.347079        -0.811953       0.145947        0.115994        -0.122176       0.586071        0.7501          -0.519266       0.538021        -0.723357       0.112175        0.147819        -0.295688       0.567182        0.866333        -0.308089      
  2.7e+010        0.0001785       2.4408e-007     0.316           -0.818718       0.151212        0.113864        -0.0971585      0.585617        0.716775        -0.533493       0.512284        -0.735056       0.118228        0.150466        -0.278874       0.578864        0.859757        -0.319763      
  2.8e+010        0.0001785       2.4408e-007     0.284683        -0.824231       0.15778         0.111536        -0.0704548      0.582465        0.698963        -0.55395        0.486644        -0.746731       0.124551        0.15271         -0.258969       0.585031        0.853809        -0.329805      
  2.9e+010        0.0001785       2.4408e-007     0.25425         -0.827976       0.16214         0.109311        -0.0500065      0.579571        0.688539        -0.562567       0.460912        -0.756734       0.129336        0.153489        -0.241675       0.589688        0.849123        -0.333736      
  3e+010          0.0001785       2.4408e-007     0.225539        -0.829852       0.167105        0.107707        -0.0276153      0.573452        0.681539        -0.568461       0.43683         -0.763464       0.134693        0.154046        -0.218652       0.58992         0.842836        -0.339316      
  3.1e+010        0.0001785       2.4408e-007     0.19825         -0.831075       0.172816        0.105052        -0.00326914     0.569678        0.666995        -0.575769       0.4138          -0.769016       0.140989        0.154233        -0.195628       0.594935        0.833722        -0.346878      
  3.2e+010        0.0001785       2.4408e-007     0.1706          -0.831801       0.178194        0.102226        0.0198469       0.562231        0.649566        -0.585717       0.389141        -0.775737       0.147302        0.154816        -0.173462       0.597108        0.826139        -0.354651      
  3.3e+010        0.0001785       2.4408e-007     0.143735        -0.832433       0.183153        0.0991589       0.0378541       0.557057        0.636029        -0.597406       0.366096        -0.782923       0.152978        0.155188        -0.157556       0.599644        0.819793        -0.361373      
  3.4e+010        0.0001785       2.4408e-007     0.115563        -0.83003        0.187602        0.095824        0.0599792       0.551121        0.624485        -0.605011       0.340592        -0.786479       0.158432        0.15465         -0.135603       0.60237         0.812849        -0.36736       
  3.5e+010        0.0001785       2.4408e-007     0.0919769       -0.82873        0.191952        0.0928101       0.0797881       0.543862        0.610574        -0.612111       0.31939         -0.789971       0.163923        0.154476        -0.115143       0.60355         0.804849        -0.373778      
  3.6e+010        0.0001785       2.4408e-007     0.0687165       -0.824554       0.195632        0.0889341       0.0957403       0.535007        0.593574        -0.619802       0.297794        -0.79039        0.169267        0.153424        -0.0982723      0.602538        0.796795        -0.380255      
  3.7e+010        0.0001785       2.4408e-007     0.0466117       -0.822339       0.199133        0.0859855       0.111088        0.525746        0.581548        -0.629162       0.277773        -0.793407       0.173664        0.15309         -0.0816328      0.599343        0.791106        -0.38626       
  3.8e+010        0.0001785       2.4408e-007     0.0240219       -0.822075       0.202669        0.0824605       0.129881        0.519927        0.569044        -0.635966       0.257984        -0.798314       0.178401        0.152112        -0.062723       0.601748        0.784246        -0.392129      
  3.9e+010        0.0001785       2.4408e-007     0.000705229     -0.816959       0.205667        0.0793971       0.146887        0.510369        0.554814        -0.642182       0.235676        -0.798544       0.18289         0.151632        -0.043681       0.600078        0.776866        -0.39785       
  4e+010          0.0001785       2.4408e-007     -0.0219555      -0.813242       0.209222        0.0756902       0.15995         0.501188        0.540368        -0.650024       0.214319        -0.80019        0.187976        0.150781        -0.0294137      0.597803        0.769909        -0.403245      
  4.1e+010        0.0001785       2.4408e-007     -0.042155       -0.808995       0.212441        0.0722422       0.175015        0.49462         0.526322        -0.657454       0.195497        -0.800582       0.192321        0.149676        -0.0139536      0.59857         0.762491        -0.41059       
  4.2e+010        0.0001785       2.4408e-007     -0.0637865      -0.803546       0.215665        0.0678711       0.191466        0.483052        0.512046        -0.661947       0.175447        -0.80113        0.197052        0.14792         0.00599018      0.594775        0.752759        -0.414535      
  4.3e+010        0.0001785       2.4408e-007     -0.0797914      -0.80117        0.217864        0.0644921       0.201688        0.47158         0.49892         -0.667148       0.160784        -0.802656       0.200963        0.147434        0.0185203       0.589297        0.746737        -0.419717      
  4.4e+010        0.0001785       2.4408e-007     -0.10207        -0.792923       0.2208          0.0608812       0.216363        0.46453         0.4846          -0.672525       0.137406        -0.800401       0.206061        0.146324        0.0358673       0.590253        0.739199        -0.424935      
  4.5e+010        0.0001785       2.4408e-007     -0.121568       -0.788956       0.223219        0.0569313       0.226671        0.455063        0.471213        -0.679161       0.119147        -0.80055        0.210062        0.144824        0.0481075       0.587041        0.732384        -0.430265      
  4.6e+010        0.0001785       2.4408e-007     -0.137154       -0.78243        0.225391        0.0532109       0.238834        0.444021        0.458495        -0.682547       0.104739        -0.798457       0.213996        0.143442        0.0635468       0.582544        0.725055        -0.434455      
  4.7e+010        0.0001785       2.4408e-007     -0.153457       -0.781055       0.227444        0.0499363       0.248909        0.434962        0.444143        -0.685779       0.0896661       -0.801565       0.218088        0.142953        0.0771258       0.580055        0.717014        -0.439525      
  4.8e+010        0.0001785       2.4408e-007     -0.173583       -0.771811       0.230231        0.0458947       0.262094        0.424524        0.430352        -0.691871       0.0685276       -0.796346       0.223293        0.141417        0.0945955       0.577264        0.709013        -0.444641      
