! VERSION = 6.00
!Data measured by ggf on Tue Jan 23 15:04:55 2018 using model file NPN_MEAS_SCALE
BEGIN_HEADER
 ICCAP_INPUTS
  vc         V  C GROUND SMU_C 0.1 LIN        3    0.5        2.5        5    0.5       
  ve         V  E GROUND SMU_E 0.1 CON        0
  vs         V  S GROUND SMU_S 0.015 CON        0
  freq       F  LIST       1 74 100000000 200000000 300000000 400000000 500000000 600000000 700000000 800000000 900000000 1000000000 2000000000 3000000000 4000000000 5000000000 6000000000 7000000000 8000000000 9000000000 10000000000 11000000000 12000000000 13000000000 14000000000 15000000000 16000000000 17000000000 18000000000 19000000000 20000000000 21000000000 22000000000 23000000000 24000000000 25000000000 26000000000 27000000000 28000000000 29000000000 30000000000 31000000000 32000000000 33000000000 34000000000 35000000000 36000000000 37000000000 38000000000 39000000000 40000000000 41000000000 42000000000 43000000000 44000000000 45000000000 46000000000 47000000000 48000000000 49000000000 50000000000 51000000000 52000000000 53000000000 54000000000 55000000000 56000000000 57000000000 58000000000 59000000000 60000000000 61000000000 62000000000 63000000000 64000000000 65000000000
  vb         V  B GROUND SMU_B 0.015 LIN        2    0.74       0.87       27   0.005     
 ICCAP_OUTPUTS
  ic         I  C GROUND SMU_C M
  ib         I  B GROUND SMU_B M
  S          S  B C GROUND NWA M
  S_deemb    S B C GROUND n/a B
 ICCAP_VALUES
  TNOM "27"
  TEMP "27"
  TECHNO "SG13G2"
  LOT "EDJ802"
  WAFER "02"
  CHIP "(3.3)"
  MODULE "S439S"
  DEV_NAME "D04"
  DEV_GEOM_L "2.5"
  DEV_GEOM_W "0.07"
  NUM_OF_TRANS_RF "1"
  REMARKS "Nx=4; Power -30/-20dBm, Slope: 0.1dB/GHz"
  TIMEDATE "Tue Jan 23 14:27:30     2018"
  OPERATOR "ggf"
END_HEADER

BEGIN_DB
 ICCAP_VAR vc         0.5            
 ICCAP_VAR ve         0              
 ICCAP_VAR vs         0              
 ICCAP_VAR vb         0.74           

 #freq            ic              ib              R:S(1,1)        I:S(1,1)        R:S(1,2)        I:S(1,2)        R:S(2,1)        I:S(2,1)        R:S(2,2)        I:S(2,2)        R:S_deemb(1,1)  I:S_deemb(1,1)  R:S_deemb(1,2)  I:S_deemb(1,2)  R:S_deemb(2,1)  I:S_deemb(2,1)  R:S_deemb(2,2)  I:S_deemb(2,2) 
  1e+008          0.0001779       2.5336e-007     0.998179        -0.00420377     -3.38891e-005   0.00100128      -0.717993       -0.0058835      1.00031         -0.00287656     0.998201        -0.00320747     -9.48546e-005   0.000880481     -0.718464       -0.00693886     1.0002          -0.00170696    
  2e+008          0.0001779       2.5336e-007     0.998878        -0.0098072      7.94685e-005    0.00194469      -0.69864        0.000669321     1.00021         -0.00559416     0.99868         -0.00737652     7.94139e-005    0.00168233      -0.699043       -0.0015661      0.999936        -0.00264841    
  3e+008          0.0001779       2.5336e-007     0.999106        -0.0150862      7.29037e-005    0.00289815      -0.701499       0.00586709      1.00026         -0.0085034      0.998695        -0.0116441      5.98909e-005    0.00263571      -0.701874       0.00310226      1.00002         -0.00511254    
  4e+008          0.0001779       2.5336e-007     0.999438        -0.0203779      7.12797e-005    0.0039212       -0.692546       0.0109037       1.00005         -0.0112735      0.99898         -0.0158225      4.45862e-005    0.0035749       -0.692918       0.00738243      0.999972        -0.00666583    
  5e+008          0.0001779       2.5336e-007     0.998939        -0.0256258      0.000130984     0.00487384      -0.700339       0.0151173       1.00007         -0.0140621      0.998388        -0.0192625      8.66923e-005    0.00445445      -0.700658       0.0102836       0.999892        -0.0082892     
  6e+008          0.0001779       2.5336e-007     0.998879        -0.0310855      0.000153208     0.00584992      -0.700255       0.0194403       0.999927        -0.0167905      0.998723        -0.0239119      0.000113716     0.0053723       -0.700706       0.0138378       0.999692        -0.00990225    
  7e+008          0.0001779       2.5336e-007     0.998633        -0.0363283      0.000200036     0.00685862      -0.700484       0.0252356       0.999737        -0.0196228      0.998321        -0.0281719      0.000141752     0.00627254      -0.700979       0.0187287       0.99962         -0.0114719     
  8e+008          0.0001779       2.5336e-007     0.998358        -0.0417399      0.00028847      0.00779592      -0.702855       0.030285        0.999539        -0.0223073      0.998208        -0.0323453      0.000212616     0.00712966      -0.703529       0.022832        0.999495        -0.0130496     
  9e+008          0.0001779       2.5336e-007     0.998106        -0.0466775      0.00035543      0.00882024      -0.697086       0.0362534       0.999553        -0.024981       0.997944        -0.0362466      0.000254966     0.00806556      -0.697849       0.0280167       0.999561        -0.0145898     
  1e+009          0.0001779       2.5336e-007     0.99772         -0.0520843      0.000404951     0.00975578      -0.703204       0.0420522       0.999235        -0.0277219      0.997886        -0.0403149      0.000238377     0.00891261      -0.704135       0.0327813       0.999324        -0.016135      
  2e+009          0.0001779       2.5336e-007     0.99258         -0.102996       0.0015826       0.0194003       -0.683448       0.0847049       0.997149        -0.0550037      0.99442         -0.0798331      0.00105313      0.0177488       -0.686027       0.0666049       0.998077        -0.0317048     
  3e+009          0.0001779       2.5336e-007     0.984089        -0.155054       0.00352913      0.02881         -0.686387       0.123747        0.993831        -0.0819888      0.988983        -0.120292       0.00233665      0.0264683       -0.691923       0.096355        0.996285        -0.0470622     
  4e+009          0.0001779       2.5336e-007     0.972641        -0.204789       0.0061355       0.0379986       -0.678534       0.168262        0.989287        -0.108045       0.981527        -0.15931        0.00396296      0.0350697       -0.688429       0.132483        0.993872        -0.0617581     
  5e+009          0.0001779       2.5336e-007     0.958354        -0.253525       0.00951335      0.0469849       -0.658237       0.207009        0.983865        -0.134161       0.972584        -0.197614       0.00618145      0.0435803       -0.673312       0.163704        0.991186        -0.0766549     
  6e+009          0.0001779       2.5336e-007     0.941167        -0.299639       0.0134596       0.0555876       -0.639476       0.243468        0.977605        -0.159973       0.961465        -0.234644       0.00877784      0.0518606       -0.660486       0.19344         0.988131        -0.0912412     
  7e+009          0.0001779       2.5336e-007     0.920993        -0.345382       0.0180549       0.0638752       -0.622574       0.281114        0.970602        -0.185118       0.948524        -0.270979       0.0118077       0.0600362       -0.650718       0.224583        0.984837        -0.105795      
  8e+009          0.0001779       2.5336e-007     0.899203        -0.389143       0.0231744       0.0715868       -0.603772       0.315397        0.962291        -0.209395       0.934578        -0.306841       0.0152443       0.0678473       -0.63966        0.253346        0.980653        -0.119715      
  9e+009          0.0001779       2.5336e-007     0.875765        -0.430631       0.0288388       0.0789116       -0.580347       0.346536        0.953214        -0.23356        0.919266        -0.34101        0.0190187       0.0755048       -0.624291       0.280065        0.976323        -0.133817      
  1e+010          0.0001779       2.5336e-007     0.849472        -0.470292       0.0349722       0.0855589       -0.553195       0.377492        0.94316         -0.256844       0.901837        -0.373492       0.0231489       0.0827283       -0.606136       0.307586        0.971401        -0.147347      
  1.1e+010        0.0001779       2.5336e-007     0.821795        -0.507438       0.0413801       0.0919053       -0.531327       0.403088        0.932909        -0.279372       0.883619        -0.405878       0.0275733       0.0898162       -0.592948       0.330222        0.966283        -0.160567      
  1.2e+010        0.0001779       2.5336e-007     0.791775        -0.543263       0.0483838       0.0976933       -0.506372       0.433306        0.921619        -0.301217       0.863417        -0.437792       0.0324055       0.0967197       -0.578205       0.358856        0.961042        -0.173556      
  1.3e+010        0.0001779       2.5336e-007     0.76052         -0.576638       0.055468        0.102834        -0.482431       0.460227        0.909428        -0.321797       0.842348        -0.468031       0.0373839       0.103304        -0.564646       0.384847        0.95529         -0.185816      
  1.4e+010        0.0001779       2.5336e-007     0.728678        -0.606105       0.0632084       0.107245        -0.450652       0.478819        0.897239        -0.342673       0.820304        -0.495092       0.0430536       0.109479        -0.542207       0.404495        0.949406        -0.19888       
  1.5e+010        0.0001779       2.5336e-007     0.698027        -0.633678       0.0708816       0.110878        -0.414241       0.493791        0.88453         -0.362341       0.799048        -0.521252       0.0488435       0.115059        -0.51417        0.422281        0.942897        -0.211226      
  1.6e+010        0.0001779       2.5336e-007     0.664492        -0.658801       0.0785308       0.114117        -0.387794       0.51122         0.87129         -0.380768       0.775346        -0.545761       0.0546255       0.1204          -0.496922       0.441729        0.935797        -0.222689      
  1.7e+010        0.0001779       2.5336e-007     0.632224        -0.682781       0.0864744       0.116638        -0.354721       0.522462        0.857077        -0.398776       0.752719        -0.570067       0.0608694       0.125382        -0.472224       0.457211        0.929125        -0.234164      
  1.8e+010        0.0001779       2.5336e-007     0.598802        -0.703835       0.0940966       0.118592        -0.327166       0.536576        0.843206        -0.416494       0.728216        -0.59196        0.066908        0.129989        -0.453487       0.474957        0.922127        -0.245291      
  1.9e+010        0.0001779       2.5336e-007     0.563735        -0.724214       0.101742        0.120248        -0.298408       0.550704        0.829878        -0.43373        0.702079        -0.614849       0.0731309       0.134318        -0.433441       0.493834        0.915107        -0.255877      
  2e+010          0.0001779       2.5336e-007     0.5312          -0.740502       0.109262        0.121088        -0.270286       0.556327        0.81474         -0.447691       0.678215        -0.632782       0.0795717       0.138004        -0.411902       0.50486         0.906853        -0.265688      
  2.1e+010        0.0001779       2.5336e-007     0.497205        -0.756222       0.116559        0.121564        -0.243694       0.567859        0.798407        -0.461099       0.651851        -0.651446       0.0860179       0.141556        -0.393295       0.522929        0.899024        -0.275559      
  2.2e+010        0.0001779       2.5336e-007     0.465434        -0.769466       0.123996        0.121634        -0.211581       0.569436        0.782568        -0.477043       0.627518        -0.667874       0.0927112       0.144793        -0.366982       0.532149        0.891693        -0.286231      
  2.3e+010        0.0001779       2.5336e-007     0.432561        -0.780808       0.130875        0.121054        -0.183681       0.572508        0.771899        -0.492512       0.601828        -0.683254       0.0987799       0.147207        -0.34445        0.541153        0.885018        -0.294328      
  2.4e+010        0.0001779       2.5336e-007     0.401203        -0.792814       0.137011        0.120501        -0.157057       0.574952        0.763724        -0.497854       0.577766        -0.69841        0.104646        0.148927        -0.32037        0.550195        0.87751         -0.299875      
  2.5e+010        0.0001779       2.5336e-007     0.367064        -0.800749       0.144109        0.121135        -0.134855       0.579235        0.761652        -0.500925       0.550472        -0.709927       0.111186        0.15088         -0.298238       0.559078        0.868368        -0.307985      
  2.6e+010        0.0001779       2.5336e-007     0.336624        -0.808953       0.153047        0.118486        -0.103242       0.58159         0.739109        -0.52543        0.525492        -0.723073       0.119198        0.152424        -0.273942       0.568267        0.856482        -0.317677      
  2.7e+010        0.0001779       2.5336e-007     0.306144        -0.815203       0.158276        0.116159        -0.078342       0.580399        0.705232        -0.538763       0.500164        -0.734035       0.125336        0.154933        -0.256634       0.579252        0.848959        -0.328906      
  2.8e+010        0.0001779       2.5336e-007     0.274981        -0.820095       0.165203        0.113666        -0.0521315      0.576683        0.687061        -0.559271       0.474376        -0.745046       0.132133        0.157215        -0.236839       0.584961        0.842669        -0.339392      
  2.9e+010        0.0001779       2.5336e-007     0.244726        -0.823543       0.169648        0.111115        -0.031936       0.572897        0.676595        -0.567932       0.44865         -0.754683       0.137134        0.157737        -0.219385       0.588729        0.837952        -0.343504      
  3e+010          0.0001779       2.5336e-007     0.215572        -0.825448       0.174737        0.109504        -0.00934553     0.56675         0.669422        -0.573068       0.424027        -0.761602       0.14263         0.158342        -0.196061       0.58902         0.831258        -0.348364      
  3.1e+010        0.0001779       2.5336e-007     0.188383        -0.826219       0.180519        0.106552        0.0154934       0.562155        0.654449        -0.580437       0.400874        -0.766642       0.149118        0.158276        -0.172082       0.593379        0.821677        -0.356187      
  3.2e+010        0.0001779       2.5336e-007     0.161364        -0.827169       0.185946        0.103592        0.0372185       0.554131        0.636855        -0.590262       0.376905        -0.773399       0.155564        0.158783        -0.151033       0.594547        0.813848        -0.364022      
  3.3e+010        0.0001779       2.5336e-007     0.134853        -0.82697        0.190927        0.100299        0.0551003       0.548278        0.623519        -0.601478       0.353899        -0.779537       0.161358        0.158956        -0.134861       0.59636         0.807556        -0.370299      
  3.4e+010        0.0001779       2.5336e-007     0.106649        -0.824594       0.195612        0.0968605       0.0767596       0.542382        0.611437        -0.609027       0.328282        -0.783134       0.167135        0.158423        -0.113266       0.599031        0.80002         -0.376502      
  3.5e+010        0.0001779       2.5336e-007     0.0838184       -0.822488       0.199931        0.0933633       0.0958578       0.534061        0.597612        -0.61566        0.307611        -0.785437       0.172766        0.15773         -0.0930842      0.598768        0.791923        -0.38244       
  3.6e+010        0.0001779       2.5336e-007     0.0610451       -0.818877       0.203731        0.0895749       0.112804        0.524946        0.579753        -0.623932       0.286653        -0.786297       0.178261        0.156867        -0.074849       0.597915        0.783113        -0.389987      
  3.7e+010        0.0001779       2.5336e-007     0.0388644       -0.815944       0.207152        0.0862675       0.127324        0.515342        0.56826         -0.632253       0.266281        -0.788504       0.182701        0.156131        -0.0588786      0.594036        0.777617        -0.394781      
  3.8e+010        0.0001779       2.5336e-007     0.0166725       -0.815615       0.210972        0.0827081       0.145067        0.509045        0.555464        -0.639024       0.246861        -0.793185       0.187784        0.15525         -0.0408032      0.59555         0.770423        -0.40081       
  3.9e+010        0.0001779       2.5336e-007     -0.00613076     -0.809961       0.213925        0.0792802       0.161747        0.498865        0.540472        -0.64506        0.2249          -0.79259        0.192395        0.154377        -0.0217115      0.593066        0.762136        -0.406724      
  4e+010          0.0001779       2.5336e-007     -0.0288133      -0.806206       0.217492        0.075236        0.175079        0.49017         0.526433        -0.65295        0.203443        -0.794163       0.19764         0.153208        -0.00720733     0.591471        0.75561         -0.412128      
  4.1e+010        0.0001779       2.5336e-007     -0.0477631      -0.801262       0.22091         0.0720098       0.189286        0.48331         0.511861        -0.659906       0.185735        -0.793337       0.202135        0.152432        0.007547        0.591538        0.747406        -0.419305      
  4.2e+010        0.0001779       2.5336e-007     -0.069691       -0.796345       0.224015        0.0671352       0.204782        0.470945        0.497442        -0.664011       0.165525        -0.794509       0.206962        0.150115        0.0268678       0.586496        0.737376        -0.422941      
  4.3e+010        0.0001779       2.5336e-007     -0.0836301      -0.794034       0.226235        0.0640897       0.214761        0.45982         0.484305        -0.669164       0.153161        -0.795371       0.210774        0.150036        0.0390378       0.581303        0.731274        -0.428212      
  4.4e+010        0.0001779       2.5336e-007     -0.107134       -0.785604       0.229296        0.0599093       0.229275        0.451766        0.470218        -0.67393        0.128334        -0.793224       0.21627         0.148338        0.0567901       0.581007        0.723669        -0.432709      
  4.5e+010        0.0001779       2.5336e-007     -0.126729       -0.782016       0.231591        0.0556905       0.239513        0.442683        0.45627         -0.680637       0.110062        -0.793798       0.220295        0.146531        0.0689692       0.578229        0.716262        -0.438481      
  4.6e+010        0.0001779       2.5336e-007     -0.141391       -0.775294       0.233831        0.052022        0.250448        0.431774        0.443814        -0.683774       0.0966264       -0.791151       0.22428         0.145262        0.0830076       0.573335        0.709097        -0.44237       
  4.7e+010        0.0001779       2.5336e-007     -0.158229       -0.773102       0.235746        0.0485026       0.260476        0.422022        0.429236        -0.686834       0.0806451       -0.793432       0.228374        0.144416        0.0969989       0.569942        0.70067         -0.447394      
  4.8e+010        0.0001779       2.5336e-007     -0.17758        -0.764396       0.238428        0.0445236       0.27329         0.411977        0.415032        -0.693041       0.0605991       -0.788525       0.233438        0.142934        0.113944        0.567441        0.692294        -0.452931      
