! VERSION = 6.00
!Data measured by ggf on Tue Jan 23 15:04:55 2018 using model file NPN_MEAS_SCALE
BEGIN_HEADER
 ICCAP_INPUTS
  vbe        V  B GROUND SMU_B 0.015 LIN        2    0.6        -1.8       25   -0.1      
  vc         V  C GROUND SMU_C 0.015 CON        0
  ve         V  E GROUND SMU_E 0 CON        0
  vs         V  S GROUND SMU_S 0 CON        0
  freq       F  LIST       1 74 100000000 200000000 300000000 400000000 500000000 600000000 700000000 800000000 900000000 1000000000 2000000000 3000000000 4000000000 5000000000 6000000000 7000000000 8000000000 9000000000 10000000000 11000000000 12000000000 13000000000 14000000000 15000000000 16000000000 17000000000 18000000000 19000000000 20000000000 21000000000 22000000000 23000000000 24000000000 25000000000 26000000000 27000000000 28000000000 29000000000 30000000000 31000000000 32000000000 33000000000 34000000000 35000000000 36000000000 37000000000 38000000000 39000000000 40000000000 41000000000 42000000000 43000000000 44000000000 45000000000 46000000000 47000000000 48000000000 49000000000 50000000000 51000000000 52000000000 53000000000 54000000000 55000000000 56000000000 57000000000 58000000000 59000000000 60000000000 61000000000 62000000000 63000000000 64000000000 65000000000
 ICCAP_OUTPUTS
  S          S  B C GROUND NWA M
  ib         I  B GROUND SMU_B M
  S_deemb    S B C GROUND n/a B
 ICCAP_VALUES
  TNOM "27"
  TEMP "27"
  TECHNO "SG13G2"
  LOT "EDJ802"
  WAFER "02"
  CHIP "(3.3)"
  MODULE "S439S"
  DEV_NAME "D04"
  DEV_GEOM_L "2.5"
  DEV_GEOM_W "0.07"
  NUM_OF_TRANS_RF "1"
  REMARKS "Nx=4; Power -30/-20dBm, Slope: 0.1dB/GHz"
  TIMEDATE "Tue Jan 23 14:27:30     2018"
  OPERATOR "ggf"
END_HEADER

BEGIN_DB
 ICCAP_VAR vbe        0.6            
 ICCAP_VAR vc         0              
 ICCAP_VAR ve         0              
 ICCAP_VAR vs         0              

 #freq            R:S(1,1)        I:S(1,1)        R:S(1,2)        I:S(1,2)        R:S(2,1)        I:S(2,1)        R:S(2,2)        I:S(2,2)        ib              R:S_deemb(1,1)  I:S_deemb(1,1)  R:S_deemb(1,2)  I:S_deemb(1,2)  R:S_deemb(2,1)  I:S_deemb(2,1)  R:S_deemb(2,2)  I:S_deemb(2,2) 
  1e+008          0.999237        -0.00314587     0.00028429      0.00147729      3.70808e-005    0.00144239      0.993753        -0.0024027      1.9496e-007     0.999239        -0.00219259     0.000223064     0.00135711      0.000122319     0.00119589      0.993624        -0.00128804    
  2e+008          0.999909        -0.00830189     0.000357975     0.00275179      4.50268e-005    0.00271512      0.993561        -0.00542629     1.9496e-007     0.999709        -0.00596051     0.000355935     0.00249074      2.80999e-005    0.00240253      0.993287        -0.00259883    
  3e+008          0.999853        -0.0128218      0.000399186     0.00416642      0.00041589      0.00411448      0.993511        -0.00852984     1.9496e-007     0.999433        -0.00946979     0.000382067     0.00390548      0.000371545     0.00383012      0.993274        -0.00526464    
  4e+008          1.0003          -0.0175091      0.000456341     0.00556878      0.000423003     0.00555027      0.993325        -0.0115214      1.9496e-007     0.99982         -0.0130707      0.000422512     0.00522476      0.000407578     0.00530452      0.993246        -0.00707937    
  5e+008          1.00018         -0.022567       0.000554429     0.00694941      0.0005685       0.00673871      0.993144        -0.0144278      1.9496e-007     0.999597        -0.0163445      0.000498022     0.00653285      0.000550055     0.00628872      0.992959        -0.00886038    
  6e+008          0.99985         -0.0266978      0.000641497     0.00829927      0.000633788     0.00810307      0.992879        -0.0171714      1.9496e-007     0.999656        -0.0196855      0.000585675     0.00782581      0.00061228      0.00759112      0.992646        -0.0105213     
  7e+008          0.99969         -0.0312535      0.000721127     0.0096507       0.000735265     0.00952094      0.993021        -0.0202733      1.9496e-007     0.999326        -0.0232957      0.000641312     0.00906951      0.000675817     0.00891415      0.992903        -0.0124092     
  8e+008          0.999423        -0.0358619      0.000823672     0.0109612       0.00074847      0.010768        0.993177        -0.0230534      1.9496e-007     0.999203        -0.0266933      0.000720003     0.0103007       0.000617293     0.0100914       0.99313         -0.0141197     
  9e+008          0.999023        -0.0403103      0.00096661      0.0123616       0.00091546      0.0121691       0.992933        -0.0258773      1.9496e-007     0.998774        -0.0301363      0.000831335     0.0116142       0.000729063     0.0114347       0.992936        -0.0158536     
  1e+009          0.998834        -0.0448464      0.00111234      0.0136983       0.0010816       0.0134606       0.992552        -0.0287858      1.9496e-007     0.998873        -0.0333625      0.000902533     0.0128647       0.000912135     0.0126721       0.992621        -0.0176124     
  2e+009          0.995141        -0.0891864      0.00288836      0.0269841       0.00289922      0.026538        0.990441        -0.0566958      1.9496e-007     0.996537        -0.0665379      0.00219302      0.0253653       0.00227728      0.0249339       0.991314        -0.0342087     
  3e+009          0.98889         -0.134057       0.00593041      0.0400753       0.00562625      0.0393531       0.986135        -0.0836704      1.9496e-007     0.99277         -0.0999501      0.00436796      0.0378231       0.00412527      0.037033        0.98843         -0.0499847     
  4e+009          0.980251        -0.177111       0.0097324       0.0526658       0.00944033      0.0517716       0.9815          -0.110075       1.9496e-007     0.987323        -0.132302       0.00692174      0.049911        0.00664768      0.0489943       0.985753        -0.0654114     
  5e+009          0.969415        -0.219652       0.0145414       0.0649584       0.0141471       0.0639091       0.975779        -0.13636        1.9496e-007     0.98089         -0.164252       0.0102349       0.061859        0.0099014       0.0607247       0.982576        -0.0808395     
  6e+009          0.956208        -0.261087       0.0202654       0.0765576       0.019565        0.0753134       0.969451        -0.162112       1.9496e-007     0.972778        -0.196285       0.0142267       0.0733232       0.0136218       0.0720177       0.979225        -0.0956982     
  7e+009          0.940797        -0.302847       0.0267757       0.0877359       0.0262245       0.0863818       0.962544        -0.187123       1.9496e-007     0.963506        -0.228091       0.0187255       0.0846331       0.0183234       0.083234        0.975722        -0.11041       
  8e+009          0.923785        -0.341194       0.0340804       0.0981855       0.0331422       0.0969201       0.954346        -0.211556       1.9496e-007     0.953043        -0.257799       0.0238705       0.0954938       0.0230558       0.0941246       0.971349        -0.124732      
  9e+009          0.905605        -0.37899        0.0423629       0.108341        0.040794        0.106497        0.944582        -0.235844       1.9496e-007     0.941743        -0.287325       0.029717        0.106389        0.0283576       0.104374        0.96601         -0.13923       
  1e+010          0.88495         -0.415642       0.0505566       0.116768        0.0494995       0.115519        0.936168        -0.259153       1.9496e-007     0.928679        -0.315561       0.0353977       0.115787        0.034525        0.114453        0.962348        -0.152747      
  1.1e+010        0.862768        -0.450639       0.0602688       0.125756        0.0580369       0.123994        0.924636        -0.282239       1.9496e-007     0.914873        -0.344509       0.0425226       0.126136        0.0405102       0.124062        0.95568         -0.166845      
  1.2e+010        0.839433        -0.483007       0.0698317       0.133208        0.0681131       0.13136         0.913912        -0.304306       1.9496e-007     0.89999         -0.371225       0.0493836       0.135273        0.0478934       0.133199        0.950592        -0.180067      
  1.3e+010        0.814721        -0.515215       0.0801952       0.140119        0.0780361       0.138149        0.90124         -0.325441       1.9496e-007     0.884408        -0.398358       0.0570712       0.144391        0.0551628       0.142053        0.943999        -0.192976      
  1.4e+010        0.788469        -0.544855       0.0908788       0.145897        0.0886197       0.144419        0.889394        -0.346177       1.9496e-007     0.86719         -0.42357        0.0651335       0.152705        0.0630769       0.150814        0.938011        -0.205757      
  1.5e+010        0.762768        -0.57258        0.100997        0.150384        0.0989301       0.148508        0.878384        -0.36583        1.9496e-007     0.850268        -0.447847       0.0728793       0.159862        0.0710316       0.157573        0.93292         -0.217627      
  1.6e+010        0.735243        -0.598294       0.11294         0.155045        0.109323        0.153088        0.863446        -0.385104       1.9496e-007     0.832097        -0.470607       0.0824048       0.167774        0.0790689       0.165185        0.923891        -0.230096      
  1.7e+010        0.707847        -0.623001       0.123154        0.157767        0.119899        0.155895        0.85102         -0.403466       1.9496e-007     0.814066        -0.493316       0.0905483       0.173798        0.0875571       0.171301        0.918803        -0.241363      
  1.8e+010        0.679896        -0.645353       0.135336        0.160625        0.130521        0.159152        0.835198        -0.421919       1.9496e-007     0.794882        -0.51398        0.100685        0.180682        0.0960973       0.178137        0.909654        -0.253358      
  1.9e+010        0.650517        -0.666545       0.144915        0.162077        0.142049        0.160455        0.823591        -0.439533       1.9496e-007     0.774387        -0.535064       0.108527        0.185653        0.105866        0.183334        0.904248        -0.263663      
  2e+010          0.622791        -0.685299       0.156245        0.162809        0.151303        0.161441        0.807927        -0.453884       1.9496e-007     0.755783        -0.552982       0.118569        0.190565        0.113795        0.187962        0.895381        -0.273658      
  2.1e+010        0.593771        -0.703008       0.166393        0.162965        0.162949        0.16222         0.791836        -0.46824        1.9496e-007     0.734868        -0.570941       0.127736        0.194982        0.124389        0.193303        0.887771        -0.284066      
  2.2e+010        0.565798        -0.719163       0.175655        0.16254         0.172261        0.161325        0.777877        -0.484706       1.9496e-007     0.715155        -0.587867       0.136097        0.198759        0.132753        0.196607        0.882479        -0.294482      
  2.3e+010        0.53692         -0.73366        0.186594        0.161498        0.181708        0.161015        0.765482        -0.501344       1.9496e-007     0.6942          -0.604047       0.146077        0.202288        0.141079        0.200563        0.874393        -0.303843      
  2.4e+010        0.508884        -0.748706       0.194874        0.160005        0.190941        0.159496        0.757365        -0.50755        1.9496e-007     0.674463        -0.620249       0.154148        0.203936        0.150249        0.202312        0.867214        -0.309816      
  2.5e+010        0.479383        -0.759971       0.205397        0.160417        0.200385        0.160344        0.753682        -0.511529       1.9496e-007     0.653135        -0.633236       0.163997        0.206446        0.158761        0.205393        0.856564        -0.318725      
  2.6e+010        0.451284        -0.771622       0.218345        0.155904        0.21242         0.157006        0.729831        -0.535805       1.9496e-007     0.632165        -0.647492       0.176086        0.207978        0.169727        0.207559        0.843495        -0.328174      
  2.7e+010        0.423579        -0.78071        0.225688        0.152146        0.221112        0.15387         0.697571        -0.54982        1.9496e-007     0.611659        -0.65918        0.184924        0.21092         0.179599        0.211194        0.837834        -0.339511      
  2.8e+010        0.395524        -0.789316       0.234932        0.148167        0.229562        0.148758        0.68021         -0.570265       1.9496e-007     0.590074        -0.671054       0.194262        0.213558        0.188457        0.212458        0.832566        -0.349419      
  2.9e+010        0.368328        -0.796731       0.241666        0.143967        0.236268        0.145705        0.668468        -0.580152       1.9496e-007     0.56892         -0.682496       0.202039        0.213868        0.195847        0.214057        0.827112        -0.355004      
  3e+010          0.340635        -0.80197        0.248824        0.141046        0.24433         0.142726        0.660933        -0.586556       1.9496e-007     0.547202        -0.691684       0.209913        0.214184        0.20454         0.214448        0.820745        -0.360975      
  3.1e+010        0.316015        -0.807319       0.256314        0.136364        0.251949        0.137963        0.645804        -0.594148       1.9496e-007     0.528857        -0.699505       0.218576        0.213525        0.213553        0.213927        0.811237        -0.368748      
  3.2e+010        0.289791        -0.8115         0.263811        0.131875        0.259411        0.132375        0.627956        -0.605233       1.9496e-007     0.50756         -0.708158       0.227773        0.213936        0.222928        0.21297         0.803754        -0.377767      
  3.3e+010        0.264252        -0.815787       0.27166         0.126367        0.265827        0.129329        0.612814        -0.616199       1.9496e-007     0.487621        -0.717472       0.237304        0.213588        0.230004        0.214906        0.795782        -0.384202      
  3.4e+010        0.237095        -0.81689        0.278084        0.12092         0.273454        0.123603        0.60016         -0.624734       1.9496e-007     0.46497         -0.723315       0.245548        0.212228        0.239402        0.213536        0.788303        -0.391271      
  3.5e+010        0.215045        -0.818581       0.283549        0.11564         0.278779        0.117555        0.585674        -0.632159       1.9496e-007     0.447281        -0.728495       0.253011        0.210793        0.246951        0.211308        0.780177        -0.397973      
  3.6e+010        0.192268        -0.818335       0.288916        0.109609        0.283968        0.112512        0.567911        -0.64003        1.9496e-007     0.428263        -0.73197        0.261125        0.208867        0.254486        0.210536        0.771677        -0.404942      
  3.7e+010        0.170377        -0.818905       0.294379        0.104039        0.289103        0.107763        0.554106        -0.649374       1.9496e-007     0.409939        -0.736928       0.268593        0.207208        0.261725        0.209406        0.764485        -0.4116        
  3.8e+010        0.148746        -0.820915       0.299128        0.0984145       0.295286        0.101749        0.541136        -0.656494       1.9496e-007     0.392712        -0.742998       0.275451        0.205146        0.269856        0.207234        0.757586        -0.417814      
  3.9e+010        0.126195        -0.820394       0.303022        0.0928089       0.298679        0.0952418       0.526277        -0.662492       1.9496e-007     0.373833        -0.746978       0.281987        0.20314         0.276275        0.203926        0.749848        -0.423482      
  4e+010          0.103487        -0.819624       0.308314        0.0863954       0.302952        0.0906124       0.509943        -0.670017       1.9496e-007     0.354175        -0.750867       0.290151        0.200866        0.282646        0.20357         0.741137        -0.429358      
  4.1e+010        0.083943        -0.817874       0.312922        0.0802866       0.308664        0.0854392       0.494897        -0.676551       1.9496e-007     0.337609        -0.752695       0.297135        0.198143        0.290286        0.202297        0.732422        -0.436093      
  4.2e+010        0.0623267       -0.815665       0.316373        0.0737227       0.311975        0.077633        0.481144        -0.682177       1.9496e-007     0.319695        -0.756131       0.303121        0.194936        0.296971        0.197704        0.724275        -0.440936      
  4.3e+010        0.0464014       -0.816736       0.319201        0.0681736       0.314026        0.0728313       0.466042        -0.687471       1.9496e-007     0.307298        -0.760323       0.308859        0.193212        0.301087        0.195879        0.716422        -0.446941      
  4.4e+010        0.0229484       -0.811219       0.323142        0.0619152       0.319333        0.0660901       0.450946        -0.691948       1.9496e-007     0.284833        -0.76091        0.316484        0.190284        0.31029         0.193018        0.708258        -0.451477      
  4.5e+010        0.0042916       -0.810891       0.326288        0.0556089       0.321791        0.0607264       0.437001        -0.698389       1.9496e-007     0.26966         -0.763983       0.322452        0.187404        0.315133        0.191219        0.701139        -0.456841      
  4.6e+010        -0.0121152      -0.807636       0.329414        0.0494696       0.32518         0.0550565       0.422908        -0.70144        1.9496e-007     0.256409        -0.765043       0.328713        0.184515        0.321222        0.188883        0.692555        -0.461305      
  4.7e+010        -0.029941       -0.807263       0.331525        0.0433679       0.328364        0.0493104       0.407365        -0.704041       1.9496e-007     0.241122        -0.769046       0.334473        0.181533        0.327889        0.186339        0.683321        -0.466006      
  4.8e+010        -0.0491872      -0.801388       0.334394        0.0379096       0.33024         0.0417272       0.393695        -0.709852       1.9496e-007     0.223461        -0.766723       0.340545        0.179383        0.333959        0.182414        0.676182        -0.470784      
  4.9e+010        -0.0683111      -0.802931       0.3362          0.030925        0.331644        0.0361182       0.381805        -0.712774       1.9496e-007     0.20755         -0.773856       0.3461          0.174985        0.338496        0.17864         0.669172        -0.474399      
  5e+010          -0.0860181      -0.796134       0.339566        0.0242515       0.336438        0.0326437       0.366954        -0.714492       1.9496e-007     0.190911        -0.772043       0.353339        0.171196        0.345739        0.178927        0.659338        -0.478042      
  5.1e+010        -0.100692       -0.791614       0.3412          0.0183798       0.337855        0.0226468       0.354717        -0.71743        1.9496e-007     0.178233        -0.771564       0.358812        0.168092        0.352706        0.171225        0.652459        -0.481165      
  5.2e+010        -0.118387       -0.785765       0.342572        0.00947117      0.336835        0.0167892       0.341104        -0.720824       1.9496e-007     0.161988        -0.77006        0.365387        0.161882        0.355727        0.167159        0.644564        -0.483981      
