! VERSION = 6.00
!Data measured by ggf on Tue Jan 23 15:04:55 2018 using model file NPN_MEAS_SCALE
BEGIN_HEADER
 ICCAP_INPUTS
  vc         V  C GROUND SMU_C 0.2 SYNC       1 0.5 vb
  ve         V  E GROUND SMU_E 0 CON        0
  vs         V  S GROUND SMU_S 0 CON        0
  freq       F  LIST       1 74 100000000 200000000 300000000 400000000 500000000 600000000 700000000 800000000 900000000 1000000000 2000000000 3000000000 4000000000 5000000000 6000000000 7000000000 8000000000 9000000000 10000000000 11000000000 12000000000 13000000000 14000000000 15000000000 16000000000 17000000000 18000000000 19000000000 20000000000 21000000000 22000000000 23000000000 24000000000 25000000000 26000000000 27000000000 28000000000 29000000000 30000000000 31000000000 32000000000 33000000000 34000000000 35000000000 36000000000 37000000000 38000000000 39000000000 40000000000 41000000000 42000000000 43000000000 44000000000 45000000000 46000000000 47000000000 48000000000 49000000000 50000000000 51000000000 52000000000 53000000000 54000000000 55000000000 56000000000 57000000000 58000000000 59000000000 60000000000 61000000000 62000000000 63000000000 64000000000 65000000000
  vb         V  B GROUND SMU_B 0.015 LIN        2    0.74       0.87       27   0.005     
 ICCAP_OUTPUTS
  ic         I  C GROUND SMU_C M
  ib         I  B GROUND SMU_B M
  S          S  B C GROUND NWA M
  S_deemb    S B C GROUND n/a B
 ICCAP_VALUES
  TNOM "27"
  TEMP "27"
  TECHNO "SG13G2"
  LOT "EDJ802"
  WAFER "02"
  CHIP "(3.3)"
  MODULE "S439S"
  DEV_NAME "D04"
  DEV_GEOM_L "2.5"
  DEV_GEOM_W "0.07"
  NUM_OF_TRANS_RF "1"
  REMARKS "Nx=4; Power -30/-20dBm, Slope: 0.1dB/GHz"
  TIMEDATE "Tue Jan 23 14:27:30     2018"
  OPERATOR "ggf"
END_HEADER

BEGIN_DB
 ICCAP_VAR vc         1.24           
 ICCAP_VAR ve         0              
 ICCAP_VAR vs         0              
 ICCAP_VAR vb         0.74           

 #freq            ic              ib              R:S(1,1)        I:S(1,1)        R:S(1,2)        I:S(1,2)        R:S(2,1)        I:S(2,1)        R:S(2,2)        I:S(2,2)        R:S_deemb(1,1)  I:S_deemb(1,1)  R:S_deemb(1,2)  I:S_deemb(1,2)  R:S_deemb(2,1)  I:S_deemb(2,1)  R:S_deemb(2,2)  I:S_deemb(2,2) 
  1e+008          0.00017902      2.4264e-007     0.99847         -0.00364901     4.46332e-005    0.00091525      -0.725632       -0.00602826     1.0006          -0.00232736     0.998492        -0.00265178     -1.61916e-005   0.000794469     -0.726113       -0.00708746     1.00049         -0.00115704    
  2e+008          0.00017902      2.4264e-007     0.999232        -0.00941662     6.01589e-005    0.00182008      -0.705765       0.000582907     1.00035         -0.00532035     0.999033        -0.0069843      6.05329e-005    0.00155764      -0.706176       -0.00166976     1.00007         -0.00237375    
  3e+008          0.00017902      2.4264e-007     0.999099        -0.0146904      6.40175e-005    0.00275989      -0.708696       0.00538813      1.00039         -0.00805375     0.998687        -0.0112477      5.15987e-005    0.00249745      -0.709078       0.0026004       1.00015         -0.00466193    
  4e+008          0.00017902      2.4264e-007     0.999522        -0.0196573      5.49619e-005    0.00366012      -0.699268       0.010257        1.00028         -0.0107055      0.999061        -0.0151011      2.97116e-005    0.00331376      -0.699645       0.00670833      1.0002          -0.00609657    
  5e+008          0.00017902      2.4264e-007     0.999386        -0.0256196      9.67476e-005    0.0045746       -0.70755        0.0148725       1.0003          -0.0134086      0.998834        -0.0192529      5.44285e-005    0.00415498      -0.707872       0.00999409      1.00012         -0.00763406    
  6e+008          0.00017902      2.4264e-007     0.999037        -0.0303982      0.0001412       0.00550441      -0.707195       0.0185187       1.00023         -0.0161301      0.998875        -0.0232226      0.000104502     0.0050267       -0.707645       0.0128693       0.999993        -0.00923948    
  7e+008          0.00017902      2.4264e-007     0.998818        -0.0354391      0.000222078     0.00642583      -0.707666       0.0243564       0.999972        -0.0188321      0.998498        -0.0272803      0.000167861     0.00583996      -0.708158       0.0177941       0.999847        -0.010679      
  8e+008          0.00017902      2.4264e-007     0.998444        -0.0408163      0.000246206     0.00734249      -0.709755       0.029196        0.999956        -0.0213855      0.998284        -0.0314198      0.000175275     0.00667581      -0.710424       0.0216816       0.999902        -0.0121233     
  9e+008          0.00017902      2.4264e-007     0.998124        -0.0456805      0.000325132     0.00822929      -0.70418        0.0349335       0.999836        -0.0240192      0.99795         -0.0352485      0.000231661     0.00747437      -0.704934       0.0266259       0.999833        -0.0136248     
  1e+009          0.00017902      2.4264e-007     0.997627        -0.0509284      0.000371586     0.00913749      -0.710328       0.0407105       0.999586        -0.0266741      0.997777        -0.0391587      0.000213279     0.0082939       -0.711249       0.03136         0.999662        -0.0150826     
  2e+009          0.00017902      2.4264e-007     0.99285         -0.100892       0.00143739      0.0181617       -0.690623       0.0821434       0.997712        -0.0530167      0.994633        -0.0777183      0.000940676     0.0165058       -0.693135       0.0638792       0.998587        -0.0297029     
  3e+009          0.00017902      2.4264e-007     0.984969        -0.151807       0.0032229       0.0271346       -0.694224       0.119606        0.994738        -0.0788714      0.989731        -0.117001       0.00209795      0.0247778       -0.699583       0.0919337       0.997067        -0.0439059     
  4e+009          0.00017902      2.4264e-007     0.97427         -0.20076        0.00558958      0.0357986       -0.68739        0.163125        0.990779        -0.104234       0.982941        -0.155176       0.00353287      0.0328332       -0.696992       0.126904        0.99516         -0.0578619     
  5e+009          0.00017902      2.4264e-007     0.960962        -0.247958       0.00865326      0.0443198       -0.6685         0.200583        0.98594         -0.129529       0.97483         -0.191838       0.00549647      0.0408428       -0.683117       0.156616        0.992955        -0.0718691     
  6e+009          0.00017902      2.4264e-007     0.944552        -0.294397       0.0122408       0.052388        -0.650776       0.236805        0.980061        -0.154625       0.964448        -0.229083       0.00780344      0.0485411       -0.671231       0.185882        0.990165        -0.0856701     
  7e+009          0.00017902      2.4264e-007     0.925386        -0.339943       0.0164345       0.0603399       -0.635377       0.274146        0.973809        -0.179104       0.952441        -0.26506        0.0104971       0.0563158       -0.662857       0.216402        0.987498        -0.0994409     
  8e+009          0.00017902      2.4264e-007     0.904579        -0.382816       0.0212039       0.0677075       -0.61773        0.307755        0.966063        -0.202902       0.939343        -0.299843       0.013656        0.06371         -0.652803       0.244165        0.983758        -0.112763      
  9e+009          0.00017902      2.4264e-007     0.881947        -0.424119       0.0264295       0.0747495       -0.595584       0.338925        0.957584        -0.226606       0.924766        -0.333637       0.0170601       0.0709938       -0.638642       0.270551        0.979904        -0.126262      
  1e+010          0.00017902      2.4264e-007     0.856663        -0.46445        0.0320725       0.081188        -0.569368       0.370262        0.948167        -0.249563       0.908381        -0.366555       0.0207596       0.0778971       -0.621416       0.298079        0.975506        -0.139299      
  1.1e+010        0.00017902      2.4264e-007     0.829709        -0.502439       0.0380773       0.0873292       -0.548885       0.396678        0.938635        -0.271739       0.890981        -0.399581       0.0248375       0.0846711       -0.609701       0.321109        0.97099         -0.15198       
  1.2e+010        0.00017902      2.4264e-007     0.800741        -0.537939       0.0446089       0.0929652       -0.525141       0.427176        0.927933        -0.293396       0.871792        -0.430877       0.0292493       0.091287        -0.596197       0.349566        0.966242        -0.164583      
  1.3e+010        0.00017902      2.4264e-007     0.770311        -0.571758       0.0512419       0.0979892       -0.50276        0.454881        0.916339        -0.313775       0.851634        -0.461292       0.033816        0.097613        -0.584351       0.375806        0.960999        -0.176425      
  1.4e+010        0.00017902      2.4264e-007     0.739137        -0.601756       0.0585428       0.102353        -0.471649       0.474156        0.904778        -0.334412       0.830379        -0.488634       0.0390695       0.10359         -0.562735       0.395725        0.95565         -0.18902       
  1.5e+010        0.00017902      2.4264e-007     0.708834        -0.629871       0.0658065       0.105984        -0.435607       0.490048        0.892845        -0.353801       0.809604        -0.515153       0.0444614       0.109024        -0.535286       0.414094        0.949824        -0.200828      
  1.6e+010        0.00017902      2.4264e-007     0.675925        -0.655908       0.0729771       0.109241        -0.409946       0.508245        0.880273        -0.372283       0.786763        -0.540344       0.0497624       0.11422         -0.519073       0.433885        0.943359        -0.21209       
  1.7e+010        0.00017902      2.4264e-007     0.64383         -0.680275       0.0805125       0.111815        -0.376992       0.520394        0.866589        -0.390276       0.764459        -0.564884       0.0555841       0.119094        -0.494785       0.449986        0.937186        -0.223303      
  1.8e+010        0.00017902      2.4264e-007     0.610725        -0.702099       0.087702        0.113824        -0.350043       0.535129        0.853359        -0.408028       0.740514        -0.587377       0.0611691       0.123589        -0.476919       0.467953        0.930804        -0.234183      
  1.9e+010        0.00017902      2.4264e-007     0.576149        -0.722802       0.0949834       0.115581        -0.321814       0.550387        0.840427        -0.425112       0.715051        -0.610387       0.0669988       0.127862        -0.457784       0.487599        0.924112        -0.244384      
  2e+010          0.00017902      2.4264e-007     0.543782        -0.740054       0.102127        0.116606        -0.294066       0.556907        0.826069        -0.439326       0.69167         -0.629182       0.0729951       0.131582        -0.437015       0.49923         0.916703        -0.254143      
  2.1e+010        0.00017902      2.4264e-007     0.509964        -0.75657        0.109084        0.117213        -0.267744       0.569709        0.810068        -0.452833       0.665786        -0.648555       0.0790353       0.135118        -0.419205       0.51833         0.90926         -0.263884      
  2.2e+010        0.00017902      2.4264e-007     0.478138        -0.770482       0.116226        0.117496        -0.23572        0.572243        0.794948        -0.468807       0.641672        -0.665622       0.0853448       0.138424        -0.393439       0.528285        0.902674        -0.274242      
  2.3e+010        0.00017902      2.4264e-007     0.445223        -0.78239        0.122825        0.117081        -0.207645       0.576144        0.784498        -0.484466       0.616185        -0.681532       0.0910819       0.140866        -0.37106        0.537966        0.896201        -0.282346      
  2.4e+010        0.00017902      2.4264e-007     0.413644        -0.794967       0.128678        0.116685        -0.180899       0.579268        0.776896        -0.489596       0.592117        -0.697284       0.096602        0.14264         -0.347142       0.547662        0.889238        -0.287512      
  2.5e+010        0.00017902      2.4264e-007     0.379948        -0.803878       0.135552        0.11762         -0.158656       0.584154        0.775525        -0.493036       0.565617        -0.709674       0.102835        0.144877        -0.325158       0.557256        0.880908        -0.296011      
  2.6e+010        0.00017902      2.4264e-007     0.349141        -0.812567       0.14409         0.115217        -0.12718        0.587541        0.753182        -0.518012       0.540527        -0.723422       0.110378        0.146489        -0.301501       0.567209        0.869214        -0.305884      
  2.7e+010        0.00017902      2.4264e-007     0.318025        -0.8194         0.149208        0.113052        -0.102153       0.587592        0.720008        -0.53155        0.514795        -0.735212       0.116269        0.14902         -0.284921       0.579366        0.862635        -0.316715      
  2.8e+010        0.00017902      2.4264e-007     0.286977        -0.825355       0.155788        0.110891        -0.0755461      0.584715        0.702033        -0.552406       0.489606        -0.747288       0.122546        0.15142         -0.26529        0.58574         0.856631        -0.327151      
  2.9e+010        0.00017902      2.4264e-007     0.256473        -0.828711       0.160242        0.108626        -0.0547652      0.58171         0.691768        -0.561122       0.4637          -0.756877       0.127437        0.152163        -0.247646       0.590329        0.85213         -0.331096      
  3e+010          0.00017902      2.4264e-007     0.227454        -0.83083        0.165196        0.107122        -0.0323133      0.575481        0.684954        -0.567098       0.439365        -0.763959       0.132752        0.152822        -0.22454        0.590467        0.846057        -0.336699      
  3.1e+010        0.00017902      2.4264e-007     0.200215        -0.832007       0.170698        0.104581        -0.00794082     0.571575        0.670601        -0.574112       0.416403        -0.769437       0.138782        0.153045        -0.201485       0.59531         0.837057        -0.343868      
  3.2e+010        0.00017902      2.4264e-007     0.173013        -0.833496       0.176079        0.101828        0.0151434       0.564425        0.653042        -0.584334       0.392493        -0.776872       0.145058        0.153705        -0.179543       0.597801        0.829445        -0.351934      
  3.3e+010        0.00017902      2.4264e-007     0.145711        -0.833717       0.180933        0.0986754       0.0336527       0.559367        0.639683        -0.595976       0.36886         -0.783736       0.150646        0.153929        -0.163159       0.600591        0.823257        -0.358499      
  3.4e+010        0.00017902      2.4264e-007     0.117234        -0.831251       0.185439        0.0953861       0.0551455       0.554076        0.628178        -0.603697       0.343027        -0.787339       0.156145        0.15345         -0.142141       0.603792        0.816405        -0.364581      
  3.5e+010        0.00017902      2.4264e-007     0.094045        -0.829467       0.189627        0.0923056       0.0752733       0.54611         0.614381        -0.610719       0.322131        -0.790149       0.16147         0.153127        -0.121138       0.604267        0.808497        -0.370832      
  3.6e+010        0.00017902      2.4264e-007     0.0706263       -0.826476       0.193474        0.0885951       0.0920608       0.53771         0.597401        -0.618564       0.300729        -0.79196        0.166929        0.152324        -0.103586       0.604105        0.800519        -0.377446      
  3.7e+010        0.00017902      2.4264e-007     0.048443        -0.823513       0.196752        0.0857066       0.107618        0.528414        0.585595        -0.628065       0.280398        -0.79417        0.171056        0.151954        -0.0867296      0.600906        0.795117        -0.383476      
  3.8e+010        0.00017902      2.4264e-007     0.0254759       -0.823505       0.200371        0.0824185       0.126095        0.522781        0.572958        -0.634856       0.26029         -0.799514       0.1758          0.151254        -0.0682516      0.603409        0.78812         -0.389372      
  3.9e+010        0.00017902      2.4264e-007     0.00264387      -0.819143       0.203395        0.0790606       0.142905        0.513003        0.558821        -0.640923       0.2388          -0.800412       0.180406        0.150463        -0.0494223      0.601435        0.78078         -0.394848      
  4e+010          0.00017902      2.4264e-007     -0.0197794      -0.815211       0.206851        0.075561        0.155756        0.504209        0.544331        -0.648979       0.217661        -0.801765       0.185299        0.149789        -0.0355833      0.599489        0.773877        -0.400465      
  4.1e+010        0.00017902      2.4264e-007     -0.0409539      -0.81051        0.210176        0.072231        0.171568        0.497585        0.530365        -0.656645       0.197576        -0.801984       0.189724        0.148839        -0.0192664      0.600483        0.766636        -0.408002      
  4.2e+010        0.00017902      2.4264e-007     -0.0624153      -0.805113       0.213496        0.068068        0.187287        0.48653         0.516069        -0.660952       0.177756        -0.802575       0.194466        0.147334        -0.000374876    0.59695         0.75681         -0.411756      
  4.3e+010        0.00017902      2.4264e-007     -0.0771843      -0.802239       0.215376        0.0646656       0.197789        0.474308        0.503153        -0.666528       0.164353        -0.803081       0.197995        0.146691        0.0126472       0.590725        0.751207        -0.417192      
  4.4e+010        0.00017902      2.4264e-007     -0.100503       -0.794553       0.21836         0.0610176       0.2125          0.467543        0.488955        -0.671942       0.139994        -0.801856       0.203173        0.14557         0.0299263       0.592066        0.743821        -0.422371      
  4.5e+010        0.00017902      2.4264e-007     -0.119845       -0.790084       0.220994        0.0571155       0.224438        0.457784        0.475483        -0.67835        0.121687        -0.801352       0.207376        0.144181        0.0440713       0.589158        0.736769        -0.427455      
  4.6e+010        0.00017902      2.4264e-007     -0.136118       -0.784078       0.223137        0.0533996       0.234697        0.447972        0.462926        -0.681815       0.10673         -0.800175       0.211283        0.142797        0.0568608       0.585275        0.729696        -0.43166       
  4.7e+010        0.00017902      2.4264e-007     -0.153042       -0.781635       0.22502         0.0500869       0.245475        0.43822         0.448535        -0.685196       0.090563        -0.802277       0.215202        0.14217         0.0715308       0.582267        0.721698        -0.436865      
  4.8e+010        0.00017902      2.4264e-007     -0.172392       -0.772696       0.227765        0.0462024       0.25925         0.428421        0.43452         -0.691376       0.0703908       -0.797148       0.220285        0.140793        0.0893258       0.580475        0.713483        -0.442182      
