! VERSION = 6.00
!Data measured by ggf on Mon Feb 19 08:46:19 2018 using model file NPN_MEAS_SCALE
BEGIN_HEADER
 ICCAP_INPUTS
  vc         V  C GROUND SMU_C 0.2 SYNC       1 1 vb
  ve         V  E GROUND SMU_E 0 CON        0
  vs         V  S GROUND SMU_S 0 CON        0
  freq       F  LIST       1 74 100000000 200000000 300000000 400000000 500000000 600000000 700000000 800000000 900000000 1000000000 2000000000 3000000000 4000000000 5000000000 6000000000 7000000000 8000000000 9000000000 10000000000 11000000000 12000000000 13000000000 14000000000 15000000000 16000000000 17000000000 18000000000 19000000000 20000000000 21000000000 22000000000 23000000000 24000000000 25000000000 26000000000 27000000000 28000000000 29000000000 30000000000 31000000000 32000000000 33000000000 34000000000 35000000000 36000000000 37000000000 38000000000 39000000000 40000000000 41000000000 42000000000 43000000000 44000000000 45000000000 46000000000 47000000000 48000000000 49000000000 50000000000 51000000000 52000000000 53000000000 54000000000 55000000000 56000000000 57000000000 58000000000 59000000000 60000000000 61000000000 62000000000 63000000000 64000000000 65000000000
  vb         V  B GROUND SMU_B 0.015 LIN        2    0.74       0.87       27   0.005     
 ICCAP_OUTPUTS
  ic         I  C GROUND SMU_C M
  ib         I  B GROUND SMU_B M
  S          S  B C GROUND NWA M
  S_deemb    S B C GROUND n/a B
 ICCAP_VALUES
  TNOM "27"
  TEMP "27"
  TECHNO "SG13G2"
  LOT "EDJ802"
  WAFER "02"
  CHIP "(3.3)"
  MODULE "S439S"
  DEV_NAME "D04"
  DEV_GEOM_L "2.5"
  DEV_GEOM_W "0.07"
  NUM_OF_TRANS_RF "1"
  REMARKS "Nx=4; Power -30/-20dBm, Slope: 0.1dB/GHz"
  TIMEDATE "Tue Jan 23 14:27:30     2018"
  OPERATOR "ggf"
END_HEADER

BEGIN_DB
 ICCAP_VAR vc         1.74           
 ICCAP_VAR ve         0              
 ICCAP_VAR vs         0              
 ICCAP_VAR vb         0.74           

 #freq            ic              ib              R:S(1,1)        I:S(1,1)        R:S(1,2)        I:S(1,2)        R:S(2,1)        I:S(2,1)        R:S(2,2)        I:S(2,2)        R:S_deemb(1,1)  I:S_deemb(1,1)  R:S_deemb(1,2)  I:S_deemb(1,2)  R:S_deemb(2,1)  I:S_deemb(2,1)  R:S_deemb(2,2)  I:S_deemb(2,2) 
  1e+008          0.00018026      2.3662e-007     0.998592        -0.00385788     -7.60061e-006   0.000945666     -0.729527       -0.00547518     1.00053         -0.00246414     0.998615        -0.00286037     -6.84786e-005   0.000824834     -0.730015       -0.00653978     1.00042         -0.00129358    
  2e+008          0.00018026      2.3662e-007     0.999102        -0.00938693     6.16774e-005    0.00185134      -0.709287       0.000726643     1.00056         -0.00588232     0.998907        -0.00695437     6.18992e-005    0.00158889      -0.709706       -0.00153769     1.00029         -0.00293473    
  3e+008          0.00018026      2.3662e-007     0.99885         -0.0140122      9.48511e-005    0.00271717      -0.712022       0.00483184      1.00031         -0.00787973     0.998439        -0.0105699      8.26905e-005    0.0024549       -0.712408       0.00203604      1.00007         -0.00448787    
  4e+008          0.00018026      2.3662e-007     0.999513        -0.0195181      9.73328e-005    0.00359898      -0.702942       0.0103019       1.00015         -0.0105441      0.999048        -0.0149615      7.24055e-005    0.00325286      -0.703324       0.00673691      1.00007         -0.00593534    
  5e+008          0.00018026      2.3662e-007     0.999027        -0.0249405      9.93794e-005    0.0044943       -0.71085        0.0143719       1.00027         -0.0131841      0.998467        -0.0185757      5.77585e-005    0.00407481      -0.711173       0.00947693      1.00008         -0.00740933    
  6e+008          0.00018026      2.3662e-007     0.999114        -0.0301856      0.000149785     0.00540776      -0.710822       0.0185059       1.00009         -0.0158515      0.998949        -0.0230089      0.000113892     0.00493015      -0.711276       0.0128319       0.999849        -0.00896136    
  7e+008          0.00018026      2.3662e-007     0.998804        -0.0353101      0.000193855     0.00627522      -0.711029       0.0240081       0.999937        -0.0185775      0.998482        -0.0271509      0.000141001     0.0056892       -0.711524       0.0174182       0.999813        -0.0104244     
  8e+008          0.00018026      2.3662e-007     0.99843         -0.0406004      0.00026112      0.00719271      -0.713515       0.0289405       0.99983         -0.02116        0.998265        -0.0312033      0.000191747     0.00652626      -0.714186       0.0213908       0.999776        -0.0118984     
  9e+008          0.00018026      2.3662e-007     0.998125        -0.0455342      0.000299171     0.00810195      -0.707515       0.0347729       0.999946        -0.0237352      0.997952        -0.0351013      0.000207212     0.00734676      -0.708271       0.02643         0.999937        -0.0133389     
  1e+009          0.00018026      2.3662e-007     0.997748        -0.0506156      0.000375315     0.00899051      -0.713947       0.0403261       0.99963         -0.0262802      0.997898        -0.0388434      0.000219045     0.00814693      -0.714868       0.0309336       0.999704        -0.0146871     
  2e+009          0.00018026      2.3662e-007     0.992992        -0.100247       0.00139907      0.0178181       -0.694306       0.0814626       0.997857        -0.0522948      0.994753        -0.0770671      0.000911631     0.0161609       -0.696799       0.0631118       0.998713        -0.0289753     
  3e+009          0.00018026      2.3662e-007     0.985244        -0.151116       0.00311119      0.0266102       -0.698465       0.118786        0.994917        -0.077321       0.989978        -0.116294       0.00200763      0.0242481       -0.70379        0.0909611       0.997187        -0.0423441     
  4e+009          0.00018026      2.3662e-007     0.9747          -0.199712       0.00543948      0.0351194       -0.691762       0.162053        0.991145        -0.102905       0.983315        -0.154098       0.00341849      0.0321439       -0.701305       0.125618        0.995458        -0.0565075     
  5e+009          0.00018026      2.3662e-007     0.961529        -0.246916       0.00839836      0.0434968       -0.673137       0.19959         0.986515        -0.128071       0.975327        -0.190747       0.00529432      0.0399993       -0.687685       0.155332        0.993436        -0.070365      
  6e+009          0.00018026      2.3662e-007     0.945449        -0.293225       0.0119176       0.0514544       -0.655453       0.235723        0.980851        -0.152869       0.965257        -0.227825       0.00755123      0.0475751       -0.675818       0.18444         0.990822        -0.0838404     
  7e+009          0.00018026      2.3662e-007     0.92642         -0.338632       0.0160425       0.0592622       -0.640355       0.273           0.974669        -0.177227       0.953361        -0.263632       0.0101996       0.0551919       -0.667727       0.214804        0.988192        -0.0974687     
  8e+009          0.00018026      2.3662e-007     0.905685        -0.382023       0.0206312       0.0665758       -0.622975       0.307061        0.967163        -0.200889       0.940376        -0.298909       0.0131922       0.0625063       -0.657983       0.242924        0.984659        -0.110613      
  9e+009          0.00018026      2.3662e-007     0.883534        -0.42344        0.0257364       0.0734828       -0.60129        0.338385        0.958935        -0.224434       0.926291        -0.332745       0.0165003       0.0696284       -0.644302       0.269333        0.981017        -0.123904      
  1e+010          0.00018026      2.3662e-007     0.858352        -0.46389        0.0313271       0.079827        -0.575191       0.370104        0.949723        -0.247228       0.910022        -0.365745       0.0201709       0.0764164       -0.627245       0.29715         0.976783        -0.136729      
  1.1e+010        0.00018026      2.3662e-007     0.831743        -0.500562       0.0371638       0.085917        -0.554989       0.395532        0.940342        -0.269335       0.892796        -0.397354       0.0241039       0.0830988       -0.615667       0.319057        0.97238         -0.149289      
  1.2e+010        0.00018026      2.3662e-007     0.802925        -0.536343       0.0435262       0.0914987       -0.531665       0.426289        0.929874        -0.290863       0.873792        -0.428877       0.0283626       0.0896176       -0.602632       0.347624        0.967826        -0.161696      
  1.3e+010        0.00018026      2.3662e-007     0.772313        -0.570828       0.0500427       0.0964906       -0.509295       0.454719        0.918573        -0.311115       0.853548        -0.459967       0.0328239       0.0958755       -0.590932       0.374512        0.962841        -0.173332      
  1.4e+010        0.00018026      2.3662e-007     0.741436        -0.600426       0.0571983       0.100835        -0.478389       0.473755        0.907152        -0.331711       0.832537        -0.486813       0.0379439       0.101785        -0.569498       0.394052        0.957603        -0.18582       
  1.5e+010        0.00018026      2.3662e-007     0.711123        -0.6293         0.0642556       0.104427        -0.441956       0.490106        0.895374        -0.351039       0.811887        -0.514085       0.0431366       0.107126        -0.541767       0.412879        0.951903        -0.197505      
  1.6e+010        0.00018026      2.3662e-007     0.678412        -0.655272       0.0713365       0.107712        -0.416538       0.508516        0.882998        -0.369542       0.789255        -0.53914        0.0483477       0.112309        -0.525872       0.432755        0.945623        -0.208713      
  1.7e+010        0.00018026      2.3662e-007     0.646473        -0.67996        0.0787271       0.110266        -0.38353        0.52089         0.869555        -0.38753        0.767191        -0.563951       0.0540261       0.11711         -0.501622       0.449015        0.939679        -0.219829      
  1.8e+010        0.00018026      2.3662e-007     0.613445        -0.701741       0.0857876       0.112325        -0.356839       0.535859        0.856471        -0.405209       0.74334         -0.586354       0.0594736       0.121604        -0.484106       0.467084        0.933416        -0.230559      
  1.9e+010        0.00018026      2.3662e-007     0.578944        -0.722398       0.0929528       0.114113        -0.32874        0.551518        0.843815        -0.422293       0.717971        -0.609274       0.0651791       0.125856        -0.465236       0.487031        0.926989        -0.240656      
  2e+010          0.00018026      2.3662e-007     0.54646         -0.740008       0.100007        0.115201        -0.300966       0.558205        0.829602        -0.436572       0.694567        -0.628445       0.0710674       0.129601        -0.444538       0.498781        0.919736        -0.250407      
  2.1e+010        0.00018026      2.3662e-007     0.512865        -0.756639       0.106852        0.115792        -0.274728       0.570949        0.813772        -0.450102       0.668971        -0.647863       0.0769879       0.133069        -0.426875       0.517726        0.912473        -0.260077      
  2.2e+010        0.00018026      2.3662e-007     0.480829        -0.770536       0.11384         0.116139        -0.242461       0.573595        0.798697        -0.466092       0.64466         -0.664943       0.0831217       0.136378        -0.400937       0.527793        0.905934        -0.270385      
  2.3e+010        0.00018026      2.3662e-007     0.448134        -0.782621       0.120417        0.115761        -0.214455       0.577861        0.788588        -0.48187        0.619475        -0.680971       0.0888223       0.138829        -0.378777       0.53776         0.899815        -0.278484      
  2.4e+010        0.00018026      2.3662e-007     0.41642         -0.795188       0.126198        0.11544         -0.187726       0.581411        0.781022        -0.487051       0.595284        -0.696734       0.0942497       0.140652        -0.355016       0.547877        0.892907        -0.283691      
  2.5e+010        0.00018026      2.3662e-007     0.38293         -0.804218       0.132772        0.11643         -0.165318       0.586448        0.779816        -0.490431       0.569052        -0.709181       0.100158        0.142873        -0.332902       0.55768         0.884733        -0.292138      
  2.6e+010        0.00018026      2.3662e-007     0.352019        -0.812629       0.141397        0.114107        -0.133658       0.590021        0.757788        -0.515563       0.543806        -0.722658       0.107775        0.144557        -0.309172       0.567782        0.873346        -0.302013      
  2.7e+010        0.00018026      2.3662e-007     0.320945        -0.820137       0.146361        0.111966        -0.108783       0.590243        0.724546        -0.529393       0.518339        -0.735165       0.113472        0.147039        -0.292975       0.580056        0.866836        -0.313024      
  2.8e+010        0.00018026      2.3662e-007     0.289832        -0.825153       0.15288         0.109961        -0.0823522      0.587427        0.706813        -0.550069       0.492863        -0.746224       0.119628        0.149524        -0.273616       0.58629         0.86102         -0.323088      
  2.9e+010        0.00018026      2.3662e-007     0.259432        -0.829689       0.157196        0.107639        -0.0613441      0.58427         0.696387        -0.559373       0.467435        -0.757044       0.124377        0.150161        -0.255783       0.590789        0.856538        -0.327634      
  3e+010          0.00018026      2.3662e-007     0.230502        -0.831501       0.162192        0.106186        -0.0381608      0.579337        0.689949        -0.564891       0.443108        -0.763783       0.129715        0.150863        -0.232322       0.592495        0.850689        -0.332653      
  3.1e+010        0.00018026      2.3662e-007     0.202822        -0.833306       0.167778        0.103842        -0.0137675      0.5751          0.6757          -0.572091       0.419871        -0.770071       0.13577         0.151316        -0.209202       0.597008        0.841864        -0.339953      
  3.2e+010        0.00018026      2.3662e-007     0.175882        -0.834742       0.172962        0.10118         0.00952859      0.567789        0.658249        -0.582442       0.39627         -0.77737        0.141784        0.151988        -0.187075       0.599368        0.834433        -0.348051      
  3.3e+010        0.00018026      2.3662e-007     0.148661        -0.834656       0.177924        0.0980848       0.0276378       0.562965        0.645099        -0.593667       0.372664        -0.783877       0.147454        0.152272        -0.171268       0.602198        0.828307        -0.35405       
  3.4e+010        0.00018026      2.3662e-007     0.119662        -0.83285        0.182287        0.095038        0.0493589       0.557791        0.633554        -0.602065       0.346491        -0.788388       0.152717        0.152013        -0.1501         0.605657        0.821667        -0.36083       
  3.5e+010        0.00018026      2.3662e-007     0.0966082       -0.831194       0.186474        0.0920083       0.0696876       0.550173        0.619857        -0.609042       0.325801        -0.791311       0.15801         0.15173         -0.129067       0.60657         0.813851        -0.366969      
  3.6e+010        0.00018026      2.3662e-007     0.0725458       -0.828414       0.190286        0.0882368       0.0863765       0.541814        0.60294         -0.617025       0.303774        -0.793575       0.163447        0.150841        -0.11169        0.606438        0.806013        -0.373646      
  3.7e+010        0.00018026      2.3662e-007     0.0507452       -0.825198       0.193633        0.0855321       0.101692        0.532867        0.591203        -0.626544       0.283806        -0.795402       0.167568        0.150671        -0.0952887      0.603484        0.800688        -0.379632      
  3.8e+010        0.00018026      2.3662e-007     0.0272672       -0.82482        0.197282        0.0821653       0.120742        0.527029        0.578719        -0.63362        0.263009        -0.800497       0.17237         0.149884        -0.0761413      0.605971        0.793957        -0.385725      
  3.9e+010        0.00018026      2.3662e-007     0.00488417      -0.82019        0.200133        0.0791513       0.137684        0.516961        0.563993        -0.640337       0.241957        -0.800959       0.176661        0.149391        -0.0571033      0.603736        0.786283        -0.392097      
  4e+010          0.00018026      2.3662e-007     -0.0177461      -0.816547       0.203611        0.0754495       0.151194        0.508739        0.550303        -0.647252       0.220675        -0.802712       0.181616        0.148472        -0.0428487      0.602607        0.779741        -0.396112      
  4.1e+010        0.00018026      2.3662e-007     -0.0384606      -0.812491       0.207025        0.0723903       0.167232        0.502307        0.536134        -0.655657       0.201338        -0.803524       0.186026        0.147864        -0.0264424      0.603968        0.772609        -0.404498      
  4.2e+010        0.00018026      2.3662e-007     -0.0602456      -0.806798       0.20995         0.0680519       0.182897        0.490882        0.522204        -0.660089       0.181096        -0.803884       0.190392        0.145999        -0.00750655     0.6             0.763243        -0.408165      
  4.3e+010        0.00018026      2.3662e-007     -0.076418       -0.803464       0.212338        0.0648055       0.193278        0.47895         0.508925        -0.66558        0.165923        -0.804398       0.194432        0.145697        0.00531038      0.59403         0.757212        -0.413646      
  4.4e+010        0.00018026      2.3662e-007     -0.0984902      -0.796109       0.214949        0.0611805       0.208194        0.472647        0.494814        -0.670875       0.143113        -0.803133       0.199151        0.144453        0.0224955       0.595979        0.749895        -0.418624      
  4.5e+010        0.00018026      2.3662e-007     -0.118315       -0.79266        0.217615        0.0574749       0.219373        0.46332         0.481591        -0.677826       0.124649        -0.804015       0.203311        0.143315        0.0355592       0.593335        0.743383        -0.424149      
  4.6e+010        0.00018026      2.3662e-007     -0.134245       -0.786654       0.219957        0.0539689       0.231004        0.452299        0.468959        -0.681541       0.110061        -0.802678       0.207336        0.14224         0.0503403       0.588697        0.736325        -0.42861       
  4.7e+010        0.00018026      2.3662e-007     -0.151535       -0.783502       0.22159         0.0504139       0.241127        0.443222        0.454666        -0.684628       0.0932495       -0.804144       0.211061        0.141216        0.0639579       0.586124        0.728347        -0.433422      
  4.8e+010        0.00018026      2.3662e-007     -0.171161       -0.77498        0.224597        0.0466141       0.254914        0.432714        0.440827        -0.691006       0.0729102       -0.799592       0.216403        0.140053        0.0820451       0.583593        0.720406        -0.438824      
