! VERSION = 6.00
!Data measured by ggf on Wed Jan 24 08:24:19 2018 using model file NPN_MEAS_SCALE
BEGIN_HEADER
 ICCAP_INPUTS
  ve         V  E GROUND SMU_E 0.2 CON        0
  vc         V  C GROUND SMU_C 0.2 SYNC       1 0.5 vb
  vs         V  S GROUND SMU_S 0.015 CON        0
  vb         V  B GROUND SMU_B 0.015 LIN        1    -1         1          101  0.02      
 ICCAP_OUTPUTS
  ib         I  B GROUND SMU_B M
  ic         I  C GROUND SMU_C M
 ICCAP_VALUES
  TNOM "27"
  TEMP "27"
  TECHNO "SG13G2"
  LOT "EDJ802"
  WAFER "02"
  CHIP "(3.3)"
  MODULE "S439S"
  DEV_NAME "D01"
  DEV_GEOM_L "5.0"
  DEV_GEOM_W "0.07"
  NUM_OF_TRANS_RF "1"
  REMARKS "Nx=2; Power -30/-20dBm, Slope: 0.1dB/GHz"
  TIMEDATE "Wed Jan 24 08:06:18     2018"
  OPERATOR "ggf"
END_HEADER

BEGIN_DB
 ICCAP_VAR ve         0              
 ICCAP_VAR vs         0              

 #vb              vc              ib              ic             
  -1              -0.5            -1.459e-006     -1.2952e-006   
  -0.98           -0.48           -1.2932e-006    -7.2048e-007   
  -0.96           -0.46           -1.144e-006     -3.861e-007    
  -0.94           -0.44           -1.0094e-006    -1.9858e-007   
  -0.92           -0.42           -8.8808e-007    -9.832e-008    
  -0.9            -0.4            -7.804e-007     -4.7984e-008   
  -0.88           -0.38           -6.841e-007     -2.2434e-008   
  -0.86           -0.36           -5.9754e-007    -8.402e-009    
  -0.84           -0.34           -5.2152e-007    -4.5408e-009   
  -0.82           -0.32           -4.5324e-007    -2.34e-009     
  -0.8            -0.3            -3.9324e-007    -7.1744e-010   
  -0.78           -0.28           -3.4022e-007    1.1146e-010    
  -0.76           -0.26           -2.935e-007     -5.87e-010     
  -0.74           -0.24           -2.523e-007     -3.226e-010    
  -0.72           -0.22           -2.164e-007     -2.446e-010    
  -0.7            -0.2            -1.8494e-007    -2.152e-010    
  -0.68           -0.18           -1.5734e-007    -2.186e-010    
  -0.66           -0.16           -1.3374e-007    -1.8e-010      
  -0.64           -0.14           -1.1306e-007    -7.76e-011     
  -0.62           -0.12           -9.5304e-008    -6.18e-011     
  -0.6            -0.1            -8.008e-008     -1.752e-010    
  -0.58           -0.08           -6.7018e-008    -7.78e-011     
  -0.56           -0.06           -5.5778e-008    -2.34e-011     
  -0.54           -0.04           -4.627e-008     -1.174e-010    
  -0.52           -0.02           -3.8206e-008    -7.6e-011      
  -0.5            0               -3.1358e-008    2.96e-011      
  -0.48           0.02            -2.5658e-008    6.02e-011      
  -0.46           0.04            -2.086e-008     4.78e-011      
  -0.44           0.06            -1.6878e-008    9.06e-011      
  -0.42           0.08            -1.356e-008     1.78e-011      
  -0.4            0.1             -1.0838e-008    9.18e-011      
  -0.38           0.12            -8.6014e-009    3.94e-011      
  -0.36           0.14            -6.7798e-009    8.7e-011       
  -0.34           0.16            -5.3104e-009    -2.98e-011     
  -0.32           0.18            -4.1172e-009    -1.146e-010    
  -0.3            0.2             -3.1578e-009    -4.36e-011     
  -0.28           0.22            -2.3996e-009    -4.6e-012      
  -0.26           0.24            -1.8076e-009    -1e-011        
  -0.24           0.26            -1.3432e-009    -7.92e-011     
  -0.22           0.28            -9.838e-010     -5.08e-011     
  -0.2            0.3             -7.1012e-010    -1.34e-011     
  -0.18           0.32            -5.02e-010      -1.444e-010    
  -0.16           0.34            -3.4524e-010    -7.56e-011     
  -0.14           0.36            -2.3208e-010    -1.528e-010    
  -0.12           0.38            -1.5052e-010    -7.68e-011     
  -0.1            0.4             -9.034e-011     -7.84e-011     
  -0.08           0.42            -4.77e-011      -1.996e-010    
  -0.06           0.44            -2.384e-011     -1.012e-010    
  -0.04           0.46            -8.22e-012      -1.122e-010    
  -0.02           0.48            4.52e-012       -3.72e-011     
  0               0.5             1.21e-011       -2.76e-011     
  0.02            0.52            1.676e-011      -5.3e-011      
  0.04            0.54            1.598e-011      1.2e-011       
  0.06            0.56            1.828e-011      -8.54e-011     
  0.08            0.58            1.814e-011      6.8e-012       
  0.1             0.6             1.438e-011      -1.432e-010    
  0.12            0.62            1.656e-011      2e-012         
  0.14            0.64            1.81e-011       -1.242e-010    
  0.16            0.66            1.55e-011       -3.02e-011     
  0.18            0.68            1.8e-011        -2.84e-011     
  0.2             0.7             1.63e-011       4.24e-011      
  0.22            0.72            1.474e-011      -7.74e-011     
  0.24            0.74            1.424e-011      -7.64e-011     
  0.26            0.76            1.406e-011      -2.26e-011     
  0.28            0.78            1.106e-011      -9.6e-011      
  0.3             0.8             1.652e-011      -4.18e-011     
  0.32            0.82            1.45e-011       3.5e-011       
  0.34            0.84            1.478e-011      -1.84e-011     
  0.36            0.86            1.506e-011      1.184e-010     
  0.38            0.88            1.424e-011      8.54e-011      
  0.4             0.9             1.778e-011      3.152e-010     
  0.42            0.92            1.748e-011      6.898e-010     
  0.44            0.94            2.062e-011      1.4872e-009    
  0.46            0.96            2.7e-011        3.1848e-009    
  0.48            0.98            2.956e-011      1.0412e-008    
  0.5             1               5.624e-011      1.761e-008     
  0.52            1.02            9.412e-011      3.7172e-008    
  0.54            1.04            1.697e-010      7.9082e-008    
  0.56            1.06            3.239e-010      1.6686e-007    
  0.58            1.08            6.4042e-010     3.5622e-007    
  0.6             1.1             1.3198e-009     7.625e-007     
  0.62            1.12            2.7248e-009     1.641e-006     
  0.64            1.14            5.6122e-009     3.5122e-006    
  0.66            1.16            1.1726e-008     7.5098e-006    
  0.68            1.18            2.4658e-008     1.6094e-005    
  0.7             1.2             5.2106e-008     3.4258e-005    
  0.72            1.22            1.0928e-007     7.2882e-005    
  0.74            1.24            2.2978e-007     0.00015382     
  0.76            1.26            4.7854e-007     0.00032126     
  0.78            1.28            9.8944e-007     0.00066196     
  0.8             1.3             2.0006e-006     0.0013208      
  0.82            1.32            3.95e-006       0.0025276      
  0.84            1.34            7.5622e-006     0.004505       
  0.86            1.36            1.789e-005      0.0067784      
  0.88            1.38            4.8948e-005     0.0079894      
  0.9             1.4             0.000106474     0.0092914      
  0.92            1.42            0.00020508      0.0111118      
  0.94            1.44            0.00035984      0.013538       
  0.96            1.46            0.00059318      0.016582       
  0.98            1.48            0.0009232       0.020134       
  1               1.5             0.0013754       0.024168       
END_DB

