! VERSION = 6.00
!Data measured by ggf on Wed Jan 24 08:24:19 2018 using model file NPN_MEAS_SCALE
BEGIN_HEADER
 ICCAP_INPUTS
  vce        V  C GROUND SMU_C 0.015 LIN        2    1.8        -0.6       25   -0.1      
  vb         V  B GROUND SMU_B 0.015 CON        0
  ve         V  E GROUND SMU_E 0 CON        0
  vs         V  S GROUND SMU_S 0 CON        0
  freq       F  LIST       1 74 100000000 200000000 300000000 400000000 500000000 600000000 700000000 800000000 900000000 1000000000 2000000000 3000000000 4000000000 5000000000 6000000000 7000000000 8000000000 9000000000 10000000000 11000000000 12000000000 13000000000 14000000000 15000000000 16000000000 17000000000 18000000000 19000000000 20000000000 21000000000 22000000000 23000000000 24000000000 25000000000 26000000000 27000000000 28000000000 29000000000 30000000000 31000000000 32000000000 33000000000 34000000000 35000000000 36000000000 37000000000 38000000000 39000000000 40000000000 41000000000 42000000000 43000000000 44000000000 45000000000 46000000000 47000000000 48000000000 49000000000 50000000000 51000000000 52000000000 53000000000 54000000000 55000000000 56000000000 57000000000 58000000000 59000000000 60000000000 61000000000 62000000000 63000000000 64000000000 65000000000
 ICCAP_OUTPUTS
  S          S  B C GROUND NWA M
  ic         I  C GROUND SMU_C M
  S_deemb    S B C GROUND n/a B
 ICCAP_VALUES
  TNOM "27"
  TEMP "27"
  TECHNO "SG13G2"
  LOT "EDJ802"
  WAFER "02"
  CHIP "(3.3)"
  MODULE "S439S"
  DEV_NAME "D01"
  DEV_GEOM_L "5.0"
  DEV_GEOM_W "0.07"
  NUM_OF_TRANS_RF "1"
  REMARKS "Nx=2; Power -30/-20dBm, Slope: 0.1dB/GHz"
  TIMEDATE "Wed Jan 24 08:06:18     2018"
  OPERATOR "ggf"
END_HEADER

BEGIN_DB
 ICCAP_VAR vce        1.8            
 ICCAP_VAR vb         0              
 ICCAP_VAR ve         0              
 ICCAP_VAR vs         0              

 #freq            R:S(1,1)        I:S(1,1)        R:S(1,2)        I:S(1,2)        R:S(2,1)        I:S(2,1)        R:S(2,2)        I:S(2,2)        ic              R:S_deemb(1,1)  I:S_deemb(1,1)  R:S_deemb(1,2)  I:S_deemb(1,2)  R:S_deemb(2,1)  I:S_deemb(2,1)  R:S_deemb(2,2)  I:S_deemb(2,2) 
  1e+008          0.999754        -0.00314838     5.41458e-007    0.000698662     2.38261e-005    0.000901049     1.00001         -0.00224781     1.3384e-009     0.999937        -0.00236156     2.54726e-006    0.000543279     8.43425e-005    0.00110303      0.999845        -0.00105613    
  2e+008          1.00002         -0.0067331      8.75472e-006    0.00150976      -0.000110409    0.00157884      1.00022         -0.00503662     1.3384e-009     0.999821        -0.00508908     7.41582e-007    0.00133127      -0.000166929    0.00145795      0.999895        -0.00229494    
  3e+008          1.00004         -0.00978957     2.16539e-006    0.00222996      5.95231e-005    0.00222931      1.0001          -0.00670324     1.3384e-009     0.99973         -0.00676606     2.68287e-005    0.00206939      1.62867e-005    0.00205026      0.999989        -0.00345044    
  4e+008          1.00045         -0.0136732      5.92391e-005    0.00302695      8.20636e-005    0.00303873      0.9997          -0.00888521     1.3384e-009     0.999883        -0.0095921      6.13072e-005    0.00276574      0.000106875     0.00288586      0.999801        -0.00447143    
  5e+008          1.00013         -0.0181565      4.65552e-005    0.00375927      0.000138217     0.00390935      0.999707        -0.0110928      1.3384e-009     0.999617        -0.0124559      1.7409e-005     0.00350228      0.000114458     0.00361768      0.999649        -0.00573347    
  6e+008          1.00026         -0.0213947      8.51514e-005    0.00451882      0.000142217     0.00454538      0.999904        -0.013088       1.3384e-009     0.999997        -0.0150543      2.96255e-005    0.00417561      0.000125401     0.00419771      0.999768        -0.00662765    
  7e+008          1.00024         -0.0249616      0.000124316     0.00526859      0.000140223     0.00529336      0.999442        -0.0154261      1.3384e-009     0.999966        -0.0175843      6.37999e-005    0.00491329      0.000177139     0.00492917      0.999464        -0.00782877    
  8e+008          1.00007         -0.0283801      0.000155492     0.00599779      0.000165633     0.00607989      0.999824        -0.0174014      1.3384e-009     0.999955        -0.0197689      9.92206e-005    0.00556442      9.47913e-005    0.00555178      0.999893        -0.00876511    
  9e+008          1.00008         -0.0322881      0.000211755     0.00674163      9.98557e-005    0.0068491       0.999621        -0.01981        1.3384e-009     0.999899        -0.0228335      0.000148002     0.00624529      7.37411e-006    0.00641574      0.999663        -0.010114      
  1e+009          0.999611        -0.0355428      0.000250369     0.00750273      0.000250503     0.00745521      0.999471        -0.0217893      1.3384e-009     0.999565        -0.0248178      0.000163644     0.00696506      0.00022288      0.0069746       0.999611        -0.0110533     
  2e+009          0.997733        -0.0707488      0.000921915     0.0149883       0.00078847      0.0148761       0.997768        -0.0431296      1.3384e-009     0.998668        -0.0495373      0.000531838     0.0138775       0.000373575     0.0137802       0.998583        -0.0215234     
  3e+009          0.993449        -0.107315       0.00204631      0.0224092       0.00199809      0.0223803       0.996311        -0.0645288      1.3384e-009     0.996262        -0.0750312      0.00120756      0.0208322       0.00111418      0.0207576       0.998157        -0.0322902     
  4e+009          0.988655        -0.141974       0.00354603      0.0297279       0.00352537      0.0296267       0.99457         -0.0851086      1.3384e-009     0.993904        -0.0994752      0.00207108      0.0276745       0.00203498      0.0275004       0.997778        -0.0423402     
  5e+009          0.982564        -0.175696       0.00551237      0.036962        0.00541492      0.036908        0.991409        -0.105297       1.3384e-009     0.990969        -0.123          0.00324128      0.0345277       0.00312691      0.0345564       0.996433        -0.0519828     
  6e+009          0.974137        -0.210845       0.00792757      0.0440252       0.00776675      0.0441066       0.987215        -0.127471       1.3384e-009     0.986535        -0.149012       0.00473044      0.0413143       0.0046474       0.0413957       0.994406        -0.0636079     
  7e+009          0.964735        -0.246324       0.0107251       0.0509867       0.0107141       0.0508707       0.98417         -0.148519       1.3384e-009     0.981674        -0.173149       0.00634305      0.0480777       0.00634855      0.047937        0.993878        -0.0741885     
  8e+009          0.954807        -0.277033       0.0138571       0.0576803       0.0137          0.057631        0.979785        -0.1675         1.3384e-009     0.976654        -0.195856       0.00824894      0.0546388       0.00808265      0.0546665       0.992285        -0.083093      
  9e+009          0.942259        -0.311128       0.0174684       0.0642464       0.017305        0.0641809       0.973974        -0.187878       1.3384e-009     0.969584        -0.220673       0.0103819       0.0612853       0.0102945       0.061164        0.989793        -0.0933362     
  1e+010          0.929082        -0.345126       0.0214981       0.0703135       0.0215544       0.070418        0.967125        -0.209904       1.3384e-009     0.962767        -0.246053       0.0129226       0.0675628       0.0128504       0.0675617       0.986916        -0.105502      
  1.1e+010        0.914989        -0.373448       0.0255459       0.0764917       0.0253912       0.0764593       0.963435        -0.22799        1.3384e-009     0.95537         -0.266097       0.0152773       0.0740105       0.0150493       0.0739845       0.986725        -0.113705      
  1.2e+010        0.899899        -0.403982       0.0302577       0.0824034       0.0303719       0.0823012       0.956877        -0.246744       1.3384e-009     0.947409        -0.289269       0.018111        0.0804102       0.0182454       0.0803492       0.984462        -0.122941      
  1.3e+010        0.882013        -0.432913       0.0351257       0.0877972       0.0351845       0.0875404       0.946888        -0.264861       1.3384e-009     0.937088        -0.311472       0.0210945       0.0865743       0.0212892       0.0862895       0.979403        -0.132381      
  1.4e+010        0.86538         -0.46309        0.0405902       0.0929039       0.0405806       0.092901        0.940385        -0.285514       1.3384e-009     0.92888         -0.335066       0.0245693       0.0926812       0.0246196       0.0927001       0.978119        -0.143828      
  1.5e+010        0.84744         -0.488567       0.0461964       0.0974561       0.0459794       0.0970003       0.933229        -0.302943       1.3384e-009     0.918424        -0.354952       0.0282752       0.0984616       0.0281433       0.0980537       0.97579         -0.152529      
  1.6e+010        0.827529        -0.516477       0.051848        0.101733        0.0515199       0.101442        0.925474        -0.319278       1.3384e-009     0.907372        -0.377848       0.0320214       0.104017        0.0316892       0.103677        0.972866        -0.160451      
  1.7e+010        0.80572         -0.541369       0.0578861       0.105616        0.0573398       0.105051        0.913352        -0.336107       1.3384e-009     0.894105        -0.398261       0.0361276       0.109541        0.0356954       0.108989        0.966953        -0.169742      
  1.8e+010        0.785627        -0.566051       0.0637077       0.109102        0.0631164       0.108787        0.905252        -0.353565       1.3384e-009     0.882877        -0.418943       0.0399941       0.114857        0.0396005       0.114333        0.964796        -0.17885       
  1.9e+010        0.7673          -0.585603       0.0699345       0.11246         0.0699776       0.112013        0.898242        -0.375414       1.3384e-009     0.87307         -0.434115       0.0442675       0.120151        0.0443594       0.119599        0.964186        -0.191771      
  2e+010          0.741098        -0.611099       0.0758938       0.114904        0.0752087       0.114174        0.887269        -0.383799       1.3384e-009     0.856387        -0.458125       0.048694        0.12461         0.0481313       0.123751        0.958121        -0.194266      
  2.1e+010        0.722607        -0.633262       0.0816888       0.117494        0.0813401       0.117177        0.874147        -0.391979       1.3384e-009     0.847415        -0.477355       0.0529671       0.12955         0.0527108       0.129106        0.951839        -0.197368      
  2.2e+010        0.699241        -0.650615       0.088296        0.120122        0.087362        0.119265        0.857155        -0.412467       1.3384e-009     0.832274        -0.492804       0.0579293       0.134876        0.0571751       0.1338          0.943996        -0.211593      
  2.3e+010        0.67497         -0.668624       0.0946434       0.121419        0.0934326       0.12108         0.857292        -0.43843        1.3384e-009     0.817105        -0.509884       0.0626861       0.138796        0.0615902       0.138175        0.949943        -0.226864      
  2.4e+010        0.65088         -0.690021       0.0990844       0.123189        0.0980867       0.122893        0.874026        -0.438094       1.3384e-009     0.802327        -0.530482       0.065886        0.14199         0.065005        0.141374        0.965743        -0.220419      
  2.5e+010        0.632195        -0.707329       0.106669        0.12901         0.105226        0.128723        0.913887        -0.430588       1.3384e-009     0.793246        -0.545851       0.071327        0.148973        0.0699692       0.148378        0.995066        -0.209317      
  2.6e+010        0.606984        -0.72109        0.118441        0.126365        0.116581        0.126406        0.869499        -0.468146       1.3384e-009     0.776544        -0.560515       0.082079        0.150911        0.0799207       0.15048         0.962582        -0.234708      
  2.7e+010        0.576866        -0.738234       0.122535        0.126034        0.121679        0.126548        0.793842        -0.487707       1.3384e-009     0.754924        -0.57964        0.0860238       0.155177        0.0849425       0.155516        0.915997        -0.26015       
  2.8e+010        0.555111        -0.751704       0.130184        0.125073        0.128791        0.124266        0.765885        -0.54315        1.3384e-009     0.742206        -0.593636       0.0927343       0.159284        0.0915858       0.157971        0.910813        -0.307717      
  2.9e+010        0.535156        -0.762168       0.133437        0.124359        0.131576        0.124128        0.770784        -0.547698       1.3384e-009     0.730062        -0.60414        0.0951875       0.161013        0.0933639       0.159938        0.920147        -0.302482      
  3e+010          0.507383        -0.773424       0.139155        0.12585         0.137505        0.125746        0.779625        -0.534487       1.3384e-009     0.710703        -0.618755       0.100118        0.164595        0.0983596       0.163953        0.923531        -0.283644      
  3.1e+010        0.478293        -0.791515       0.146103        0.124386        0.144695        0.124402        0.759008        -0.54423        1.3384e-009     0.691529        -0.640704       0.107042        0.166403        0.105724        0.165947        0.90886         -0.294932      
  3.2e+010        0.46325         -0.79761        0.152035        0.123506        0.150103        0.122617        0.738005        -0.55607        1.3384e-009     0.683993        -0.64679        0.112697        0.169276        0.111036        0.167887        0.897717        -0.304941      
  3.3e+010        0.434292        -0.799766       0.158021        0.122785        0.155657        0.123085        0.734602        -0.571063       1.3384e-009     0.660619        -0.652854       0.118033        0.172205        0.115571        0.171528        0.902378        -0.310635      
  3.4e+010        0.400464        -0.807497       0.165444        0.12129         0.163416        0.121621        0.726715        -0.581285       1.3384e-009     0.634161        -0.667886       0.125717        0.174748        0.123098        0.174695        0.899864        -0.317348      
  3.5e+010        0.380652        -0.822597       0.170438        0.118543        0.168478        0.118904        0.716839        -0.588792       1.3384e-009     0.623746        -0.686823       0.131186        0.175202        0.128804        0.175067        0.895742        -0.32178       
  3.6e+010        0.361452        -0.826004       0.175185        0.115808        0.172315        0.116233        0.69171         -0.602832       1.3384e-009     0.609881        -0.693192       0.136896        0.175881        0.133796        0.175597        0.881878        -0.336238      
  3.7e+010        0.333513        -0.827849       0.180748        0.114177        0.177301        0.115476        0.68739         -0.610478       1.3384e-009     0.586682        -0.700746       0.142461        0.177848        0.138267        0.17822         0.882815        -0.337043      
  3.8e+010        0.305359        -0.830902       0.186281        0.111526        0.184403        0.112705        0.677207        -0.62305        1.3384e-009     0.562672        -0.709783       0.148663        0.178869        0.146137        0.179188        0.880639        -0.346162      
  3.9e+010        0.289752        -0.8342         0.190305        0.108204        0.188454        0.108427        0.654156        -0.633378       1.3384e-009     0.55314         -0.714678       0.154147        0.178836        0.151909        0.178115        0.86584         -0.358466      
  4e+010          0.271703        -0.838614       0.193872        0.105806        0.191662        0.106868        0.649085        -0.645885       1.3384e-009     0.540993        -0.722839       0.158093        0.179625        0.155377        0.179693        0.869886        -0.364724      
  4.1e+010        0.240803        -0.845921       0.199018        0.103899        0.197161        0.105371        0.633839        -0.650435       1.3384e-009     0.514902        -0.739301       0.163787        0.181217        0.160806        0.181972        0.860929        -0.366541      
  4.2e+010        0.223777        -0.842874       0.204423        0.0999758       0.20235         0.100325        0.617594        -0.662392       1.3384e-009     0.502392        -0.73835        0.170377        0.181657        0.167998        0.181662        0.85579         -0.378707      
  4.3e+010        0.192374        -0.840773       0.208497        0.0963552       0.204369        0.0980159       0.606253        -0.667816       1.3384e-009     0.471046        -0.744379       0.17642         0.181384        0.171226        0.181266        0.850451        -0.383262      
  4.4e+010        0.184002        -0.846677       0.210817        0.0942464       0.208675        0.0954347       0.591785        -0.668325       1.3384e-009     0.470624        -0.752076       0.179973        0.181741        0.17673         0.181836        0.840837        -0.382664      
  4.5e+010        0.162882        -0.847359       0.215996        0.0915053       0.212895        0.0920441       0.571898        -0.691522       1.3384e-009     0.45323         -0.75722        0.186634        0.183234        0.183235        0.182342        0.835319        -0.406866      
  4.6e+010        0.144422        -0.853024       0.219938        0.0883774       0.216439        0.0904521       0.569085        -0.69166        1.3384e-009     0.440448        -0.768078       0.191235        0.183623        0.186828        0.184343        0.83714         -0.402528      
  4.7e+010        0.114964        -0.846441       0.223845        0.0844513       0.221567        0.0873189       0.553443        -0.691634       1.3384e-009     0.410505        -0.768904       0.197589        0.183052        0.194043        0.185349        0.827078        -0.403549      
  4.8e+010        0.0992833       -0.85618        0.228098        0.0806275       0.226488        0.0810772       0.524321        -0.710288       1.3384e-009     0.402521        -0.783671       0.204655        0.183023        0.202413        0.182908        0.809989        -0.428519      
  4.9e+010        0.089478        -0.848736       0.230953        0.0775432       0.226579        0.0792448       0.523821        -0.718168       1.3384e-009     0.394371        -0.775201       0.208612        0.183309        0.20295         0.182942        0.817713        -0.431574      
  5e+010          0.071873        -0.856971       0.235633        0.0753992       0.232937        0.0801935       0.517934        -0.71286        1.3384e-009     0.383226        -0.790931       0.214588        0.184522        0.209306        0.188326        0.814445        -0.422916      
  5.1e+010        0.0371273       -0.848218       0.239773        0.0689371       0.238416        0.0707557       0.49329         -0.717981       1.3384e-009     0.345919        -0.79228        0.223084        0.18087         0.22033         0.181941        0.795563        -0.43408       
  5.2e+010        0.0232664       -0.860496       0.241359        0.0637523       0.237117        0.0659328       0.472897        -0.73541        1.3384e-009     0.341606        -0.809946       0.228047        0.179061        0.222098        0.179833        0.787632        -0.454678      
