! VERSION = 6.00
!Data measured by ggf on Wed Jan 24 08:24:18 2018 using model file NPN_MEAS_SCALE
BEGIN_HEADER
 ICCAP_INPUTS
  vc         V  C GROUND SMU_C 0.2 SYNC       1 -0.5 vb
  ve         V  E GROUND SMU_E 0 CON        0
  vs         V  S GROUND SMU_S 0 CON        0
  freq       F  LIST       1 74 100000000 200000000 300000000 400000000 500000000 600000000 700000000 800000000 900000000 1000000000 2000000000 3000000000 4000000000 5000000000 6000000000 7000000000 8000000000 9000000000 10000000000 11000000000 12000000000 13000000000 14000000000 15000000000 16000000000 17000000000 18000000000 19000000000 20000000000 21000000000 22000000000 23000000000 24000000000 25000000000 26000000000 27000000000 28000000000 29000000000 30000000000 31000000000 32000000000 33000000000 34000000000 35000000000 36000000000 37000000000 38000000000 39000000000 40000000000 41000000000 42000000000 43000000000 44000000000 45000000000 46000000000 47000000000 48000000000 49000000000 50000000000 51000000000 52000000000 53000000000 54000000000 55000000000 56000000000 57000000000 58000000000 59000000000 60000000000 61000000000 62000000000 63000000000 64000000000 65000000000
  vb         V  B GROUND SMU_B 0.015 LIN        2    0.74       0.87       27   0.005     
 ICCAP_OUTPUTS
  ic         I  C GROUND SMU_C M
  ib         I  B GROUND SMU_B M
  S          S  B C GROUND NWA M
  S_deemb    S B C GROUND n/a B
 ICCAP_VALUES
  TNOM "27"
  TEMP "27"
  TECHNO "SG13G2"
  LOT "EDJ802"
  WAFER "02"
  CHIP "(3.3)"
  MODULE "S439S"
  DEV_NAME "D01"
  DEV_GEOM_L "5.0"
  DEV_GEOM_W "0.07"
  NUM_OF_TRANS_RF "1"
  REMARKS "Nx=2; Power -30/-20dBm, Slope: 0.1dB/GHz"
  TIMEDATE "Wed Jan 24 08:06:18     2018"
  OPERATOR "ggf"
END_HEADER

BEGIN_DB
 ICCAP_VAR vc         0.24           
 ICCAP_VAR ve         0              
 ICCAP_VAR vs         0              
 ICCAP_VAR vb         0.74           

 #freq            ic              ib              R:S(1,1)        I:S(1,1)        R:S(1,2)        I:S(1,2)        R:S(2,1)        I:S(2,1)        R:S(2,2)        I:S(2,2)        R:S_deemb(1,1)  I:S_deemb(1,1)  R:S_deemb(1,2)  I:S_deemb(1,2)  R:S_deemb(2,1)  I:S_deemb(2,1)  R:S_deemb(2,2)  I:S_deemb(2,2) 
  1e+008          0.00015088      2.767e-007      0.998478        -0.00441512     3.63864e-005    0.00106156      -0.613978       -0.0053689      0.999515        -0.00287865     0.99866         -0.00358038     3.78719e-005    0.000906362     -0.614266       -0.00582282     0.999345        -0.00163707    
  2e+008          0.00015088      2.767e-007      0.999106        -0.00969787     0.000123862     0.00198691      -0.597456       0.000538302     0.999783        -0.00632819     0.998911        -0.00799921     0.000114346     0.00180869      -0.597679       -0.000966802    0.999465        -0.00352891    
  3e+008          0.00015088      2.767e-007      0.999033        -0.0148651      0.000145353     0.0030266       -0.599887       0.00507984      0.999578        -0.00855835     0.998732        -0.0117904      0.000166768     0.00286635      -0.600127       0.00291964      0.999467        -0.00525042    
  4e+008          0.00015088      2.767e-007      0.999198        -0.0198484      0.000170184     0.00403772      -0.591878       0.0095873       0.999158        -0.0113554      0.998653        -0.015686       0.000166564     0.00377694      -0.592043       0.00679091      0.999268        -0.00685564    
  5e+008          0.00015088      2.767e-007      0.998799        -0.0256021      0.000221703     0.00498893      -0.598598       0.0139095       0.999235        -0.0141369      0.998333        -0.0198213      0.00018401      0.00473284      -0.598807       0.0101474       0.9992          -0.00868903    
  6e+008          0.00015088      2.767e-007      0.998758        -0.0304033      0.000283891     0.00597898      -0.598682       0.0173019       0.999205        -0.0167826      0.99857         -0.0239585      0.000216313     0.00563731      -0.598955       0.0129258       0.999107        -0.0102067     
  7e+008          0.00015088      2.767e-007      0.998571        -0.0354928      0.000312624     0.00699299      -0.598662       0.022285        0.998753        -0.0197411      0.998391        -0.0280076      0.000235835     0.00663944      -0.598956       0.0172141       0.998821        -0.0120224     
  8e+008          0.00015088      2.767e-007      0.998217        -0.0404703      0.000425054     0.00796202      -0.600705       0.02664         0.998998        -0.0222665      0.998224        -0.0317305      0.000347221     0.00753152      -0.601207       0.0206777       0.999121        -0.013484      
  9e+008          0.00015088      2.767e-007      0.998064        -0.0456829      0.000459716     0.00896288      -0.595774       0.0319285       0.998717        -0.0251778      0.998034        -0.036082       0.000368825     0.00846939      -0.596311       0.025507        0.998825        -0.0153166     
  1e+009          0.00015088      2.767e-007      0.997453        -0.0504803      0.000573673     0.00994486      -0.600895       0.0370189       0.998417        -0.0277696      0.997596        -0.0395982      0.000453652     0.0094116       -0.601503       0.0297723       0.998642        -0.0168545     
  2e+009          0.00015088      2.767e-007      0.993053        -0.0999472      0.00184949      0.0196874       -0.583904       0.0746896       0.995733        -0.0548702      0.994737        -0.0784837      0.00133028      0.0186045       -0.586076       0.0604571       0.996895        -0.032928      
  3e+009          0.00015088      2.767e-007      0.984699        -0.151111       0.00390041      0.0292443       -0.5862         0.109573        0.992406        -0.0817693      0.989204        -0.11864        0.00277974      0.0277532       -0.5908         0.0880326       0.99501         -0.0491124     
  4e+009          0.00015088      2.767e-007      0.974039        -0.199003       0.00660738      0.0384839       -0.578937       0.148229        0.988418        -0.107137       0.982207        -0.156582       0.0046552       0.0366213       -0.586935       0.12007         0.992926        -0.0639372     
  5e+009          0.00015088      2.767e-007      0.960665        -0.245325       0.0101031       0.0475902       -0.562026       0.182519        0.982698        -0.132326       0.973485        -0.193265       0.00711624      0.0455138       -0.57417        0.148705        0.989698        -0.0786835     
  6e+009          0.00015088      2.767e-007      0.943862        -0.291951       0.0143          0.0561591       -0.545361       0.215742        0.975502        -0.158812       0.962299        -0.231622       0.0101397       0.0540401       -0.562286       0.176725        0.985432        -0.0948486     
  7e+009          0.00015088      2.767e-007      0.924892        -0.337572       0.0190241       0.0644936       -0.530026       0.248985        0.969399        -0.183878       0.949873        -0.267161       0.0133978       0.0624938       -0.552933       0.20451         0.98274         -0.109778      
  8e+009          0.00015088      2.767e-007      0.904397        -0.378653       0.0243255       0.0722053       -0.513123       0.279233        0.96121         -0.20664        0.936209        -0.301794       0.0172223       0.070463        -0.542139       0.230957        0.97827         -0.122948      
  9e+009          0.00015088      2.767e-007      0.880883        -0.420415       0.0302624       0.0795684       -0.493038       0.307537        0.951378        -0.230358       0.920195        -0.336212       0.0214422       0.0783837       -0.528677       0.255581        0.972742        -0.137204      
  1e+010          0.00015088      2.767e-007      0.855466        -0.460662       0.0365101       0.0859095       -0.467266       0.335071        0.940412        -0.255016       0.903025        -0.370269       0.0260277       0.0854697       -0.510347       0.280889        0.966703        -0.152832      
  1.1e+010        0.00015088      2.767e-007      0.829629        -0.495142       0.0430942       0.0923934       -0.448742       0.356848        0.93221         -0.27593        0.885841        -0.399135       0.0307497       0.0928627       -0.498863       0.300345        0.963044        -0.164798      
  1.2e+010        0.00015088      2.767e-007      0.801089        -0.530421       0.0503125       0.0981532       -0.426512       0.384393        0.921233        -0.296612       0.866252        -0.430246       0.0360155       0.099829        -0.484932       0.3267          0.957376        -0.17707       
  1.3e+010        0.00015088      2.767e-007      0.769353        -0.562962       0.0576166       0.103229        -0.404989       0.407819        0.90675         -0.316154       0.843691        -0.45969        0.041448        0.106443        -0.471668       0.349702        0.948729        -0.189235      
  1.4e+010        0.00015088      2.767e-007      0.740316        -0.594016       0.0656236       0.107533        -0.376839       0.424819        0.895819        -0.338455       0.82421         -0.487996       0.0476076       0.112597        -0.451391       0.367854        0.943971        -0.20379       
  1.5e+010        0.00015088      2.767e-007      0.710035        -0.619455       0.0734168       0.110924        -0.344295       0.437949        0.883865        -0.356834       0.802185        -0.51175        0.0537634       0.118007        -0.425638       0.383667        0.937588        -0.215066      
  1.6e+010        0.00015088      2.767e-007      0.677295        -0.646225       0.0814286       0.114022        -0.320211       0.453296        0.871155        -0.373592       0.778724        -0.537785       0.0601974       0.123239        -0.409091       0.400916        0.930368        -0.22512       
  1.7e+010        0.00015088      2.767e-007      0.643469        -0.669302       0.0893422       0.116262        -0.290432       0.463078        0.854855        -0.390369       0.753583        -0.560774       0.0666728       0.127923        -0.385932       0.414545        0.920738        -0.23613       
  1.8e+010        0.00015088      2.767e-007      0.611867        -0.690767       0.097302        0.118283        -0.266452       0.475173        0.841717        -0.407912       0.730561        -0.582716       0.0732308       0.132646        -0.369085       0.429788        0.914064        -0.247381      
  1.9e+010        0.00015088      2.767e-007      0.580941        -0.707277       0.105152        0.119595        -0.240059       0.488277        0.830626        -0.428612       0.707689        -0.599718       0.0798257       0.136679        -0.350357       0.447006        0.909662        -0.26113       
  2e+010          0.00015088      2.767e-007      0.544428        -0.728237       0.112628        0.11991         -0.214728       0.491809        0.815434        -0.435767       0.679547        -0.623466       0.0865598       0.139652        -0.329682       0.455479        0.899289        -0.264242      
  2.1e+010        0.00015088      2.767e-007      0.515356        -0.745417       0.119668        0.120371        -0.192414       0.50131         0.79866         -0.442894       0.658551        -0.642357       0.093003        0.14305         -0.313621       0.470355        0.889145        -0.268275      
  2.2e+010        0.00015088      2.767e-007      0.48231         -0.756598       0.127128        0.120627        -0.165075       0.504082        0.778452        -0.462279       0.631951        -0.656048       0.0998634       0.146522        -0.29129        0.479608        0.877873        -0.28352       
  2.3e+010        0.00015088      2.767e-007      0.449555        -0.767001       0.134482        0.119629        -0.139285       0.506826        0.774341        -0.48639        0.606022        -0.669713       0.106631        0.148703        -0.270223       0.487801        0.879539        -0.299168      
  2.4e+010        0.00015088      2.767e-007      0.417723        -0.781619       0.139404        0.119644        -0.118916       0.50683         0.789506        -0.485474       0.581511        -0.687199       0.110959        0.15042         -0.251731       0.491774        0.893815        -0.292752      
  2.5e+010        0.00015088      2.767e-007      0.389842        -0.79164        0.149126        0.123028        -0.102432       0.519895        0.821782        -0.479894       0.560999        -0.699253       0.119258        0.155499        -0.237752       0.507059        0.91639         -0.284528      
  2.6e+010        0.00015088      2.767e-007      0.358609        -0.796993       0.160787        0.11642         -0.0619717      0.522072        0.770419        -0.508832       0.534553        -0.708983       0.131497        0.153522        -0.203073       0.518788        0.875244        -0.305017      
  2.7e+010        0.00015088      2.767e-007      0.321348        -0.80739        0.165097        0.113915        -0.040584       0.519987        0.694721        -0.526194       0.502471        -0.724908       0.137291        0.155671        -0.186583       0.52809         0.826406        -0.331147      
  2.8e+010        0.00015088      2.767e-007      0.293725        -0.811287       0.172028        0.109617        -0.013045       0.514171        0.66376         -0.576357       0.480112        -0.733296       0.145294        0.156431        -0.163352       0.533018        0.816093        -0.376987      
  2.9e+010        0.00015088      2.767e-007      0.267603        -0.813598       0.174714        0.107034        0.0022719       0.50627         0.66946         -0.578651       0.458819        -0.739394       0.148194        0.156315        -0.149723       0.529747        0.825657        -0.370379      
  3e+010          0.00015088      2.767e-007      0.236032        -0.815921       0.180051        0.106206        0.0206802       0.501756        0.676258        -0.564965       0.431973        -0.74715        0.153593        0.157339        -0.130907       0.529864        0.827079        -0.351731      
  3.1e+010        0.00015088      2.767e-007      0.203649        -0.822662       0.186383        0.102536        0.0444942       0.497092        0.653171        -0.570976       0.404892        -0.760023       0.161048        0.156514        -0.106952       0.533306        0.808272        -0.360582      
  3.2e+010        0.00015088      2.767e-007      0.186071        -0.821288       0.19134         0.0994961       0.063264        0.488268        0.630831        -0.580734       0.391028        -0.761002       0.167078        0.156738        -0.0881461      0.532412        0.794476        -0.370129      
  3.3e+010        0.00015088      2.767e-007      0.153652        -0.814142       0.196894        0.0963086       0.0785689       0.484437        0.625484        -0.593163       0.359941        -0.760003       0.173376        0.156932        -0.0748468      0.53427         0.796257        -0.37523       
  3.4e+010        0.00015088      2.767e-007      0.118482        -0.811287       0.202648        0.0923144       0.0999223       0.479767        0.61508         -0.600922       0.326929        -0.76547        0.180665        0.156027        -0.0534409      0.538374        0.79004         -0.381056      
  3.5e+010        0.00015088      2.767e-007      0.0991621       -0.81824        0.206654        0.0882744       0.11704         0.470188        0.604335        -0.604847       0.312928        -0.776805       0.185966        0.154552        -0.0346366      0.535344        0.783503        -0.382874      
  3.6e+010        0.00015088      2.767e-007      0.0791118       -0.813227       0.210132        0.0834985       0.131818        0.460101        0.578721        -0.616057       0.294311        -0.775315       0.191508        0.152278        -0.0175653      0.531927        0.767335        -0.395555      
  3.7e+010        0.00015088      2.767e-007      0.0515642       -0.807173       0.214278        0.0800767       0.144889        0.45252         0.572624        -0.621037       0.267907        -0.775405       0.196649        0.151685        -0.00422105     0.529508        0.765443        -0.395269      
  3.8e+010        0.00015088      2.767e-007      0.0228878       -0.801591       0.218145        0.0756234       0.16207         0.446026        0.562051        -0.630406       0.239234        -0.77601        0.202182        0.149847        0.0140868       0.529917        0.761302        -0.402207      
  3.9e+010        0.00015088      2.767e-007      0.00857355      -0.796978       0.220739        0.0708654       0.177587        0.434314        0.537798        -0.637659       0.227177        -0.773339       0.207059        0.147332        0.0327841       0.524945        0.743388        -0.412485      
  4e+010          0.00015088      2.767e-007      -0.00901596     -0.794602       0.223197        0.06714         0.186487        0.426334        0.532666        -0.646928       0.21217         -0.774982       0.210717        0.146067        0.0424105       0.521546        0.745859        -0.41649       
  4.1e+010        0.00015088      2.767e-007      -0.0392221      -0.794162       0.226869        0.063726        0.200685        0.420131        0.516516        -0.64892        0.182783        -0.783105       0.215807        0.145123        0.0574447       0.521998        0.734609        -0.417029      
  4.2e+010        0.00015088      2.767e-007      -0.0543859      -0.783999       0.229835        0.0584234       0.214133        0.408777        0.501296        -0.657764       0.168743        -0.775168       0.220843        0.142796        0.0736358       0.518251        0.728483        -0.426622      
  4.3e+010        0.00015088      2.767e-007      -0.0815283      -0.774676       0.232001        0.0542041       0.223263        0.397447        0.489698        -0.661184       0.138786        -0.771999       0.225346        0.140559        0.0868114       0.510736        0.721471        -0.429839      
  4.4e+010        0.00015088      2.767e-007      -0.0889455      -0.775069       0.234171        0.0506938       0.234984        0.390847        0.474604        -0.659049       0.135811        -0.774007       0.229401        0.138816        0.100215        0.509924        0.709478        -0.427283      
  4.5e+010        0.00015088      2.767e-007      -0.109919       -0.768616       0.237049        0.0463169       0.245725        0.382249        0.454905        -0.678498       0.114837        -0.771808       0.234657        0.136999        0.114088        0.507528        0.701724        -0.448471      
  4.6e+010        0.00015088      2.767e-007      -0.126732       -0.769082       0.239455        0.0426481       0.254368        0.373073        0.452043        -0.677276       0.101365        -0.777447       0.23817         0.135982        0.124486        0.503137        0.702671        -0.443529      
  4.7e+010        0.00015088      2.767e-007      -0.153112       -0.754353       0.241663        0.0381396       0.263483        0.363717        0.436694        -0.674738       0.070912        -0.768382       0.243073        0.133308        0.137415        0.498782        0.691035        -0.442346      
  4.8e+010        0.00015088      2.767e-007      -0.166996       -0.756693       0.244497        0.0327541       0.276905        0.352593        0.408306        -0.689864       0.0608452       -0.774381       0.249232        0.130133        0.155744        0.494572        0.672144        -0.463677      
