! VERSION = 6.00
!Data measured by ggf on Mon Jan 22 13:31:23 2018 using model file NPN_MEAS_SCALE
BEGIN_HEADER
 ICCAP_INPUTS
  vb         V  B GROUND GND 0 CON        0
  vc         V  C GROUND GND 0 CON        0
  ve         V  E GROUND SMU_E 0 CON        0
  vs         V  S GROUND SMU_S 0 CON        0
  freq       F  LIST       1 74 100000000 200000000 300000000 400000000 500000000 600000000 700000000 800000000 900000000 1000000000 2000000000 3000000000 4000000000 5000000000 6000000000 7000000000 8000000000 9000000000 10000000000 11000000000 12000000000 13000000000 14000000000 15000000000 16000000000 17000000000 18000000000 19000000000 20000000000 21000000000 22000000000 23000000000 24000000000 25000000000 26000000000 27000000000 28000000000 29000000000 30000000000 31000000000 32000000000 33000000000 34000000000 35000000000 36000000000 37000000000 38000000000 39000000000 40000000000 41000000000 42000000000 43000000000 44000000000 45000000000 46000000000 47000000000 48000000000 49000000000 50000000000 51000000000 52000000000 53000000000 54000000000 55000000000 56000000000 57000000000 58000000000 59000000000 60000000000 61000000000 62000000000 63000000000 64000000000 65000000000
 ICCAP_OUTPUTS
  S          S  B C Ground NWA M
 ICCAP_VALUES
  TNOM "27"
  TEMP "27"
  TECHNO "SG13G2"
  LOT "EDJ802"
  WAFER "02"
  CHIP "(3.3)"
  MODULE "S439S"
  DEV_NAME "D40"
  DEV_GEOM_L "0.9"
  DEV_GEOM_W "0.07"
  NUM_OF_TRANS_RF "2"
  REMARKS "Nx=4; Power -30/-20dBm, Slope: 0.1dB/GHz"
  TIMEDATE "Mon Jan 22 13:12:31     2018"
  OPERATOR "ggf"
END_HEADER

BEGIN_DB
 ICCAP_VAR vb         0              
 ICCAP_VAR vc         0              
 ICCAP_VAR ve         0              
 ICCAP_VAR vs         0              

 #freq            R:S(1,1)        I:S(1,1)        R:S(1,2)        I:S(1,2)        R:S(2,1)        I:S(2,1)        R:S(2,2)        I:S(2,2)       
  1e+008          0.999922        -0.00204642     -2.07385e-005   0.000256356     0.00031425      0.000133147     0.999829        -0.00138538    
  2e+008          0.999817        -0.00371929     -5.47485e-005   0.000383315     0.000108048     0.000461401     1.0002          -0.00289938    
  3e+008          0.999913        -0.0049189      -5.53678e-006   0.000583387     1.79022e-005    0.000596829     1.00001         -0.00369416    
  4e+008          0.999591        -0.005949       -2.57028e-007   0.000836115     -6.45711e-006   0.000773889     1.00042         -0.00564782    
  5e+008          0.999579        -0.00771955     4.85857e-006    0.000961858     -0.000115441    0.00103324      1.00018         -0.00723303    
  6e+008          0.999536        -0.00904089     2.65327e-005    0.00119108      3.58841e-005    0.0012901       1.00011         -0.00873045    
  7e+008          0.999504        -0.0104092      1.83607e-005    0.00138865      1.03339e-005    0.00132004      1.00026         -0.0101426     
  8e+008          0.999397        -0.0117059      1.2109e-005     0.00160138      4.16576e-005    0.00158114      1.00017         -0.0116152     
  9e+008          0.999418        -0.013264       3.06612e-005    0.00176855      -0.000115248    0.00181377      1.00005         -0.0131313     
  1e+009          0.999385        -0.0148385      3.83832e-005    0.00197948      0.000113127     0.00195164      1.00027         -0.0145247     
  2e+009          0.998829        -0.0296904      0.0001304       0.00399249      5.74752e-005    0.00384379      0.99946         -0.0287802     
  3e+009          0.998083        -0.0438954      0.000321002     0.00598835      0.000293379     0.00598415      0.998888        -0.0436475     
  4e+009          0.996663        -0.0585104      0.000474897     0.00798002      0.000517223     0.00803315      0.998024        -0.0577547     
  5e+009          0.995284        -0.0731727      0.000811377     0.00993469      0.000768121     0.00999394      0.996538        -0.0723437     
  6e+009          0.993909        -0.0872552      0.00111648      0.011899        0.00114359      0.0119944       0.994566        -0.0869791     
  7e+009          0.991996        -0.101705       0.00150007      0.0138936       0.00159576      0.0138894       0.992956        -0.10079       
  8e+009          0.989992        -0.115946       0.00199869      0.0157853       0.00198225      0.0158511       0.990523        -0.114861      
  9e+009          0.987924        -0.13077        0.00250934      0.017748        0.00252406      0.0178883       0.988655        -0.128831      
  1e+010          0.985373        -0.145132       0.00309474      0.0196221       0.00305634      0.0198413       0.986176        -0.142752      
  1.1e+010        0.982219        -0.158479       0.00374929      0.0215656       0.00377764      0.02175         0.983446        -0.156856      
  1.2e+010        0.978968        -0.172626       0.00451283      0.023469        0.004507        0.0236341       0.980178        -0.170927      
  1.3e+010        0.975525        -0.186094       0.00541699      0.0252975       0.0055029       0.0255354       0.977064        -0.184796      
  1.4e+010        0.971942        -0.19998        0.00635187      0.0270569       0.00645902      0.0273145       0.973019        -0.197721      
  1.5e+010        0.967694        -0.214412       0.00732007      0.0286918       0.00728011      0.0289416       0.969445        -0.211678      
  1.6e+010        0.963417        -0.227561       0.00829479      0.0303805       0.00824822      0.0304549       0.965223        -0.224588      
  1.7e+010        0.959262        -0.240203       0.00939234      0.0319815       0.00942492      0.0322053       0.960957        -0.238572      
  1.8e+010        0.954229        -0.253768       0.0105267       0.0333801       0.010445        0.0336465       0.956581        -0.251236      
  1.9e+010        0.949582        -0.266649       0.0115388       0.0348457       0.0117368       0.0350683       0.951113        -0.26481       
  2e+010          0.944191        -0.279667       0.0126618       0.0362643       0.0127496       0.0366509       0.946457        -0.276644      
  2.1e+010        0.938816        -0.292142       0.0138237       0.0375517       0.0138489       0.0378814       0.940603        -0.2892        
  2.2e+010        0.932877        -0.304256       0.0150344       0.038901        0.0151275       0.0390348       0.935738        -0.301818      
  2.3e+010        0.927837        -0.316263       0.016184        0.0400493       0.0162168       0.0402479       0.929849        -0.313947      
  2.4e+010        0.922039        -0.328197       0.0171924       0.0412931       0.0172472       0.0414958       0.9246          -0.325379      
  2.5e+010        0.916542        -0.340812       0.0181898       0.0426157       0.0184102       0.0426775       0.918263        -0.337593      
  2.6e+010        0.910119        -0.352687       0.0197786       0.043882        0.0198665       0.0440979       0.912378        -0.350468      
  2.7e+010        0.903106        -0.363801       0.020978        0.0448866       0.0211314       0.0452604       0.907061        -0.359986      
  2.8e+010        0.896938        -0.374843       0.0223296       0.04578         0.0225137       0.0458144       0.898303        -0.373472      
  2.9e+010        0.890359        -0.386518       0.0233201       0.0466947       0.0235492       0.0467057       0.891814        -0.383929      
  3e+010          0.884681        -0.397448       0.0242236       0.0478545       0.024493        0.0479735       0.885123        -0.395527      
  3.1e+010        0.87711         -0.409456       0.0254889       0.0488212       0.025342        0.0490787       0.880003        -0.403734      
  3.2e+010        0.87066         -0.420174       0.027184        0.0500496       0.0275244       0.0501306       0.872326        -0.415251      
  3.3e+010        0.862505        -0.430158       0.0285566       0.0511625       0.0286471       0.0510281       0.865419        -0.427397      
  3.4e+010        0.855964        -0.440127       0.0299769       0.0521547       0.0303553       0.0525469       0.857876        -0.437642      
  3.5e+010        0.848704        -0.450519       0.0316129       0.0527743       0.0321826       0.0533398       0.849989        -0.446539      
  3.6e+010        0.839703        -0.460964       0.0329136       0.0536304       0.0331917       0.0539202       0.843901        -0.455038      
  3.7e+010        0.83342         -0.471735       0.0346432       0.0544093       0.0346816       0.054958        0.836063        -0.466569      
  3.8e+010        0.825482        -0.48043        0.0363524       0.055404        0.0364605       0.0556904       0.828993        -0.476846      
  3.9e+010        0.817831        -0.49021        0.0376396       0.0557398       0.0380157       0.0552642       0.821438        -0.485437      
  4e+010          0.809895        -0.501355       0.039578        0.0562043       0.0395646       0.056057        0.812017        -0.494144      
  4.1e+010        0.799986        -0.511058       0.0412902       0.0567255       0.0417734       0.0570818       0.806139        -0.502874      
  4.2e+010        0.791866        -0.518743       0.0433685       0.057151        0.0442484       0.0579588       0.798725        -0.514185      
  4.3e+010        0.781005        -0.526953       0.0454371       0.0571205       0.0458668       0.0575551       0.790504        -0.524952      
  4.4e+010        0.773222        -0.536221       0.0467541       0.0567613       0.0464993       0.0574415       0.77925         -0.531715      
  4.5e+010        0.765168        -0.544786       0.0479509       0.0573354       0.0481442       0.0581431       0.771572        -0.539667      
  4.6e+010        0.754152        -0.554996       0.0502937       0.0571087       0.0500694       0.0570872       0.763107        -0.547323      
  4.7e+010        0.743957        -0.560198       0.0522938       0.0561268       0.0518988       0.0562815       0.755327        -0.55535       
  4.8e+010        0.735816        -0.569709       0.0525695       0.0559888       0.0530171       0.0569552       0.747146        -0.562487      
  4.9e+010        0.729361        -0.572395       0.0539697       0.0565367       0.0544199       0.0559545       0.737719        -0.57049       
  5e+010          0.720347        -0.58328        0.0558654       0.0557516       0.0556574       0.0568773       0.730138        -0.577391      
  5.1e+010        0.710906        -0.587012       0.0571791       0.0549827       0.0578068       0.05629         0.721192        -0.588112      
  5.2e+010        0.703409        -0.593005       0.0581538       0.0541182       0.0583245       0.0543633       0.716919        -0.587432      
  5.3e+010        0.697505        -0.60073        0.060154        0.0548593       0.059282        0.0553538       0.702673        -0.602687      
  5.4e+010        0.685814        -0.608493       0.0606788       0.053405        0.061225        0.0539935       0.6976          -0.60704       
  5.5e+010        0.680869        -0.614427       0.0618353       0.0528368       0.0620298       0.0521741       0.68336         -0.611507      
  5.6e+010        0.67439         -0.620509       0.0603251       0.0516462       0.0606381       0.0511937       0.680333        -0.618092      
  5.7e+010        0.667856        -0.629265       0.0608256       0.0536112       0.0605145       0.0549454       0.673448        -0.623293      
  5.8e+010        0.660375        -0.637974       0.0627195       0.0555599       0.0625788       0.0554167       0.668199        -0.634037      
  5.9e+010        0.65026         -0.646527       0.0660788       0.0561893       0.0653096       0.0555426       0.660106        -0.642261      
  6e+010          0.64215         -0.654465       0.0676939       0.053867        0.068748        0.0547507       0.6477          -0.649803      
  6.1e+010        0.634143        -0.663677       0.0674223       0.0542374       0.0679798       0.0534563       0.639987        -0.656449      
  6.2e+010        0.624019        -0.669012       0.0712551       0.0548262       0.0704502       0.0543176       0.633911        -0.663823      
  6.3e+010        0.618196        -0.680322       0.0729346       0.0531217       0.0725562       0.0552663       0.621762        -0.668115      
  6.4e+010        0.603615        -0.684712       0.075384        0.0526896       0.076573        0.0525501       0.620978        -0.679268      
  6.5e+010        0.593362        -0.697033       0.0758737       0.0513729       0.0752315       0.0504981       0.605905        -0.686196      
END_DB

