! VERSION = 6.00
!Data measured by ggf on Mon Jan 22 13:32:48 2018 using model file NPN_MEAS_SCALE
BEGIN_HEADER
 ICCAP_INPUTS
  vb         V  B GROUND GND 0 CON        0
  vc         V  C GROUND GND 0 CON        0
  ve         V  E GROUND SMU_E 0 CON        0
  vs         V  S GROUND SMU_S 0 CON        0
  freq       F  LIST       1 74 100000000 200000000 300000000 400000000 500000000 600000000 700000000 800000000 900000000 1000000000 2000000000 3000000000 4000000000 5000000000 6000000000 7000000000 8000000000 9000000000 10000000000 11000000000 12000000000 13000000000 14000000000 15000000000 16000000000 17000000000 18000000000 19000000000 20000000000 21000000000 22000000000 23000000000 24000000000 25000000000 26000000000 27000000000 28000000000 29000000000 30000000000 31000000000 32000000000 33000000000 34000000000 35000000000 36000000000 37000000000 38000000000 39000000000 40000000000 41000000000 42000000000 43000000000 44000000000 45000000000 46000000000 47000000000 48000000000 49000000000 50000000000 51000000000 52000000000 53000000000 54000000000 55000000000 56000000000 57000000000 58000000000 59000000000 60000000000 61000000000 62000000000 63000000000 64000000000 65000000000
 ICCAP_OUTPUTS
  S          S  B C Ground NWA M
 ICCAP_VALUES
  TNOM "27"
  TEMP "27"
  TECHNO "SG13G2"
  LOT "EDJ802"
  WAFER "02"
  CHIP "(3.3)"
  MODULE "S439S"
  DEV_NAME "D41"
  DEV_GEOM_L "0.9"
  DEV_GEOM_W "0.07"
  NUM_OF_TRANS_RF "4"
  REMARKS "Nx=2; Power -30/-20dBm, Slope: 0.1dB/GHz"
  TIMEDATE "Mon Jan 22 13:32:08     2018"
  OPERATOR "ggf"
END_HEADER

BEGIN_DB
 ICCAP_VAR vb         0              
 ICCAP_VAR vc         0              
 ICCAP_VAR ve         0              
 ICCAP_VAR vs         0              

 #freq            R:S(1,1)        I:S(1,1)        R:S(1,2)        I:S(1,2)        R:S(2,1)        I:S(2,1)        R:S(2,2)        I:S(2,2)       
  1e+008          -0.986963       0.00114845      0.0026167       7.49113e-005    0.00246286      -0.000127642    -0.989503       0.000210219    
  2e+008          -0.986637       0.00150032      0.00261942      0.000136131     0.00258077      2.55501e-005    -0.989106       0.000248476    
  3e+008          -0.986704       0.00188858      0.00256621      0.00014878      0.00270662      0.000164477     -0.989341       0.00154661     
  4e+008          -0.986721       0.00230252      0.00257952      0.000211831     0.00254823      0.000296309     -0.98909        0.00214794     
  5e+008          -0.986645       0.00302845      0.00259522      0.000262781     0.00262653      0.000236446     -0.989076       0.00253898     
  6e+008          -0.98649        0.00322154      0.00259983      0.000341978     0.00262309      0.000380493     -0.988853       0.00245149     
  7e+008          -0.986391       0.003653        0.00260241      0.000391238     0.00257165      0.000451501     -0.988926       0.00344067     
  8e+008          -0.986297       0.00428701      0.00258924      0.000459236     0.00252205      0.000483761     -0.988817       0.00377135     
  9e+008          -0.986093       0.00467647      0.00257918      0.000504852     0.00259764      0.000508082     -0.988785       0.00430222     
  1e+009          -0.986043       0.00507006      0.00257943      0.000568892     0.00258202      0.000633012     -0.988592       0.00466259     
  2e+009          -0.985081       0.00898241      0.00251277      0.00121285      0.00254414      0.00124354      -0.987904       0.00846535     
  3e+009          -0.984077       0.012608        0.00248012      0.00187467      0.00248388      0.0018603       -0.987471       0.0118261      
  4e+009          -0.983702       0.0162757       0.0024221       0.00259712      0.00249465      0.0025935       -0.986814       0.015359       
  5e+009          -0.983255       0.0199213       0.0024689       0.00327396      0.00245638      0.00323069      -0.986731       0.0192886      
  6e+009          -0.982755       0.0236902       0.00248251      0.0038389       0.00248071      0.00387052      -0.985846       0.022232       
  7e+009          -0.98241        0.0279293       0.00242596      0.00444835      0.00240627      0.00451438      -0.98499        0.0258048      
  8e+009          -0.981902       0.0306074       0.00234229      0.00510832      0.00232885      0.00505723      -0.985045       0.0288511      
  9e+009          -0.981345       0.0335015       0.00237688      0.0057697       0.002302        0.00575295      -0.984407       0.0320712      
  1e+010          -0.981067       0.0377141       0.00237227      0.00635515      0.00236876      0.00624514      -0.984157       0.0356311      
  1.1e+010        -0.980272       0.0414965       0.00225089      0.00676284      0.00224905      0.00681524      -0.983481       0.0390368      
  1.2e+010        -0.979544       0.04565         0.00182568      0.00731139      0.00179128      0.00729157      -0.982814       0.0422059      
  1.3e+010        -0.978286       0.0482698       0.00133071      0.00818083      0.00135265      0.00828275      -0.981469       0.0450679      
  1.4e+010        -0.977307       0.0512994       0.00116896      0.00931223      0.00117484      0.0093276       -0.981425       0.0484984      
  1.5e+010        -0.977342       0.0537329       0.00126325      0.0103952       0.00108059      0.0104065       -0.980978       0.0505411      
  1.6e+010        -0.977097       0.0568894       0.00130899      0.0111312       0.00138505      0.0109779       -0.980817       0.0545157      
  1.7e+010        -0.976415       0.0604488       0.00122386      0.0120091       0.00117555      0.0119403       -0.980638       0.0567268      
  1.8e+010        -0.976118       0.0629154       0.00122534      0.0131124       0.00115651      0.0128795       -0.979475       0.059986       
  1.9e+010        -0.976099       0.0659488       0.00130383      0.013806        0.00153068      0.013808        -0.980005       0.0631767      
  2e+010          -0.976186       0.069259        0.0015002       0.0146632       0.00130868      0.0148979       -0.979405       0.0658943      
  2.1e+010        -0.976177       0.0719826       0.00152809      0.0157425       0.00143668      0.0157515       -0.979618       0.0688331      
  2.2e+010        -0.97726        0.0752013       0.00180316      0.016779        0.00197086      0.0166622       -0.97956        0.0711771      
  2.3e+010        -0.977195       0.0790044       0.00216772      0.0178034       0.00194762      0.0177195       -0.980106       0.0743298      
  2.4e+010        -0.977546       0.0838436       0.00277247      0.0184055       0.00275213      0.0182417       -0.980345       0.078666       
  2.5e+010        -0.977069       0.0861455       0.00308893      0.018841        0.00330159      0.01872         -0.980353       0.0825905      
  2.6e+010        -0.976486       0.0907211       0.00318361      0.0193848       0.00332769      0.0192202       -0.980364       0.0853685      
  2.7e+010        -0.97651        0.0945882       0.00310768      0.0200888       0.00325603      0.0201115       -0.9781         0.088414       
  2.8e+010        -0.975708       0.0980893       0.00340661      0.0207891       0.00367863      0.0210677       -0.977952       0.0943449      
  2.9e+010        -0.974817       0.101651        0.00334292      0.0214413       0.00321624      0.0210287       -0.977084       0.0954676      
  3e+010          -0.974483       0.105681        0.00369745      0.0223356       0.004501        0.0225854       -0.978522       0.0977638      
  3.1e+010        -0.974274       0.108861        0.00455778      0.0227778       0.00478881      0.0230436       -0.976139       0.104061       
  3.2e+010        -0.973274       0.111796        0.00437158      0.0230356       0.0052438       0.0228346       -0.975939       0.107042       
  3.3e+010        -0.97354        0.115513        0.0042259       0.0234508       0.00430975      0.0228016       -0.975848       0.107337       
  3.4e+010        -0.972553       0.119161        0.00426224      0.0242312       0.00415588      0.0241814       -0.975996       0.10981        
  3.5e+010        -0.972052       0.12206         0.00449227      0.0248216       0.00420639      0.0248322       -0.976124       0.114724       
  3.6e+010        -0.974204       0.125713        0.004477        0.025407        0.00474987      0.0252754       -0.976089       0.118407       
  3.7e+010        -0.972994       0.129613        0.00447768      0.0265639       0.00431333      0.0256991       -0.976041       0.121088       
  3.8e+010        -0.972868       0.135679        0.00446901      0.0271575       0.00428228      0.0266065       -0.975983       0.12376        
  3.9e+010        -0.97044        0.139699        0.00510357      0.0278757       0.0056026       0.0281471       -0.975037       0.128701       
  4e+010          -0.970675       0.141656        0.00519591      0.0285216       0.00523367      0.0278888       -0.97595        0.133342       
  4.1e+010        -0.97022        0.143918        0.00583114      0.0291151       0.0055725       0.0289783       -0.972523       0.135329       
  4.2e+010        -0.968793       0.149696        0.00562297      0.0293796       0.00590639      0.0292689       -0.976662       0.13926        
  4.3e+010        -0.967717       0.154829        0.00548724      0.030959        0.00627849      0.0305273       -0.973872       0.142779       
  4.4e+010        -0.968601       0.154437        0.00679139      0.0311743       0.00590236      0.0315489       -0.974505       0.147859       
  4.5e+010        -0.96712        0.159126        0.00669238      0.0311951       0.0067973       0.0311257       -0.972399       0.149767       
  4.6e+010        -0.967555       0.162141        0.0069504       0.0318984       0.00696185      0.0307073       -0.97245        0.153517       
  4.7e+010        -0.967021       0.16789         0.00670829      0.0331152       0.00691729      0.033353        -0.972722       0.155492       
  4.8e+010        -0.967224       0.169747        0.00826397      0.0329596       0.00728192      0.0332489       -0.971348       0.160366       
  4.9e+010        -0.965598       0.175765        0.00744265      0.0332628       0.0085          0.0338611       -0.972938       0.163615       
  5e+010          -0.964953       0.177207        0.00789457      0.0338529       0.00783179      0.0332605       -0.97192        0.169581       
  5.1e+010        -0.965389       0.180785        0.0086446       0.0344906       0.00680242      0.0338533       -0.971385       0.169885       
  5.2e+010        -0.963971       0.185571        0.00788499      0.033811        0.00902926      0.0345801       -0.967717       0.178157       
  5.3e+010        -0.963503       0.191153        0.00685856      0.0354977       0.00670198      0.0340371       -0.969716       0.177606       
  5.4e+010        -0.963053       0.19288         0.00798319      0.0366141       0.00731538      0.0365391       -0.963385       0.18146        
  5.5e+010        -0.960116       0.19576         0.00850976      0.0366226       0.00874923      0.0377736       -0.967283       0.18581        
  5.6e+010        -0.960981       0.200036        0.00908232      0.0373409       0.00987431      0.0370943       -0.965069       0.187813       
  5.7e+010        -0.959499       0.202664        0.00954107      0.0379472       0.00932415      0.0378992       -0.964788       0.193959       
  5.8e+010        -0.958203       0.206331        0.0104556       0.0375579       0.0107018       0.0378236       -0.964025       0.194809       
  5.9e+010        -0.957121       0.210767        0.00947952      0.0369263       0.0105843       0.0362833       -0.961109       0.200076       
  6e+010          -0.955908       0.212453        0.00979239      0.0382387       0.00783353      0.0383512       -0.962087       0.199014       
  6.1e+010        -0.953804       0.215113        0.00998408      0.0383293       0.0102464       0.0394496       -0.961959       0.20352        
  6.2e+010        -0.954256       0.218651        0.00995687      0.0397901       0.0115033       0.0385917       -0.960232       0.206926       
  6.3e+010        -0.952643       0.218226        0.0112487       0.0399318       0.0107874       0.0386954       -0.962151       0.211829       
  6.4e+010        -0.95458        0.223793        0.0115073       0.0394904       0.0103823       0.0413338       -0.959832       0.208404       
  6.5e+010        -0.952447       0.223703        0.0109945       0.0395486       0.0126183       0.0389052       -0.959413       0.216735       
END_DB

