! VERSION = 6.00
!Data measured by ggf on Mon Jan 22 13:49:05 2018 using model file NPN_MEAS_SCALE
BEGIN_HEADER
 ICCAP_INPUTS
  vbe        V  B GROUND SMU_B 0.015 LIN        2    0.6        -1.8       25   -0.1      
  vc         V  C GROUND SMU_C 0.015 CON        0
  ve         V  E GROUND SMU_E 0 CON        0
  vs         V  S GROUND SMU_S 0 CON        0
  freq       F  LIST       1 74 100000000 200000000 300000000 400000000 500000000 600000000 700000000 800000000 900000000 1000000000 2000000000 3000000000 4000000000 5000000000 6000000000 7000000000 8000000000 9000000000 10000000000 11000000000 12000000000 13000000000 14000000000 15000000000 16000000000 17000000000 18000000000 19000000000 20000000000 21000000000 22000000000 23000000000 24000000000 25000000000 26000000000 27000000000 28000000000 29000000000 30000000000 31000000000 32000000000 33000000000 34000000000 35000000000 36000000000 37000000000 38000000000 39000000000 40000000000 41000000000 42000000000 43000000000 44000000000 45000000000 46000000000 47000000000 48000000000 49000000000 50000000000 51000000000 52000000000 53000000000 54000000000 55000000000 56000000000 57000000000 58000000000 59000000000 60000000000 61000000000 62000000000 63000000000 64000000000 65000000000
 ICCAP_OUTPUTS
  S          S  B C GROUND NWA M
  ib         I  B GROUND SMU_B M
  S_deemb    S B C GROUND n/a B
 ICCAP_VALUES
  TNOM "27"
  TEMP "27"
  TECHNO "SG13G2"
  LOT "EDJ802"
  WAFER "02"
  CHIP "(3.3)"
  MODULE "S439S"
  DEV_NAME "D41"
  DEV_GEOM_L "0.9"
  DEV_GEOM_W "0.07"
  NUM_OF_TRANS_RF "4"
  REMARKS "Nx=2; Power -30/-20dBm, Slope: 0.1dB/GHz"
  TIMEDATE "Mon Jan 22 13:32:08     2018"
  OPERATOR "ggf"
END_HEADER

BEGIN_DB
 ICCAP_VAR vbe        0.6            
 ICCAP_VAR vc         0              
 ICCAP_VAR ve         0              
 ICCAP_VAR vs         0              

 #freq            R:S(1,1)        I:S(1,1)        R:S(1,2)        I:S(1,2)        R:S(2,1)        I:S(2,1)        R:S(2,2)        I:S(2,2)        ib              R:S_deemb(1,1)  I:S_deemb(1,1)  R:S_deemb(1,2)  I:S_deemb(1,2)  R:S_deemb(2,1)  I:S_deemb(2,1)  R:S_deemb(2,2)  I:S_deemb(2,2) 
  1e+008          0.999309        -0.00428133     0.000178706     0.00147509      0.000268204     0.00151117      0.994158        -0.00290927     1.447e-007      0.999392        -0.00223652     0.000196822     0.00122001      -4.76942e-005   0.00137914      0.994331        -0.00153222    
  2e+008          0.999898        -0.00875233     0.00025225      0.00292361      0.000355095     0.00283475      0.994731        -0.00640284     1.447e-007      1.0001          -0.00503382     0.000296768     0.0025421       0.000237472     0.00237586      0.994546        -0.00351886    
  3e+008          0.999596        -0.012664       0.000253919     0.00440572      0.000318095     0.0043651       0.993818        -0.00913573     1.447e-007      0.999724        -0.00774743     0.000239034     0.00382546      0.000279996     0.00377177      0.993825        -0.00546467    
  4e+008          0.999367        -0.0162724      0.000307526     0.00583397      0.00043247      0.00585336      0.995134        -0.0137219      1.447e-007      0.999843        -0.0103291      0.000270918     0.00500189      0.000402144     0.00508405      0.994771        -0.00810084    
  5e+008          0.999254        -0.0206209      0.000388807     0.00727099      0.00041521      0.00726826      0.994185        -0.0164084      1.447e-007      0.999782        -0.012909       0.000325924     0.00631575      0.000472047     0.00624162      0.99408         -0.00921718    
  6e+008          0.999101        -0.0246522      0.000437113     0.00874707      0.000466531     0.00868244      0.994069        -0.0198286      1.447e-007      0.999716        -0.0156227      0.00032725      0.00756499      0.000347491     0.00740193      0.994062        -0.0111502     
  7e+008          0.998801        -0.0287837      0.000518956     0.0101665       0.000505842     0.0101719       0.994112        -0.0232011      1.447e-007      0.999501        -0.018391       0.000388087     0.00878873      0.000383287     0.00886241      0.993999        -0.0131179     
  8e+008          0.998707        -0.0325594      0.000567199     0.0116104       0.000548383     0.0115039       0.993945        -0.0263717      1.447e-007      0.999571        -0.0208741      0.000409222     0.0100229       0.000362314     0.00993652      0.99396         -0.0148267     
  9e+008          0.998545        -0.0367551      0.000703538     0.0130203       0.000691421     0.0130779       0.994075        -0.0297964      1.447e-007      0.99946         -0.0235154      0.000488092     0.0112696       0.000620395     0.0112809       0.994268        -0.0167425     
  1e+009          0.99842         -0.0409276      0.000809091     0.014517        0.000830252     0.0144152       0.993595        -0.0332058      1.447e-007      0.999449        -0.0261195      0.000541309     0.0125584       0.000489693     0.0124852       0.993627        -0.0187739     
  2e+009          0.994973        -0.0814938      0.00245274      0.0288066       0.00246692      0.0287004       0.990771        -0.0655852      1.447e-007      0.997787        -0.0519724      0.00141647      0.0249255       0.00150869      0.0249666       0.99247         -0.0370728     
  3e+009          0.989615        -0.121472       0.00520881      0.0428802       0.00520156      0.0428179       0.986119        -0.0975457      1.447e-007      0.995174        -0.0780821      0.00287347      0.0372182       0.00289652      0.0371591       0.989809        -0.0545078     
  4e+009          0.982265        -0.161069       0.00891378      0.0567094       0.00892575      0.0564733       0.980201        -0.128569       1.447e-007      0.992011        -0.103706       0.00490955      0.0494542       0.00489191      0.0491667       0.986661        -0.0719637     
  5e+009          0.973131        -0.200217       0.0136201       0.0701759       0.0136665       0.0700743       0.973202        -0.158767       1.447e-007      0.987759        -0.12919        0.00737039      0.0616053       0.00746501      0.0614465       0.983512        -0.0883695     
  6e+009          0.962336        -0.237875       0.0193458       0.0832131       0.0192778       0.0830461       0.964766        -0.188639       1.447e-007      0.982421        -0.154172       0.0105414       0.0736044       0.010457        0.0733375       0.97987         -0.104732      
  7e+009          0.949625        -0.275725       0.0261028       0.0958957       0.0256974       0.0955028       0.955069        -0.21749        1.447e-007      0.97643         -0.179528       0.014344        0.0855503       0.0138821       0.0851226       0.974967        -0.121235      
  8e+009          0.935423        -0.311819       0.0334623       0.107697        0.0333564       0.107259        0.94544         -0.245741       1.447e-007      0.96949         -0.203886       0.018405        0.0970698       0.0183616       0.09655         0.971312        -0.137151      
  9e+009          0.919517        -0.347681       0.0419123       0.119189        0.0414265       0.11852         0.933751        -0.273068       1.447e-007      0.961566        -0.228085       0.023246        0.10862         0.0228195       0.107744        0.965342        -0.152751      
  1e+010          0.902299        -0.382089       0.0507305       0.129274        0.0504336       0.128843        0.922772        -0.300029       1.447e-007      0.953141        -0.251926       0.0283178       0.119212        0.0281024       0.118516        0.961007        -0.168229      
  1.1e+010        0.883494        -0.414205       0.0603128       0.13927         0.0603574       0.139008        0.909706        -0.326117       1.447e-007      0.943796        -0.275247       0.0339213       0.130129        0.0339673       0.129694        0.955073        -0.183279      
  1.2e+010        0.863574        -0.445822       0.070684        0.14846         0.0704242       0.148046        0.895622        -0.351531       1.447e-007      0.933901        -0.298002       0.0400829       0.140802        0.0398826       0.140176        0.948858        -0.198202      
  1.3e+010        0.841958        -0.475403       0.0812833       0.156772        0.0813332       0.156147        0.88178         -0.375674       1.447e-007      0.922443        -0.320282       0.0463772       0.151074        0.0464428       0.150225        0.94281         -0.212373      
  1.4e+010        0.819916        -0.503625       0.0928457       0.163944        0.0926925       0.163417        0.86665         -0.398611       1.447e-007      0.910819        -0.341422       0.0537791       0.160847        0.0536024       0.16004         0.936331        -0.226828      
  1.5e+010        0.796037        -0.531528       0.104746        0.170255        0.103749        0.169715        0.851009        -0.421233       1.447e-007      0.898226        -0.362778       0.0614968       0.170391        0.0606023       0.169384        0.929042        -0.24041       
  1.6e+010        0.77287         -0.556931       0.116255        0.175472        0.115302        0.174508        0.835129        -0.442771       1.447e-007      0.88597         -0.383137       0.0691297       0.178967        0.0684047       0.17768         0.922088        -0.254256      
  1.7e+010        0.748619        -0.580667       0.128512        0.180015        0.127619        0.179403        0.819068        -0.464013       1.447e-007      0.872265        -0.403109       0.0775002       0.187507        0.07667         0.186452        0.915154        -0.267249      
  1.8e+010        0.723293        -0.603236       0.140892        0.183691        0.139238        0.183078        0.800949        -0.483345       1.447e-007      0.858235        -0.42198        0.0863051       0.19584         0.084791        0.194525        0.905844        -0.280361      
  1.9e+010        0.698367        -0.623987       0.152391        0.186652        0.151418        0.185519        0.783449        -0.503083       1.447e-007      0.843807        -0.439917       0.0944955       0.203474        0.0935799       0.20185         0.898445        -0.29323       
  2e+010          0.672942        -0.643996       0.164405        0.188586        0.163889        0.188113        0.766566        -0.519527       1.447e-007      0.829497        -0.457772       0.103598        0.210471        0.103065        0.209493        0.890117        -0.304523      
  2.1e+010        0.647546        -0.661988       0.176515        0.18979         0.174661        0.189485        0.747718        -0.536766       1.447e-007      0.814546        -0.47448        0.113125        0.21731         0.111206        0.216155        0.881152        -0.316813      
  2.2e+010        0.621562        -0.678539       0.187858        0.189844        0.186475        0.189126        0.731881        -0.552969       1.447e-007      0.798914        -0.490676       0.12224         0.22281         0.120902        0.221521        0.874097        -0.327348      
  2.3e+010        0.596746        -0.694222       0.199276        0.189546        0.197685        0.189271        0.713099        -0.568424       1.447e-007      0.783579        -0.505991       0.131776        0.228411        0.13012         0.227448        0.864811        -0.338759      
  2.4e+010        0.571515        -0.708809       0.210234        0.189015        0.208043        0.188551        0.695527        -0.583267       1.447e-007      0.768222        -0.520742       0.14115         0.233623        0.1389          0.232242        0.856114        -0.349958      
  2.5e+010        0.546592        -0.723746       0.221117        0.188071        0.219289        0.187544        0.67641         -0.59764        1.447e-007      0.753066        -0.535818       0.150634        0.238842        0.148664        0.237634        0.846681        -0.360875      
  2.6e+010        0.520909        -0.735664       0.232758        0.186375        0.230302        0.186201        0.657861        -0.611812       1.447e-007      0.736772        -0.549174       0.160801        0.243864        0.158133        0.242636        0.837387        -0.371193      
  2.7e+010        0.494551        -0.746506       0.243012        0.184086        0.240623        0.183504        0.641757        -0.621959       1.447e-007      0.719616        -0.562678       0.170661        0.247878        0.168127        0.246089        0.828691        -0.379645      
  2.8e+010        0.469522        -0.756423       0.252513        0.180004        0.250462        0.180351        0.620956        -0.63482        1.447e-007      0.702638        -0.574888       0.180149        0.250535        0.177665        0.25015         0.819198        -0.389193      
  2.9e+010        0.445202        -0.766306       0.262122        0.177241        0.258915        0.177676        0.603067        -0.644952       1.447e-007      0.687007        -0.586854       0.189906        0.254467        0.186054        0.253729        0.809646        -0.397928      
  3e+010          0.421233        -0.775015       0.27127         0.174148        0.269411        0.175082        0.585571        -0.656785       1.447e-007      0.670222        -0.598032       0.199434        0.257638        0.196843        0.257846        0.801306        -0.407427      
  3.1e+010        0.395068        -0.782661       0.279642        0.169899        0.27836         0.170152        0.570481        -0.664335       1.447e-007      0.652433        -0.60875        0.208612        0.259344        0.207223        0.258867        0.792558        -0.414472      
  3.2e+010        0.371687        -0.789554       0.289317        0.165984        0.286425        0.165821        0.550889        -0.675422       1.447e-007      0.635918        -0.61901        0.218788        0.262413        0.215424        0.260987        0.782569        -0.424787      
  3.3e+010        0.347688        -0.794475       0.298779        0.161206        0.295377        0.161709        0.533077        -0.685643       1.447e-007      0.618901        -0.62832        0.229717        0.264678        0.22569         0.263892        0.773386        -0.432997      
  3.4e+010        0.32429         -0.798104       0.306866        0.155802        0.30446         0.156558        0.5157          -0.693614       1.447e-007      0.600685        -0.635996       0.239699        0.265566        0.236339        0.265095        0.764241        -0.440569      
  3.5e+010        0.301942        -0.802596       0.3139          0.15027         0.312625        0.150542        0.497868        -0.700252       1.447e-007      0.584429        -0.644112       0.248752        0.266214        0.246648        0.265586        0.754224        -0.448056      
  3.6e+010        0.278205        -0.806422       0.321991        0.14499         0.31923         0.145269        0.481509        -0.707222       1.447e-007      0.567487        -0.652227       0.259378        0.267229        0.255918        0.266088        0.744373        -0.45553       
  3.7e+010        0.257611        -0.809973       0.32929         0.138523        0.327248        0.139988        0.464142        -0.714885       1.447e-007      0.551961        -0.658664       0.268896        0.267326        0.26578         0.267546        0.735224        -0.462167      
  3.8e+010        0.236276        -0.811849       0.336411        0.131905        0.334626        0.133865        0.447558        -0.721877       1.447e-007      0.535712        -0.66524        0.278779        0.266569        0.275695        0.267695        0.725964        -0.468847      
  3.9e+010        0.215714        -0.813871       0.342103        0.125645        0.339861        0.127587        0.431307        -0.727742       1.447e-007      0.520238        -0.671094       0.287578        0.266146        0.283953        0.267687        0.716855        -0.475491      
  4e+010          0.193211        -0.81609        0.348542        0.11873         0.345215        0.121059        0.412939        -0.732239       1.447e-007      0.502637        -0.677323       0.297606        0.265618        0.292721        0.266709        0.70626         -0.48183       
  4.1e+010        0.171431        -0.816721       0.354015        0.111672        0.352043        0.113606        0.397647        -0.737863       1.447e-007      0.48585         -0.68334        0.306958        0.264201        0.303311        0.265223        0.696435        -0.488306      
  4.2e+010        0.152376        -0.815774       0.359824        0.104237        0.357429        0.106363        0.380221        -0.743709       1.447e-007      0.470327        -0.687072       0.316164        0.262298        0.31158         0.262993        0.68571         -0.493653      
  4.3e+010        0.131055        -0.814248       0.363794        0.0966526       0.362651        0.0992387       0.365359        -0.749383       1.447e-007      0.453334        -0.691548       0.324113        0.260509        0.321109        0.26252         0.678435        -0.498237      
  4.4e+010        0.113781        -0.815647       0.368196        0.0902519       0.366601        0.0915534       0.346471        -0.751477       1.447e-007      0.439911        -0.695779       0.333551        0.259664        0.331109        0.259858        0.667261        -0.503969      
  4.5e+010        0.0942515       -0.815094       0.372694        0.0836321       0.370776        0.0857887       0.332091        -0.754664       1.447e-007      0.423901        -0.700191       0.342291        0.257919        0.338679        0.258793        0.65893         -0.508431      
  4.6e+010        0.0753439       -0.81436        0.376916        0.0753969       0.373432        0.0781043       0.316354        -0.7578         1.447e-007      0.409946        -0.703097       0.351461        0.255146        0.346062        0.25631         0.649119        -0.513246      
  4.7e+010        0.054346        -0.810778       0.379204        0.0682196       0.377678        0.0702837       0.30263         -0.761336       1.447e-007      0.39051         -0.706914       0.358602        0.252312        0.35602         0.253703        0.641109        -0.517319      
  4.8e+010        0.0383914       -0.811093       0.382808        0.0621065       0.381268        0.0633022       0.286852        -0.763307       1.447e-007      0.378662        -0.709783       0.367397        0.250761        0.36443         0.250766        0.630962        -0.521542      
  4.9e+010        0.0240286       -0.806783       0.385827        0.0538459       0.382257        0.0579621       0.271169        -0.766804       1.447e-007      0.364519        -0.710473       0.375847        0.245347        0.369283        0.248611        0.622767        -0.527036      
  5e+010          0.00307657      -0.806428       0.388938        0.0465937       0.388398        0.0507073       0.255655        -0.767481       1.447e-007      0.34659         -0.71511        0.383995        0.24306         0.380968        0.246692        0.611164        -0.530195      
  5.1e+010        -0.0114538      -0.800788       0.39072         0.0398968       0.389498        0.042613        0.241371        -0.77226        1.447e-007      0.332324        -0.714047       0.390997        0.240225        0.387178        0.242012        0.604357        -0.53439       
  5.2e+010        -0.0277145      -0.798625       0.3935          0.0319093       0.389795        0.0349397       0.230464        -0.769183       1.447e-007      0.31851         -0.716559       0.399367        0.234596        0.393281        0.235837        0.593944        -0.5365        
