! VERSION = 6.00
!Data measured by ggf on Mon Jan 22 13:49:05 2018 using model file NPN_MEAS_SCALE
BEGIN_HEADER
 ICCAP_INPUTS
  vc         V  C GROUND SMU_C 0.1 SYNC       1 0.25 vb
  ve         V  E GROUND SMU_E 0 CON        0
  vs         V  S GROUND SMU_S 0 CON        0
  freq       F  LIST       1 74 100000000 200000000 300000000 400000000 500000000 600000000 700000000 800000000 900000000 1000000000 2000000000 3000000000 4000000000 5000000000 6000000000 7000000000 8000000000 9000000000 10000000000 11000000000 12000000000 13000000000 14000000000 15000000000 16000000000 17000000000 18000000000 19000000000 20000000000 21000000000 22000000000 23000000000 24000000000 25000000000 26000000000 27000000000 28000000000 29000000000 30000000000 31000000000 32000000000 33000000000 34000000000 35000000000 36000000000 37000000000 38000000000 39000000000 40000000000 41000000000 42000000000 43000000000 44000000000 45000000000 46000000000 47000000000 48000000000 49000000000 50000000000 51000000000 52000000000 53000000000 54000000000 55000000000 56000000000 57000000000 58000000000 59000000000 60000000000 61000000000 62000000000 63000000000 64000000000 65000000000
  vb         V  B GROUND SMU_B 0.015 LIN        2    0.68       1.04       37   0.01      
 ICCAP_OUTPUTS
  ic         I  C GROUND SMU_C M
  ib         I  B GROUND SMU_B M
  S          S  B C GROUND NWA M
  S_deemb    S B C GROUND n/a B
 ICCAP_VALUES
  TNOM "27"
  TEMP "27"
  TECHNO "SG13G2"
  LOT "EDJ802"
  WAFER "02"
  CHIP "(3.3)"
  MODULE "S439S"
  DEV_NAME "D41"
  DEV_GEOM_L "0.9"
  DEV_GEOM_W "0.07"
  NUM_OF_TRANS_RF "4"
  REMARKS "Nx=2; Power -30/-20dBm, Slope: 0.1dB/GHz"
  TIMEDATE "Mon Jan 22 13:32:08     2018"
  OPERATOR "ggf"
END_HEADER

BEGIN_DB
 ICCAP_VAR vc         0.93           
 ICCAP_VAR ve         0              
 ICCAP_VAR vs         0              
 ICCAP_VAR vb         0.68           

 #freq            ic              ib              R:S(1,1)        I:S(1,1)        R:S(1,2)        I:S(1,2)        R:S(2,1)        I:S(2,1)        R:S(2,2)        I:S(2,2)        R:S_deemb(1,1)  I:S_deemb(1,1)  R:S_deemb(1,2)  I:S_deemb(1,2)  R:S_deemb(2,1)  I:S_deemb(2,1)  R:S_deemb(2,2)  I:S_deemb(2,2) 
  1e+008          1.6452e-005     2.084e-008      0.999275        -0.00406547     2.74905e-005    0.00110728      -0.069172       0.000512615     0.999673        -0.00253122     0.999356        -0.0020117      4.63556e-005    0.000851178     -0.0694989      0.000259782     0.999845        -0.00113734    
  2e+008          1.6452e-005     2.084e-008      0.99976         -0.0082543      5.92099e-005    0.00217694      -0.067251       0.00177734      1.00027         -0.00570876     0.999959        -0.00452307     0.000106587     0.00179378      -0.0673674      0.00109136      1.00008         -0.00279552    
  3e+008          1.6452e-005     2.084e-008      0.999648        -0.012042       1.61736e-005    0.00334545      -0.0675002      0.00346308      1.00022         -0.00847013     0.999772        -0.00710504     6.27682e-006    0.00276221      -0.0675391      0.00257259      1.00023         -0.00475501    
  4e+008          1.6452e-005     2.084e-008      0.999391        -0.0153301      5.92321e-005    0.00444389      -0.0664282      0.00488782      1.00057         -0.0114058      0.99986         -0.00935796     3.21262e-005    0.00360805      -0.0664536      0.00372472      1.00019         -0.00572629    
  5e+008          1.6452e-005     2.084e-008      0.999525        -0.0201931      8.99758e-005    0.00556606      -0.0671541      0.00630614      1.00016         -0.0143568      1.00005         -0.0124461      4.10791e-005    0.00460532      -0.0670983      0.00476594      1.00004         -0.00708925    
  6e+008          1.6452e-005     2.084e-008      0.999184        -0.0233198      0.000138644     0.00667538      -0.0672052      0.00758787      1.00007         -0.0174547      0.999787        -0.0142479      4.94159e-005    0.00548654      -0.0673255      0.00569558      1.00004         -0.0086826     
  7e+008          1.6452e-005     2.084e-008      0.998964        -0.0272414      0.000167818     0.00780259      -0.0671346      0.00912984      1.00002         -0.020323       0.999647        -0.0167984      6.44265e-005    0.00641661      -0.0672527      0.00711384      0.999872        -0.0101322     
  8e+008          1.6452e-005     2.084e-008      0.998804        -0.0309765      0.000245679     0.00893425      -0.067426       0.0105153       0.999845        -0.0232539      0.999648        -0.0192337      0.000122842     0.00733748      -0.067612       0.00814176      0.99982         -0.0115848     
  9e+008          1.6452e-005     2.084e-008      0.998714        -0.0348909      0.000384513     0.0100173       -0.0667434      0.0121261       0.999767        -0.0261745      0.999603        -0.0215875      0.000213735     0.0082562       -0.0668143      0.00942437      0.999909        -0.0129847     
  1e+009          1.6452e-005     2.084e-008      0.998422        -0.0387719      0.000349237     0.0111281       -0.0673479      0.0135458       0.99984         -0.0290484      0.999417        -0.0238935      0.000137706     0.00915573      -0.0676809      0.0105975       0.999808        -0.014457      
  2e+009          1.6452e-005     2.084e-008      0.995567        -0.0777642      0.00155996      0.022194        -0.0643487      0.0271418       0.997518        -0.0577638      0.998263        -0.0480831      0.000740661     0.0182653       -0.0652861      0.0214157       0.998985        -0.0289147     
  3e+009          1.6452e-005     2.084e-008      0.991145        -0.115603       0.00338389      0.0331087       -0.0633416      0.0403911       0.99444         -0.0860899      0.996432        -0.0719166      0.0015277       0.0273186       -0.0655678      0.0316578       0.997614        -0.0424606     
  4e+009          1.6452e-005     2.084e-008      0.98454         -0.153478       0.00597899      0.043866        -0.0604284      0.0539482       0.990401        -0.114713       0.993819        -0.095653       0.00280254      0.0363489       -0.0643719      0.0424908       0.996036        -0.0571968     
  5e+009          1.6452e-005     2.084e-008      0.976378        -0.1909         0.00932941      0.0544233       -0.0558223      0.0670551       0.984786        -0.142631       0.990299        -0.119203       0.0043379       0.0453891       -0.0618969      0.0531997       0.993904        -0.0709678     
  6e+009          1.6452e-005     2.084e-008      0.966786        -0.228257       0.0132991       0.0646672       -0.050847       0.0796133       0.978194        -0.17034        0.98601         -0.143616       0.00624389      0.054299        -0.0595191      0.0635535       0.991685        -0.0847072     
  7e+009          1.6452e-005     2.084e-008      0.955628        -0.263762       0.0180449       0.0747386       -0.0457506      0.0918858       0.971323        -0.196751       0.981207        -0.166252       0.00859244      0.0632333       -0.0573985      0.0739362       0.989122        -0.0981555     
  8e+009          1.6452e-005     2.084e-008      0.94292         -0.298919       0.0233633       0.084268        -0.0394365      0.103751        0.963083        -0.223165       0.975518        -0.18926        0.0111825       0.0720049       -0.0543203      0.0842148       0.986386        -0.111678      
  9e+009          1.6452e-005     2.084e-008      0.928859        -0.334049       0.0293151       0.0934685       -0.0324627      0.115064        0.95465         -0.248926       0.9692          -0.2122         0.0141508       0.0806378       -0.0509972      0.0941494       0.983197        -0.124874      
  1e+010          1.6452e-005     2.084e-008      0.913302        -0.367056       0.0357805       0.102088        -0.0241478      0.125596        0.945038        -0.274318       0.962109        -0.234079       0.0174315       0.0890892       -0.0464887      0.103873        0.979723        -0.138117      
  1.1e+010        1.6452e-005     2.084e-008      0.896447        -0.39926        0.0427038       0.110311        -0.0160917      0.1361          0.9347          -0.299258       0.954637        -0.256819       0.0209702       0.0974047       -0.0426849      0.113927        0.976057        -0.15106       
  1.2e+010        1.6452e-005     2.084e-008      0.878232        -0.43065        0.0504082       0.118108        -0.0077541      0.145944        0.923187        -0.323803       0.946337        -0.278649       0.0250315       0.105756        -0.0388053      0.123692        0.972006        -0.164085      
  1.3e+010        1.6452e-005     2.084e-008      0.858683        -0.46032        0.0582053       0.125226        0.00136608      0.155147        0.911692        -0.347337       0.936956        -0.300195       0.0290399       0.113792        -0.0344622      0.133282        0.967957        -0.176582      
  1.4e+010        1.6452e-005     2.084e-008      0.838395        -0.488729       0.0670201       0.131723        0.0116588       0.16326         0.898559        -0.369472       0.927135        -0.320729       0.0340924       0.121783        -0.0288199      0.142507        0.963151        -0.189184      
  1.5e+010        1.6452e-005     2.084e-008      0.816358        -0.517047       0.0758153       0.137251        0.0223539       0.170024        0.885963        -0.39194        0.91653         -0.341627       0.0391002       0.129247        -0.0226032      0.150937        0.958689        -0.201291      
  1.6e+010        1.6452e-005     2.084e-008      0.794976        -0.542366       0.0847621       0.142472        0.0326838       0.176124        0.871905        -0.412872       0.906162        -0.361025       0.04438         0.136618        -0.016682       0.159085        0.9533          -0.213421      
  1.7e+010        1.6452e-005     2.084e-008      0.77232         -0.567258       0.094135        0.146868        0.044283        0.182333        0.857963        -0.434516       0.894499        -0.381327       0.0500393       0.143659        -0.0098695      0.167787        0.948442        -0.225557      
  1.8e+010        1.6452e-005     2.084e-008      0.749145        -0.590332       0.103286        0.150391        0.0546841       0.187301        0.843506        -0.453761       0.882997        -0.399646       0.0557111       0.150275        -0.00381426     0.175613        0.942775        -0.236917      
  1.9e+010        1.6452e-005     2.084e-008      0.725115        -0.612724       0.112343        0.153949        0.0657696       0.19152         0.827432        -0.473263       0.870155        -0.418582       0.0613736       0.157159        0.00284546      0.183274        0.936717        -0.248343      
  2e+010          1.6452e-005     2.084e-008      0.701076        -0.63383        0.121736        0.156465        0.0768825       0.195666        0.812821        -0.490971       0.857867        -0.436698       0.0676589       0.163309        0.00990284      0.190994        0.931076        -0.259564      
  2.1e+010        1.6452e-005     2.084e-008      0.676715        -0.652878       0.131229        0.158311        0.0867322       0.198685        0.796113        -0.508742       0.844635        -0.453765       0.0742913       0.169295        0.0159419       0.197944        0.924534        -0.270971      
  2.2e+010        1.6452e-005     2.084e-008      0.651855        -0.670823       0.140762        0.159596        0.0986297       0.200356        0.78144         -0.52557        0.830985        -0.470716       0.0811478       0.174805        0.0244465       0.204373        0.918889        -0.281079      
  2.3e+010        1.6452e-005     2.084e-008      0.628141        -0.687871       0.149656        0.160119        0.109435        0.202187        0.764919        -0.541814       0.817611        -0.486757       0.0877209       0.179742        0.0320034       0.210872        0.912302        -0.291821      
  2.4e+010        1.6452e-005     2.084e-008      0.60365         -0.703905       0.158386        0.160716        0.119541        0.203128        0.749644        -0.556998       0.803878        -0.50246        0.0943239       0.184709        0.039299        0.216326        0.906184        -0.301927      
  2.5e+010        1.6452e-005     2.084e-008      0.579722        -0.72058        0.167026        0.160954        0.130153        0.203989        0.732059        -0.572295       0.790805        -0.518691       0.100939        0.18965         0.0469603       0.222424        0.898824        -0.31248       
  2.6e+010        1.6452e-005     2.084e-008      0.554163        -0.733391       0.176238        0.160424        0.141036        0.204266        0.715632        -0.587757       0.775461        -0.532613       0.107985        0.194275        0.0549279       0.22804         0.892333        -0.322563      
  2.7e+010        1.6452e-005     2.084e-008      0.528687        -0.746498       0.184785        0.159701        0.151392        0.203905        0.701064        -0.599403       0.760589        -0.547994       0.115206        0.198687        0.0632537       0.233185        0.886026        -0.331434      
  2.8e+010        1.6452e-005     2.084e-008      0.503676        -0.757713       0.19341         0.157545        0.160886        0.202236        0.681192        -0.614012       0.74462         -0.561455       0.122834        0.202332        0.070925        0.237779        0.878407        -0.341575      
  2.9e+010        1.6452e-005     2.084e-008      0.479771        -0.769144       0.200893        0.156177        0.169203        0.201628        0.664668        -0.625504       0.730579        -0.574718       0.1295          0.206247        0.077458        0.242666        0.871146        -0.350517      
  3e+010          1.6452e-005     2.084e-008      0.456427        -0.779469       0.208807        0.154745        0.17945         0.200745        0.647862        -0.638609       0.715638        -0.58733        0.136781        0.210086        0.0864105       0.247758        0.864337        -0.360377      
  3.1e+010        1.6452e-005     2.084e-008      0.429846        -0.788879       0.216409        0.152287        0.188927        0.197998        0.634359        -0.646966       0.698563        -0.600027       0.14415         0.21284         0.0957017       0.250701        0.857826        -0.367246      
  3.2e+010        1.6452e-005     2.084e-008      0.406511        -0.797265       0.224681        0.149881        0.198146        0.194804        0.616116        -0.658801       0.683274        -0.61182        0.151811        0.216277        0.103669        0.25374         0.849952        -0.377005      
  3.3e+010        1.6452e-005     2.084e-008      0.381661        -0.802937       0.232663        0.147038        0.2073          0.192507        0.599153        -0.671474       0.6663          -0.622345       0.159922        0.219403        0.112383        0.258067        0.843057        -0.386743      
  3.4e+010        1.6452e-005     2.084e-008      0.359366        -0.8086         0.239832        0.143425        0.216637        0.189658        0.582376        -0.680898       0.650744        -0.631891       0.167685        0.221316        0.121299        0.261308        0.835629        -0.394976      
  3.5e+010        1.6452e-005     2.084e-008      0.335922        -0.81421        0.246434        0.139588        0.225136        0.185855        0.565292        -0.688532       0.634278        -0.641846       0.175116        0.223144        0.130046        0.263914        0.827342        -0.402739      
  3.6e+010        1.6452e-005     2.084e-008      0.311758        -0.819208       0.253719        0.1361          0.233218        0.182147        0.550387        -0.695924       0.617891        -0.65164        0.183609        0.225332        0.139317        0.266443        0.819555        -0.409713      
  3.7e+010        1.6452e-005     2.084e-008      0.290374        -0.82437        0.260182        0.131467        0.241076        0.178173        0.532819        -0.706344       0.602756        -0.660346       0.191009        0.22657         0.147477        0.268735        0.811912        -0.41873       
  3.8e+010        1.6452e-005     2.084e-008      0.268056        -0.827056       0.266911        0.126695        0.249256        0.173215        0.516835        -0.715167       0.586256        -0.668516       0.199223        0.227261        0.15686         0.270179        0.804497        -0.426579      
  3.9e+010        1.6452e-005     2.084e-008      0.247303        -0.830735       0.272025        0.122479        0.255174        0.167538        0.501191        -0.721622       0.571815        -0.676561       0.205996        0.228415        0.164649        0.270809        0.796758        -0.433174      
  4e+010          1.6452e-005     2.084e-008      0.225183        -0.833475       0.277902        0.116997        0.262003        0.162858        0.482663        -0.727613       0.555327        -0.683486       0.214181        0.228818        0.173188        0.27231         0.78729         -0.440868      
  4.1e+010        1.6452e-005     2.084e-008      0.201363        -0.836352       0.28298         0.111959        0.269278        0.157997        0.46899         -0.733727       0.537929        -0.693424       0.221567        0.229122        0.181971        0.273693        0.779854        -0.446775      
  4.2e+010        1.6452e-005     2.084e-008      0.18219         -0.835887       0.289161        0.106422        0.275936        0.152982        0.452378        -0.743338       0.52284         -0.698235       0.22984         0.22936         0.189692        0.274423        0.772236        -0.455428      
  4.3e+010        1.6452e-005     2.084e-008      0.159605        -0.834702       0.293137        0.10037         0.282002        0.145511        0.43699         -0.750851       0.505102        -0.704107       0.236559        0.228877        0.199414        0.273748        0.76568         -0.461717      
  4.4e+010        1.6452e-005     2.084e-008      0.141709        -0.837358       0.297146        0.095454        0.286754        0.140003        0.417163        -0.753386       0.491855        -0.710706       0.244242        0.229366        0.208303        0.274062        0.754401        -0.468414      
  4.5e+010        1.6452e-005     2.084e-008      0.121784        -0.837586       0.301622        0.090435        0.291624        0.135577        0.403544        -0.757499       0.476092        -0.716583       0.251709        0.229123        0.215093        0.274647        0.74776         -0.4731        
  4.6e+010        1.6452e-005     2.084e-008      0.10163         -0.837891       0.3058          0.0841404       0.296817        0.128379        0.387163        -0.761893       0.461521        -0.721824       0.259359        0.228333        0.224295        0.274122        0.738306        -0.479632      
  4.7e+010        1.6452e-005     2.084e-008      0.0790914       -0.834823       0.30866         0.0780476       0.301424        0.121691        0.374258        -0.766861       0.440839        -0.7278         0.266068        0.227055        0.233251        0.273235        0.732374        -0.484632      
  4.8e+010        1.6452e-005     2.084e-008      0.0622595       -0.835799       0.31189         0.07323         0.306179        0.116441        0.358676        -0.769767       0.428406        -0.732344       0.273441        0.226621        0.241386        0.272821        0.723223        -0.489708      
