! VERSION = 6.00
!Data measured by ggf on Mon Jan 22 13:49:05 2018 using model file NPN_MEAS_SCALE
BEGIN_HEADER
 ICCAP_INPUTS
  vc         V  C GROUND SMU_C 0.1 SYNC       1 0.5 vb
  ve         V  E GROUND SMU_E 0 CON        0
  vs         V  S GROUND SMU_S 0 CON        0
  freq       F  LIST       1 74 100000000 200000000 300000000 400000000 500000000 600000000 700000000 800000000 900000000 1000000000 2000000000 3000000000 4000000000 5000000000 6000000000 7000000000 8000000000 9000000000 10000000000 11000000000 12000000000 13000000000 14000000000 15000000000 16000000000 17000000000 18000000000 19000000000 20000000000 21000000000 22000000000 23000000000 24000000000 25000000000 26000000000 27000000000 28000000000 29000000000 30000000000 31000000000 32000000000 33000000000 34000000000 35000000000 36000000000 37000000000 38000000000 39000000000 40000000000 41000000000 42000000000 43000000000 44000000000 45000000000 46000000000 47000000000 48000000000 49000000000 50000000000 51000000000 52000000000 53000000000 54000000000 55000000000 56000000000 57000000000 58000000000 59000000000 60000000000 61000000000 62000000000 63000000000 64000000000 65000000000
  vb         V  B GROUND SMU_B 0.015 LIN        2    0.68       1.04       37   0.01      
 ICCAP_OUTPUTS
  ic         I  C GROUND SMU_C M
  ib         I  B GROUND SMU_B M
  S          S  B C GROUND NWA M
  S_deemb    S B C GROUND n/a B
 ICCAP_VALUES
  TNOM "27"
  TEMP "27"
  TECHNO "SG13G2"
  LOT "EDJ802"
  WAFER "02"
  CHIP "(3.3)"
  MODULE "S439S"
  DEV_NAME "D41"
  DEV_GEOM_L "0.9"
  DEV_GEOM_W "0.07"
  NUM_OF_TRANS_RF "4"
  REMARKS "Nx=2; Power -30/-20dBm, Slope: 0.1dB/GHz"
  TIMEDATE "Mon Jan 22 13:32:08     2018"
  OPERATOR "ggf"
END_HEADER

BEGIN_DB
 ICCAP_VAR vc         1.18           
 ICCAP_VAR ve         0              
 ICCAP_VAR vs         0              
 ICCAP_VAR vb         0.68           

 #freq            ic              ib              R:S(1,1)        I:S(1,1)        R:S(1,2)        I:S(1,2)        R:S(2,1)        I:S(2,1)        R:S(2,2)        I:S(2,2)        R:S_deemb(1,1)  I:S_deemb(1,1)  R:S_deemb(1,2)  I:S_deemb(1,2)  R:S_deemb(2,1)  I:S_deemb(2,1)  R:S_deemb(2,2)  I:S_deemb(2,2) 
  1e+008          1.642e-005      2.0198e-008     0.999331        -0.00437226     3.31643e-005    0.00112005      -0.0692269      0.000409589     0.999227        -0.00276736     0.999413        -0.00231841     5.19337e-005    0.00086401      -0.0695536      0.000156644     0.9994          -0.00137415    
  2e+008          1.642e-005      2.0198e-008     0.999837        -0.00828638     4.21875e-005    0.00215496      -0.0670526      0.00186428      1.0001          -0.00562465     1.00004         -0.0045549      8.96456e-005    0.00177176      -0.0671692      0.001179        0.999906        -0.00271197    
  3e+008          1.642e-005      2.0198e-008     0.999628        -0.0119705      4.10132e-005    0.00329376      -0.0673328      0.00336578      0.999867        -0.00790424     0.999751        -0.00703369     3.15286e-005    0.00271073      -0.0673711      0.00247625      0.99987         -0.00419049    
  4e+008          1.642e-005      2.0198e-008     0.999338        -0.0154119      6.97831e-005    0.00436776      -0.0662908      0.00492871      1.0004          -0.0113338      0.999807        -0.00944018     4.31175e-005    0.00353207      -0.0663165      0.00376652      1.00002         -0.00565536    
  5e+008          1.642e-005      2.0198e-008     0.999349        -0.019543       0.000112846     0.00544775      -0.0671043      0.0061248       1.00007         -0.0143705      0.999867        -0.0117971      6.51567e-005    0.00448729      -0.0670468      0.00458528      0.999943        -0.00710371    
  6e+008          1.642e-005      2.0198e-008     0.999139        -0.0232633      0.000132712     0.00655151      -0.0670271      0.00747184      0.999927        -0.0172882      0.999741        -0.014192       4.473e-005      0.0053627       -0.0671462      0.0055813       0.999896        -0.00851751    
  7e+008          1.642e-005      2.0198e-008     0.999042        -0.0270788      0.000199315     0.00764833      -0.0670794      0.0089464       0.999883        -0.020192       0.999723        -0.0166351      9.77313e-005    0.0062627       -0.0671953      0.00693103      0.999736        -0.0100027     
  8e+008          1.642e-005      2.0198e-008     0.998751        -0.0307693      0.000251284     0.0087643       -0.0672663      0.0101397       0.999777        -0.0230171      0.999592        -0.0190272      0.000130808     0.00716766      -0.0674474      0.00776814      0.999749        -0.011349      
  9e+008          1.642e-005      2.0198e-008     0.99871         -0.034812       0.000340238     0.00985064      -0.0666531      0.0117808       0.999646        -0.0260086      0.999597        -0.0215087      0.000171891     0.00808899      -0.0667191      0.00908033      0.999786        -0.0128205     
  1e+009          1.642e-005      2.0198e-008     0.998567        -0.038773       0.000377949     0.0109046       -0.0672419      0.0133211       0.999687        -0.0288708      0.999561        -0.0238925      0.000169906     0.00893259      -0.0675713      0.0103744       0.999651        -0.0142819     
  2e+009          1.642e-005      2.0198e-008     0.995781        -0.077129       0.00150586      0.0217372       -0.0642384      0.0266589       0.997555        -0.0571617      0.998456        -0.0474408      0.000702485     0.017806        -0.0651585      0.0209353       0.999002        -0.0283114     
  3e+009          1.642e-005      2.0198e-008     0.99109         -0.114935       0.00331483      0.0325022       -0.0632871      0.039732        0.994551        -0.085833       0.996343        -0.0712496      0.00148815      0.026708        -0.0654807      0.0310001       0.997709        -0.0421984     
  4e+009          1.642e-005      2.0198e-008     0.984773        -0.152428       0.00584435      0.0430171       -0.060486       0.0529956       0.990556        -0.113569       0.993982        -0.0945848      0.00272618      0.0354879       -0.0643629      0.0415304       0.996117        -0.0560408     
  5e+009          1.642e-005      2.0198e-008     0.976824        -0.189919       0.00904766      0.0534492       -0.0560186      0.0658033       0.985252        -0.141223       0.990662        -0.11818        0.00413824      0.0443851       -0.0619875      0.0519227       0.994256        -0.0695189     
  6e+009          1.642e-005      2.0198e-008     0.967237        -0.226222       0.0129679       0.0634951       -0.0511216      0.0781562       0.978838        -0.168607       0.986266        -0.141523       0.00603605      0.0530824       -0.0596399      0.0620546       0.992162        -0.0829061     
  7e+009          1.642e-005      2.0198e-008     0.95631         -0.263232       0.0175867       0.0733381       -0.0462066      0.0903442       0.972011        -0.195037       0.981818        -0.165636       0.00828886      0.0617656       -0.0576817      0.0723248       0.989617        -0.0963546     
  8e+009          1.642e-005      2.0198e-008     0.943686        -0.297352       0.0227699       0.0827119       -0.0398826      0.10199         0.964068        -0.221301       0.97608         -0.187573       0.0107906       0.0703483       -0.0545339      0.0823661       0.987132        -0.109676      
  9e+009          1.642e-005      2.0198e-008     0.92957         -0.332359       0.0285752       0.091718        -0.0330925      0.113164        0.9557          -0.24688        0.969663        -0.210374       0.0136636       0.0787512       -0.0513461      0.0921222       0.983954        -0.122658      
  1e+010          1.642e-005      2.0198e-008     0.91443         -0.365101       0.0348827       0.100177        -0.024997       0.123552        0.946354        -0.272197       0.962927        -0.231902       0.0168357       0.0869931       -0.0470068      0.101643        0.980703        -0.135761      
  1.1e+010        1.642e-005      2.0198e-008     0.897611        -0.397453       0.0416929       0.108354        -0.0170705      0.133993        0.936208        -0.297077       0.95549         -0.254757       0.0202928       0.0952201       -0.0432963      0.111588        0.977189        -0.148584      
  1.2e+010        1.642e-005      2.0198e-008     0.879659        -0.428666       0.0490988       0.116023        -0.00900959     0.143682        0.924854        -0.32148        0.947399        -0.276325       0.0241034       0.103359        -0.039637       0.121115        0.973241        -0.161399      
  1.3e+010        1.642e-005      2.0198e-008     0.860314        -0.458239       0.0567903       0.123076        -0.000300524    0.152752        0.913558        -0.344796       0.938184        -0.297692       0.0280462       0.111273        -0.035653       0.130453        0.969318        -0.173597      
  1.4e+010        1.642e-005      2.0198e-008     0.840153        -0.487086       0.0653441       0.129446        0.0100902       0.160744        0.900594        -0.367079       0.928556        -0.318608       0.0328746       0.119049        -0.0298685      0.139536        0.964679        -0.186273      
  1.5e+010        1.642e-005      2.0198e-008     0.818569        -0.514942       0.0739866       0.135003        0.0205336       0.167265        0.88815         -0.389291       0.918299        -0.338885       0.0377534       0.126459        -0.0238166      0.147611        0.960284        -0.198038      
  1.6e+010        1.642e-005      2.0198e-008     0.797144        -0.54079        0.0827042       0.140121        0.0306716       0.173642        0.874333        -0.410393       0.907995        -0.358788       0.0428331       0.133636        -0.0181402      0.155959        0.955154        -0.210238      
  1.7e+010        1.642e-005      2.0198e-008     0.774674        -0.565234       0.091893        0.144476        0.0419923       0.17977         0.860713        -0.431864       0.89641         -0.378529       0.0483416       0.140534        -0.0115619      0.16445         0.950552        -0.222062      
  1.8e+010        1.642e-005      2.0198e-008     0.751422        -0.588532       0.100847        0.148024        0.0522422       0.18466         0.846279        -0.451249       0.884874        -0.397043       0.0538202       0.147084        -0.00562502     0.172113        0.944921        -0.233502      
  1.9e+010        1.642e-005      2.0198e-008     0.727813        -0.610569       0.109751        0.151562        0.0630349       0.188832        0.830462        -0.470756       0.872372        -0.415442       0.0593473       0.153843        0.000765665     0.179577        0.939106        -0.244798      
  2e+010          1.642e-005      2.0198e-008     0.704279        -0.631615       0.11892         0.154112        0.073868        0.193084        0.815951        -0.488441       0.860597        -0.43329        0.0654005       0.159903        0.00751614      0.187259        0.933548        -0.255905      
  2.1e+010        1.642e-005      2.0198e-008     0.679726        -0.650958       0.1282          0.156103        0.0836885       0.195992        0.799565        -0.506223       0.84725         -0.45066        0.0717725       0.165926        0.0135626       0.194027        0.927327        -0.267165      
  2.2e+010        1.642e-005      2.0198e-008     0.65512         -0.668766       0.137651        0.157336        0.0951821       0.197629        0.784959        -0.523247       0.833836        -0.467325       0.078562        0.171299        0.0216619       0.200234        0.921799        -0.277383      
  2.3e+010        1.642e-005      2.0198e-008     0.631392        -0.686046       0.146357        0.157981        0.105957        0.199784        0.768566        -0.539436       0.820533        -0.483566       0.0849014       0.176252        0.029088        0.207003        0.915325        -0.287968      
  2.4e+010        1.642e-005      2.0198e-008     0.607061        -0.702094       0.15493         0.158603        0.115958        0.200525        0.7535          -0.554644       0.806981        -0.499173       0.0913305       0.181136        0.0363409       0.212149        0.90942         -0.297965      
  2.5e+010        1.642e-005      2.0198e-008     0.582972        -0.7187         0.163518        0.158952        0.126278        0.201538        0.736229        -0.570153       0.793729        -0.515327       0.0978519       0.186119        0.0436417       0.218242        0.90246         -0.308562      
  2.6e+010        1.642e-005      2.0198e-008     0.557942        -0.731927       0.172521        0.158515        0.137079        0.202134        0.71979         -0.585679       0.779121        -0.52946        0.104626        0.190707        0.0513923       0.224098        0.895984        -0.318645      
  2.7e+010        1.642e-005      2.0198e-008     0.53265         -0.74471        0.180962        0.157726        0.147016        0.201577        0.705188        -0.597336       0.76436         -0.544351       0.111753        0.194949        0.0593417       0.228811        0.889648        -0.327468      
  2.8e+010        1.642e-005      2.0198e-008     0.50741         -0.756235       0.189284        0.155805        0.157032        0.199836        0.685533        -0.612015       0.748273        -0.55819        0.118957        0.198677        0.0675838       0.233465        0.882282        -0.337527      
  2.9e+010        1.642e-005      2.0198e-008     0.483814        -0.76795        0.196741        0.154502        0.165088        0.199652        0.669203        -0.623415       0.73471         -0.571597       0.125544        0.202586        0.0736518       0.238636        0.875208        -0.346234      
  3e+010          1.642e-005      2.0198e-008     0.460353        -0.777966       0.204623        0.153311        0.175087        0.199096        0.652638        -0.636624       0.71956         -0.583881       0.132683        0.206612        0.0821962       0.243916        0.868714        -0.356043      
  3.1e+010        1.642e-005      2.0198e-008     0.434229        -0.787754       0.212017        0.150799        0.184678        0.19563         0.638815        -0.645191       0.703148        -0.596732       0.139826        0.209184        0.0918824       0.24609         0.861942        -0.3632        
  3.2e+010        1.642e-005      2.0198e-008     0.410963        -0.796244       0.220242        0.148632        0.19334         0.193505        0.620945        -0.657181       0.688051        -0.608591       0.147299        0.2128          0.0987583       0.249986        0.854582        -0.372909      
  3.3e+010        1.642e-005      2.0198e-008     0.386635        -0.802404       0.228092        0.145815        0.202779        0.191076        0.604348        -0.669417       0.671897        -0.619388       0.155205        0.215823        0.107785        0.254209        0.847882        -0.381943      
  3.4e+010        1.642e-005      2.0198e-008     0.363358        -0.8083         0.235225        0.142418        0.211533        0.188594        0.587372        -0.679374       0.655412        -0.629587       0.162829        0.217949        0.115895        0.257588        0.840525        -0.390771      
  3.5e+010        1.642e-005      2.0198e-008     0.340301        -0.813704       0.241673        0.138757        0.220169        0.184352        0.570293        -0.687363       0.639327        -0.639095       0.169971        0.219853        0.124947        0.259716        0.832431        -0.398845      
  3.6e+010        1.642e-005      2.0198e-008     0.316106        -0.819439       0.248846        0.135474        0.227951        0.18082         0.555311        -0.694963       0.6233          -0.649712       0.178204        0.222206        0.13376         0.262292        0.8247          -0.406042      
  3.7e+010        1.642e-005      2.0198e-008     0.294926        -0.824084       0.25536         0.130736        0.236156        0.177199        0.538118        -0.705199       0.608186        -0.657715       0.185673        0.223266        0.142107        0.26504         0.817382        -0.414617      
  3.8e+010        1.642e-005      2.0198e-008     0.272863        -0.827124       0.261904        0.126238        0.243946        0.172656        0.522119        -0.714034       0.592215        -0.666163       0.193507        0.224136        0.150808        0.266718        0.810004        -0.422436      
  3.9e+010        1.642e-005      2.0198e-008     0.251608        -0.831197       0.267043        0.121897        0.250747        0.166882        0.506217        -0.721022       0.577387        -0.674866       0.200357        0.225165        0.15961         0.26769         0.802248        -0.429702      
  4e+010          1.642e-005      2.0198e-008     0.229097        -0.834539       0.272986        0.116951        0.256695        0.162039        0.488236        -0.727209       0.560826        -0.682659       0.208285        0.226191        0.167183        0.268555        0.793555        -0.437272      
  4.1e+010        1.642e-005      2.0198e-008     0.206225        -0.835848       0.278322        0.11187         0.263759        0.15661         0.474306        -0.733744       0.543808        -0.690269       0.215938        0.226489        0.175981        0.269079        0.786079        -0.443704      
  4.2e+010        1.642e-005      2.0198e-008     0.186227        -0.836764       0.283976        0.106521        0.270664        0.152144        0.456889        -0.742451       0.528509        -0.697107       0.223546        0.226662        0.18373         0.270553        0.777131        -0.45177       
  4.3e+010        1.642e-005      2.0198e-008     0.164527        -0.835643       0.288043        0.100479        0.276454        0.145392        0.441999        -0.749607       0.511913        -0.702629       0.230261        0.226163        0.192655        0.270461        0.770953        -0.457358      
  4.4e+010        1.642e-005      2.0198e-008     0.145894        -0.837574       0.292062        0.0958252       0.282225        0.139775        0.422742        -0.753092       0.497429        -0.708765       0.237767        0.226957        0.202719        0.271205        0.760857        -0.464763      
  4.5e+010        1.642e-005      2.0198e-008     0.12673         -0.838161       0.296633        0.0910344       0.286831        0.135071        0.408892        -0.757464       0.482793        -0.714651       0.245159        0.227016        0.2093          0.271312        0.754143        -0.469815      
  4.6e+010        1.642e-005      2.0198e-008     0.105195        -0.83922        0.300884        0.0846189       0.289937        0.129409        0.392833        -0.762113       0.467148        -0.721575       0.252944        0.226164        0.215225        0.271429        0.745341        -0.476453      
  4.7e+010        1.642e-005      2.0198e-008     0.0846042       -0.835579       0.303499        0.078724        0.295972        0.122171        0.379211        -0.766925       0.448474        -0.725838       0.25917         0.224916        0.226039        0.270645        0.738498        -0.481667      
  4.8e+010        1.642e-005      2.0198e-008     0.066452        -0.837209       0.30699         0.074123        0.300766        0.116933        0.3637          -0.769795       0.434829        -0.731876       0.266745        0.224903        0.234235        0.270285        0.729415        -0.486651      
