! VERSION = 6.00
!Data measured by ggf on Tue Jan 23 13:43:49 2018 using model file NPN_MEAS_SCALE
BEGIN_HEADER
 ICCAP_INPUTS
  vb         V  B GROUND GND 0 CON        0
  vc         V  C GROUND GND 0 CON        0
  ve         V  E GROUND SMU_E 0 CON        0
  vs         V  S GROUND SMU_S 0 CON        0
  freq       F  LIST       1 74 100000000 200000000 300000000 400000000 500000000 600000000 700000000 800000000 900000000 1000000000 2000000000 3000000000 4000000000 5000000000 6000000000 7000000000 8000000000 9000000000 10000000000 11000000000 12000000000 13000000000 14000000000 15000000000 16000000000 17000000000 18000000000 19000000000 20000000000 21000000000 22000000000 23000000000 24000000000 25000000000 26000000000 27000000000 28000000000 29000000000 30000000000 31000000000 32000000000 33000000000 34000000000 35000000000 36000000000 37000000000 38000000000 39000000000 40000000000 41000000000 42000000000 43000000000 44000000000 45000000000 46000000000 47000000000 48000000000 49000000000 50000000000 51000000000 52000000000 53000000000 54000000000 55000000000 56000000000 57000000000 58000000000 59000000000 60000000000 61000000000 62000000000 63000000000 64000000000 65000000000
 ICCAP_OUTPUTS
  S          S  B C Ground NWA M
 ICCAP_VALUES
  TNOM "27"
  TEMP "27"
  TECHNO "SG13G2"
  LOT "EDJ802"
  WAFER "02"
  CHIP "(3.3)"
  MODULE "S439S"
  DEV_NAME "D13"
  DEV_GEOM_L "2.5"
  DEV_GEOM_W "0.07"
  NUM_OF_TRANS_RF "2"
  REMARKS "Nx=3; Power -30/-20dBm, Slope: 0.1dB/GHz"
  TIMEDATE "Tue Jan 23 13:42:58     2018"
  OPERATOR "ggf"
END_HEADER

BEGIN_DB
 ICCAP_VAR vb         0              
 ICCAP_VAR vc         0              
 ICCAP_VAR ve         0              
 ICCAP_VAR vs         0              

 #freq            R:S(1,1)        I:S(1,1)        R:S(1,2)        I:S(1,2)        R:S(2,1)        I:S(2,1)        R:S(2,2)        I:S(2,2)       
  1e+008          -0.979681       0.00025881      0.00273844      4.79602e-005    0.00259521      0.000204248     -0.983574       0.00101292     
  2e+008          -0.979646       0.00101424      0.0027426       5.20472e-005    0.00281113      0.000188502     -0.983841       0.00219239     
  3e+008          -0.979822       0.0021815       0.00277319      0.000177281     0.00265559      3.42073e-005    -0.983388       0.00215831     
  4e+008          -0.97941        0.00224715      0.00271836      0.000231305     0.00272057      0.000175959     -0.983443       0.00255107     
  5e+008          -0.979425       0.0028983       0.00270637      0.000285569     0.00268028      0.000279969     -0.983266       0.00320457     
  6e+008          -0.979308       0.00332174      0.00272939      0.000355447     0.00273433      0.000410432     -0.983058       0.0038168      
  7e+008          -0.979131       0.00417428      0.00272682      0.00039647      0.00275352      0.000364215     -0.98301        0.00429095     
  8e+008          -0.979061       0.00437973      0.0026988       0.000463743     0.00268877      0.000541989     -0.982981       0.00475949     
  9e+008          -0.97898        0.00481392      0.00273086      0.000516586     0.00270679      0.000529482     -0.982853       0.0053097      
  1e+009          -0.978879       0.00525429      0.00270776      0.000578051     0.00275958      0.000581929     -0.982714       0.00581282     
  2e+009          -0.977908       0.00988781      0.00267388      0.00120955      0.00263587      0.00119971      -0.981813       0.0104422      
  3e+009          -0.977096       0.0140049       0.00261487      0.0018653       0.00269541      0.00183089      -0.980706       0.0147755      
  4e+009          -0.976541       0.0177906       0.00263403      0.00257856      0.00255803      0.00261058      -0.98012        0.0189201      
  5e+009          -0.976005       0.0217484       0.00271242      0.00321197      0.00270776      0.00327537      -0.980141       0.0229208      
  6e+009          -0.975641       0.0257028       0.00271483      0.00372335      0.00263502      0.00375723      -0.979726       0.0272408      
  7e+009          -0.975276       0.0296046       0.00263625      0.00431483      0.00264197      0.00429466      -0.978919       0.0314209      
  8e+009          -0.974283       0.0336265       0.00257182      0.00499378      0.0025848       0.00495205      -0.978369       0.035622       
  9e+009          -0.973975       0.0375949       0.00255142      0.00560067      0.00249308      0.00545567      -0.978157       0.0397016      
  1e+010          -0.973188       0.0412605       0.00257162      0.00616052      0.00256347      0.00617248      -0.977688       0.0438721      
  1.1e+010        -0.972778       0.0456011       0.00244902      0.00660587      0.00250249      0.00656854      -0.976757       0.0485518      
  1.2e+010        -0.971695       0.0492941       0.00200799      0.00714069      0.00202438      0.00708949      -0.97572        0.05271        
  1.3e+010        -0.971187       0.0533704       0.00151504      0.00806492      0.00154905      0.00805459      -0.975171       0.0564756      
  1.4e+010        -0.969886       0.0555632       0.00135274      0.00921017      0.0012929       0.0090586       -0.974075       0.0595781      
  1.5e+010        -0.969487       0.0590547       0.00148566      0.0102941       0.00151551      0.0101659       -0.973399       0.0632541      
  1.6e+010        -0.96927        0.0623751       0.00159532      0.0110512       0.00149759      0.0108618       -0.973368       0.0671776      
  1.7e+010        -0.968812       0.0658897       0.00151745      0.011952        0.00148786      0.0117135       -0.973799       0.0710647      
  1.8e+010        -0.968319       0.0684983       0.0016107       0.0130004       0.00143423      0.0128763       -0.973514       0.075101       
  1.9e+010        -0.968519       0.0719802       0.00175749      0.0137562       0.00165359      0.013902        -0.971425       0.0780855      
  2e+010          -0.968841       0.0757795       0.00199995      0.0145811       0.00197299      0.0143397       -0.97112        0.0828414      
  2.1e+010        -0.968701       0.0787874       0.00206781      0.0155727       0.00203652      0.0157292       -0.972457       0.0874032      
  2.2e+010        -0.969309       0.0824594       0.00244175      0.0165659       0.00268251      0.0163464       -0.973316       0.0877384      
  2.3e+010        -0.969747       0.0868376       0.00274715      0.017464        0.00274742      0.0172055       -0.968604       0.0870435      
  2.4e+010        -0.969887       0.0912516       0.00334747      0.0181098       0.00338612      0.0180733       -0.966664       0.0913061      
  2.5e+010        -0.968812       0.0962299       0.00367461      0.0184648       0.00394109      0.018283        -0.971111       0.105792       
  2.6e+010        -0.968508       0.10051         0.00387931      0.0191847       0.00359352      0.0188913       -0.988672       0.120613       
  2.7e+010        -0.967993       0.103859        0.00426356      0.0198146       0.00397228      0.0195983       -0.988309       0.141633       
  2.8e+010        -0.96774        0.107396        0.00424236      0.0201658       0.00434512      0.0199224       -0.976371       0.124748       
  2.9e+010        -0.966432       0.112517        0.00440957      0.0208762       0.00473578      0.0205289       -0.970513       0.119419       
  3e+010          -0.965917       0.116642        0.00473964      0.0216561       0.0052496       0.0215799       -0.965362       0.127894       
  3.1e+010        -0.964574       0.119766        0.00547192      0.021679        0.00558301      0.0220361       -0.965327       0.132997       
  3.2e+010        -0.963286       0.122582        0.0052447       0.022063        0.00523862      0.0218907       -0.967247       0.135471       
  3.3e+010        -0.963669       0.127209        0.00504318      0.0225919       0.00505737      0.0222012       -0.966789       0.136094       
  3.4e+010        -0.962235       0.13171         0.00495241      0.0231617       0.00515877      0.0232534       -0.965595       0.142069       
  3.5e+010        -0.962789       0.133002        0.00527244      0.0236989       0.00556691      0.0239058       -0.963551       0.146982       
  3.6e+010        -0.963214       0.13797         0.0051787       0.0242719       0.00567009      0.0241757       -0.968165       0.148892       
  3.7e+010        -0.96207        0.142399        0.0052041       0.0252709       0.00493417      0.0247274       -0.966155       0.153775       
  3.8e+010        -0.963722       0.146584        0.00531716      0.0261682       0.00495685      0.02607         -0.96588        0.159066       
  3.9e+010        -0.96153        0.149772        0.0057209       0.0269041       0.00559939      0.0267294       -0.965706       0.164384       
  4e+010          -0.960785       0.154225        0.00584892      0.0274249       0.0059959       0.0274086       -0.965382       0.166954       
  4.1e+010        -0.96052        0.158006        0.00650563      0.0280649       0.00689449      0.0278534       -0.965712       0.174736       
  4.2e+010        -0.959441       0.162892        0.00619736      0.028438        0.00646722      0.0282514       -0.958579       0.178102       
  4.3e+010        -0.959101       0.166091        0.00627234      0.0299751       0.006784        0.0291391       -0.960285       0.180227       
  4.4e+010        -0.958301       0.169088        0.00754878      0.0303301       0.00631483      0.0300741       -0.959932       0.184603       
  4.5e+010        -0.95805        0.173421        0.00773391      0.0300663       0.00744285      0.0299564       -0.961122       0.186961       
  4.6e+010        -0.957432       0.177602        0.00777833      0.030695        0.00807434      0.0298847       -0.958601       0.19264        
  4.7e+010        -0.957328       0.181505        0.00778533      0.0318142       0.00712492      0.0307539       -0.959955       0.197302       
  4.8e+010        -0.95652        0.18524         0.00885076      0.0316969       0.00826275      0.0322245       -0.960088       0.200761       
  4.9e+010        -0.956203       0.190067        0.00839182      0.0320362       0.00987821      0.0314842       -0.958107       0.203386       
  5e+010          -0.954967       0.195321        0.00876925      0.032581        0.00818653      0.0314561       -0.957909       0.211849       
  5.1e+010        -0.954166       0.198774        0.00967588      0.0327769       0.0089329       0.0328744       -0.95632        0.216384       
  5.2e+010        -0.952978       0.201306        0.00888808      0.0326678       0.00950617      0.0317736       -0.95478        0.218092       
  5.3e+010        -0.95087        0.206849        0.00822314      0.0340741       0.00874869      0.0326647       -0.953867       0.223815       
  5.4e+010        -0.95021        0.210447        0.00939346      0.0350755       0.00831835      0.0347209       -0.951619       0.228274       
  5.5e+010        -0.948857       0.213666        0.00964541      0.0351355       0.0105515       0.0354485       -0.95146        0.229244       
  5.6e+010        -0.948433       0.217257        0.0102844       0.035695        0.0108215       0.0352205       -0.951663       0.233779       
  5.7e+010        -0.946925       0.221856        0.0110331       0.0363262       0.0106027       0.034842        -0.948736       0.239604       
  5.8e+010        -0.944293       0.226617        0.0118598       0.0356918       0.0127933       0.0351687       -0.947891       0.242364       
  5.9e+010        -0.943804       0.228771        0.0108682       0.0352354       0.0118295       0.0341449       -0.945183       0.248202       
  6e+010          -0.942737       0.232031        0.0107678       0.0362465       0.0104395       0.0351559       -0.945607       0.250698       
  6.1e+010        -0.9425         0.234675        0.0109768       0.0362912       0.0115822       0.0368757       -0.945242       0.254452       
  6.2e+010        -0.942257       0.238593        0.0110399       0.0376084       0.0122143       0.0360166       -0.941754       0.254782       
  6.3e+010        -0.939726       0.240601        0.0124047       0.037743        0.0114842       0.035894        -0.941593       0.259927       
  6.4e+010        -0.939496       0.245035        0.0122986       0.0372548       0.0118071       0.0370894       -0.93795        0.265646       
  6.5e+010        -0.938893       0.247028        0.011697        0.0377126       0.0135204       0.0372865       -0.940515       0.265504       
END_DB

