! VERSION = 6.00
!Data measured by ggf on Tue Jan 23 13:41:40 2018 using model file NPN_MEAS_SCALE
BEGIN_HEADER
 ICCAP_INPUTS
  vb         V  B GROUND GND 0 CON        0
  vc         V  C GROUND GND 0 CON        0
  ve         V  E GROUND SMU_E 0 CON        0
  vs         V  S GROUND SMU_S 0 CON        0
  freq       F  LIST       1 74 100000000 200000000 300000000 400000000 500000000 600000000 700000000 800000000 900000000 1000000000 2000000000 3000000000 4000000000 5000000000 6000000000 7000000000 8000000000 9000000000 10000000000 11000000000 12000000000 13000000000 14000000000 15000000000 16000000000 17000000000 18000000000 19000000000 20000000000 21000000000 22000000000 23000000000 24000000000 25000000000 26000000000 27000000000 28000000000 29000000000 30000000000 31000000000 32000000000 33000000000 34000000000 35000000000 36000000000 37000000000 38000000000 39000000000 40000000000 41000000000 42000000000 43000000000 44000000000 45000000000 46000000000 47000000000 48000000000 49000000000 50000000000 51000000000 52000000000 53000000000 54000000000 55000000000 56000000000 57000000000 58000000000 59000000000 60000000000 61000000000 62000000000 63000000000 64000000000 65000000000
 ICCAP_OUTPUTS
  S          S  B C Ground NWA M
 ICCAP_VALUES
  TNOM "27"
  TEMP "27"
  TECHNO "SG13G2"
  LOT "EDJ802"
  WAFER "02"
  CHIP "(3.3)"
  MODULE "S439S"
  DEV_NAME "D12"
  DEV_GEOM_L "5.0"
  DEV_GEOM_W "0.07"
  NUM_OF_TRANS_RF "2"
  REMARKS "Nx=1; Power -30/-20dBm, Slope: 0.1dB/GHz"
  TIMEDATE "Tue Jan 23 13:21:27     2018"
  OPERATOR "ggf"
END_HEADER

BEGIN_DB
 ICCAP_VAR vb         0              
 ICCAP_VAR vc         0              
 ICCAP_VAR ve         0              
 ICCAP_VAR vs         0              

 #freq            R:S(1,1)        I:S(1,1)        R:S(1,2)        I:S(1,2)        R:S(2,1)        I:S(2,1)        R:S(2,2)        I:S(2,2)       
  1e+008          0.999789        -0.00112482     3.16402e-005    6.21331e-005    -0.000231884    3.40726e-005    0.999849        -0.00150647    
  2e+008          0.999985        -0.00241962     1.09258e-005    0.000149924     0.000188572     0.000184135     0.999789        -0.00247877    
  3e+008          1.00009         -0.00348046     7.06145e-006    0.000255171     -0.000138777    0.000218294     0.999911        -0.00367713    
  4e+008          1.00037         -0.00459187     5.73565e-006    0.000354702     0.000144969     0.000352417     0.999621        -0.00495692    
  5e+008          1.00023         -0.00582477     3.27719e-005    0.000446702     1.93842e-005    0.000384821     0.999886        -0.00597099    
  6e+008          1.00022         -0.00716367     -5.43138e-006   0.000530439     -0.000112437    0.000569048     0.999938        -0.00710553    
  7e+008          1.0003          -0.00828852     3.0958e-005     0.000597959     3.65963e-005    0.000658581     0.999679        -0.00838669    
  8e+008          1.00017         -0.00962259     1.48704e-005    0.000695198     -7.29299e-007   0.000676755     0.999789        -0.00955799    
  9e+008          1.00024         -0.0106233      3.60889e-005    0.000788018     -4.11061e-005   0.000876195     0.999719        -0.0107122     
  1e+009          1.00008         -0.011917       4.34885e-005    0.000890979     -2.58766e-005   0.000909565     0.999711        -0.0119255     
  2e+009          0.99983         -0.0237222      4.38778e-005    0.00177573      5.52402e-005    0.00190959      0.999312        -0.0238954     
  3e+009          0.999263        -0.0359083      0.000102977     0.00261772      0.000100518     0.00269904      0.998773        -0.035481      
  4e+009          0.998518        -0.0475275      0.00018177      0.00352426      0.000142752     0.00357538      0.998185        -0.0472811     
  5e+009          0.997803        -0.0591413      0.000291126     0.00441355      0.000210544     0.00445321      0.997262        -0.0590137     
  6e+009          0.996654        -0.0699794      0.000382364     0.00532323      0.00042099      0.00523567      0.996276        -0.0709572     
  7e+009          0.99519         -0.083024       0.00054145      0.00622152      0.000590998     0.0062386       0.995107        -0.0828476     
  8e+009          0.994027        -0.0939851      0.000739664     0.0071125       0.000686298     0.00712674      0.993746        -0.0942415     
  9e+009          0.992403        -0.106048       0.000943515     0.00802069      0.000971589     0.00798134      0.991928        -0.106247      
  1e+010          0.990728        -0.118143       0.0011858       0.0089219       0.00120809      0.00877654      0.989909        -0.11796       
  1.1e+010        0.988432        -0.129554       0.00143449      0.00977827      0.00141438      0.00981279      0.988374        -0.129428      
  1.2e+010        0.986077        -0.140878       0.00180043      0.0106978       0.00186612      0.0106809       0.986058        -0.141049      
  1.3e+010        0.983694        -0.152274       0.00221898      0.0115458       0.00223015      0.0115027       0.983157        -0.15224       
  1.4e+010        0.980753        -0.163375       0.00264541      0.0122681       0.00259148      0.012391        0.98064         -0.163841      
  1.5e+010        0.978372        -0.174759       0.0030649       0.0129844       0.00306223      0.0129628       0.977936        -0.174793      
  1.6e+010        0.975443        -0.186085       0.00349327      0.0137204       0.00352352      0.0137998       0.975318        -0.185797      
  1.7e+010        0.9723          -0.197081       0.00399596      0.0144366       0.00398536      0.0144112       0.971433        -0.196773      
  1.8e+010        0.968846        -0.208025       0.00446389      0.0150209       0.004492        0.0150083       0.968226        -0.208009      
  1.9e+010        0.965839        -0.218961       0.00498108      0.0156517       0.00497917      0.0156998       0.965495        -0.219857      
  2e+010          0.961605        -0.2297         0.00536982      0.0162149       0.00530119      0.0161877       0.961436        -0.22907       
  2.1e+010        0.958113        -0.240391       0.00582897      0.0167073       0.0058488       0.016859        0.955552        -0.238259      
  2.2e+010        0.954186        -0.250511       0.00628838      0.017281        0.00636228      0.0173214       0.949676        -0.250475      
  2.3e+010        0.949795        -0.260785       0.00671246      0.0176597       0.00660803      0.0177644       0.949707        -0.26233       
  2.4e+010        0.946183        -0.271432       0.00700277      0.0181707       0.00686351      0.0182947       0.949822        -0.265472      
  2.5e+010        0.941736        -0.282391       0.00724769      0.018873        0.00711395      0.0187723       0.957515        -0.260993      
  2.6e+010        0.937281        -0.292292       0.00805491      0.0195033       0.00823276      0.0198108       0.953163        -0.284944      
  2.7e+010        0.932357        -0.301667       0.0085301       0.0197445       0.00869678      0.0199764       0.927394        -0.300386      
  2.8e+010        0.927201        -0.31197        0.00893812      0.0200884       0.0089318       0.0202711       0.919549        -0.320312      
  2.9e+010        0.922736        -0.321288       0.00915953      0.0202993       0.00946203      0.020501        0.916108        -0.329666      
  3e+010          0.916943        -0.330938       0.00914066      0.0210236       0.00927946      0.0209045       0.916705        -0.332802      
  3.1e+010        0.912632        -0.341164       0.00981039      0.0217007       0.0094601       0.0220624       0.911384        -0.339989      
  3.2e+010        0.907422        -0.350015       0.0103324       0.0223066       0.0105936       0.0220745       0.903105        -0.349956      
  3.3e+010        0.901186        -0.358926       0.0108898       0.022938        0.0108637       0.0227828       0.898984        -0.361334      
  3.4e+010        0.893993        -0.368143       0.0113612       0.0233921       0.0114965       0.023424        0.895359        -0.369132      
  3.5e+010        0.888583        -0.377083       0.0120271       0.0238035       0.0121293       0.0238064       0.890456        -0.376658      
  3.6e+010        0.882812        -0.384887       0.0124978       0.0242793       0.0128145       0.0241684       0.880959        -0.386925      
  3.7e+010        0.877014        -0.392339       0.0130165       0.0248321       0.0128596       0.0246731       0.87749         -0.395804      
  3.8e+010        0.871518        -0.399749       0.0137749       0.0254653       0.0143707       0.0252414       0.872204        -0.404239      
  3.9e+010        0.86587         -0.409294       0.014139        0.0256845       0.0147167       0.0254681       0.864695        -0.412302      
  4e+010          0.860583        -0.417768       0.0149995       0.0261372       0.0147294       0.0266978       0.859974        -0.422104      
  4.1e+010        0.854557        -0.425691       0.0157948       0.0271182       0.0160145       0.0273825       0.853082        -0.431388      
  4.2e+010        0.847868        -0.433146       0.0171976       0.0273715       0.0176277       0.0278644       0.843972        -0.438736      
  4.3e+010        0.841564        -0.441675       0.0183801       0.0276243       0.0185112       0.0277044       0.838333        -0.444694      
  4.4e+010        0.836035        -0.449276       0.018945        0.0273109       0.0192097       0.027967        0.83194         -0.45169       
  4.5e+010        0.829623        -0.456815       0.0201063       0.0280687       0.0201057       0.028252        0.825166        -0.462298      
  4.6e+010        0.823628        -0.464467       0.0218206       0.0282629       0.0220915       0.0285168       0.819284        -0.467678      
  4.7e+010        0.816331        -0.472644       0.023175        0.0276817       0.022671        0.0271898       0.810684        -0.473165      
  4.8e+010        0.809648        -0.479962       0.023903        0.0269814       0.0239995       0.0267828       0.803555        -0.483006      
  4.9e+010        0.804762        -0.487234       0.0249812       0.0266512       0.0249388       0.0264971       0.799239        -0.488172      
  5e+010          0.797493        -0.493143       0.0258212       0.0259141       0.0256602       0.0264753       0.792475        -0.493081      
  5.1e+010        0.789547        -0.499333       0.0264972       0.0249539       0.0263431       0.025106        0.78611         -0.500276      
  5.2e+010        0.781466        -0.50646        0.0269406       0.0232765       0.0272973       0.0233246       0.779039        -0.508078      
  5.3e+010        0.777662        -0.512226       0.0277035       0.0239546       0.0273255       0.0236877       0.77417         -0.514276      
  5.4e+010        0.771656        -0.518401       0.028048        0.0225503       0.028367        0.0228324       0.766682        -0.521259      
  5.5e+010        0.765068        -0.523496       0.0284756       0.0214953       0.0287584       0.0212061       0.757415        -0.527687      
  5.6e+010        0.760745        -0.528461       0.0268527       0.0193607       0.0267461       0.0191006       0.754163        -0.528046      
  5.7e+010        0.756277        -0.536051       0.0258505       0.0210136       0.0254715       0.0214256       0.753924        -0.53477       
  5.8e+010        0.752572        -0.54536        0.0259264       0.0223339       0.0262324       0.0218471       0.748892        -0.546132      
  5.9e+010        0.744583        -0.552912       0.0275953       0.0232837       0.0278308       0.0222196       0.743551        -0.552092      
  6e+010          0.740538        -0.561418       0.0289123       0.0217009       0.0291629       0.0224756       0.73688         -0.56051       
  6.1e+010        0.733748        -0.569595       0.0281665       0.0219978       0.0288695       0.0218233       0.728351        -0.569034      
  6.2e+010        0.727014        -0.575784       0.0304709       0.0226666       0.0298401       0.0222081       0.724938        -0.581265      
  6.3e+010        0.721858        -0.585843       0.0312967       0.0214796       0.0308192       0.0221329       0.716712        -0.585518      
  6.4e+010        0.713926        -0.593503       0.0334433       0.0210012       0.0337182       0.0210013       0.714063        -0.590929      
  6.5e+010        0.704533        -0.601019       0.0325189       0.0192793       0.0331993       0.0179832       0.702381        -0.60587       
END_DB

