! VERSION = 6.00
!Data measured by ggf on Tue Jan 23 14:00:02 2018 using model file NPN_MEAS_SCALE
BEGIN_HEADER
 ICCAP_INPUTS
  ve         V  E GROUND SMU_E 0.2 CON        0
  vc         V  C GROUND SMU_C 0.2 LIN        2    0.5        2          4    0.5       
  vs         V  S GROUND SMU_S 0.015 CON        0
  vb         V  B GROUND SMU_B 0.015 LIN        1    0.4        1.04       33   0.02      
 ICCAP_OUTPUTS
  ib         I  B GROUND SMU_B M
  ic         I  C GROUND SMU_C M
 ICCAP_VALUES
  TNOM "27"
  TEMP "27"
  TECHNO "SG13G2"
  LOT "EDJ802"
  WAFER "02"
  CHIP "(3.3)"
  MODULE "S439S"
  DEV_NAME "D13"
  DEV_GEOM_L "2.5"
  DEV_GEOM_W "0.07"
  NUM_OF_TRANS_RF "2"
  REMARKS "Nx=3; Power -30/-20dBm, Slope: 0.1dB/GHz"
  TIMEDATE "Tue Jan 23 13:42:58     2018"
  OPERATOR "ggf"
END_HEADER

BEGIN_DB
 ICCAP_VAR ve         0              
 ICCAP_VAR vc         0.5            
 ICCAP_VAR vs         0              

 #vb              ib              ic             
  0.4             1.552e-010      2.6938e-009    
  0.42            9.048e-011      2.4666e-009    
  0.44            6.948e-011      2.8046e-009    
  0.46            6.914e-011      4.419e-009     
  0.48            7.512e-011      8.3672e-009    
  0.5             8.644e-011      1.6026e-008    
  0.52            1.3608e-010     3.4868e-008    
  0.54            2.213e-010      7.4502e-008    
  0.56            3.798e-010      1.5998e-007    
  0.58            6.9982e-010     3.4218e-007    
  0.6             1.3212e-009     7.3306e-007    
  0.62            2.586e-009      1.578e-006     
  0.64            5.1908e-009     3.3766e-006    
  0.66            1.0542e-008     7.2124e-006    
  0.68            2.1748e-008     1.5434e-005    
  0.7             4.5052e-008     3.2776e-005    
  0.72            9.3656e-008     6.9502e-005    
  0.74            1.9348e-007     0.00014582     
  0.76            3.965e-007      0.0003016      
  0.78            8.0084e-007     0.0006114      
  0.8             1.5614e-006     0.0011902      
  0.82            2.9176e-006     0.0022038      
  0.84            5.128e-006      0.0037936      
  0.86            8.5002e-006     0.0060268      
  0.88            1.3436e-005     0.0088896      
  0.9             2.0472e-005     0.012274       
  0.92            3.0578e-005     0.016162       
  0.94            4.4852e-005     0.020452       
  0.96            6.5538e-005     0.025088       
  0.98            9.8294e-005     0.02956        
  1               0.00016618      0.033022       
  1.02            0.0002944       0.035712       
  1.04            0.00050316      0.038412       
END_DB

BEGIN_DB
 ICCAP_VAR ve         0              
 ICCAP_VAR vc         1              
 ICCAP_VAR vs         0              

 #vb              ib              ic             
  0.4             -4.3268e-010    2.9482e-009    
  0.42            -3.8802e-010    2.6322e-009    
  0.44            -3.4936e-010    3.0478e-009    
  0.46            -3.1028e-010    4.7384e-009    
  0.48            -2.6908e-010    8.5582e-009    
  0.5             -2.2912e-010    1.7042e-008    
  0.52            -1.6298e-010    3.516e-008     
  0.54            -6.74e-011      7.4752e-008    
  0.56            8.664e-011      1.5992e-007    
  0.58            3.8302e-010     3.4228e-007    
  0.6             9.766e-010      7.332e-007     
  0.62            2.156e-009      1.5766e-006    
  0.64            4.6372e-009     3.3758e-006    
  0.66            9.7912e-009     7.216e-006     
  0.68            2.0682e-008     1.5446e-005    
  0.7             4.3404e-008     3.2832e-005    
  0.72            9.1088e-008     6.972e-005     
  0.74            1.894e-007      0.00014662     
  0.76            3.925e-007      0.00030472     
  0.78            8.025e-007      0.00062242     
  0.8             1.5914e-006     0.0012266      
  0.82            3.0596e-006     0.0023102      
  0.84            5.5832e-006     0.0040578      
  0.86            9.698e-006      0.0065784      
  0.88            1.6224e-005     0.0098832      
  0.9             2.636e-005      0.013876       
  0.92            4.214e-005      0.018556       
  0.94            6.6054e-005     0.023824       
  0.96            0.000101998     0.029708       
  0.98            0.00015384      0.036074       
  1               0.00022716      0.042908       
  1.02            0.00032578      0.049692       
  1.04            0.00046568      0.055632       
END_DB

BEGIN_DB
 ICCAP_VAR ve         0              
 ICCAP_VAR vc         1.5            
 ICCAP_VAR vs         0              

 #vb              ib              ic             
  0.4             -2.8214e-009    4.517e-009     
  0.42            -2.6324e-009    4.5608e-009    
  0.44            -2.4502e-009    4.7156e-009    
  0.46            -2.2836e-009    6.086e-009     
  0.48            -2.1302e-009    1.0484e-008    
  0.5             -1.9678e-009    1.8518e-008    
  0.52            -1.8342e-009    3.6776e-008    
  0.54            -1.7056e-009    7.6154e-008    
  0.56            -1.607e-009     1.6186e-007    
  0.58            -1.4874e-009    3.4366e-007    
  0.6             -1.3358e-009    7.3426e-007    
  0.62            -1.08414e-009   1.579e-006     
  0.64            -4.8336e-010    3.3768e-006    
  0.66            1.07e-009       7.2152e-006    
  0.68            5.067e-009      1.5454e-005    
  0.7             1.4704e-008     3.2858e-005    
  0.72            3.8304e-008     6.9836e-005    
  0.74            9.3526e-008     0.00014724     
  0.76            2.1946e-007     0.00030712     
  0.78            5.026e-007      0.00063248     
  0.8             1.111e-006      0.0012626      
  0.82            2.3846e-006     0.0024244      
  0.84            4.9104e-006     0.004363       
  0.86            9.7124e-006     0.0072606      
  0.88            1.8616e-005     0.0111896      
  0.9             3.4634e-005     0.016104       
  0.92            6.3014e-005     0.02206        
  0.94            0.000111142     0.028992       
  0.96            0.00019056      0.036948       
  0.98            0.00031366      0.045712       
  1               0.00049536      0.05509        
  1.02            0.0007394       0.064124       
  1.04            0.00105976      0.071992       
END_DB

BEGIN_DB
 ICCAP_VAR ve         0              
 ICCAP_VAR vc         2              
 ICCAP_VAR vs         0              

 #vb              ib              ic             
  0.4             -1.2634e-008    1.7838e-008    
  0.42            -1.1992e-008    1.527e-008     
  0.44            -1.1258e-008    1.4788e-008    
  0.46            -1.073e-008     1.5638e-008    
  0.48            -1.024e-008     1.8868e-008    
  0.5             -9.843e-009     2.6778e-008    
  0.52            -9.624e-009     4.488e-008     
  0.54            -9.6934e-009    8.4284e-008    
  0.56            -1.0372e-008    1.7052e-007    
  0.58            -1.2204e-008    3.5408e-007    
  0.6             -1.6278e-008    7.482e-007     
  0.62            -2.4726e-008    1.6008e-006    
  0.64            -4.1796e-008    3.412e-006     
  0.66            -7.5448e-008    7.279e-006     
  0.68            -1.4204e-007    1.558e-005     
  0.7             -2.6992e-007    3.3118e-005    
  0.72            -5.1772e-007    7.0428e-005    
  0.74            -9.8832e-007    0.00014874     
  0.76            -1.8694e-006    0.00031178     
  0.78            -3.4818e-006    0.0006475      
  0.8             -6.2702e-006    0.0013128      
  0.82            -1.072e-005     0.0025844      
  0.84            -1.6622e-005    0.0048056      
  0.86            -2.1764e-005    0.0083098      
  0.88            -2.0432e-005    0.013352       
  0.9             -1.1422e-006    0.02009        
  0.92            5.8646e-005     0.028892       
  0.94            0.00019784      0.039884       
  0.96            0.00047398      0.052954       
  0.98            0.00091476      0.066354       
  1               0.0014966       0.077894       
  1.02            0.002219        0.087556       
  1.04            0.0031056       0.096236       
END_DB

