! VERSION = 6.00
BEGIN_HEADER
 ICCAP_INPUTS
  vc         V  C GROUND SMU_C 0.1 SYNC       1 0.25 vb
  vb         V  B GROUND SMU_B 0.015 LIN        1    0.68       1.04       37   0.01      
  ve         V  E GROUND SMU_E 0 CON        0
  vs         V  S GROUND SMU_S 0 CON        0
  freq       F  CON        30000000000
 ICCAP_OUTPUTS
  ic         I  C GROUND SMU_C B
  S_deemb    S  B C GROUND n/a B
  ft         U
  ft_fit_qual U
  Fmax       U
  mag_s21    U
  ph_s21     U
  err_m_s21  U
  err_p_s21  U
END_HEADER

BEGIN_DB
 ICCAP_VAR ve         0              
 ICCAP_VAR vs         0              
 ICCAP_VAR freq       3e+010         

 #vb              vc              ic              R:S_deemb(1,1)  I:S_deemb(1,1)  R:S_deemb(1,2)  I:S_deemb(1,2)  R:S_deemb(2,1)  I:S_deemb(2,1)  R:S_deemb(2,2)  I:S_deemb(2,2)  R:ft(1,1)       I:ft(1,1)       R:ft_fit_qual(1,1) I:ft_fit_qual(1,1) R:Fmax(1,1)     I:Fmax(1,1)     R:mag_s21(1,1)  I:mag_s21(1,1)  R:ph_s21(1,1)   I:ph_s21(1,1)   R:err_m_s21(1,1) I:err_m_s21(1,1) R:err_p_s21(1,1) I:err_p_s21(1,1)
  0.68            0.93            1.397e-005      0.624186        -0.659788       0.178291        0.229682        0.139437        0.262506        0.838545        -0.387946       1.21791e+010    0               -0.639631       0               1.80607e+010    0               0.297241        0               1.08252         0               19.7965         0               -10.1287        0              
  0.69            0.94            2.037e-005      0.617073        -0.664324       0.178891        0.228245        0.123462        0.276005        0.835923        -0.390104       1.2326e+010     0               -0.228277       0               2.37905e+010    0               0.30236         0               1.15018         0               19.7028         0               -9.02908        0              
  0.7             0.95            2.9756e-005     0.608072        -0.669971       0.179462        0.226606        0.100482        0.295823        0.831888        -0.393076       1.26679e+010    0               0.0596945       0               3.08311e+010    0               0.312423        0               1.24335         0               19.7123         0               -7.72154        0              
  0.71            0.96            4.3268e-005     0.596199        -0.677137       0.180061        0.224223        0.0675855       0.325068        0.825906        -0.397536       1.33824e+010    0               0.0329168       0               3.94572e+010    0               0.33202         0               1.3658          0               19.9936         0               -6.31836        0              
  0.72            0.97            6.3092e-005     0.580183        -0.685376       0.180851        0.221176        0.0210941       0.367714        0.817083        -0.40372        1.47615e+010    0               -0.49001        0               4.95472e+010    0               0.368319        0               1.51349         0               20.6117         0               -5.12189        0              
  0.73            0.98            9.174e-005      0.560238        -0.696087       0.181854        0.217124        -0.0426487      0.428685        0.804558        -0.412179       1.71655e+010    0               -1.15298        0               6.12779e+010    0               0.430801        0               1.66996         0               21.3043         0               -4.53519        0              
  0.74            0.99            0.0001322       0.532471        -0.708142       0.182625        0.211748        -0.129516       0.51602         0.786708        -0.423488       2.1091e+010     0               -1.74387        0               7.48848e+010    0               0.532025        0               1.81671         0               21.8253         0               -4.44839        0              
  0.75            1               0.00019204      0.496617        -0.722974       0.183518        0.204975        -0.244491       0.639327        0.76156         -0.438241       2.70162e+010    0               -1.80248        0               9.08385e+010    0               0.684481        0               1.93606         0               21.8049         0               -4.74608        0              
  0.76            1.01            0.00027676      0.449166        -0.739787       0.184199        0.19607         -0.391639       0.811321        0.727036        -0.456815       3.54385e+010    0               -1.2866         0               1.09285e+011    0               0.900901        0               2.02052         0               21.1787         0               -5.24365        0              
  0.77            1.02            0.00039898      0.388716        -0.75694        0.184406        0.18493         -0.572969       1.04793         0.680137        -0.478756       4.69943e+010    0               -0.728388       0               1.30446e+011    0               1.19434         0               2.07115         0               20.1552         0               -5.80874        0              
  0.78            1.03            0.00056864      0.313975        -0.771913       0.183657        0.17114         -0.780965       1.35701         0.619495        -0.502498       6.18894e+010    0               0.143635        0               1.5311e+011     0               1.56569         0               2.09301         0               18.4613         0               -6.36694        0              
  0.79            1.04            0.00080344      0.224208        -0.782396       0.1813          0.155195        -1.00326        1.74943         0.544004        -0.525492       8.04808e+010    0               0.773711        0               1.79525e+011    0               2.01669         0               2.09149         0               16.5119         0               -6.90855        0              
  0.8             1.05            0.0011248       0.123889        -0.784726       0.176997        0.137765        -1.21863        2.22043         0.455288        -0.544491       1.0278e+011     0               0.878419        0               2.08821e+011    0               2.53286         0               2.07274         0               14.4068         0               -7.39392        0              
  0.81            1.06            0.0015634       0.0168253       -0.77547        0.170614        0.119679        -1.40491        2.7524          0.357389        -0.555935       1.28444e+011    0               0.274656        0               2.38782e+011    0               3.09022         0               2.04275         0               12.3599         0               -7.78673        0              
  0.82            1.07            0.00215         -0.0891308      -0.756125       0.16234         0.102471        -1.54469        3.31743         0.255773        -0.558298       1.5688e+011     0               -1.15834        0               2.72508e+011    0               3.65943         0               2.00657         0               10.5949         0               -8.09072        0              
  0.83            1.08            0.0028922       -0.186275       -0.727038       0.153157        0.0869619       -1.62964        3.86195         0.159398        -0.55171        1.86124e+011    0               -2.77673        0               3.01468e+011    0               4.1917          0               1.9701          0               8.82247         0               -8.23159        0              
  0.84            1.09            0.0038452       -0.268964       -0.693245       0.143664        0.0742688       -1.66149        4.35678         0.0734537       -0.538559       2.14966e+011    0               -4.55616        0               3.30992e+011    0               4.66284         0               1.93513         0               7.16139         0               -8.30255        0              
  0.85            1.1             0.0049894       -0.337796       -0.659508       0.134763        0.0638346       -1.6598         4.78241         0.000353248     -0.522198       2.41584e+011    0               -6.09863        0               3.5659e+011     0               5.06225         0               1.90485         0               5.67228         0               -8.24924        0              
  0.86            1.11            0.0063566       -0.392476       -0.62697        0.126854        0.0558961       -1.63479        5.1337          -0.0594708      -0.504808       2.65676e+011    0               -7.55859        0               3.78906e+011    0               5.38771         0               1.87909         0               4.32239         0               -8.13864        0              
  0.87            1.12            0.0079494       -0.436321       -0.59731        0.119998        0.0497957       -1.5964         5.41717         -0.107694       -0.487957       2.86564e+011    0               -8.80377        0               3.98652e+011    0               5.6475          0               1.85738         0               3.13215         0               -8.00555        0              
  0.88            1.13            0.0097744       -0.4709         -0.571197       0.114177        0.0449323       -1.55166        5.64086         -0.145767       -0.472423       3.0374e+011     0               -9.73419        0               4.13136e+011    0               5.85038         0               1.83923         0               2.07829         0               -7.85814        0              
  0.89            1.14            0.0118          -0.499522       -0.546866       0.108965        0.0410096       -1.50273        5.81618         -0.176325       -0.457776       3.17798e+011    0               -10.5604        0               4.24152e+011    0               6.00717         0               1.82364         0               1.17755         0               -7.72131        0              
  0.9             1.15            0.014036        -0.522313       -0.525367       0.104387        0.0377694       -1.45231        5.95055         -0.200714       -0.444331       3.28827e+011    0               -11.3208        0               4.3128e+011     0               6.12521         0               1.81018         0               0.417873        0               -7.57978        0              
  0.91            1.16            0.0165          -0.542964       -0.504993       0.100209        0.0351518       -1.39762        6.05402         -0.220288       -0.431533       3.37185e+011    0               -12.1399        0               4.39008e+011    0               6.21325         0               1.79768         0               -0.152266       0               -7.46414        0              
  0.92            1.17            0.019156        -0.560151       -0.486092       0.0963202       0.0329621       -1.34366        6.12761         -0.235486       -0.41957        3.43023e+011    0               -13.0984        0               4.43821e+011    0               6.2732          0               1.78666         0               -0.560305       0               -7.30487        0              
  0.93            1.18            0.022036        -0.575862       -0.467658       0.0926937       0.03098         -1.28738        6.17374         -0.247631       -0.408523       3.46238e+011    0               -14.2263        0               4.46172e+011    0               6.30654         0               1.77638         0               -0.80951        0               -7.11044        0              
  0.94            1.19            0.02516         -0.589797       -0.449537       0.0894145       0.0294414       -1.23045        6.19472         -0.256409       -0.397862       3.47367e+011    0               -15.7135        0               4.46399e+011    0               6.31574         0               1.76687         0               -0.862928       0               -6.84452        0              
  0.95            1.2             0.028526        -0.602277       -0.431183       0.0861235       0.0278232       -1.16948        6.18678         -0.263023       -0.387651       3.45629e+011    0               -17.4145        0               4.4159e+011     0               6.29634         0               1.75762         0               -0.777577       0               -6.50902        0              
  0.96            1.21            0.032098        -0.613279       -0.413133       0.0832461       0.0265725       -1.10585        6.14803         -0.267205       -0.37809        3.41643e+011    0               -19.4947        0               4.34828e+011    0               6.24669         0               1.74876         0               -0.556983       0               -6.06927        0              
  0.97            1.22            0.03586         -0.623127       -0.394769       0.0803357       0.0252832       -1.03587        6.06859         -0.269955       -0.367743       3.3456e+011     0               -21.7301        0               4.22356e+011    0               6.15636         0               1.73986         0               -0.346597       0               -5.53185        0              
  0.98            1.23            0.03983         -0.632825       -0.373937       0.0777048       0.0243253       -0.948829       5.93029         -0.271248       -0.356282       3.23871e+011    0               -23.9297        0               4.06033e+011    0               6.00572         0               1.72945         0               -0.464147       0               -4.97267        0              
  0.99            1.24            0.044016        -0.641801       -0.34824        0.0750757       0.0230123       -0.823196       5.67268         -0.273233       -0.340201       3.06004e+011    0               -25.1014        0               3.74684e+011    0               5.7321          0               1.71491         0               -2.05522        0               -4.54616        0              
  1               1.25            0.048392        -0.650871       -0.310943       0.072886        0.0211001       -0.627243       5.14088         -0.279032       -0.311953       2.73723e+011    0               -22.9063        0               3.15678e+011    0               5.179           0               1.69221         0               -8.67848        0               -4.50428        0              
  1.01            1.26            0.052784        -0.655195       -0.254954       0.0708739       0.018475        -0.387371       4.12477         -0.290636       -0.25904        2.18599e+011    0               -11.9318        0               2.22499e+011    0               4.14292         0               1.66444         0               -29.6405        0               -4.67139        0              
  1.02            1.27            0.057032        -0.65595        -0.192665       0.0689382       0.0150941       -0.21346        2.87638         -0.307452       -0.192756       1.5371e+011     0               13.2688         0               1.37557e+011    0               2.88429         0               1.64487         0               50              0               -4.18532        0              
  1.03            1.28            0.060998        -0.65948        -0.150394       0.0675214       0.0128631       -0.122477       1.97258         -0.322588       -0.143929       1.06623e+011    0               46.258          0               8.96473e+010    0               1.97638         0               1.63281         0               50              0               -2.98864        0              
  1.04            1.29            0.064664        -0.665803       -0.128103       0.0660875       0.0116575       -0.0736178      1.49768         -0.333108       -0.118036       8.15098e+010    0               50              0               6.72612e+010    0               1.49949         0               1.61991         0               50              0               -1.15024        0              
END_DB

