! VERSION = 6.00
BEGIN_HEADER
 ICCAP_INPUTS
  vc         V  C GROUND SMU_C 0.1 SYNC       1 0.25 vb
  vb         V  B GROUND SMU_B 0.015 LIN        2    0.88       0.96       5    0.02      
  ve         V  E GROUND SMU_E 0 CON        0
  vs         V  S GROUND SMU_S 0 CON        0
  freq       F  LIST       1 74 100000000 200000000 300000000 400000000 500000000 600000000 700000000 800000000 900000000 1000000000 2000000000 3000000000 4000000000 5000000000 6000000000 7000000000 8000000000 9000000000 10000000000 11000000000 12000000000 13000000000 14000000000 15000000000 16000000000 17000000000 18000000000 19000000000 20000000000 21000000000 22000000000 23000000000 24000000000 25000000000 26000000000 27000000000 28000000000 29000000000 30000000000 31000000000 32000000000 33000000000 34000000000 35000000000 36000000000 37000000000 38000000000 39000000000 40000000000 41000000000 42000000000 43000000000 44000000000 45000000000 46000000000 47000000000 48000000000 49000000000 50000000000 51000000000 52000000000 53000000000 54000000000 55000000000 56000000000 57000000000 58000000000 59000000000 60000000000 61000000000 62000000000 63000000000 64000000000 65000000000
 ICCAP_OUTPUTS
  ic         I  C GROUND SMU_C B
  S_deemb    S  B C GROUND n/a B
  GU         U
  GMAG       U
  h          H
  GU_f       U
  h21_f      U
END_HEADER

BEGIN_DB
 ICCAP_VAR vc         1.13           
 ICCAP_VAR vb         0.88           
 ICCAP_VAR ve         0              
 ICCAP_VAR vs         0              

 #freq            ic              R:S_deemb(1,1)  I:S_deemb(1,1)  R:S_deemb(1,2)  I:S_deemb(1,2)  R:S_deemb(2,1)  I:S_deemb(2,1)  R:S_deemb(2,2)  I:S_deemb(2,2)  R:GU(1,1)       I:GU(1,1)       R:GMAG(1,1)     I:GMAG(1,1)     R:h(1,1)        I:h(1,1)        R:h(1,2)        I:h(1,2)        R:h(2,1)        I:h(2,1)        R:h(2,2)        I:h(2,2)        R:GU_f(1,1)     I:GU_f(1,1)     R:h21_f(1,1)    I:h21_f(1,1)   
  1e+008          0.010198        0.965125        -0.0138651      -0.000117834    0.00135804      -15.9939        0.310865        0.982044        0.0213609       60847.9         0               109.805         -11734.8        2748.9          -227.209        0.000201861     0.0386224       450.453         -50.3031        0.000399716     0.00601271      2.46674e+010    0               4.53253e+010    0              
  2e+008          0.010198        0.965408        -0.029194       4.17562e-006    0.00252412      -15.897         0.372153        0.993561        -0.00424022     1.7311e+008     0               136.905         -6298.27        2686.84         -726.985        0.0183765       0.0693128       434.032         -125.237        0.00323065      0.011035        6e+011          0               9.03479e+010    0              
  3e+008          0.010198        0.964765        -0.0442876      8.55156e-005    0.00369575      -15.8582        0.460953        0.9956          -0.0217379      161963          0               82.2818         -4290.8         2414.9          -1081.37        0.0411761       0.0908192       388.705         -179.017        0.0068495       0.0145363       1.20734e+011    0               1.28384e+011    0              
  4e+008          0.010198        0.96374         -0.0588154      0.000153367     0.00487081      -15.8456        0.588657        0.995808        -0.0372155      217781          0               42.7102         -3253.53        2116.45         -1271.92        0.0634549       0.104974        340.391         -208.399        0.0104228       0.0168616       1.86668e+011    0               1.59648e+011    0              
  5e+008          0.010198        0.963071        -0.0742728      0.000252699     0.00606259      -15.8455        0.7322          0.995425        -0.0512967      193116          0               29.5052         -2614           1799.12         -1424.7         0.0884011       0.111026        289.193         -232.404        0.014441        0.0178695       2.19725e+011    0               1.85502e+011    0              
  6e+008          0.010198        0.961241        -0.0886663      0.000419095     0.00725166      -15.8397        0.858605        0.994286        -0.0647047      54675.8         0               35.8044         -2183.56        1550.53         -1456.54        0.10896         0.113811        249.395         -237.063        0.0177499       0.0183655       1.40297e+011    0               2.06453e+011    0              
  7e+008          0.010198        0.959548        -0.1039         0.000527389     0.00847123      -15.8021        1.00137         0.99343         -0.0776682      95064.7         0               20.3721         -1865.4         1306.74         -1441.17        0.12528         0.112567        209.736         -233.945        0.0203515       0.0181601       2.15828e+011    0               2.19938e+011    0              
  8e+008          0.010198        0.957501        -0.11799        0.000703359     0.00965001      -15.7909        1.14604         0.991662        -0.0902978      61329.1         0               21.3234         -1636.19        1135.35         -1413.37        0.14029         0.111243        182.1           -229.504        0.0227953       0.0179655       1.98118e+011    0               2.34378e+011    0              
  9e+008          0.010198        0.955476        -0.132827       0.000881929     0.0108272       -15.7911        1.3005          0.9902          -0.102823       60840.8         0               18.7898         -1458.45        968.324         -1371.88        0.152788        0.106534        155.188         -222.992        0.0248466       0.0172259       2.21993e+011    0               2.4451e+011     0              
  1e+009          0.010198        0.953085        -0.147168       0.00105556      0.0119757       -15.7484        1.44545         0.988312        -0.114866       86905.5         0               14.7083         -1315.37        834.229         -1312.04        0.16155         0.101917        133.299         -212.995        0.0262391       0.0164671       2.94797e+011    0               2.51268e+011    0              
  2e+009          0.010198        0.915235        -0.287549       0.00420506      0.023346        -15.3982        2.82815         0.957271        -0.230866       21633.7         0               12.3337         -659.862        266.006         -836.436        0.205603        0.0636962       41.5717         -135.837        0.0334033       0.0103796       2.94168e+011    0               2.84111e+011    0              
  3e+009          0.010198        0.855571        -0.41697        0.0090169       0.033767        -14.7977        4.06342         0.909126        -0.335198       16162.4         0               9.05828         -438.973        127.639         -580.389        0.214082        0.0456022       19.3594         -94.135         0.0347513       0.00756923      3.81395e+011    0               2.88315e+011    0              
  4e+009          0.010198        0.780266        -0.528753       0.0151477       0.042785        -14.0729        5.19097         0.848064        -0.425373       11209.3         0               9.20329         -330.355        74.0522         -445.628        0.218681        0.0347215       10.5266         -72.4147        0.0355663       0.00579295      4.23496e+011    0               2.92703e+011    0              
  5e+009          0.010198        0.692211        -0.622141       0.0223009       0.0504232       -13.2432        6.12149         0.778037        -0.501074       6916.56         0               9.44641         -264.448        50.2323         -361.871        0.222295        0.0287203       6.62406         -58.9408        0.0362304       0.00481828      4.15829e+011    0               2.96559e+011    0              
  6e+009          0.010198        0.598377        -0.697826       0.0299682       0.0563895       -12.2752        6.8547          0.702536        -0.561641       5369.81         0               9.09049         -219.979        34.9132         -300.524        0.221235        0.0234331       4.14531         -48.8053        0.0359559       0.00402342      4.39674e+011    0               2.93886e+011    0              
  7e+009          0.010198        0.501705        -0.75461        0.0378594       0.0611352       -11.3538        7.43834         0.624766        -0.608588       3930.01         0               9.34673         -188.528        26.8937         -260.49         0.224205        0.0204499       2.77936         -42.4054        0.0365156       0.00349846      4.38829e+011    0               2.97475e+011    0              
  8e+009          0.010198        0.405749        -0.795736       0.045598        0.0643261       -10.4138        7.8388          0.548614        -0.641608       3021.3          0               9.24853         -165.051        21.6445         -227.451        0.2236          0.018216        1.95297         -37.0342        0.0364242       0.0031906       4.39731e+011    0               2.96686e+011    0              
  9e+009          0.010198        0.314076        -0.823316       0.0531071       0.0665273       -9.50536        8.09928         0.474976        -0.664239       2442.36         0               9.09917         -146.42         17.8219         -202.278        0.223939        0.0163673       1.34849         -32.9123        0.0364556       0.00294017      4.44782e+011    0               2.9646e+011     0              
  1e+010          0.010198        0.226897        -0.839197       0.0601939       0.0676447       -8.65641        8.31574         0.405657        -0.677597       1958.98         0               9.53873         -132.22         13.8837         -182.278        0.223767        0.01324         0.622567        -29.7089        0.0364439       0.00236376      4.42604e+011    0               2.97154e+011    0              
  1.1e+010        0.010198        0.145999        -0.844943       0.0667438       0.0681159       -7.85534        8.31374         0.340132        -0.684788       1689.86         0               8.87229         -119.609        13.5955         -165.314        0.224013        0.01445         0.69722         -26.9144        0.0364893       0.00276513      4.52187e+011    0               2.96158e+011    0              
  1.2e+010        0.010198        0.0709601       -0.843149       0.0728563       0.0679104       -7.11641        8.35565         0.279504        -0.683614       1356.62         0               9.40789         -109.794        11.1144         -151.868        0.224475        0.0118551       0.197169        -24.7701        0.0365868       0.00223387      4.41988e+011    0               2.9725e+011     0              
  1.3e+010        0.010198        0.00348019      -0.835969       0.0781713       0.0671951       -6.45237        8.27687         0.224812        -0.677995       1158.78         0               9.34119         -101.38         10.3659         -139.944        0.224142        0.0116763       0.095263        -22.8505        0.0365975       0.00226625      4.42531e+011    0               2.9706e+011     0              
  1.4e+010        0.010198        -0.0576792      -0.823664       0.0833905       0.0662368       -5.87723        8.16263         0.175609        -0.669777       874.738         0               9.55261         -93.9643        9.598           -130.618        0.225768        0.0104789       -0.017898       -21.3464        0.0368619       0.00209198      4.14064e+011    0               2.98849e+011    0              
  1.5e+010        0.010198        -0.112908       -0.809376       0.0880043       0.0649656       -5.28484        8.06737         0.131472        -0.659002       801.412         0               9.77634         -87.6237        7.7941          -121.518        0.224675        0.00819366      -0.386815       -19.8184        0.0365425       0.00165886      4.24638e+011    0               2.97332e+011    0              
  1.6e+010        0.010198        -0.161689       -0.79309        0.0918541       0.0633423       -4.81097        7.86275         0.0911378       -0.646036       674.454         0               9.56299         -82.0587        7.89869         -113.607        0.224226        0.00870809      -0.292748       -18.5358        0.0365437       0.00193061      4.15524e+011    0               2.9661e+011     0              
  1.7e+010        0.010198        -0.207693       -0.774512       0.0957468       0.0618877       -4.33234        7.70948         0.0540935       -0.632258       612.763         0               9.69698         -76.9604        6.92722         -106.791        0.224365        0.00741959      -0.501247       -17.406         0.0364764       0.00166569      4.20819e+011    0               2.96025e+011    0              
  1.8e+010        0.010198        -0.246895       -0.756574       0.0988497       0.05996         -3.96479        7.50095         0.0222243       -0.618528       517.924         0               9.51878         -72.7654        6.95483         -100.64         0.223668        0.00751419      -0.417371       -16.4179        0.0364316       0.00190364      4.09643e+011    0               2.95617e+011    0              
  1.9e+010        0.010198        -0.283826       -0.736723       0.101184        0.0581946       -3.60666        7.36558         -0.00773818     -0.603721       492.471         0               9.6789          -69.5908        6.62552         -95.3358        0.222743        0.00750936      -0.514955       -15.6505        0.0364937       0.00184986      4.21642e+011    0               2.9752e+011     0              
  2e+010          0.010198        -0.314583       -0.717391       0.103674        0.056543        -3.23587        7.11274         -0.0341742      -0.586623       453.845         0               9.59744         -65.4716        6.49064         -89.7946        0.221584        0.00795374      -0.534891       -14.6622        0.0362007       0.00203142      4.26073e+011    0               2.93439e+011    0              
  2.1e+010        0.010198        -0.344621       -0.699007       0.105689        0.0549134       -3.0136         6.96694         -0.0586024      -0.571742       387.551         0               9.74687         -62.983         6.4757          -86.2297        0.222801        0.00758407      -0.524214       -14.1983        0.0366975       0.00194243      4.13412e+011    0               2.98367e+011    0              
  2.2e+010        0.010198        -0.373758       -0.680199       0.108141        0.0537334       -2.67892        6.79867         -0.0819643      -0.559082       419.387         0               9.5403          -59.7578        5.84314         -82.0206        0.22281         0.00782749      -0.683459       -13.4742        0.0365723       0.00190809      4.50537e+011    0               2.96814e+011    0              
  2.3e+010        0.010198        -0.395283       -0.663267       0.109904        0.0522163       -2.48258        6.57689         -0.0980596      -0.544898       351.634         0               9.50095         -56.9878        6.17848         -78.4273        0.222633        0.00841698      -0.576635       -12.8588        0.0365339       0.00214915      4.31294e+011    0               2.96049e+011    0              
  2.4e+010        0.010198        -0.415301       -0.646702       0.111367        0.0507478       -2.28041        6.43186         -0.111226       -0.529049       312.748         0               9.79333         -54.8932        5.70764         -75.1908        0.221343        0.00693864      -0.68508        -12.3292        0.0362834       0.0018229       4.24433e+011    0               2.96356e+011    0              
  2.5e+010        0.010198        -0.432605       -0.626562       0.112394        0.0492245       -2.06364        6.19465         -0.1285         -0.512752       276.218         0               9.958           -52.2735        6.17005         -71.7269        0.220942        0.00843825      -0.623951       -11.7491        0.0363124       0.00212204      4.15495e+011    0               2.94143e+011    0              
  2.6e+010        0.010198        -0.451495       -0.606447       0.113877        0.0474455       -1.89213        6.0303          -0.148626       -0.493025       226.968         0               10.4053         -50.1635        5.77666         -69.1855        0.222788        0.00610137      -0.722796       -11.3951        0.036816        0.00161267      3.91702e+011    0               2.96869e+011    0              
  2.7e+010        0.010198        -0.474452       -0.591318       0.115284        0.0462258       -1.73871        5.91396         -0.166152       -0.486831       238.225         0               9.87934         -48.6359        5.79731         -66.7937        0.223776        0.00782115      -0.671506       -11.0923        0.0372419       0.00200407      4.16732e+011    0               3.0004e+011     0              
  2.8e+010        0.010198        -0.491213       -0.575233       0.116444        0.0446192       -1.55159        5.76618         -0.181805       -0.477708       242.889         0               9.62862         -46.9072        5.53551         -64.1389        0.223176        0.00831125      -0.703626       -10.6711        0.0372054       0.00225848      4.36377e+011    0               2.99439e+011    0              
  2.9e+010        0.010198        -0.50345        -0.564151       0.116943        0.0441502       -1.44152        5.60898         -0.18638        -0.468102       238.493         0               9.54098         -45.3371        5.89703         -61.8388        0.221762        0.010487        -0.639158       -10.2659        0.0369828       0.00257971      4.47853e+011    0               2.98287e+011    0              
  3e+010          0.010198        -0.513728       -0.550914       0.118141        0.0439417       -1.36271        5.47097         -0.192833       -0.457255       211.747         0               9.70136         -43.6652        6.17798         -60.3995        0.223877        0.0111832       -0.621882       -10.0072        0.0372404       0.00245524      4.36546e+011    0               3.00794e+011    0              
  3.1e+010        0.010198        -0.528374       -0.534368       0.11949         0.0418865       -1.21761        5.35172         -0.206717       -0.444961       194.259         0               9.72055         -42.2425        5.50111         -58.2481        0.223838        0.00868882      -0.724189       -9.68284        0.0372468       0.00217559      4.32068e+011    0               3.01006e+011    0              
  3.2e+010        0.010198        -0.539404       -0.520461       0.120569        0.0408698       -1.0822         5.22962         -0.217728       -0.434632       192.1           0               9.6929          -40.8137        5.15066         -56.482         0.224452        0.00822521      -0.810529       -9.38691        0.0373015       0.00205447      4.4352e+011     0               3.01499e+011    0              
  3.3e+010        0.010198        -0.549472       -0.507432       0.120917        0.0397809       -1.00644        5.06857         -0.224757       -0.425533       173.534         0               9.65612         -39.4305        5.58552         -54.498         0.223877        0.00992893      -0.704371       -9.07005        0.0373546       0.00246553      4.34716e+011    0               3.00213e+011    0              
  3.4e+010        0.010198        -0.558544       -0.493144       0.121604        0.0394074       -0.931511       4.95685         -0.230502       -0.416217       161.513         0               9.81322         -38.2159        5.83083         -53.1004        0.224897        0.0109999       -0.698941       -8.85653        0.0375382       0.0024142       4.32099e+011    0               3.02058e+011    0              
