! VERSION = 6.00
!Data measured by ggf on Tue Jan 23 14:00:02 2018 using model file NPN_MEAS_SCALE
BEGIN_HEADER
 ICCAP_INPUTS
  vc         V  C GROUND SMU_C 0.1 CON        0
  vs         V  S GROUND SMU_S 0.015 CON        0
  vb         V  B GROUND SMU_B 0.015 LIN        1    0          -2         81   -0.025    
  ve         V  E GROUND SMU_E 0.2 CON        0
 ICCAP_OUTPUTS
  ic         I  C GROUND SMU_C M
  ib         I  B GROUND SMU_B M
 ICCAP_VALUES
  TNOM "27"
  TEMP "27"
  TECHNO "SG13G2"
  LOT "EDJ802"
  WAFER "02"
  CHIP "(3.3)"
  MODULE "S439S"
  DEV_NAME "D13"
  DEV_GEOM_L "2.5"
  DEV_GEOM_W "0.07"
  NUM_OF_TRANS_RF "2"
  REMARKS "Nx=3; Power -30/-20dBm, Slope: 0.1dB/GHz"
  TIMEDATE "Tue Jan 23 13:42:58     2018"
  OPERATOR "ggf"
END_HEADER

BEGIN_DB
 ICCAP_VAR vc         0              
 ICCAP_VAR vs         0              
 ICCAP_VAR ve         0              

 #vb              ic              ib             
  0               -6.11e-011      -5.662e-011    
  -0.025          3.5202e-010     -7.066e-011    
  -0.05           5.0478e-010     -8.1e-011      
  -0.075          5.1684e-010     -9.7e-011      
  -0.1            5.2528e-010     -1.2842e-010   
  -0.125          5.6428e-010     -1.7726e-010   
  -0.15           6.5756e-010     -2.4854e-010   
  -0.175          6.0254e-010     -3.4692e-010   
  -0.2            5.7952e-010     -4.9548e-010   
  -0.225          7.0038e-010     -7.0018e-010   
  -0.25           6.827e-010      -9.924e-010    
  -0.275          8.4572e-010     -1.3828e-009   
  -0.3            9.0448e-010     -1.9154e-009   
  -0.325          9.273e-010      -2.621e-009    
  -0.35           9.3818e-010     -3.5602e-009   
  -0.375          9.1396e-010     -4.7744e-009   
  -0.4            9.545e-010      -6.352e-009    
  -0.425          9.5986e-010     -8.3714e-009   
  -0.45           9.4962e-010     -1.0944e-008   
  -0.475          -2.724e-011     -1.4198e-008   
  -0.5            4.1438e-010     -1.8264e-008   
  -0.525          2.5102e-010     -2.3342e-008   
  -0.55           3.8076e-010     -2.96e-008     
  -0.575          4.1152e-010     -3.7342e-008   
  -0.6            4.57e-010       -4.675e-008    
  -0.625          5.2438e-010     -5.8156e-008   
  -0.65           5.2556e-010     -7.204e-008    
  -0.675          6.3654e-010     -8.865e-008    
  -0.7            6.497e-010      -1.087e-007    
  -0.725          7.6972e-010     -1.3206e-007   
  -0.75           5.6358e-010     -1.6046e-007   
  -0.775          8.6124e-010     -1.933e-007    
  -0.8            8.051e-010      -2.3248e-007   
  -0.825          1.02312e-009    -2.785e-007    
  -0.85           1.04844e-009    -3.3156e-007   
  -0.875          2.945e-009      -3.93e-007     
  -0.9            4.284e-010      -4.6468e-007   
  -0.925          1.652e-009      -5.469e-007    
  -0.95           1.6538e-009     -6.4164e-007   
  -0.975          1.785e-009      -7.5032e-007   
  -1              1.97e-009       -8.7394e-007   
  -1.025          1.7904e-009     -1.0146e-006   
  -1.05           2.5152e-009     -1.1752e-006   
  -1.075          2.646e-009      -1.3572e-006   
  -1.1            2.8348e-009     -1.5618e-006   
  -1.125          3.1094e-009     -1.7932e-006   
  -1.15           3.3618e-009     -2.0514e-006   
  -1.175          3.5766e-009     -2.343e-006    
  -1.2            4.0072e-009     -2.666e-006    
  -1.225          4.3484e-009     -3.0292e-006   
  -1.25           4.6326e-009     -3.431e-006    
  -1.275          5.0442e-009     -3.8804e-006   
  -1.3            5.443e-009      -4.3752e-006   
  -1.325          5.8954e-009     -4.9252e-006   
  -1.35           6.2562e-009     -5.5314e-006   
  -1.375          6.8228e-009     -6.2028e-006   
  -1.4            7.3916e-009     -6.9366e-006   
  -1.425          7.8738e-009     -7.748e-006    
  -1.45           8.4812e-009     -8.633e-006    
  -1.475          9.2356e-009     -9.6064e-006   
  -1.5            9.8132e-009     -1.06642e-005  
  -1.525          1.049e-008      -1.1818e-005   
  -1.55           1.1274e-008     -1.3078e-005   
  -1.575          1.2038e-008     -1.4452e-005   
  -1.6            1.2872e-008     -1.5946e-005   
  -1.625          1.3874e-008     -1.7562e-005   
  -1.65           1.4886e-008     -1.9314e-005   
  -1.675          1.5918e-008     -2.1216e-005   
  -1.7            1.7052e-008     -2.3276e-005   
  -1.725          1.8434e-008     -2.5484e-005   
  -1.75           1.9752e-008     -2.788e-005    
  -1.775          2.112e-008      -3.0448e-005   
  -1.8            2.2718e-008     -3.3214e-005   
  -1.825          2.435e-008      -3.619e-005    
  -1.85           2.6308e-008     -3.9386e-005   
  -1.875          2.8532e-008     -4.2828e-005   
  -1.9            3.0756e-008     -4.6504e-005   
  -1.925          3.335e-008      -5.042e-005    
  -1.95           3.6324e-008     -5.4626e-005   
  -1.975          3.95e-008       -5.9104e-005   
  -2              4.3222e-008     -6.3904e-005   
END_DB

