! VERSION = 6.00
!Data measured by ggf on Tue Jan 23 14:00:02 2018 using model file NPN_MEAS_SCALE
BEGIN_HEADER
 ICCAP_INPUTS
  vbe        V  B GROUND SMU_B 0.015 LIN        2    0.6        -1.8       25   -0.1      
  vc         V  C GROUND SMU_C 0.015 CON        0
  ve         V  E GROUND SMU_E 0 CON        0
  vs         V  S GROUND SMU_S 0 CON        0
  freq       F  LIST       1 74 100000000 200000000 300000000 400000000 500000000 600000000 700000000 800000000 900000000 1000000000 2000000000 3000000000 4000000000 5000000000 6000000000 7000000000 8000000000 9000000000 10000000000 11000000000 12000000000 13000000000 14000000000 15000000000 16000000000 17000000000 18000000000 19000000000 20000000000 21000000000 22000000000 23000000000 24000000000 25000000000 26000000000 27000000000 28000000000 29000000000 30000000000 31000000000 32000000000 33000000000 34000000000 35000000000 36000000000 37000000000 38000000000 39000000000 40000000000 41000000000 42000000000 43000000000 44000000000 45000000000 46000000000 47000000000 48000000000 49000000000 50000000000 51000000000 52000000000 53000000000 54000000000 55000000000 56000000000 57000000000 58000000000 59000000000 60000000000 61000000000 62000000000 63000000000 64000000000 65000000000
 ICCAP_OUTPUTS
  S          S  B C GROUND NWA M
  ib         I  B GROUND SMU_B M
  S_deemb    S B C GROUND n/a B
 ICCAP_VALUES
  TNOM "27"
  TEMP "27"
  TECHNO "SG13G2"
  LOT "EDJ802"
  WAFER "02"
  CHIP "(3.3)"
  MODULE "S439S"
  DEV_NAME "D13"
  DEV_GEOM_L "2.5"
  DEV_GEOM_W "0.07"
  NUM_OF_TRANS_RF "2"
  REMARKS "Nx=3; Power -30/-20dBm, Slope: 0.1dB/GHz"
  TIMEDATE "Tue Jan 23 13:42:58     2018"
  OPERATOR "ggf"
END_HEADER

BEGIN_DB
 ICCAP_VAR vbe        0.6            
 ICCAP_VAR vc         0              
 ICCAP_VAR ve         0              
 ICCAP_VAR vs         0              

 #freq            R:S(1,1)        I:S(1,1)        R:S(1,2)        I:S(1,2)        R:S(2,1)        I:S(2,1)        R:S(2,2)        I:S(2,2)        ib              R:S_deemb(1,1)  I:S_deemb(1,1)  R:S_deemb(1,2)  I:S_deemb(1,2)  R:S_deemb(2,1)  I:S_deemb(2,1)  R:S_deemb(2,2)  I:S_deemb(2,2) 
  1e+008          0.999408        -0.00421446     0.000179315     0.00173421      0.000197345     0.00152835      0.993843        -0.00316552     1.4394e-007     0.999623        -0.00309059     0.000145426     0.00167288      0.000426502     0.0014947       0.993995        -0.00166826    
  2e+008          1.00009         -0.00887844     0.000225502     0.00341211      0.000158555     0.00336031      0.993924        -0.00636652     1.4394e-007     1.00012         -0.006459       0.000205738     0.00326362      -3.83401e-005   0.003178        0.994143        -0.0039036     
  3e+008          1.00015         -0.0134049      0.000290428     0.00520633      0.000171204     0.0050731       0.993977        -0.00989589     1.4394e-007     1.0001          -0.00992307     0.000263306     0.00495306      0.000290145     0.00485551      0.99409         -0.0062411     
  4e+008          1.0002          -0.0179277      0.00029771      0.00691173      0.000261595     0.00676296      0.993622        -0.0135285      1.4394e-007     0.999896        -0.0133322      0.000256252     0.00655971      8.20567e-005    0.00641389      0.994044        -0.00860538    
  5e+008          1.00014         -0.0230766      0.000383634     0.00863886      0.000416743     0.00847716      0.993446        -0.0167231      1.4394e-007     1.00002         -0.0172485      0.00029549      0.00819577      0.000343409     0.00809586      0.993627        -0.0107925     
  6e+008          0.999707        -0.0272394      0.000481449     0.0103524       0.000402804     0.0102986       0.993449        -0.0198903      1.4394e-007     0.999636        -0.0200745      0.000406779     0.00982658      0.000434817     0.00973278      0.993608        -0.0128317     
  7e+008          0.999588        -0.0316481      0.000568545     0.0120698       0.000562976     0.0119568       0.993338        -0.0234635      1.4394e-007     0.999495        -0.0233589      0.000428828     0.0114793       0.00041795      0.0113059       0.993792        -0.0151359     
  8e+008          0.999383        -0.0363268      0.000695235     0.0137779       0.000593425     0.0136943       0.993615        -0.0268562      1.4394e-007     0.999485        -0.0267073      0.000537395     0.0130924       0.000452177     0.013026        0.994           -0.0173616     
  9e+008          0.999156        -0.0407651      0.000824932     0.0155286       0.000744262     0.0153741       0.993222        -0.030211       1.4394e-007     0.999252        -0.030146       0.000609283     0.0147533       0.00060599      0.014509        0.993724        -0.0195746     
  1e+009          0.99874         -0.045294       0.000963042     0.0172034       0.000974694     0.0170195       0.992951        -0.0336104      1.4394e-007     0.999079        -0.0333905      0.000697246     0.01633         0.000779977     0.0161267       0.993515        -0.0217727     
  2e+009          0.994934        -0.090292       0.0031846       0.0341851       0.00309204      0.0337609       0.990135        -0.0668804      1.4394e-007     0.996768        -0.0666987      0.00225868      0.0325131       0.00216097      0.0319535       0.991916        -0.0432356     
  3e+009          0.988442        -0.135394       0.00669288      0.0508693       0.00655588      0.0504253       0.984543        -0.0984861      1.4394e-007     0.992931        -0.0999519      0.00462928      0.0485761       0.00450715      0.0480458       0.988147        -0.0635908     
  4e+009          0.979564        -0.17891        0.0114505       0.0671403       0.011326        0.0665385       0.978668        -0.129899       1.4394e-007     0.987593        -0.132491       0.00784053      0.0643449       0.00778038      0.0636832       0.984634        -0.0836945     
  5e+009          0.968556        -0.221901       0.0175266       0.0829165       0.0172123       0.0822359       0.971353        -0.160583       1.4394e-007     0.980822        -0.164874       0.0119807       0.0798791       0.0117829       0.0791329       0.980448        -0.10338       
  6e+009          0.955361        -0.263339       0.024761        0.0980005       0.0242712       0.0970694       0.962805        -0.190702       1.4394e-007     0.97281         -0.196952       0.017001        0.0949841       0.0165456       0.0941037       0.975517        -0.122565      
  7e+009          0.939162        -0.305167       0.0331579       0.112525        0.0328455       0.111475        0.953305        -0.22012        1.4394e-007     0.963103        -0.227927       0.0227203       0.109922        0.0224447       0.108828        0.970203        -0.141406      
  8e+009          0.922172        -0.344072       0.0425617       0.126042        0.0418924       0.125046        0.942713        -0.248211       1.4394e-007     0.95244         -0.258428       0.0293112       0.124168        0.0287827       0.123082        0.964242        -0.15973       
  9e+009          0.902753        -0.382731       0.0530657       0.138988        0.0519526       0.137611        0.930343        -0.276302       1.4394e-007     0.940507        -0.288396       0.0366972       0.13831         0.0356997       0.136842        0.957345        -0.177942      
  1e+010          0.881681        -0.420348       0.0639822       0.150174        0.0636098       0.149162        0.918412        -0.303059       1.4394e-007     0.927429        -0.317988       0.0444168       0.151062        0.0441599       0.150137        0.95127         -0.195347      
  1.1e+010        0.858772        -0.454163       0.0760699       0.161603        0.074684        0.160286        0.904264        -0.329387       1.4394e-007     0.913027        -0.34523        0.0531507       0.164545        0.0519339       0.162995        0.942791        -0.213059      
  1.2e+010        0.834494        -0.487135       0.0886567       0.171294        0.0878047       0.169734        0.890018        -0.354441       1.4394e-007     0.897569        -0.372512       0.0623183       0.176721        0.0616163       0.175042        0.93509         -0.22977       
  1.3e+010        0.809253        -0.518295       0.101777        0.180271        0.100606        0.178547        0.874136        -0.378014       1.4394e-007     0.881272        -0.398583       0.0720272       0.188719        0.0710973       0.186827        0.926285        -0.245998      
  1.4e+010        0.78272         -0.54766        0.115752        0.187704        0.114488        0.186498        0.858586        -0.40152        1.4394e-007     0.864085        -0.424114       0.0827807       0.199831        0.0817139       0.198268        0.917685        -0.262052      
  1.5e+010        0.756012        -0.5748         0.12943         0.193571        0.127998        0.191639        0.843356        -0.422984       1.4394e-007     0.84614         -0.447458       0.0934744       0.209528        0.0923528       0.207318        0.90935         -0.276854      
  1.6e+010        0.728316        -0.600536       0.144051        0.199417        0.141535        0.197611        0.825461        -0.444205       1.4394e-007     0.827651        -0.470311       0.105147        0.219728        0.102852        0.217341        0.898392        -0.292141      
  1.7e+010        0.700147        -0.624034       0.158055        0.203075        0.15567         0.201349        0.808723        -0.463963       1.4394e-007     0.808487        -0.491802       0.116631        0.228038        0.114526        0.225811        0.889617        -0.306164      
  1.8e+010        0.671413        -0.646129       0.172785        0.20653         0.169492        0.20513         0.789941        -0.483742       1.4394e-007     0.78877         -0.512717       0.129012        0.23673         0.125872        0.234625        0.878274        -0.320645      
  1.9e+010        0.642856        -0.665922       0.186045        0.208523        0.184474        0.206637        0.773584        -0.502496       1.4394e-007     0.768491        -0.531538       0.140001        0.24378         0.138773        0.241453        0.869016        -0.333288      
  2e+010          0.614139        -0.684403       0.200339        0.209585        0.196564        0.20781         0.754865        -0.51751        1.4394e-007     0.748811        -0.549842       0.152968        0.250356        0.149507        0.247666        0.857513        -0.345239      
  2.1e+010        0.58541         -0.701532       0.213633        0.209773        0.211561        0.208482        0.735421        -0.532575       1.4394e-007     0.728103        -0.567132       0.16532         0.25628         0.16341         0.254332        0.846826        -0.35798       
  2.2e+010        0.557007        -0.716454       0.226547        0.208842        0.223763        0.207239        0.716772        -0.549556       1.4394e-007     0.707272        -0.58291        0.17747         0.261345        0.174876        0.258959        0.837742        -0.370114      
  2.3e+010        0.528487        -0.730256       0.239959        0.207473        0.236177        0.20642         0.701615        -0.565793       1.4394e-007     0.686575        -0.598183       0.189882        0.265945        0.186236        0.263762        0.827055        -0.380652      
  2.4e+010        0.500878        -0.744001       0.251044        0.205565        0.247951        0.204531        0.690444        -0.572355       1.4394e-007     0.66672         -0.612812       0.200915        0.26829         0.198018        0.266267        0.817101        -0.38764       
  2.5e+010        0.47113         -0.755364       0.264445        0.205965        0.260236        0.205255        0.683076        -0.578538       1.4394e-007     0.645361        -0.625946       0.213748        0.271701        0.209661        0.269897        0.80368         -0.398304      
  2.6e+010        0.444154        -0.766263       0.280215        0.200389        0.275392        0.200809        0.654478        -0.601223       1.4394e-007     0.625198        -0.638699       0.228701        0.273662        0.223292        0.272598        0.786312        -0.408612      
  2.7e+010        0.415024        -0.774459       0.290383        0.195706        0.286705        0.196152        0.619756        -0.614705       1.4394e-007     0.60245         -0.649589       0.240978        0.277579        0.236743        0.276871        0.777863        -0.421899      
  2.8e+010        0.389099        -0.781926       0.301788        0.19003         0.297263        0.190016        0.597193        -0.633974       1.4394e-007     0.582284        -0.659701       0.253563        0.280659        0.248695        0.27913         0.768148        -0.434038      
  2.9e+010        0.362526        -0.789277       0.310512        0.185534        0.305831        0.186071        0.584782        -0.641945       1.4394e-007     0.561456        -0.670455       0.263539        0.281923        0.258086        0.280948        0.760996        -0.439268      
  3e+010          0.335467        -0.793685       0.320207        0.181788        0.316622        0.182164        0.574323        -0.648013       1.4394e-007     0.540685        -0.67862        0.274447        0.282487        0.270446        0.281863        0.751845        -0.44601       
  3.1e+010        0.309043        -0.79976        0.330053        0.175596        0.327069        0.176267        0.55512         -0.655218       1.4394e-007     0.519865        -0.68779        0.2863          0.281771        0.283067        0.281189        0.738903        -0.454289      
  3.2e+010        0.284653        -0.802602       0.339933        0.169725        0.335774        0.170103        0.534781        -0.664285       1.4394e-007     0.499846        -0.694159       0.298729        0.28217         0.293984        0.281443        0.727728        -0.463193      
  3.3e+010        0.258929        -0.804712       0.349709        0.163506        0.344353        0.164717        0.517831        -0.675196       1.4394e-007     0.478812        -0.700529       0.310688        0.282056        0.304528        0.281643        0.717752        -0.471565      
  3.4e+010        0.23289         -0.805136       0.35835         0.156405        0.354616        0.157535        0.502653        -0.682023       1.4394e-007     0.457742        -0.705744       0.322099        0.28034         0.317578        0.28029         0.707644        -0.477765      
  3.5e+010        0.211014        -0.807511       0.365626        0.149407        0.362145        0.149896        0.485301        -0.688049       1.4394e-007     0.439895        -0.711367       0.332339        0.278232        0.328345        0.277565        0.695827        -0.484443      
  3.6e+010        0.188523        -0.806503       0.37315         0.142051        0.368556        0.143529        0.464118        -0.695061       1.4394e-007     0.420502        -0.71368        0.343675        0.276139        0.337971        0.276236        0.684005        -0.491866      
  3.7e+010        0.167382        -0.806905       0.380386        0.134938        0.375862        0.137482        0.449366        -0.702413       1.4394e-007     0.403086        -0.718471       0.353703        0.273953        0.347921        0.27514         0.674788        -0.498235      
  3.8e+010        0.145831        -0.806544       0.386887        0.127355        0.384013        0.128946        0.433697        -0.707506       1.4394e-007     0.384191        -0.721877       0.363393        0.270513        0.359293        0.271531        0.664811        -0.503065      
  3.9e+010        0.124215        -0.805982       0.392436        0.119955        0.3894          0.121237        0.415413        -0.711968       1.4394e-007     0.36617         -0.724643       0.372767        0.268009        0.368608        0.268574        0.653509        -0.508796      
  4e+010          0.104582        -0.805978       0.398965        0.111962        0.395273        0.114738        0.398949        -0.718688       1.4394e-007     0.349936        -0.727927       0.38261         0.264996        0.377508        0.266193        0.643095        -0.515075      
  4.1e+010        0.0834164       -0.805004       0.405009        0.104777        0.402203        0.10646         0.380626        -0.723836       1.4394e-007     0.331717        -0.731086       0.391989        0.262074        0.388034        0.262682        0.631842        -0.520888      
  4.2e+010        0.0648311       -0.801272       0.410078        0.0956166       0.405815        0.0967735       0.363039        -0.724192       1.4394e-007     0.315598        -0.731299       0.401497        0.257848        0.395916        0.257209        0.620813        -0.524091      
  4.3e+010        0.0448826       -0.800608       0.41479         0.0880206       0.410377        0.0906652       0.348574        -0.728128       1.4394e-007     0.298488        -0.734376       0.410381        0.254125        0.404268        0.255166        0.610982        -0.529704      
  4.4e+010        0.0279274       -0.797569       0.418934        0.0808713       0.415387        0.0824124       0.333165        -0.730454       1.4394e-007     0.283452        -0.734042       0.418621        0.250831        0.413589        0.250887        0.600645        -0.533297      
  4.5e+010        0.00923068      -0.795376       0.424298        0.0725514       0.41971         0.0763826       0.317048        -0.736131       1.4394e-007     0.267223        -0.735486       0.427922        0.246864        0.421132        0.249154        0.591547        -0.53848       
  4.6e+010        -0.00854804     -0.793342       0.428313        0.0639769       0.424849        0.0677026       0.302554        -0.736512       1.4394e-007     0.251909        -0.737196       0.435775        0.241753        0.43005         0.244295        0.58078         -0.541354      
  4.7e+010        -0.0276406      -0.790359       0.432096        0.0557597       0.429354        0.0592965       0.286671        -0.737129       1.4394e-007     0.235281        -0.737712       0.444631        0.237521        0.440303        0.240468        0.570166        -0.544458      
  4.8e+010        -0.0434391      -0.787476       0.436036        0.0475997       0.433031        0.0493453       0.270712        -0.741705       1.4394e-007     0.221698        -0.737329       0.453342        0.233715        0.449228        0.234631        0.560729        -0.54886       
  4.9e+010        -0.0593152      -0.783942       0.438542        0.038137        0.433807        0.0411926       0.260395        -0.742963       1.4394e-007     0.207726        -0.73649        0.460036        0.226918        0.453497        0.228139        0.553893        -0.550889      
  5e+010          -0.0777237      -0.780631       0.442135        0.0296137       0.440727        0.0338833       0.244828        -0.74313        1.4394e-007     0.191781        -0.738391       0.468706        0.221673        0.465001        0.225497        0.542848        -0.554094      
  5.1e+010        -0.0936091      -0.774615       0.444155        0.0208487       0.441165        0.0230555       0.230647        -0.745233       1.4394e-007     0.177248        -0.735663       0.476006        0.215844        0.471651        0.216986        0.533881        -0.556979      
  5.2e+010        -0.109438       -0.771264       0.445684        0.0105357       0.439636        0.0153809       0.216357        -0.747674       1.4394e-007     0.163875        -0.735943       0.484046        0.209199        0.474752        0.21185         0.525192        -0.560246      
