! VERSION = 6.00
!Data measured by ggf on Tue Jan 23 12:39:40 2018 using model file NPN_MEAS_SCALE
BEGIN_HEADER
 ICCAP_INPUTS
  vb         V  B GROUND GND 0 CON        0
  vc         V  C GROUND GND 0 CON        0
  ve         V  E GROUND SMU_E 0 CON        0
  vs         V  S GROUND SMU_S 0 CON        0
  freq       F  LIST       1 74 100000000 200000000 300000000 400000000 500000000 600000000 700000000 800000000 900000000 1000000000 2000000000 3000000000 4000000000 5000000000 6000000000 7000000000 8000000000 9000000000 10000000000 11000000000 12000000000 13000000000 14000000000 15000000000 16000000000 17000000000 18000000000 19000000000 20000000000 21000000000 22000000000 23000000000 24000000000 25000000000 26000000000 27000000000 28000000000 29000000000 30000000000 31000000000 32000000000 33000000000 34000000000 35000000000 36000000000 37000000000 38000000000 39000000000 40000000000 41000000000 42000000000 43000000000 44000000000 45000000000 46000000000 47000000000 48000000000 49000000000 50000000000 51000000000 52000000000 53000000000 54000000000 55000000000 56000000000 57000000000 58000000000 59000000000 60000000000 61000000000 62000000000 63000000000 64000000000 65000000000
 ICCAP_OUTPUTS
  S          S  B C Ground NWA M
 ICCAP_VALUES
  TNOM "27"
  TEMP "27"
  TECHNO "SG13G2"
  LOT "EDJ802"
  WAFER "02"
  CHIP "(3.3)"
  MODULE "S439S"
  DEV_NAME "D44"
  DEV_GEOM_L "5.0"
  DEV_GEOM_W "0.07"
  NUM_OF_TRANS_RF "1"
  REMARKS "Nx=4; Power -30/-20dBm, Slope: 0.1dB/GHz"
  TIMEDATE "Tue Jan 23 12:27:29     2018"
  OPERATOR "ggf"
END_HEADER

BEGIN_DB
 ICCAP_VAR vb         0              
 ICCAP_VAR vc         0              
 ICCAP_VAR ve         0              
 ICCAP_VAR vs         0              

 #freq            R:S(1,1)        I:S(1,1)        R:S(1,2)        I:S(1,2)        R:S(2,1)        I:S(2,1)        R:S(2,2)        I:S(2,2)       
  1e+008          0.999997        -0.000421616    -5.56641e-006   0.000102402     -0.000118627    1.7132e-005     1.00012         -0.00127084    
  2e+008          1.00023         -0.00185167     1.34696e-005    0.000118358     0.000101363     0.000144357     1.00035         -0.0028704     
  3e+008          1.00018         -0.00298661     5.37862e-005    0.000193148     6.66085e-005    0.000137307     1.00024         -0.00342184    
  4e+008          1.00065         -0.00399722     1.92996e-005    0.000223081     -2.25649e-005   0.000230191     1.00006         -0.00459883    
  5e+008          1.00069         -0.00576107     -1.90998e-006   0.000292526     -2.20179e-006   0.000233153     1.00014         -0.00565679    
  6e+008          1.00043         -0.00632788     6.03768e-006    0.000358381     -2.79554e-005   0.000380947     1.00024         -0.00670987    
  7e+008          1.00054         -0.00745071     2.24155e-005    0.000421582     -5.34335e-005   0.00035409      1.00007         -0.00792302    
  8e+008          1.00056         -0.00886678     -2.07891e-005   0.000482469     3.39779e-006    0.000430389     1.00008         -0.00898582    
  9e+008          1.0004          -0.00977661     5.88003e-006    0.000519021     -4.48725e-006   0.000689426     1.0001          -0.0101551     
  1e+009          1.00041         -0.0109917      8.06913e-006    0.000587476     -0.000117379    0.000615439     1.00002         -0.0111496     
  2e+009          1.00014         -0.0220809      3.23503e-005    0.00114467      -4.67611e-005   0.0011249       0.999833        -0.0225113     
  3e+009          0.999545        -0.0336621      5.05037e-005    0.00180007      4.31032e-006    0.00178422      0.99934         -0.0336999     
  4e+009          0.999116        -0.045608       8.56738e-005    0.00241607      9.66182e-005    0.00239988      0.998632        -0.0447485     
  5e+009          0.998349        -0.0554561      0.000161195     0.00300413      0.000176158     0.00290075      0.997796        -0.0559246     
  6e+009          0.997276        -0.0667227      0.000244762     0.00359851      0.000239248     0.00363221      0.996939        -0.0672355     
  7e+009          0.995875        -0.0779082      0.00032164      0.00422291      0.000391242     0.00419781      0.995828        -0.0784579     
  8e+009          0.994632        -0.0883268      0.000431012     0.00482565      0.000516139     0.00483075      0.994559        -0.0894315     
  9e+009          0.993339        -0.0996642      0.000582039     0.00544359      0.000608735     0.00539932      0.992964        -0.100672      
  1e+010          0.991745        -0.110967       0.000767048     0.0060799       0.0009295       0.00608098      0.991255        -0.111751      
  1.1e+010        0.989883        -0.121972       0.000913069     0.00668846      0.000917004     0.0067081       0.989581        -0.122804      
  1.2e+010        0.987585        -0.132723       0.00115646      0.0073818       0.00124674      0.00727439      0.987483        -0.133721      
  1.3e+010        0.98554         -0.143642       0.00148819      0.00791646      0.00147517      0.00789088      0.984783        -0.144491      
  1.4e+010        0.982666        -0.154357       0.00180965      0.00847739      0.00184465      0.00848545      0.982364        -0.155287      
  1.5e+010        0.980726        -0.164846       0.00211132      0.00896796      0.00210441      0.00891234      0.980014        -0.165955      
  1.6e+010        0.977608        -0.175075       0.0024167       0.00945046      0.00233662      0.00955014      0.977474        -0.176436      
  1.7e+010        0.975044        -0.185344       0.00282861      0.00993467      0.00275041      0.00989555      0.973781        -0.186764      
  1.8e+010        0.972109        -0.195898       0.0031657       0.0103143       0.00306563      0.0104223       0.97061         -0.197503      
  1.9e+010        0.968424        -0.207012       0.00348436      0.0107988       0.00349048      0.0108491       0.968061        -0.208679      
  2e+010          0.965306        -0.216278       0.00387091      0.0111745       0.00385242      0.0112005       0.964354        -0.217552      
  2.1e+010        0.961863        -0.226149       0.00423214      0.0114906       0.00420437      0.0115605       0.958544        -0.225942      
  2.2e+010        0.958593        -0.236347       0.004628        0.011864        0.00473781      0.0118314       0.953042        -0.236881      
  2.3e+010        0.954283        -0.245984       0.00493573      0.0120702       0.00489182      0.0119657       0.95301         -0.248847      
  2.4e+010        0.95121         -0.255962       0.00518652      0.0124162       0.00515618      0.0124604       0.954101        -0.251179      
  2.5e+010        0.9465          -0.265864       0.00539878      0.0130812       0.00554147      0.0131697       0.963696        -0.245666      
  2.6e+010        0.942605        -0.275184       0.00616919      0.0133679       0.00587962      0.0135661       0.95914         -0.26932       
  2.7e+010        0.939011        -0.28467        0.00661442      0.0135367       0.00665019      0.0136151       0.932843        -0.283937      
  2.8e+010        0.934136        -0.294903       0.00712233      0.0136801       0.00731901      0.0134683       0.924219        -0.303069      
  2.9e+010        0.929685        -0.303887       0.00747079      0.0136399       0.00739082      0.0139584       0.921124        -0.311912      
  3e+010          0.924009        -0.312925       0.0075672       0.0138715       0.00744249      0.0137321       0.922862        -0.314846      
  3.1e+010        0.920923        -0.321874       0.0079902       0.0142477       0.00815572      0.014479        0.919177        -0.320338      
  3.2e+010        0.914944        -0.33123        0.00865164      0.0144189       0.008886        0.014317        0.91151         -0.329872      
  3.3e+010        0.909091        -0.340795       0.00916819      0.01458         0.00930452      0.0147194       0.907457        -0.34098       
  3.4e+010        0.902639        -0.349748       0.00980549      0.0145914       0.00954157      0.0147774       0.904791        -0.348764      
  3.5e+010        0.898196        -0.35646        0.0102548       0.0145812       0.0103445       0.0148369       0.900854        -0.355391      
  3.6e+010        0.892363        -0.364361       0.0105916       0.0145255       0.0105864       0.0141535       0.892985        -0.365372      
  3.7e+010        0.887751        -0.371213       0.0108668       0.0143364       0.0107538       0.0144379       0.889702        -0.374661      
  3.8e+010        0.882613        -0.380159       0.0115101       0.0141019       0.0116022       0.014363        0.885269        -0.382372      
  3.9e+010        0.876756        -0.388878       0.011557        0.0140023       0.0117474       0.0136636       0.879226        -0.391497      
  4e+010          0.870358        -0.395583       0.0117584       0.0139098       0.0118175       0.0140143       0.874312        -0.400073      
  4.1e+010        0.867103        -0.401523       0.0123113       0.0140869       0.0121645       0.0138736       0.867987        -0.409811      
  4.2e+010        0.859278        -0.410533       0.0131036       0.0138755       0.0134602       0.0137659       0.860164        -0.417208      
  4.3e+010        0.856118        -0.418161       0.013307        0.0130163       0.0130335       0.0131902       0.855008        -0.423552      
  4.4e+010        0.847849        -0.423171       0.0133415       0.0125835       0.0135004       0.0126027       0.849034        -0.431159      
  4.5e+010        0.842107        -0.4327         0.01351         0.0127958       0.0139711       0.0124573       0.843077        -0.440504      
  4.6e+010        0.837554        -0.436787       0.0140233       0.0123783       0.0139995       0.0123922       0.837552        -0.446674      
  4.7e+010        0.834035        -0.445682       0.0139643       0.011684        0.0138945       0.0114132       0.829915        -0.452887      
  4.8e+010        0.827377        -0.450582       0.0136965       0.0114349       0.013925        0.0114533       0.823951        -0.462026      
  4.9e+010        0.821357        -0.460956       0.0133637       0.011315        0.0127431       0.0111402       0.818743        -0.468067      
  5e+010          0.816173        -0.464251       0.0133523       0.0112968       0.0134726       0.0110996       0.812255        -0.474255      
  5.1e+010        0.812094        -0.471719       0.0133117       0.0112946       0.0137747       0.010903        0.806192        -0.481001      
  5.2e+010        0.80469         -0.477633       0.0132849       0.0107111       0.0130547       0.0104546       0.799825        -0.489566      
  5.3e+010        0.800088        -0.487185       0.01399         0.0114409       0.0138996       0.0118136       0.794376        -0.495204      
  5.4e+010        0.796693        -0.491275       0.0138374       0.0108525       0.0139824       0.0111355       0.787946        -0.50189       
  5.5e+010        0.786947        -0.498147       0.0141047       0.0104837       0.0141068       0.0103513       0.779163        -0.508523      
  5.6e+010        0.786801        -0.504024       0.0124718       0.00977112      0.0129781       0.00918193      0.774835        -0.511043      
  5.7e+010        0.778786        -0.512428       0.0117815       0.0113028       0.0120665       0.0112648       0.772784        -0.517529      
  5.8e+010        0.776505        -0.521951       0.0126783       0.0128974       0.0130176       0.012731        0.768287        -0.527498      
  5.9e+010        0.768647        -0.52899        0.0142282       0.0139138       0.0142107       0.0144237       0.762389        -0.534075      
  6e+010          0.762464        -0.535931       0.0161104       0.0130261       0.0162982       0.0131642       0.755015        -0.541381      
  6.1e+010        0.755598        -0.545431       0.015889        0.0128883       0.0159377       0.0124788       0.748664        -0.548905      
  6.2e+010        0.751129        -0.552218       0.0175988       0.0132245       0.0176121       0.0126452       0.745118        -0.558063      
  6.3e+010        0.741819        -0.555782       0.0187253       0.0119104       0.0189763       0.0122283       0.736744        -0.563736      
  6.4e+010        0.739942        -0.569147       0.0206293       0.0113844       0.0208355       0.0115511       0.733888        -0.569224      
  6.5e+010        0.727821        -0.572231       0.0201263       0.00929857      0.0198701       0.00883758      0.725447        -0.581089      
END_DB

