! VERSION = 6.00
!Data measured by ggf on Tue Jan 23 12:30:51 2018 using model file NPN_MEAS_SCALE
BEGIN_HEADER
 ICCAP_INPUTS
  vb         V  B GROUND GND 0 CON        0
  vc         V  C GROUND GND 0 CON        0
  ve         V  E GROUND SMU_E 0 CON        0
  vs         V  S GROUND SMU_S 0 CON        0
  freq       F  LIST       1 74 100000000 200000000 300000000 400000000 500000000 600000000 700000000 800000000 900000000 1000000000 2000000000 3000000000 4000000000 5000000000 6000000000 7000000000 8000000000 9000000000 10000000000 11000000000 12000000000 13000000000 14000000000 15000000000 16000000000 17000000000 18000000000 19000000000 20000000000 21000000000 22000000000 23000000000 24000000000 25000000000 26000000000 27000000000 28000000000 29000000000 30000000000 31000000000 32000000000 33000000000 34000000000 35000000000 36000000000 37000000000 38000000000 39000000000 40000000000 41000000000 42000000000 43000000000 44000000000 45000000000 46000000000 47000000000 48000000000 49000000000 50000000000 51000000000 52000000000 53000000000 54000000000 55000000000 56000000000 57000000000 58000000000 59000000000 60000000000 61000000000 62000000000 63000000000 64000000000 65000000000
 ICCAP_OUTPUTS
  S          S  B C Ground NWA M
 ICCAP_VALUES
  TNOM "27"
  TEMP "27"
  TECHNO "SG13G2"
  LOT "EDJ802"
  WAFER "02"
  CHIP "(3.3)"
  MODULE "S439S"
  DEV_NAME "D44"
  DEV_GEOM_L "5.0"
  DEV_GEOM_W "0.07"
  NUM_OF_TRANS_RF "1"
  REMARKS "Nx=4; Power -30/-20dBm, Slope: 0.1dB/GHz"
  TIMEDATE "Tue Jan 23 12:27:29     2018"
  OPERATOR "ggf"
END_HEADER

BEGIN_DB
 ICCAP_VAR vb         0              
 ICCAP_VAR vc         0              
 ICCAP_VAR ve         0              
 ICCAP_VAR vs         0              

 #freq            R:S(1,1)        I:S(1,1)        R:S(1,2)        I:S(1,2)        R:S(2,1)        I:S(2,1)        R:S(2,2)        I:S(2,2)       
  1e+008          -0.979935       -0.000511471    0.00312562      2.34392e-005    0.0031027       4.79437e-005    -0.983171       0.000878063    
  2e+008          -0.979888       0.00089336      0.00315586      0.000135835     0.00311383      0.000174905     -0.983325       0.00160016     
  3e+008          -0.980121       0.00189308      0.0031168       0.000176067     0.00310527      0.000208726     -0.983142       0.00227337     
  4e+008          -0.979734       0.00211441      0.00308299      0.000295436     0.00316598      0.000242094     -0.983144       0.00277303     
  5e+008          -0.979762       0.00262144      0.00313228      0.000383631     0.00315165      0.000377494     -0.982943       0.0034513      
  6e+008          -0.979695       0.0032078       0.0031163       0.000463966     0.00306097      0.000371524     -0.982745       0.00404939     
  7e+008          -0.979684       0.0039117       0.00312802      0.000548045     0.00318266      0.000530628     -0.982695       0.00452165     
  8e+008          -0.979313       0.00425012      0.00310279      0.000622525     0.00311492      0.000576496     -0.982536       0.00506612     
  9e+008          -0.979412       0.00478653      0.00311196      0.000697197     0.00306917      0.000655864     -0.982402       0.00561713     
  1e+009          -0.979291       0.00515478      0.0031277       0.000766128     0.00300081      0.000760091     -0.982286       0.00611158     
  2e+009          -0.978303       0.00972142      0.00318149      0.00149447      0.00318146      0.00149174      -0.981329       0.0109718      
  3e+009          -0.977691       0.0139818       0.00319308      0.00218963      0.00313748      0.00224737      -0.980336       0.0156041      
  4e+009          -0.977107       0.018034        0.00322485      0.00297337      0.00311554      0.00298299      -0.979655       0.019948       
  5e+009          -0.976726       0.0218734       0.00331968      0.00365073      0.00339273      0.00359332      -0.979395       0.0242193      
  6e+009          -0.976155       0.0257291       0.00338858      0.00424962      0.00334726      0.0041727       -0.979061       0.0286669      
  7e+009          -0.975416       0.0293589       0.00339545      0.00484905      0.00335885      0.00479418      -0.978216       0.0331265      
  8e+009          -0.974662       0.0331168       0.00331121      0.0055391       0.00329187      0.0054918       -0.977651       0.0373838      
  9e+009          -0.974513       0.0383567       0.00336352      0.0061825       0.00335452      0.00617673      -0.977412       0.0417727      
  1e+010          -0.973757       0.0418066       0.00339091      0.00678624      0.00342786      0.00675345      -0.976831       0.0461179      
  1.1e+010        -0.973195       0.0458333       0.0032769       0.00721501      0.00328354      0.00716542      -0.976001       0.050891       
  1.2e+010        -0.972332       0.0495699       0.00291884      0.00780242      0.00290748      0.00779021      -0.974876       0.0552497      
  1.3e+010        -0.970942       0.053036        0.00245775      0.00870517      0.00241381      0.00863924      -0.97408        0.0590889      
  1.4e+010        -0.970705       0.055999        0.00229031      0.00978824      0.00240846      0.00973922      -0.973113       0.0626801      
  1.5e+010        -0.969779       0.0595436       0.00242555      0.0108584       0.00247232      0.0107718       -0.972221       0.0663989      
  1.6e+010        -0.969834       0.0630988       0.00251647      0.0116027       0.00253052      0.0116077       -0.972003       0.0705257      
  1.7e+010        -0.968905       0.0660669       0.00243163      0.0124851       0.00233967      0.0122421       -0.972273       0.0748203      
  1.8e+010        -0.968598       0.0691746       0.00243812      0.0135042       0.00225931      0.0133451       -0.971959       0.0787206      
  1.9e+010        -0.969023       0.0716537       0.00251208      0.0142415       0.00261972      0.0143056       -0.96959        0.0819427      
  2e+010          -0.968682       0.0761063       0.00258554      0.0151125       0.00253169      0.0149929       -0.969011       0.0866287      
  2.1e+010        -0.969195       0.0793562       0.00253846      0.0161711       0.00258191      0.0163455       -0.970391       0.0912645      
  2.2e+010        -0.969056       0.0830119       0.00287662      0.0173073       0.00315176      0.0170116       -0.971043       0.0918061      
  2.3e+010        -0.969886       0.0867703       0.0031201       0.0183877       0.00315735      0.0181571       -0.966837       0.0902552      
  2.4e+010        -0.969984       0.0911339       0.00372995      0.0190985       0.0036524       0.0190616       -0.964635       0.0943664      
  2.5e+010        -0.969659       0.0968388       0.00406486      0.0195739       0.00413644      0.0190347       -0.968367       0.109817       
  2.6e+010        -0.968708       0.100584        0.00441564      0.0202176       0.004319        0.0201229       -0.987183       0.126095       
  2.7e+010        -0.967488       0.104518        0.00466298      0.0209273       0.00425526      0.0211432       -0.985809       0.147534       
  2.8e+010        -0.967768       0.108017        0.00455657      0.0214402       0.0047126       0.0212968       -0.974174       0.130176       
  2.9e+010        -0.966793       0.112041        0.00442266      0.0224268       0.00493385      0.0224029       -0.96871        0.123709       
  3e+010          -0.967428       0.116704        0.00490644      0.0234444       0.0046602       0.0234473       -0.963289       0.131138       
  3.1e+010        -0.964167       0.1217          0.00575516      0.0238002       0.00566742      0.0235637       -0.962729       0.13746        
  3.2e+010        -0.964023       0.123398        0.00555845      0.0241476       0.00572505      0.0238014       -0.965273       0.140403       
  3.3e+010        -0.963194       0.127175        0.0055966       0.0247219       0.00550681      0.0248034       -0.96545        0.141192       
  3.4e+010        -0.962093       0.13069         0.00537174      0.0254644       0.00559979      0.025468        -0.963468       0.146382       
  3.5e+010        -0.962439       0.134724        0.0060081       0.0262511       0.00627792      0.0259446       -0.9621         0.152168       
  3.6e+010        -0.962869       0.139782        0.0058128       0.0268424       0.00631002      0.0270693       -0.965873       0.155231       
  3.7e+010        -0.961763       0.144103        0.00622124      0.0279029       0.0065369       0.027654        -0.964708       0.159592       
  3.8e+010        -0.962163       0.145953        0.00619035      0.028867        0.00607873      0.0289124       -0.963684       0.164609       
  3.9e+010        -0.960546       0.150218        0.00686412      0.0296262       0.00742598      0.029746        -0.96302        0.170567       
  4e+010          -0.960765       0.154928        0.0071574       0.0300842       0.00745066      0.0296239       -0.962965       0.174353       
  4.1e+010        -0.958584       0.159581        0.00811373      0.0307447       0.0081854       0.0300625       -0.9627         0.180528       
  4.2e+010        -0.958865       0.163104        0.00760368      0.0310461       0.00716972      0.0303905       -0.9569         0.184876       
  4.3e+010        -0.95644        0.16344         0.00776916      0.0325903       0.00864948      0.0314879       -0.957644       0.187645       
  4.4e+010        -0.958034       0.170308        0.00925566      0.0329539       0.00827548      0.0327773       -0.957715       0.191891       
  4.5e+010        -0.958062       0.172524        0.00941109      0.0326085       0.00969045      0.0322847       -0.95766        0.195075       
  4.6e+010        -0.956044       0.178831        0.00940505      0.033328        0.0100184       0.0328619       -0.955163       0.200308       
  4.7e+010        -0.954994       0.180577        0.00981144      0.0344506       0.00977883      0.0329369       -0.956742       0.204507       
  4.8e+010        -0.955277       0.187015        0.0109858       0.0341499       0.0102082       0.0348186       -0.955978       0.208604       
  4.9e+010        -0.956208       0.187307        0.0100467       0.0343857       0.0119681       0.0343521       -0.954603       0.212138       
  5e+010          -0.954868       0.195855        0.010645        0.035237        0.00949044      0.0340247       -0.954233       0.218857       
  5.1e+010        -0.952987       0.198106        0.0118659       0.0353905       0.0110556       0.0350444       -0.952406       0.224098       
  5.2e+010        -0.951783       0.203386        0.0109597       0.0348205       0.0116626       0.0345125       -0.950664       0.227033       
  5.3e+010        -0.951637       0.204618        0.0102252       0.0364986       0.0103392       0.0350304       -0.949811       0.232054       
  5.4e+010        -0.948224       0.210704        0.0114356       0.0373289       0.010588        0.0367865       -0.947855       0.236582       
  5.5e+010        -0.949493       0.214524        0.0116783       0.0374528       0.0122371       0.037262        -0.947091       0.238581       
  5.6e+010        -0.9465         0.217768        0.0124387       0.0380626       0.0122867       0.0376519       -0.947141       0.243171       
  5.7e+010        -0.946665       0.222211        0.0132174       0.0384631       0.0126389       0.0376867       -0.944914       0.248346       
  5.8e+010        -0.943189       0.22659         0.0137067       0.0382393       0.0146339       0.0377943       -0.943313       0.251986       
  5.9e+010        -0.941891       0.228241        0.0127962       0.0379205       0.0131884       0.0364323       -0.940879       0.257616       
  6e+010          -0.941333       0.233094        0.0130292       0.0386803       0.0121364       0.0371225       -0.940891       0.260045       
  6.1e+010        -0.940967       0.234965        0.0133372       0.0387005       0.0139268       0.0394355       -0.939605       0.263954       
  6.2e+010        -0.938662       0.235725        0.0133952       0.0402708       0.0147438       0.0384613       -0.936861       0.265499       
  6.3e+010        -0.939923       0.243962        0.0148247       0.0403307       0.0140906       0.0387478       -0.936593       0.270027       
  6.4e+010        -0.936541       0.244042        0.0151643       0.040032        0.0149541       0.0395587       -0.934081       0.274984       
  6.5e+010        -0.938194       0.249492        0.0145907       0.0402436       0.0168333       0.0395668       -0.934882       0.276816       
END_DB

