! VERSION = 6.00
!Data measured by ggf on Tue Jan 23 12:55:42 2018 using model file NPN_MEAS_SCALE
BEGIN_HEADER
 ICCAP_INPUTS
  vce        V  C GROUND SMU_C 0.015 LIN        2    1.8        -0.6       25   -0.1      
  vb         V  B GROUND SMU_B 0.015 CON        0
  ve         V  E GROUND SMU_E 0 CON        0
  vs         V  S GROUND SMU_S 0 CON        0
  freq       F  LIST       1 74 100000000 200000000 300000000 400000000 500000000 600000000 700000000 800000000 900000000 1000000000 2000000000 3000000000 4000000000 5000000000 6000000000 7000000000 8000000000 9000000000 10000000000 11000000000 12000000000 13000000000 14000000000 15000000000 16000000000 17000000000 18000000000 19000000000 20000000000 21000000000 22000000000 23000000000 24000000000 25000000000 26000000000 27000000000 28000000000 29000000000 30000000000 31000000000 32000000000 33000000000 34000000000 35000000000 36000000000 37000000000 38000000000 39000000000 40000000000 41000000000 42000000000 43000000000 44000000000 45000000000 46000000000 47000000000 48000000000 49000000000 50000000000 51000000000 52000000000 53000000000 54000000000 55000000000 56000000000 57000000000 58000000000 59000000000 60000000000 61000000000 62000000000 63000000000 64000000000 65000000000
 ICCAP_OUTPUTS
  S          S  B C GROUND NWA M
  ic         I  C GROUND SMU_C M
  S_deemb    S B C GROUND n/a B
 ICCAP_VALUES
  TNOM "27"
  TEMP "27"
  TECHNO "SG13G2"
  LOT "EDJ802"
  WAFER "02"
  CHIP "(3.3)"
  MODULE "S439S"
  DEV_NAME "D44"
  DEV_GEOM_L "5.0"
  DEV_GEOM_W "0.07"
  NUM_OF_TRANS_RF "1"
  REMARKS "Nx=4; Power -30/-20dBm, Slope: 0.1dB/GHz"
  TIMEDATE "Tue Jan 23 12:27:29     2018"
  OPERATOR "ggf"
END_HEADER

BEGIN_DB
 ICCAP_VAR vce        1.8            
 ICCAP_VAR vb         0              
 ICCAP_VAR ve         0              
 ICCAP_VAR vs         0              

 #freq            R:S(1,1)        I:S(1,1)        R:S(1,2)        I:S(1,2)        R:S(2,1)        I:S(2,1)        R:S(2,2)        I:S(2,2)        ic              R:S_deemb(1,1)  I:S_deemb(1,1)  R:S_deemb(1,2)  I:S_deemb(1,2)  R:S_deemb(2,1)  I:S_deemb(2,1)  R:S_deemb(2,2)  I:S_deemb(2,2) 
  1e+008          0.999761        -0.00556873     -1.44856e-005   0.00204046      0.000168408     0.00205277      1.00027         -0.00327046     2.1898e-008     0.999767        -0.00514714     -1.09806e-005   0.00193792      0.000285171     0.00203535      1.00015         -0.00199908    
  2e+008          1.00002         -0.0115931      4.00506e-005    0.00412049      7.84375e-005    0.00413645      1.00009         -0.00707623     2.1898e-008     0.99981         -0.00973987     1.60803e-005    0.00400117      -3.35506e-005   0.00399163      0.999756        -0.00420532    
  3e+008          0.999952        -0.0175805      8.90745e-005    0.00614807      0.000120644     0.0062489       1.00015         -0.0107586      2.1898e-008     0.999819        -0.0145923      1.35814e-005    0.00595441      3.24216e-005    0.00611124      0.999934        -0.00733561    
  4e+008          1.00011         -0.0234916      0.000183098     0.00820971      0.000198941     0.00816516      0.999902        -0.0144154      2.1898e-008     0.999549        -0.0194841      0.000125218     0.00798492      0.000183021     0.00793292      0.999891        -0.00981664    
  5e+008          0.999778        -0.0295003      0.000269371     0.0102255       0.00027817      0.0103189       0.999911        -0.0180521      2.1898e-008     0.999229        -0.0237283      0.000207758     0.00993065      0.000217022     0.0100833       0.999845        -0.0123949     
  6e+008          0.999535        -0.0357224      0.000391124     0.0122514       0.000468462     0.0122028       0.999764        -0.0216763      2.1898e-008     0.999305        -0.0293879      0.000297384     0.0118921       0.000408634     0.011821        0.999634        -0.0149659     
  7e+008          0.999411        -0.0414586      0.000535745     0.0142933       0.000558457     0.0143192       0.999511        -0.0254103      2.1898e-008     0.999132        -0.0339981      0.000392858     0.0138725       0.000492344     0.0139647       0.999582        -0.0174902     
  8e+008          0.999004        -0.0474271      0.00066693      0.0163308       0.000692399     0.0163965       0.99935         -0.0290503      2.1898e-008     0.998805        -0.0385532      0.000528116     0.0158498       0.000529864     0.0159682       0.999462        -0.0200693     
  9e+008          0.998675        -0.0533685      0.000858066     0.0183777       0.000896103     0.0182992       0.999222        -0.0326571      2.1898e-008     0.998727        -0.0435925      0.000652091     0.0178642       0.000697392     0.0176156       0.999362        -0.0225087     
  1e+009          0.998256        -0.0594122      0.00104591      0.0204024       0.00107681      0.0203744       0.998918        -0.0362671      2.1898e-008     0.998402        -0.0484246      0.000790749     0.0198242       0.00094651      0.0197655       0.999197        -0.0251283     
  2e+009          0.991797        -0.118157       0.00405705      0.040552        0.00403665      0.0406114       0.995682        -0.0719568      2.1898e-008     0.993874        -0.096259       0.00303964      0.0395143       0.00309763      0.039589        0.997023        -0.0495476     
  3e+009          0.981254        -0.176674       0.00895906      0.0602251       0.00902008      0.0602826       0.990734        -0.107015       2.1898e-008     0.986726        -0.143737       0.00670207      0.058813        0.00680803      0.058885        0.994           -0.0736601     
  4e+009          0.96724         -0.233337       0.0157117       0.0792213       0.0156251       0.0792787       0.984096        -0.141352       2.1898e-008     0.977014        -0.189453       0.0117538       0.0777279       0.0116549       0.0777985       0.990015        -0.0974071     
  5e+009          0.949173        -0.28841        0.0242141       0.0974545       0.0241716       0.0975562       0.975826        -0.175232       2.1898e-008     0.964173        -0.23628        0.0182153       0.0962255       0.0181651       0.0964276       0.985023        -0.120836      
  6e+009          0.927804        -0.341058       0.0342839       0.11454         0.0340852       0.114568        0.966153        -0.208394       2.1898e-008     0.949321        -0.280069       0.0258622       0.113967        0.0256608       0.113947        0.97913         -0.143718      
  7e+009          0.902487        -0.392319       0.0459518       0.13074         0.0459786       0.130638        0.955024        -0.240642       2.1898e-008     0.931547        -0.323519       0.0348454       0.131259        0.0348174       0.131195        0.972427        -0.166146      
  8e+009          0.87506         -0.44065        0.0588555       0.145286        0.0587048       0.145498        0.942633        -0.271754       2.1898e-008     0.911848        -0.365531       0.0449455       0.147346        0.0446925       0.147556        0.964945        -0.188066      
  9e+009          0.845214        -0.486216       0.0728498       0.158589        0.0724027       0.158517        0.928769        -0.301989       2.1898e-008     0.890419        -0.404775       0.055904        0.162671        0.0554436       0.1626          0.956642        -0.209301      
  1e+010          0.812517        -0.529118       0.0878059       0.170214        0.0877933       0.17025         0.913842        -0.33121        2.1898e-008     0.866688        -0.442588       0.0678092       0.176845        0.0676429       0.176915        0.94763         -0.23015       
  1.1e+010        0.778016        -0.56873        0.103389        0.180661        0.103065        0.180727        0.898235        -0.359276       2.1898e-008     0.841445        -0.478325       0.0803927       0.1903          0.0800469       0.190309        0.938135        -0.250213      
  1.2e+010        0.741992        -0.605026       0.119957        0.189526        0.119973        0.189144        0.88101         -0.386157       2.1898e-008     0.814902        -0.512105       0.0940367       0.202703        0.0940505       0.202435        0.927535        -0.269858      
  1.3e+010        0.704927        -0.638497       0.136642        0.196867        0.136426        0.196194        0.863082        -0.411365       2.1898e-008     0.787089        -0.543757       0.107945        0.214219        0.107838        0.213518        0.916796        -0.288502      
  1.4e+010        0.666655        -0.668516       0.154217        0.202219        0.153869        0.202124        0.8447          -0.435535       2.1898e-008     0.758174        -0.573277       0.123198        0.224219        0.122827        0.224067        0.905354        -0.306453      
  1.5e+010        0.628786        -0.695145       0.171407        0.205832        0.170371        0.205062        0.826361        -0.458211       2.1898e-008     0.728577        -0.599735       0.13835         0.232667        0.137434        0.231749        0.893848        -0.323278      
  1.6e+010        0.589593        -0.719863       0.188457        0.208356        0.187147        0.208041        0.807181        -0.479942       2.1898e-008     0.69811         -0.625686       0.153802        0.240344        0.152543        0.239688        0.88166         -0.339761      
  1.7e+010        0.550934        -0.741508       0.205521        0.209107        0.203655        0.208642        0.78704         -0.500242       2.1898e-008     0.667299        -0.64887        0.169662        0.246643        0.167882        0.245824        0.869344        -0.355612      
  1.8e+010        0.512572        -0.760197       0.221731        0.208815        0.219913        0.208925        0.767438        -0.520196       2.1898e-008     0.636571        -0.669462       0.185022        0.252079        0.183145        0.25173         0.857245        -0.370879      
  1.9e+010        0.474024        -0.776531       0.238014        0.207518        0.236558        0.206843        0.747578        -0.538729       2.1898e-008     0.60568         -0.688156       0.200751        0.256751        0.199356        0.255722        0.844242        -0.384579      
  2e+010          0.437281        -0.79056        0.253424        0.2046          0.250247        0.204237        0.727464        -0.554303       2.1898e-008     0.575455        -0.705356       0.21635         0.259449        0.213105        0.258384        0.831199        -0.397675      
  2.1e+010        0.40048         -0.80254        0.268093        0.200823        0.266204        0.200879        0.70573         -0.568769       2.1898e-008     0.544753        -0.720491       0.232034        0.261492        0.230048        0.261095        0.817821        -0.410943      
  2.2e+010        0.364975        -0.812566       0.282289        0.196034        0.279231        0.195929        0.684743        -0.58488        2.1898e-008     0.514909        -0.7335         0.247325        0.262868        0.244062        0.26211         0.805691        -0.423949      
  2.3e+010        0.329873        -0.82116        0.295438        0.190353        0.292181        0.191337        0.668107        -0.601526       2.1898e-008     0.485272        -0.74619        0.261409        0.263026        0.257803        0.263356        0.79397         -0.435061      
  2.4e+010        0.295631        -0.829329       0.306875        0.184954        0.303968        0.185854        0.655823        -0.607788       2.1898e-008     0.456584        -0.757896       0.274147        0.261384        0.270866        0.261616        0.781928        -0.442134      
  2.5e+010        0.260063        -0.834073       0.320671        0.181304        0.316888        0.182537        0.647988        -0.614501       2.1898e-008     0.427489        -0.767537       0.28825         0.259646        0.283828        0.260016        0.766585        -0.452603      
  2.6e+010        0.228166        -0.839077       0.335146        0.170907        0.331511        0.173192        0.617216        -0.635727       2.1898e-008     0.400074        -0.776011       0.303867        0.256268        0.299585        0.257555        0.747709        -0.461909      
  2.7e+010        0.195026        -0.841209       0.344513        0.162518        0.342051        0.165259        0.582404        -0.648184       2.1898e-008     0.371099        -0.781867       0.317481        0.255706        0.314101        0.258002        0.739128        -0.476109      
  2.8e+010        0.164608        -0.842198       0.355264        0.152928        0.351216        0.155283        0.558028        -0.666028       2.1898e-008     0.343561        -0.786736       0.332015        0.254486        0.327003        0.2561          0.72795         -0.488873      
  2.9e+010        0.134078        -0.844307       0.362261        0.144362        0.359082        0.147766        0.544952        -0.673989       2.1898e-008     0.316429        -0.793964       0.342308        0.25082         0.337921        0.253331        0.72            -0.494835      
  3e+010          0.104297        -0.841943       0.370506        0.136984        0.367683        0.139829        0.533627        -0.681065       2.1898e-008     0.2902          -0.796606       0.352931        0.246698        0.349208        0.249026        0.709626        -0.502314      
  3.1e+010        0.0753746       -0.84019        0.379121        0.127923        0.376482        0.13094         0.514948        -0.686616       2.1898e-008     0.264209        -0.799557       0.36459         0.241634        0.360682        0.244047        0.695533        -0.509597      
  3.2e+010        0.0487349       -0.837955       0.3869          0.118317        0.383537        0.121744        0.493448        -0.69612        2.1898e-008     0.240258        -0.801539       0.376847        0.236905        0.372097        0.239727        0.682908        -0.519338      
  3.3e+010        0.021096        -0.83415        0.393896        0.108357        0.390985        0.113034        0.475522        -0.707098       2.1898e-008     0.214997        -0.802467       0.387813        0.231731        0.38314         0.235924        0.672179        -0.528264      
  3.4e+010        -0.00532332     -0.82787        0.399624        0.0985555       0.397713        0.102329        0.460194        -0.714205       2.1898e-008     0.190516        -0.801243       0.397213        0.225835        0.394083        0.229132        0.66186         -0.534483      
  3.5e+010        -0.0280956      -0.824408       0.405528        0.0892885       0.402612        0.0930299       0.441696        -0.720333       2.1898e-008     0.169394        -0.8017         0.406897        0.219634        0.40242         0.222643        0.648713        -0.541948      
  3.6e+010        -0.0516945      -0.818995       0.41028         0.0785542       0.407598        0.0841145       0.421944        -0.726234       2.1898e-008     0.147893        -0.799797       0.416526        0.212361        0.412061        0.217723        0.637263        -0.547549      
  3.7e+010        -0.0730791      -0.813084       0.414041        0.0695976       0.41181         0.0750112       0.404588        -0.735509       2.1898e-008     0.12761         -0.797919       0.423952        0.206624        0.4198          0.211667        0.626494        -0.556434      
  3.8e+010        -0.0939795      -0.808208       0.41751         0.059671        0.416809        0.0643248       0.388113        -0.740645       2.1898e-008     0.107915        -0.796179       0.431783        0.199705        0.429368        0.204496        0.615458        -0.561877      
  3.9e+010        -0.116139       -0.802191       0.42044         0.0505959       0.418347        0.0549285       0.371221        -0.745326       2.1898e-008     0.0878218       -0.794268       0.438976        0.193737        0.435338        0.197939        0.605699        -0.566188      
  4e+010          -0.135731       -0.797152       0.423848        0.0400665       0.421983        0.0463144       0.351754        -0.751318       2.1898e-008     0.0704588       -0.793242       0.447243        0.185703        0.442986        0.19182         0.592828        -0.573509      
  4.1e+010        -0.155934       -0.790538       0.426853        0.0311971       0.424977        0.0369973       0.334148        -0.757337       2.1898e-008     0.0506496       -0.790682       0.453955        0.179656        0.449939        0.18536         0.583134        -0.579908      
  4.2e+010        -0.173954       -0.782814       0.428069        0.0208976       0.426001        0.0264834       0.317296        -0.760117       2.1898e-008     0.0344187       -0.786572       0.460357        0.172226        0.455857        0.17784         0.573693        -0.585207      
  4.3e+010        -0.192761       -0.778573       0.429325        0.013381        0.427667        0.0185289       0.299783        -0.763933       2.1898e-008     0.0154532       -0.785812       0.466386        0.166768        0.462677        0.171454        0.560994        -0.591326      
  4.4e+010        -0.210265       -0.770109       0.432125        0.00404211      0.428823        0.00958409      0.282695        -0.767475       2.1898e-008     -1.98416e-005   -0.780827       0.474008        0.159034        0.468184        0.164193        0.550462        -0.596392      
  4.5e+010        -0.228809       -0.765201       0.432951        -0.00560561     0.430951        0.00217856      0.266712        -0.771589       2.1898e-008     -0.0167121      -0.779039       0.479482        0.151222        0.474322        0.159324        0.541214        -0.600776      
  4.6e+010        -0.244212       -0.757276       0.433442        -0.0138129      0.433307        -0.00732967     0.249656        -0.77372        2.1898e-008     -0.0312903      -0.775301       0.483679        0.144614        0.481116        0.151578        0.529633        -0.606377      
  4.7e+010        -0.261035       -0.751072       0.433596        -0.0212752      0.433436        -0.0152356      0.233102        -0.77549        2.1898e-008     -0.0474989      -0.77166        0.488606        0.138626        0.485982        0.145232        0.51906         -0.610847      
  4.8e+010        -0.277295       -0.743385       0.435993        -0.0306985      0.433142        -0.0239922      0.21737         -0.778598       2.1898e-008     -0.0620135      -0.76761        0.495732        0.130925        0.490011        0.137586        0.510224        -0.614842      
  4.9e+010        -0.294357       -0.737943       0.434065        -0.0399672      0.43454         -0.0319808      0.201856        -0.780619       2.1898e-008     -0.0776045      -0.76489        0.498879        0.121906        0.4968          0.130455        0.499999        -0.619302      
  5e+010          -0.31017        -0.729632       0.435641        -0.0476799      0.436013        -0.0413729      0.184889        -0.781911       2.1898e-008     -0.0918471      -0.761804       0.504203        0.115633        0.50183         0.123049        0.488973        -0.624741      
  5.1e+010        -0.323012       -0.721435       0.43736         -0.0562872      0.435218        -0.0494426      0.170193        -0.782466       2.1898e-008     -0.104517       -0.755927       0.510528        0.108562        0.505267        0.115768        0.479416        -0.627451      
  5.2e+010        -0.337618       -0.71299        0.435326        -0.0679975      0.434153        -0.0583586      0.155055        -0.784229       2.1898e-008     -0.117269       -0.751897       0.514119        0.097668        0.509122        0.107788        0.471016        -0.631165      
