! VERSION = 6.00
BEGIN_HEADER
 ICCAP_INPUTS
  vd         V  D GROUND SMU1 0.1 LIN        1    0          1.35       28   0.05      
  vg         V  G GROUND SMU2 0.001 LIN        2    0.514      1.35       5    0.209     
  vb         V  B GROUND SMU4 0.1 CON        0
  vs         V  S GROUND SMU3 0.1 CON        0
 ICCAP_OUTPUTS
  id         I  D GROUND SMU1 B
  ig         I  G GROUND SMU2 B
  ib         I  B GROUND SMU4 B
  is         I  S GROUND SMU3 B
 ICCAP_VALUES
  MASTER_SETUP_TYPE "~dc_idvd~"
  LINVT_VALUE "|idvg|100.0n|100.0m|1.000m|5|1.350|"
  LISTVT_VALUE ""
  TYPE "1"
  TEMP " 27.0000 "
  IS_TNOM " 1.00000 "
  MAIN.W "180.0n"
  MAIN.L "130.0n"
  MAIN.AD "102.6f"
  MAIN.AS "102.6f"
  MAIN.PD "1.340u"
  MAIN.PS "1.340u"
  MAIN.NF "1.000"
  MAIN.M "1"
  MAIN.NRD "0.000"
  MAIN.NRS "0.000"
  MAIN.LDRIFT1 "1E-06"
  MAIN.LDRIFT2 "1E-06"
  MAIN.SA "0.000"
  MAIN.SB "0.000"
  MAIN.SD "0.000"
  MAIN.SCA "0.000"
  MAIN.SCB "0.000"
  MAIN.SCC "0.000"
  MAIN.SC "0.000"
  MODULE "S545"
  PIN_D "16"
  PIN_G "5"
  PIN_S "6"
  PIN_B "15"
  PIN_E ""
  PIN_6 ""
  XY_ID ""
  FUNC "LW Scale"
  STI "SA ref"
  WPE "WPE ref"
  COMMENT ""
  DIS_MEAS ""
  TypeTCI "10"
END_HEADER

BEGIN_DB
 ICCAP_VAR vg         0.514          
 ICCAP_VAR vb         0              
 ICCAP_VAR vs         0              

 #vd                    id                    ig                    ib                    is                   
  0                     1.0114e-09            5.6e-13               7.6e-12               -7.7484e-10          
  0.05                  3.9848e-07            2.6e-13               6.54e-12              -3.983e-07           
  0.1                   5.6944e-07            3.2e-13               6.02e-12              -5.6906e-07          
  0.15                  6.66e-07              2e-13                 7.28e-12              -6.6632e-07          
  0.2                   7.392e-07             2.6e-13               6.24e-12              -7.3916e-07          
  0.25                  8.0184e-07            3.4e-13               5.66e-12              -8.017e-07           
  0.3                   8.5786e-07            2e-13                 6.44e-12              -8.5768e-07          
  0.35                  9.1296e-07            3.8e-13               6.28e-12              -9.1264e-07          
  0.4                   9.6674e-07            2.6e-13               4.88e-12              -9.6658e-07          
  0.45                  1.02024e-06           2.4e-13               4.76e-12              -1.01978e-06         
  0.5                   1.07532e-06           8e-14                 5.02e-12              -1.07528e-06         
  0.55                  1.12964e-06           1.8e-13               5.32e-12              -1.12984e-06         
  0.6                   1.1866e-06            3.2e-13               5.78e-12              -1.1832e-06          
  0.65                  1.2428e-06            2.4e-13               4.52e-12              -1.2384e-06          
  0.7                   1.2986e-06            2.6e-13               4.1e-12               -1.2954e-06          
  0.75                  1.3558e-06            2.8e-13               5.4e-12               -1.3514e-06          
  0.8                   1.4128e-06            3.8e-13               4.36e-12              -1.4082e-06          
  0.85                  1.4678e-06            2.4e-13               3.48e-12              -1.4554e-06          
  0.9                   1.5162e-06            2.6e-13               4.7e-12               -1.5128e-06          
  0.95                  1.5742e-06            2.2e-13               3.9e-12               -1.5694e-06          
  1                     1.6322e-06            2.2e-13               2.82e-12              -1.6278e-06          
  1.05                  1.6948e-06            2.2e-13               2.94e-12              -1.6998e-06          
  1.1                   1.762e-06             1.6e-13               -4e-14                -1.758e-06           
  1.15                  1.821e-06             8e-14                 -6.04e-12             -1.817e-06           
  1.2                   1.8806e-06            2.2e-13               -1.422e-11            -1.8768e-06          
  1.25                  1.9394e-06            1.6e-13               -3.268e-11            -1.9364e-06          
  1.3                   1.9992e-06            4e-14                 -6.334e-11            -1.9952e-06          
  1.35                  2.058e-06             1.6e-13               -1.1252e-10           -2.0536e-06          
END_DB

BEGIN_DB
 ICCAP_VAR vg         0.723          
 ICCAP_VAR vb         0              
 ICCAP_VAR vs         0              

 #vd                    id                    ig                    ib                    is                   
  0                     3.4396e-09            1.92e-12              2.82e-12              -3.7816e-09          
  0.05                  3.4456e-06            1.74e-12              2.5e-12               -3.4078e-06          
  0.1                   5.7934e-06            1.48e-12              2.66e-12              -5.8016e-06          
  0.15                  7.3584e-06            1.28e-12              1.94e-12              -7.3538e-06          
  0.2                   8.377e-06             1.06e-12              2.1e-12               -8.374e-06           
  0.25                  9.0868e-06            1.04e-12              2.2e-12               -9.0824e-06          
  0.3                   9.6154e-06            9.6e-13               1.3e-12               -9.6122e-06          
  0.35                  1.00468e-05           9.8e-13               2.34e-12              -1.00428e-05         
  0.4                   1.0415e-05            9.8e-13               2.34e-12              -1.04112e-05         
  0.45                  1.0744e-05            1.08e-12              1.78e-12              -1.07394e-05         
  0.5                   1.10502e-05           1.04e-12              2.36e-12              -1.10472e-05         
  0.55                  1.1348e-05            9e-13                 1.26e-12              -1.13376e-05         
  0.6                   1.1626e-05            8.8e-13               2.16e-12              -1.16146e-05         
  0.65                  1.1904e-05            9.6e-13               2.5e-12               -1.1882e-05          
  0.7                   1.2164e-05            8.6e-13               2.16e-12              -1.2148e-05          
  0.75                  1.2426e-05            9.4e-13               2.04e-12              -1.2408e-05          
  0.8                   1.2684e-05            9.8e-13               -1.02e-12             -1.267e-05           
  0.85                  1.2938e-05            9.8e-13               2.32e-12              -1.2918e-05          
  0.9                   1.3186e-05            9.6e-13               1.74e-12              -1.3168e-05          
  0.95                  1.3432e-05            9.8e-13               2.6e-13               -1.3488e-05          
  1                     1.3748e-05            8.4e-13               1e-12                 -1.3736e-05          
  1.05                  1.3996e-05            8.6e-13               -1.66e-12             -1.392e-05           
  1.1                   1.4234e-05            9.8e-13               -7.24e-12             -1.4216e-05          
  1.15                  1.4474e-05            9.6e-13               -1.85e-11             -1.4456e-05          
  1.2                   1.4708e-05            9e-13                 -4.436e-11            -1.4696e-05          
  1.25                  1.4942e-05            7.4e-13               -9.268e-11            -1.4924e-05          
  1.3                   1.5172e-05            7.8e-13               -1.8104e-10           -1.5156e-05          
  1.35                  1.5404e-05            9.6e-13               -3.3488e-10           -1.5386e-05          
END_DB

BEGIN_DB
 ICCAP_VAR vg         0.932          
 ICCAP_VAR vb         0              
 ICCAP_VAR vs         0              

 #vd                    id                    ig                    ib                    is                   
  0                     1.2196e-08            5.64e-12              2.26e-12              -1.1824e-08          
  0.05                  7.945e-06             4.96e-12              1.08e-12              -7.9544e-06          
  0.1                   1.449e-05             4.42e-12              1.5e-12               -1.4472e-05          
  0.15                  1.9606e-05            4.2e-12               1.96e-12              -1.959e-05           
  0.2                   2.346e-05             3.78e-12              2.42e-12              -2.3442e-05          
  0.25                  2.6484e-05            3.56e-12              9.2e-13               -2.6468e-05          
  0.3                   2.8612e-05            3.2e-12               1.64e-12              -2.8594e-05          
  0.35                  3.0216e-05            3.14e-12              1.22e-12              -3.0198e-05          
  0.4                   3.1458e-05            2.96e-12              1.22e-12              -3.1442e-05          
  0.45                  3.2452e-05            2.8e-12               2.16e-12              -3.2436e-05          
  0.5                   3.3282e-05            2.84e-12              1.3e-12               -3.3264e-05          
  0.55                  3.4e-05               2.82e-12              2.8e-13               -3.3984e-05          
  0.6                   3.4644e-05            2.68e-12              1.58e-12              -3.4624e-05          
  0.65                  3.5234e-05            2.64e-12              1.06e-12              -3.5216e-05          
  0.7                   3.5788e-05            2.58e-12              4.2e-13               -3.5768e-05          
  0.75                  3.631e-05             2.54e-12              1.88e-12              -3.6296e-05          
  0.8                   3.6818e-05            2.58e-12              1.14e-12              -3.6804e-05          
  0.85                  3.7302e-05            2.56e-12              1.4e-13               -3.7286e-05          
  0.9                   3.7778e-05            2.46e-12              1.3e-12               -3.7762e-05          
  0.95                  3.8258e-05            2.54e-12              -5.6e-13              -3.8008e-05          
  1                     3.8712e-05            2.58e-12              -2.22e-12             -3.8794e-05          
  1.05                  3.9136e-05            2.44e-12              -4.86e-12             -3.9252e-05          
  1.1                   3.9674e-05            2.56e-12              -1.396e-11            -3.9684e-05          
  1.15                  4.0128e-05            2.56e-12              -3.288e-11            -4.011e-05           
  1.2                   4.0554e-05            2.42e-12              -6.932e-11            -4.0518e-05          
  1.25                  4.0966e-05            2.46e-12              -1.4236e-10           -4.0952e-05          
  1.3                   4.1392e-05            2.54e-12              -2.7468e-10           -4.1352e-05          
  1.35                  4.1776e-05            2.46e-12              -5.0628e-10           -4.1772e-05          
END_DB

BEGIN_DB
 ICCAP_VAR vg         1.141          
 ICCAP_VAR vb         0              
 ICCAP_VAR vs         0              

 #vd                    id                    ig                    ib                    is                   
  0                     1.9226e-08            1.31e-11              2.14e-12              -1.7996e-08          
  0.05                  1.198e-05             1.192e-11             1.42e-12              -1.1962e-05          
  0.1                   2.2548e-05            1.102e-11             2.18e-12              -2.2532e-05          
  0.15                  3.1508e-05            1.002e-11             7.4e-13               -3.1492e-05          
  0.2                   3.8844e-05            9.34e-12              1.42e-12              -3.8826e-05          
  0.25                  4.47e-05              8.64e-12              1.96e-12              -4.4682e-05          
  0.3                   4.9952e-05            8.1e-12               2.6e-13               -4.9934e-05          
  0.35                  5.3558e-05            7.72e-12              7e-13                 -5.3544e-05          
  0.4                   5.6366e-05            7.26e-12              1.4e-12               -5.635e-05           
  0.45                  5.7548e-05            6.92e-12              4.6e-13               -5.8088e-05          
  0.5                   6.0036e-05            6.52e-12              5.4e-13               -6.0018e-05          
  0.55                  6.1472e-05            6.52e-12              9.4e-13               -6.1454e-05          
  0.6                   6.2676e-05            6.2e-12               3.6e-13               -6.2662e-05          
  0.65                  6.3716e-05            6.12e-12              4e-13                 -6.3702e-05          
  0.7                   6.4642e-05            6.16e-12              1.1e-12               -6.4622e-05          
  0.75                  6.5474e-05            6.06e-12              0                     -6.5458e-05          
  0.8                   6.6256e-05            5.98e-12              2e-13                 -6.6244e-05          
  0.85                  6.6974e-05            5.88e-12              2.8e-13               -6.696e-05           
  0.9                   6.7664e-05            5.84e-12              -3e-13                -6.7684e-05          
  0.95                  6.7556e-05            5.94e-12              -8.8e-13              -6.76e-05            
  1                     6.8224e-05            5.92e-12              -3.36e-12             -6.8166e-05          
  1.05                  6.8888e-05            5.86e-12              -8.9e-12              -6.9576e-05          
  1.1                   7.0186e-05            5.94e-12              -2.042e-11            -6.985e-05           
  1.15                  7.0476e-05            5.74e-12              -4.448e-11            -7.0764e-05          
  1.2                   7.1014e-05            5.6e-12               -9.126e-11            -7.1316e-05          
  1.25                  7.1954e-05            5.58e-12              -1.7848e-10           -7.1892e-05          
  1.3                   7.2486e-05            5.66e-12              -3.3464e-10           -7.2484e-05          
  1.35                  7.3032e-05            5.6e-12               -6.0444e-10           -7.272e-05           
END_DB

BEGIN_DB
 ICCAP_VAR vg         1.35           
 ICCAP_VAR vb         0              
 ICCAP_VAR vs         0              

 #vd                    id                    ig                    ib                    is                   
  0                     2.3594e-08            2.614e-11             1.6e-12               -2.1994e-08          
  0.05                  1.535e-05             2.398e-11             1.14e-12              -1.5332e-05          
  0.1                   2.9404e-05            2.238e-11             1.5e-12               -2.9388e-05          
  0.15                  4.1828e-05            2.076e-11             6e-14                 -4.1834e-05          
  0.2                   5.2504e-05            1.936e-11             2.6e-13               -5.2484e-05          
  0.25                  6.1462e-05            1.8e-11               1.6e-13               -6.0922e-05          
  0.3                   6.8832e-05            1.688e-11             9.2e-13               -6.881e-05           
  0.35                  7.4802e-05            1.608e-11             7.2e-13               -7.4778e-05          
  0.4                   7.9598e-05            1.524e-11             1.16e-12              -7.8886e-05          
  0.45                  8.3434e-05            1.46e-11              5e-13                 -8.2712e-05          
  0.5                   8.58e-05              1.398e-11             4.2e-13               -8.5738e-05          
  0.55                  8.8202e-05            1.348e-11             1.32e-12              -8.902e-05           
  0.6                   9.1106e-05            1.312e-11             2.2e-13               -9.0348e-05          
  0.65                  9.2554e-05            1.282e-11             6.6e-13               -9.21e-05            
  0.7                   9.3422e-05            1.256e-11             3.8e-13               -9.414e-05           
  0.75                  9.5638e-05            1.242e-11             1.4e-13               -9.5314e-05          
  0.8                   9.6716e-05            1.212e-11             5.6e-13               -9.6618e-05          
  0.85                  9.7074e-05            1.192e-11             8e-14                 -9.7026e-05          
  0.9                   9.8198e-05            1.254e-11             -1.04e-12             -9.8656e-05          
  0.95                  9.9546e-05            1.174e-11             -1.2e-12              -9.893e-05           
  1                     9.9842e-05            1.162e-11             -5.26e-12             -0.000100258         
  1.05                  0.000100644           1.172e-11             -1.252e-11            -0.000101366         
  1.1                   0.00010184            1.224e-11             -2.648e-11            -0.000102138         
  1.15                  0.000102872           1.158e-11             -5.4e-11              -0.000102636         
  1.2                   0.00010341            1.186e-11             -1.0758e-10           -0.000103276         
  1.25                  0.00010418            1.176e-11             -2.027e-10            -0.000103978         
  1.3                   0.000105108           1.198e-11             -3.7806e-10           -0.000105238         
  1.35                  0.000106066           1.146e-11             -6.6944e-10           -0.00010522          
END_DB

