! VERSION = 6.00
BEGIN_HEADER
 ICCAP_INPUTS
  vd         V  D GROUND SMU1 0.1 LIN        1    0          1.35       28   0.05      
  vg         V  G GROUND SMU2 0.001 LIN        2    0.506      1.35       5    0.211     
  vb         V  B GROUND SMU4 0.1 CON        0
  vs         V  S GROUND SMU3 0.1 CON        0
 ICCAP_OUTPUTS
  id         I  D GROUND SMU1 B
  ig         I  G GROUND SMU2 B
  ib         I  B GROUND SMU4 B
  is         I  S GROUND SMU3 B
 ICCAP_VALUES
  MASTER_SETUP_TYPE "~dc_idvd~"
  LINVT_VALUE "|idvg|100.0n|100.0m|1.000m|5|1.350|"
  LISTVT_VALUE ""
  TYPE "1"
  TEMP " 70.0000 "
  IS_TNOM " 0.00000 "
  MAIN.W "300.0n"
  MAIN.L "130.0n"
  MAIN.AD "102.0f"
  MAIN.AS "102.0f"
  MAIN.PD "1.280u"
  MAIN.PS "1.280u"
  MAIN.NF "1.000"
  MAIN.M "1"
  MAIN.NRD "0.000"
  MAIN.NRS "0.000"
  MAIN.LDRIFT1 "1E-06"
  MAIN.LDRIFT2 "1E-06"
  MAIN.SA "0.000"
  MAIN.SB "0.000"
  MAIN.SD "0.000"
  MAIN.SCA "0.000"
  MAIN.SCB "0.000"
  MAIN.SCC "0.000"
  MAIN.SC "0.000"
  MODULE "S544"
  PIN_D "18"
  PIN_G "3"
  PIN_S "4"
  PIN_B "17"
  PIN_E ""
  PIN_6 ""
  XY_ID ""
  FUNC "LW Scale"
  STI "SA ref"
  WPE "WPE ref"
  COMMENT ""
  DIS_MEAS ""
  TypeTCI "10"
END_HEADER

BEGIN_DB
 ICCAP_VAR vg         0.506          
 ICCAP_VAR vb         0              
 ICCAP_VAR vs         0              

 #vd                    id                    ig                    ib                    is                   
  0                     1.101e-09             5e-13                 1.336e-11             -7.1344e-10          
  0.05                  7.235e-07             2.6e-13               1.182e-11             -7.249e-07           
  0.1                   1.0348e-06            2.6e-13               1.058e-11             -1.03308e-06         
  0.15                  1.1892e-06            2.2e-13               1.176e-11             -1.1842e-06          
  0.2                   1.2792e-06            3e-13                 1.016e-11             -1.2814e-06          
  0.25                  1.3562e-06            1.2e-13               9.8e-12               -1.3534e-06          
  0.3                   1.4274e-06            2.2e-13               9.78e-12              -1.4238e-06          
  0.35                  1.4888e-06            2e-13                 9.26e-12              -1.4896e-06          
  0.4                   1.5514e-06            1.4e-13               9.52e-12              -1.5518e-06          
  0.45                  1.6122e-06            3e-13                 9.64e-12              -1.5926e-06          
  0.5                   1.649e-06             2.4e-13               7.72e-12              -1.6702e-06          
  0.55                  1.7336e-06            2.2e-13               7.6e-12               -1.7282e-06          
  0.6                   1.7636e-06            2.2e-13               8.78e-12              -1.7886e-06          
  0.65                  1.8398e-06            1.8e-13               7.8e-12               -1.821e-06           
  0.7                   1.9004e-06            8e-14                 7.3e-12               -1.8988e-06          
  0.75                  1.9646e-06            4e-14                 7.38e-12              -1.9544e-06          
  0.8                   2.0204e-06            1e-13                 5.86e-12              -2.0178e-06          
  0.85                  2.082e-06             2e-14                 6.62e-12              -2.073e-06           
  0.9                   2.1304e-06            0                     6.9e-12               -2.1336e-06          
  0.95                  2.1748e-06            1.8e-13               5.32e-12              -2.192e-06           
  1                     2.2602e-06            1.6e-13               4.46e-12              -2.2538e-06          
  1.05                  2.3098e-06            8e-14                 1.22e-12              -2.3128e-06          
  1.1                   2.3806e-06            2e-14                 -4.24e-12             -2.379e-06           
  1.15                  2.4434e-06            -4e-14                -1.638e-11            -2.3962e-06          
  1.2                   2.5018e-06            2e-14                 -3.762e-11            -2.4974e-06          
  1.25                  2.57e-06              4e-14                 -7.272e-11            -2.5658e-06          
  1.3                   2.6332e-06            0                     -1.2958e-10           -2.6298e-06          
  1.35                  2.698e-06             -8e-14                -2.1962e-10           -2.6944e-06          
END_DB

BEGIN_DB
 ICCAP_VAR vg         0.717          
 ICCAP_VAR vb         0              
 ICCAP_VAR vs         0              

 #vd                    id                    ig                    ib                    is                   
  0                     2.3044e-09            1.78e-12              4.96e-12              -2.7848e-09          
  0.05                  4.8796e-06            1.48e-12              4.02e-12              -4.8582e-06          
  0.1                   8.2802e-06            1.24e-12              5.06e-12              -8.274e-06           
  0.15                  1.053e-05             1.06e-12              3.46e-12              -1.05332e-05         
  0.2                   1.197e-05             9.8e-13               4.12e-12              -1.205e-05           
  0.25                  1.2938e-05            1e-12                 3.7e-12               -1.2952e-05          
  0.3                   1.3658e-05            9.2e-13               4.4e-12               -1.3698e-05          
  0.35                  1.4192e-05            8.6e-13               4.28e-12              -1.4214e-05          
  0.4                   1.467e-05             9.8e-13               3.3e-12               -1.466e-05           
  0.45                  1.5104e-05            8e-13                 3.54e-12              -1.5064e-05          
  0.5                   1.5454e-05            8.2e-13               3.74e-12              -1.547e-05           
  0.55                  1.5838e-05            8.4e-13               3.82e-12              -1.587e-05           
  0.6                   1.626e-05             8.2e-13               3.32e-12              -1.6254e-05          
  0.65                  1.6556e-05            6.8e-13               3.44e-12              -1.6544e-05          
  0.7                   1.6888e-05            8.4e-13               4.14e-12              -1.6938e-05          
  0.75                  1.7202e-05            6.2e-13               3.36e-12              -1.7188e-05          
  0.8                   1.7624e-05            7.8e-13               2.56e-12              -1.7454e-05          
  0.85                  1.776e-05             7.6e-13               3.52e-12              -1.7768e-05          
  0.9                   1.8156e-05            8.6e-13               3.5e-12               -1.8202e-05          
  0.95                  1.8376e-05            7.2e-13               8.4e-13               -1.8388e-05          
  1                     1.8724e-05            6.2e-13               -3.4e-13              -1.8726e-05          
  1.05                  1.9046e-05            8.8e-13               -6.96e-12             -1.91e-05            
  1.1                   1.9282e-05            7.4e-13               -1.886e-11            -1.9328e-05          
  1.15                  1.9546e-05            6e-13                 -4.392e-11            -1.9704e-05          
  1.2                   1.985e-05             6.6e-13               -9.308e-11            -1.9878e-05          
  1.25                  2.0402e-05            6e-13                 -1.8674e-10           -2.022e-05           
  1.3                   2.057e-05             6e-13                 -3.4586e-10           -2.0472e-05          
  1.35                  2.086e-05             6.2e-13               -6.1672e-10           -2.085e-05           
END_DB

BEGIN_DB
 ICCAP_VAR vg         0.928          
 ICCAP_VAR vb         0              
 ICCAP_VAR vs         0              

 #vd                    id                    ig                    ib                    is                   
  0                     1.036e-08             5.4e-12               2.92e-12              -9.54e-09            
  0.05                  1.0622e-05            4.72e-12              3.42e-12              -1.0616e-05          
  0.1                   1.9496e-05            4.2e-12               2.18e-12              -1.9492e-05          
  0.15                  2.6596e-05            3.66e-12              1.68e-12              -2.6594e-05          
  0.2                   3.2066e-05            3.42e-12              3.58e-12              -3.2058e-05          
  0.25                  3.6132e-05            3.18e-12              1.76e-12              -3.6118e-05          
  0.3                   3.9114e-05            2.98e-12              2.24e-12              -3.9104e-05          
  0.35                  4.1272e-05            2.86e-12              3.42e-12              -4.1262e-05          
  0.4                   4.288e-05             2.66e-12              2.08e-12              -4.2826e-05          
  0.45                  4.4096e-05            2.68e-12              1.94e-12              -4.4084e-05          
  0.5                   4.521e-05             2.52e-12              2.72e-12              -4.5158e-05          
  0.55                  4.6066e-05            2.64e-12              1.98e-12              -4.6088e-05          
  0.6                   4.6894e-05            2.56e-12              1.14e-12              -4.6914e-05          
  0.65                  4.7646e-05            2.34e-12              2.22e-12              -4.766e-05           
  0.7                   4.838e-05             2.42e-12              1.7e-12               -4.8398e-05          
  0.75                  4.9064e-05            2.42e-12              2.3e-12               -4.9018e-05          
  0.8                   4.9684e-05            2.4e-12               1.88e-12              -4.9672e-05          
  0.85                  5.0306e-05            2.4e-12               1.42e-12              -5.029e-05           
  0.9                   5.0886e-05            2.32e-12              2.42e-12              -5.0914e-05          
  0.95                  5.1476e-05            2.24e-12              -8.2e-13              -5.1466e-05          
  1                     5.208e-05             2.28e-12              -4.44e-12             -5.2068e-05          
  1.05                  5.2664e-05            2.24e-12              -1.034e-11            -5.2758e-05          
  1.1                   5.329e-05             2.26e-12              -2.86e-11             -5.3304e-05          
  1.15                  5.3846e-05            2.18e-12              -6.144e-11            -5.3882e-05          
  1.2                   5.4384e-05            2.24e-12              -1.2516e-10           -5.4362e-05          
  1.25                  5.4922e-05            2.1e-12               -2.497e-10            -5.4902e-05          
  1.3                   5.5434e-05            2.2e-12               -4.6568e-10           -5.5356e-05          
  1.35                  5.5818e-05            2.22e-12              -8.3324e-10           -5.581e-05           
END_DB

BEGIN_DB
 ICCAP_VAR vg         1.139          
 ICCAP_VAR vb         0              
 ICCAP_VAR vs         0              

 #vd                    id                    ig                    ib                    is                   
  0                     1.5142e-08            1.342e-11             1.76e-12              -1.4232e-08          
  0.05                  1.5844e-05            1.2e-11               3.02e-12              -1.5824e-05          
  0.1                   3.0004e-05            1.092e-11             1.78e-12              -2.9992e-05          
  0.15                  4.2186e-05            1.004e-11             1.88e-12              -4.221e-05           
  0.2                   5.245e-05             9.16e-12              1.98e-12              -5.2446e-05          
  0.25                  6.0762e-05            8.52e-12              1.32e-12              -6.073e-05           
  0.3                   6.731e-05             7.94e-12              2e-12                 -6.7336e-05          
  0.35                  7.2458e-05            7.48e-12              2.36e-12              -7.2466e-05          
  0.4                   7.6432e-05            7.06e-12              1.86e-12              -7.6422e-05          
  0.45                  7.9506e-05            6.96e-12              6.8e-13               -7.9512e-05          
  0.5                   8.1916e-05            6.64e-12              1.88e-12              -8.1908e-05          
  0.55                  8.3846e-05            6.52e-12              1.22e-12              -8.3856e-05          
  0.6                   8.5544e-05            6.42e-12              6.8e-13               -8.5434e-05          
  0.65                  8.6846e-05            6.38e-12              2.02e-12              -8.685e-05           
  0.7                   8.8072e-05            6.16e-12              1.44e-12              -8.8084e-05          
  0.75                  8.9186e-05            6.02e-12              4.8e-13               -8.9208e-05          
  0.8                   9.021e-05             6.08e-12              1.96e-12              -9.0214e-05          
  0.85                  9.1198e-05            5.9e-12               -3e-13                -9.1174e-05          
  0.9                   9.2116e-05            5.9e-12               -2e-14                -9.2108e-05          
  0.95                  9.2964e-05            5.86e-12              -1.66e-12             -9.2962e-05          
  1                     9.3798e-05            5.78e-12              -6.84e-12             -9.3822e-05          
  1.05                  9.4602e-05            5.78e-12              -1.598e-11            -9.4598e-05          
  1.1                   9.5394e-05            5.82e-12              -3.596e-11            -9.5388e-05          
  1.15                  9.6168e-05            5.7e-12               -7.636e-11            -9.628e-05           
  1.2                   9.6904e-05            5.66e-12              -1.4936e-10           -9.6892e-05          
  1.25                  9.765e-05             5.64e-12              -2.8598e-10           -9.7646e-05          
  1.3                   9.8352e-05            5.7e-12               -5.2888e-10           -9.8382e-05          
  1.35                  9.9084e-05            5.62e-12              -9.3866e-10           -9.9078e-05          
END_DB

BEGIN_DB
 ICCAP_VAR vg         1.35           
 ICCAP_VAR vb         0              
 ICCAP_VAR vs         0              

 #vd                    id                    ig                    ib                    is                   
  0                     1.951e-08             2.922e-11             2.7e-12               -1.8846e-08          
  0.05                  2.0024e-05            2.676e-11             1.2e-12               -2.0018e-05          
  0.1                   3.8568e-05            2.46e-11              8.4e-13               -3.8566e-05          
  0.15                  5.523e-05             2.268e-11             8.2e-13               -5.5174e-05          
  0.2                   6.9714e-05            2.106e-11             7.4e-13               -6.9744e-05          
  0.25                  8.225e-05             1.97e-11              1.3e-12               -8.2248e-05          
  0.3                   9.2642e-05            1.842e-11             8.6e-13               -9.2628e-05          
  0.35                  0.000101272           1.74e-11              6e-13                 -0.000101256         
  0.4                   0.000108264           1.652e-11             1.94e-12              -0.000108202         
  0.45                  0.000113822           1.578e-11             6e-13                 -0.000113792         
  0.5                   0.00011844            1.536e-11             1.34e-12              -0.00011812          
  0.55                  0.0001221             1.482e-11             9.4e-13               -0.00012178          
  0.6                   0.00012504            1.454e-11             1.68e-12              -0.00012466          
  0.65                  0.00012746            1.414e-11             3e-13                 -0.0001271           
  0.7                   0.00012952            1.378e-11             -2e-14                -0.00012912          
  0.75                  0.00013128            1.362e-11             1.54e-12              -0.00013096          
  0.8                   0.00013282            1.34e-11              3.8e-13               -0.00013256          
  0.85                  0.00013428            1.334e-11             2.4e-13               -0.00013402          
  0.9                   0.00013562            1.322e-11             1.8e-13               -0.00013536          
  0.95                  0.00013688            1.31e-11              -4.24e-12             -0.00013648          
  1                     0.00013794            1.302e-11             -8.5e-12              -0.00013766          
  1.05                  0.00013904            1.29e-11              -1.898e-11            -0.00013872          
  1.1                   0.00014008            1.266e-11             -4.228e-11            -0.00013974          
  1.15                  0.00014106            1.27e-11              -8.356e-11            -0.00014072          
  1.2                   0.00014202            1.268e-11             -1.6348e-10           -0.00014174          
  1.25                  0.00014296            1.266e-11             -3.0662e-10           -0.0001426           
  1.3                   0.00014392            1.242e-11             -5.5562e-10           -0.00014354          
  1.35                  0.00014474            1.252e-11             -9.763e-10            -0.00014448          
END_DB

