! VERSION = 6.00
BEGIN_HEADER
 ICCAP_INPUTS
  vg         V  G GROUND SMU2 0.001 LIN        1    -0.5       1.35       38   0.05      
  vb         V  B GROUND SMU4 0.1 LIN        2    0          -1.2       5    -0.3      
  vd         V  D GROUND SMU1 0.1 LIST       3 3 0.05 0.6 1.2
  vs         V  S GROUND SMU3 0.1 CON        0
 ICCAP_OUTPUTS
  id         I  D GROUND SMU1 B
  ig         I  G GROUND SMU2 B
  ib         I  B GROUND SMU4 B
  is         I  S GROUND SMU3 B
 ICCAP_VALUES
  MASTER_SETUP_TYPE "~dc_idvg~"
  LINVT_VALUE ""
  LISTVT_VALUE ""
  TYPE "1"
  TEMP " 27.0000 "
  IS_TNOM " 1.00000 "
  MAIN.W "300.0n"
  MAIN.L "150.0n"
  MAIN.AD "102.0f"
  MAIN.AS "102.0f"
  MAIN.PD "1.280u"
  MAIN.PS "1.280u"
  MAIN.NF "1.000"
  MAIN.M "1"
  MAIN.NRD "0.000"
  MAIN.NRS "0.000"
  MAIN.LDRIFT1 "1E-06"
  MAIN.LDRIFT2 "1E-06"
  MAIN.SA "0.000"
  MAIN.SB "0.000"
  MAIN.SD "0.000"
  MAIN.SCA "0.000"
  MAIN.SCB "0.000"
  MAIN.SCC "0.000"
  MAIN.SC "0.000"
  MODULE "S544"
  PIN_D "14"
  PIN_G "7"
  PIN_S "8"
  PIN_B "13"
  PIN_E ""
  PIN_6 ""
  XY_ID ""
  FUNC "LW Scale"
  STI "SA ref"
  WPE "WPE ref"
  COMMENT ""
  DIS_MEAS ""
  TypeTCI "10"
END_HEADER

BEGIN_DB
 ICCAP_VAR vb         0              
 ICCAP_VAR vd         0.05           
 ICCAP_VAR vs         0              

 #vg                    id                    ig                    ib                    is                   
  -0.5                  6e-14                 -4.514e-11            4.596e-11             1.6e-13              
  -0.45                 1.2e-13               -7.08e-12             9.16e-12              1.2e-13              
  -0.4                  1e-13                 -1.22e-12             3.68e-12              -2e-14               
  -0.35                 1e-13                 -3e-13                1.84e-12              6e-14                
  -0.3                  2e-14                 1e-13                 1.34e-12              2.4e-13              
  -0.25                 2e-14                 1.2e-13               1.74e-12              1.6e-13              
  -0.2                  0                     6e-14                 4.7e-12               1.8e-13              
  -0.15                 0                     4e-13                 2.34e-12              6e-14                
  -0.1                  2e-14                 1e-13                 1.64e-12              8e-14                
  -0.05                 3.4e-13               3.8e-13               1.56e-12              -1.8e-13             
  0                     1.48e-12              2.4e-13               1.08e-12              -1.62e-12            
  0.05                  6.98e-12              5.8e-13               2e-12                 -6.9e-12             
  0.1                   3.092e-11             4.4e-13               2.44e-12              -3.082e-11           
  0.15                  1.3822e-10            5e-13                 1.54e-12              -1.381e-10           
  0.2                   6.1322e-10            4.8e-13               1.2e-12               -6.1328e-10          
  0.25                  2.7074e-09            3.4e-13               9.4e-13               -2.7042e-09          
  0.3                   1.1598e-08            5e-13                 1e-12                 -1.1576e-08          
  0.35                  4.6086e-08            6e-13                 8.2e-13               -4.607e-08           
  0.4                   1.5638e-07            7.4e-13               1.98e-12              -1.5622e-07          
  0.45                  4.2312e-07            6.8e-13               1.28e-12              -4.2576e-07          
  0.5                   9.2106e-07            1.04e-12              1.34e-12              -9.2404e-07          
  0.55                  1.6882e-06            1.18e-12              2.44e-12              -1.6768e-06          
  0.6                   2.6602e-06            1.32e-12              1.74e-12              -2.6556e-06          
  0.65                  3.8036e-06            1.84e-12              8e-13                 -3.7996e-06          
  0.7                   5.054e-06             2.28e-12              1.04e-12              -5.0496e-06          
  0.75                  6.3652e-06            3e-12                 1.92e-12              -6.3612e-06          
  0.8                   7.6952e-06            4.06e-12              1.1e-12               -7.6902e-06          
  0.85                  9.0128e-06            4.94e-12              8.6e-13               -9.0098e-06          
  0.9                   1.03066e-05           6.42e-12              1.04e-12              -1.03026e-05         
  0.95                  1.1568e-05            8.18e-12              2.2e-12               -1.155e-05           
  1                     1.2776e-05            1.004e-11             1.76e-12              -1.276e-05           
  1.05                  1.3936e-05            1.268e-11             1.12e-12              -1.3918e-05          
  1.1                   1.5042e-05            1.542e-11             8e-13                 -1.5024e-05          
  1.15                  1.6094e-05            1.886e-11             1.34e-12              -1.6078e-05          
  1.2                   1.7094e-05            2.288e-11             1.16e-12              -1.7074e-05          
  1.25                  1.8034e-05            2.78e-11              3.6e-13               -1.8016e-05          
  1.3                   1.8918e-05            3.296e-11             7.4e-13               -1.8902e-05          
  1.35                  1.9754e-05            3.942e-11             3.28e-12              -1.9736e-05          
END_DB

BEGIN_DB
 ICCAP_VAR vb         -0.3           
 ICCAP_VAR vd         0.05           
 ICCAP_VAR vs         0              

 #vg                    id                    ig                    ib                    is                   
  -0.5                  1.2e-13               -6.8e-13              -3.12e-12             6e-14                
  -0.45                 1e-13                 -1.6e-13              -3.18e-12             6e-14                
  -0.4                  2e-14                 0                     -1.94e-12             1e-13                
  -0.35                 1e-13                 4e-14                 -1.52e-12             -2e-14               
  -0.3                  2e-14                 3.8e-13               -2.6e-12              8e-14                
  -0.25                 -2e-14                2e-13                 -1.98e-12             1.2e-13              
  -0.2                  4e-14                 3.4e-13               -2.08e-12             1.2e-13              
  -0.15                 8e-14                 4.2e-13               -4.8e-13              1.8e-13              
  -0.1                  0                     4.2e-13               -1.12e-12             8e-14                
  -0.05                 4e-14                 4.2e-13               -1.68e-12             1.8e-13              
  0                     2.8e-13               3.8e-13               -1.48e-12             -1.4e-13             
  0.05                  1.16e-12              5e-13                 -9.6e-13              -9e-13               
  0.1                   5.22e-12              2.4e-13               -1e-12                -5.18e-12            
  0.15                  2.47e-11              4.6e-13               -1.14e-12             -2.456e-11           
  0.2                   1.1638e-10            4.8e-13               -1.38e-12             -1.1614e-10          
  0.25                  5.4606e-10            6.8e-13               -1.48e-12             -5.4574e-10          
  0.3                   2.5218e-09            5.4e-13               -9.8e-13              -2.5204e-09          
  0.35                  1.12466e-08           5e-13                 0                     -1.1243e-08          
  0.4                   4.578e-08             5.8e-13               -3.6e-13              -4.5772e-08          
  0.45                  1.5708e-07            5.8e-13               -1.12e-12             -1.5696e-07          
  0.5                   4.2884e-07            1.02e-12              -5.8e-13              -4.2356e-07          
  0.55                  9.3468e-07            9.6e-13               -2.6e-13              -9.3278e-07          
  0.6                   1.6998e-06            1.26e-12              -1.16e-12             -1.6966e-06          
  0.65                  2.6862e-06            1.68e-12              -3.4e-13              -2.6864e-06          
  0.7                   3.8312e-06            2.32e-12              -6.4e-13              -3.827e-06           
  0.75                  5.0822e-06            3e-12                 -8.2e-13              -5.0794e-06          
  0.8                   6.3838e-06            3.72e-12              -1.24e-12             -6.3792e-06          
  0.85                  7.6982e-06            4.8e-12               -8.8e-13              -7.6944e-06          
  0.9                   8.9958e-06            6.26e-12              6e-14                 -8.9916e-06          
  0.95                  1.02632e-05           7.98e-12              -7.8e-13              -1.02582e-05         
  1                     1.149e-05             9.82e-12              -3.2e-13              -1.14856e-05         
  1.05                  1.2678e-05            1.216e-11             1.6e-13               -1.2662e-05          
  1.1                   1.3806e-05            1.518e-11             1.4e-13               -1.3788e-05          
  1.15                  1.4882e-05            1.86e-11              -1.4e-13              -1.4864e-05          
  1.2                   1.5904e-05            2.26e-11              -5.6e-13              -1.5886e-05          
  1.25                  1.6866e-05            2.728e-11             -3.8e-13              -1.6848e-05          
  1.3                   1.7774e-05            3.274e-11             -4.8e-13              -1.7756e-05          
  1.35                  1.863e-05             3.908e-11             -2e-14                -1.8612e-05          
END_DB

BEGIN_DB
 ICCAP_VAR vb         -0.6           
 ICCAP_VAR vd         0.05           
 ICCAP_VAR vs         0              

 #vg                    id                    ig                    ib                    is                   
  -0.5                  6e-14                 -1.6e-13              -4.4e-12              1.6e-13              
  -0.45                 6e-14                 -1e-13                -4.28e-12             1.4e-13              
  -0.4                  0                     2e-14                 -3.52e-12             1e-13                
  -0.35                 6e-14                 1.4e-13               -2.72e-12             8e-14                
  -0.3                  0                     1.4e-13               -2.64e-12             0                    
  -0.25                 4e-14                 3.8e-13               -3.6e-12              1.6e-13              
  -0.2                  0                     2.8e-13               -3.26e-12             1.4e-13              
  -0.15                 -4e-14                3.4e-13               -3.3e-12              1.6e-13              
  -0.1                  8e-14                 3.8e-13               -1.52e-12             6e-14                
  -0.05                 2e-14                 2.4e-13               -5.22e-12             2.2e-13              
  0                     1e-13                 4.8e-13               -2.98e-12             0                    
  0.05                  3.4e-13               3.8e-13               -2.86e-12             6e-14                
  0.1                   1.16e-12              5.2e-13               -1.88e-12             -1.02e-12            
  0.15                  6.04e-12              4.8e-13               -1.58e-12             -5.84e-12            
  0.2                   2.946e-11             6.4e-13               -1.98e-12             -2.934e-11           
  0.25                  1.442e-10             6.2e-13               -1.9e-12              -1.4394e-10          
  0.3                   6.9788e-10            6e-13                 -2.84e-12             -6.9766e-10          
  0.35                  3.3184e-09            3.6e-13               -2.28e-12             -3.3156e-09          
  0.4                   1.495e-08             6.2e-13               -7.2e-13              -1.494e-08           
  0.45                  6.0062e-08            6.8e-13               -1.84e-12             -6.003e-08           
  0.5                   1.9544e-07            8e-13                 -2.28e-12             -1.9744e-07          
  0.55                  5.1392e-07            9.6e-13               -1.14e-12             -5.137e-07           
  0.6                   1.08024e-06           1.3e-12               -1.48e-12             -1.07558e-06         
  0.65                  1.897e-06             1.36e-12              -1.32e-12             -1.8926e-06          
  0.7                   2.9234e-06            2.2e-12               -9.8e-13              -2.918e-06           
  0.75                  4.095e-06             2.68e-12              -1.88e-12             -4.0918e-06          
  0.8                   5.3554e-06            3.78e-12              -1.82e-12             -5.3514e-06          
  0.85                  6.6542e-06            4.72e-12              -1.22e-12             -6.6512e-06          
  0.9                   7.954e-06             5.84e-12              -1.08e-12             -7.9504e-06          
  0.95                  9.2306e-06            7.96e-12              -1.58e-12             -9.2266e-06          
  1                     1.04706e-05           9.58e-12              -2.12e-12             -1.04666e-05         
  1.05                  1.1674e-05            1.182e-11             -1.28e-12             -1.1658e-05          
  1.1                   1.282e-05             1.48e-11              -3.6e-13              -1.2802e-05          
  1.15                  1.3916e-05            1.812e-11             -1.14e-12             -1.3898e-05          
  1.2                   1.4954e-05            2.238e-11             -1.38e-12             -1.4938e-05          
  1.25                  1.5938e-05            2.694e-11             -1.66e-12             -1.592e-05           
  1.3                   1.6864e-05            3.244e-11             -4.2e-13              -1.6848e-05          
  1.35                  1.774e-05             3.884e-11             -1.08e-12             -1.772e-05           
END_DB

BEGIN_DB
 ICCAP_VAR vb         -0.9           
 ICCAP_VAR vd         0.05           
 ICCAP_VAR vs         0              

 #vg                    id                    ig                    ib                    is                   
  -0.5                  1e-13                 -4e-13                -4.28e-12             1e-13                
  -0.45                 2e-14                 6e-14                 -5.42e-12             1.4e-13              
  -0.4                  2e-14                 4e-14                 -5.26e-12             3e-13                
  -0.35                 0                     1.2e-13               -4.48e-12             1.4e-13              
  -0.3                  2e-14                 8e-14                 -3.76e-12             6e-14                
  -0.25                 0                     3.6e-13               -3.46e-12             1e-13                
  -0.2                  2e-14                 1.4e-13               -4.02e-12             2e-13                
  -0.15                 0                     3.4e-13               -3.8e-12              1e-13                
  -0.1                  0                     3.4e-13               -3.44e-12             2.2e-13              
  -0.05                 0                     4.2e-13               -2.94e-12             6e-14                
  0                     2e-14                 3.8e-13               -2.14e-12             4e-14                
  0.05                  1.2e-13               4.2e-13               -3.44e-12             1.2e-13              
  0.1                   4.2e-13               8.6e-13               -3.7e-12              -2.4e-13             
  0.15                  1.98e-12              4e-13                 -2.64e-12             -1.78e-12            
  0.2                   9.54e-12              7.4e-13               -1.8e-12              -9.5e-12             
  0.25                  4.828e-11             6.2e-13               -2.64e-12             -4.832e-11           
  0.3                   2.4242e-10            3.6e-13               -2.78e-12             -2.4208e-10          
  0.35                  1.1996e-09            4.6e-13               -1.9e-12              -1.1978e-09          
  0.4                   5.737e-09             6e-13                 -2.74e-12             -5.7328e-09          
  0.45                  2.543e-08             7.4e-13               -2.72e-12             -2.5492e-08          
  0.5                   9.6978e-08            9.2e-13               -2.72e-12             -9.6846e-08          
  0.55                  2.9028e-07            8e-13                 -2.1e-12              -2.8996e-07          
  0.6                   6.8912e-07            1.3e-12               -1.52e-12             -6.9528e-07          
  0.65                  1.3588e-06            1.36e-12              -1.58e-12             -1.3546e-06          
  0.7                   2.2634e-06            2.08e-12              4e-13                 -2.2618e-06          
  0.75                  3.3524e-06            2.64e-12              -2.1e-12              -3.3492e-06          
  0.8                   4.5586e-06            3.5e-12               -2.16e-12             -4.5556e-06          
  0.85                  5.8324e-06            4.64e-12              -2.16e-12             -5.8286e-06          
  0.9                   7.1204e-06            5.92e-12              -2.06e-12             -7.1158e-06          
  0.95                  8.3974e-06            7.5e-12               -1.52e-12             -8.3942e-06          
  1                     9.6468e-06            9.38e-12              -1.78e-12             -9.6408e-06          
  1.05                  1.08552e-05           1.196e-11             -2.56e-12             -1.08496e-05         
  1.1                   1.2026e-05            1.452e-11             -2.76e-12             -1.2008e-05          
  1.15                  1.3138e-05            1.802e-11             -1.02e-12             -1.312e-05           
  1.2                   1.4196e-05            2.216e-11             -2.14e-12             -1.4178e-05          
  1.25                  1.5196e-05            2.67e-11              -2.02e-12             -1.518e-05           
  1.3                   1.6138e-05            3.22e-11              -2.22e-12             -1.6124e-05          
  1.35                  1.7032e-05            3.832e-11             -5.8e-13              -1.7014e-05          
END_DB

BEGIN_DB
 ICCAP_VAR vb         -1.2           
 ICCAP_VAR vd         0.05           
 ICCAP_VAR vs         0              

 #vg                    id                    ig                    ib                    is                   
  -0.5                  6e-14                 -4.6e-13              -6.1e-12              2e-13                
  -0.45                 4e-14                 0                     -6.02e-12             8e-14                
  -0.4                  1e-13                 -8e-14                -4.66e-12             8e-14                
  -0.35                 4e-14                 6e-14                 -3.66e-12             4e-14                
  -0.3                  6e-14                 2.8e-13               -4.64e-12             1e-13                
