! VERSION = 6.00
BEGIN_HEADER
 ICCAP_INPUTS
  vg         V  G GROUND SMU2 0.001 LIN        1    -0.5       1.35       38   0.05      
  vb         V  B GROUND SMU4 0.1 LIN        2    0          -1.2       5    -0.3      
  vd         V  D GROUND SMU1 0.1 LIST       3 3 0.05 0.6 1.2
  vs         V  S GROUND SMU3 0.1 CON        0
 ICCAP_OUTPUTS
  id         I  D GROUND SMU1 B
  ig         I  G GROUND SMU2 B
  ib         I  B GROUND SMU4 B
  is         I  S GROUND SMU3 B
 ICCAP_VALUES
  MASTER_SETUP_TYPE "~dc_idvg~"
  LINVT_VALUE ""
  LISTVT_VALUE ""
  TYPE "1"
  TEMP " 27.0000 "
  IS_TNOM " 1.00000 "
  MAIN.W "300.0n"
  MAIN.L "130.0n"
  MAIN.AD "102.0f"
  MAIN.AS "102.0f"
  MAIN.PD "1.280u"
  MAIN.PS "1.280u"
  MAIN.NF "1.000"
  MAIN.M "1"
  MAIN.NRD "0.000"
  MAIN.NRS "0.000"
  MAIN.LDRIFT1 "1E-06"
  MAIN.LDRIFT2 "1E-06"
  MAIN.SA "0.000"
  MAIN.SB "0.000"
  MAIN.SD "0.000"
  MAIN.SCA "0.000"
  MAIN.SCB "0.000"
  MAIN.SCC "0.000"
  MAIN.SC "0.000"
  MODULE "S544"
  PIN_D "18"
  PIN_G "3"
  PIN_S "4"
  PIN_B "17"
  PIN_E ""
  PIN_6 ""
  XY_ID ""
  FUNC "LW Scale"
  STI "SA ref"
  WPE "WPE ref"
  COMMENT ""
  DIS_MEAS ""
  TypeTCI "10"
END_HEADER

BEGIN_DB
 ICCAP_VAR vb         0              
 ICCAP_VAR vd         0.05           
 ICCAP_VAR vs         0              

 #vg                    id                    ig                    ib                    is                   
  -0.5                  2e-13                 -4.648e-11            4.812e-11             1.8e-13              
  -0.45                 -4e-14                -7.28e-12             8.76e-12              2.2e-13              
  -0.4                  1.4e-13               -1.22e-12             3.62e-12              1.8e-13              
  -0.35                 1e-13                 -2.8e-13              1.66e-12              1.2e-13              
  -0.3                  1.2e-13               1e-13                 1.18e-12              2e-13                
  -0.25                 -4e-14                6e-14                 1.06e-12              1.6e-13              
  -0.2                  4e-14                 2.4e-13               2.6e-12               8e-14                
  -0.15                 8e-14                 1.8e-13               4.16e-12              1e-13                
  -0.1                  1e-13                 2.6e-13               6.4e-13               0                    
  -0.05                 1.2e-13               3.2e-13               6.4e-13               6e-14                
  0                     4.2e-13               4.4e-13               1.26e-12              -5.4e-13             
  0.05                  2.3e-12               3e-13                 2.48e-12              -2.16e-12            
  0.1                   9.44e-12              4e-13                 1.58e-12              -9.4e-12             
  0.15                  4.056e-11             3.4e-13               1.52e-12              -4.046e-11           
  0.2                   1.7198e-10            4.4e-13               9.2e-13               -1.7158e-10          
  0.25                  7.1504e-10            3.6e-13               7.2e-13               -7.1522e-10          
  0.3                   2.9488e-09            3.4e-13               2.5e-12               -2.9484e-09          
  0.35                  1.1864e-08            3.2e-13               6.2e-13               -1.1858e-08          
  0.4                   4.479e-08             5.6e-13               6.8e-13               -4.4772e-08          
  0.45                  1.4904e-07            6.2e-13               1.62e-12              -1.4892e-07          
  0.5                   4.123e-07             6.4e-13               6.6e-13               -4.1228e-07          
  0.55                  9.261e-07             8e-13                 1.14e-12              -9.1016e-07          
  0.6                   1.7234e-06            8.2e-13               1.48e-12              -1.718e-06           
  0.65                  2.7632e-06            1.18e-12              1.56e-12              -2.8112e-06          
  0.7                   4.1182e-06            1.6e-12               7.2e-13               -4.114e-06           
  0.75                  5.5514e-06            1.92e-12              6.4e-13               -5.4986e-06          
  0.8                   7.059e-06             2.54e-12              3.84e-12              -7.0554e-06          
  0.85                  8.6192e-06            3.34e-12              8.6e-13               -8.6132e-06          
  0.9                   1.01772e-05           4.08e-12              1.4e-13               -1.0171e-05          
  0.95                  1.1716e-05            5.08e-12              1.3e-12               -1.1698e-05          
  1                     1.3202e-05            6.32e-12              1.76e-12              -1.319e-05           
  1.05                  1.4632e-05            7.96e-12              7.4e-13               -1.4616e-05          
  1.1                   1.5992e-05            9.78e-12              4.2e-13               -1.5974e-05          
  1.15                  1.7284e-05            1.214e-11             5.2e-13               -1.7266e-05          
  1.2                   1.8508e-05            1.48e-11              2.62e-12              -1.849e-05           
  1.25                  1.9654e-05            1.792e-11             5e-13                 -1.9638e-05          
  1.3                   2.0734e-05            2.152e-11             4.8e-13               -2.0714e-05          
  1.35                  2.1756e-05            2.554e-11             1.16e-12              -2.1722e-05          
END_DB

BEGIN_DB
 ICCAP_VAR vb         -0.3           
 ICCAP_VAR vd         0.05           
 ICCAP_VAR vs         0              

 #vg                    id                    ig                    ib                    is                   
  -0.5                  3.4e-13               -3.8e-13              -3.16e-12             2.2e-13              
  -0.45                 1.6e-13               -2.2e-13              -3.54e-12             2.6e-13              
  -0.4                  -4e-14                0                     -2.68e-12             1.4e-13              
  -0.35                 1.6e-13               1e-13                 -1.16e-12             2e-14                
  -0.3                  8e-14                 1.6e-13               -2.74e-12             8e-14                
  -0.25                 1.2e-13               1.6e-13               -2.48e-12             1e-13                
  -0.2                  1e-13                 1.4e-13               -2.2e-12              -4e-14               
  -0.15                 6e-14                 2e-13                 -1.76e-12             1.4e-13              
  -0.1                  1.2e-13               1.8e-13               -9.8e-13              1.2e-13              
  -0.05                 1e-13                 1.8e-13               -1.42e-12             4e-14                
  0                     1.4e-13               2.8e-13               -1.76e-12             1e-13                
  0.05                  5.2e-13               2.2e-13               -2.4e-12              -1e-13               
  0.1                   1.48e-12              3.6e-13               -9.4e-13              -1.44e-12            
  0.15                  6.92e-12              3.8e-13               -3.2e-13              -6.82e-12            
  0.2                   3.11e-11              1.8e-13               -2.1e-12              -3.086e-11           
  0.25                  1.3776e-10            3.4e-13               -2.02e-12             -1.3758e-10          
  0.3                   5.9724e-10            3.4e-13               -1.58e-12             -5.9708e-10          
  0.35                  2.569e-09             2.4e-13               -6.2e-13              -2.5664e-09          
  0.4                   1.06556e-08           4.2e-13               -1e-13                -1.064e-08           
  0.45                  4.1398e-08            5.2e-13               6e-14                 -4.134e-08           
  0.5                   1.4214e-07            4.8e-13               -1.54e-12             -1.4206e-07          
  0.55                  4.0086e-07            8e-13                 -9.4e-13              -4.007e-07           
  0.6                   8.944e-07             8.8e-13               -6.2e-13              -8.9438e-07          
  0.65                  1.7e-06               1.02e-12              -1.24e-12             -1.703e-06           
  0.7                   2.7678e-06            1.48e-12              -8.8e-13              -2.7638e-06          
  0.75                  4.0594e-06            1.94e-12              5e-13                 -4.0364e-06          
  0.8                   5.4824e-06            2.36e-12              -1.08e-12             -5.484e-06           
  0.85                  6.9988e-06            3.06e-12              -1.28e-12             -6.995e-06           
  0.9                   8.5446e-06            3.98e-12              -1.1e-12              -8.5396e-06          
  0.95                  1.009e-05             5.06e-12              2.8e-13               -1.00896e-05         
  1                     1.1618e-05            6.16e-12              -2e-14                -1.1596e-05          
  1.05                  1.308e-05             7.6e-12               -1.02e-12             -1.306e-05           
  1.1                   1.4482e-05            9.62e-12              -7.8e-13              -1.4462e-05          
  1.15                  1.5818e-05            1.18e-11              8e-14                 -1.5792e-05          
  1.2                   1.7078e-05            1.448e-11             1.4e-13               -1.7062e-05          
  1.25                  1.8282e-05            1.746e-11             -1.52e-12             -1.8252e-05          
  1.3                   1.938e-05             2.102e-11             -3.8e-13              -1.9362e-05          
  1.35                  2.0422e-05            2.516e-11             -6e-13                -2.0406e-05          
END_DB

BEGIN_DB
 ICCAP_VAR vb         -0.6           
 ICCAP_VAR vd         0.05           
 ICCAP_VAR vs         0              

 #vg                    id                    ig                    ib                    is                   
  -0.5                  2.4e-13               -3.8e-13              -4.22e-12             2.4e-13              
  -0.45                 2.4e-13               -1.4e-13              -5.44e-12             2.2e-13              
  -0.4                  2e-14                 2e-14                 -4.92e-12             1.4e-13              
  -0.35                 6e-14                 8e-14                 -3.88e-12             1.6e-13              
  -0.3                  4e-14                 2e-14                 -3.04e-12             1.4e-13              
  -0.25                 -2e-14                2.6e-13               -3.42e-12             1.6e-13              
  -0.2                  4e-14                 1.4e-13               -4.28e-12             2.2e-13              
  -0.15                 1e-13                 2.8e-13               -3.16e-12             1.2e-13              
  -0.1                  6e-14                 2.8e-13               -3.22e-12             1.4e-13              
  -0.05                 2e-14                 4e-13                 -1.92e-12             -1e-13               
  0                     2e-14                 3.4e-13               -2.76e-12             8e-14                
  0.05                  2e-14                 6e-14                 -3.08e-12             4e-14                
  0.1                   3.4e-13               3.4e-13               -1.84e-12             -2.8e-13             
  0.15                  1.66e-12              2.6e-13               -2e-12                -1.64e-12            
  0.2                   7.92e-12              3.8e-13               -6.4e-13              -7.96e-12            
  0.25                  3.668e-11             3.4e-13               -3.04e-12             -3.64e-11            
  0.3                   1.6522e-10            4e-13                 -2.52e-12             -1.652e-10           
  0.35                  7.3148e-10            6e-13                 -2.04e-12             -7.314e-10           
  0.4                   3.1896e-09            4e-13                 -1.22e-12             -3.1876e-09          
  0.45                  1.3324e-08            4.8e-13               -1.04e-12             -1.3312e-08          
  0.5                   5.1628e-08            5.4e-13               -1.92e-12             -5.1588e-08          
  0.55                  1.741e-07             6.8e-13               -1e-12                -1.7188e-07          
  0.6                   4.7386e-07            9.4e-13               -1.88e-12             -4.6936e-07          
  0.65                  1.01856e-06           1.12e-12              -2.3e-12              -1.0185e-06          
  0.7                   1.8732e-06            1.3e-12               -1.68e-12             -1.8606e-06          
  0.75                  2.9798e-06            1.76e-12              -9.8e-13              -2.9828e-06          
  0.8                   4.2862e-06            2.34e-12              -1e-12                -4.283e-06           
  0.85                  5.727e-06             2.94e-12              -1.8e-12              -5.7208e-06          
  0.9                   7.2374e-06            3.86e-12              -2.04e-12             -7.2314e-06          
  0.95                  8.782e-06             4.68e-12              -1.02e-12             -8.7742e-06          
  1                     1.03098e-05           6.12e-12              -1.54e-12             -1.03052e-05         
  1.05                  1.1826e-05            7.48e-12              -2.18e-12             -1.1792e-05          
  1.1                   1.3238e-05            9.5e-12               -1.78e-12             -1.322e-05           
  1.15                  1.4606e-05            1.16e-11              -4.2e-13              -1.459e-05           
  1.2                   1.5904e-05            1.424e-11             -1.3e-12              -1.5886e-05          
  1.25                  1.7136e-05            1.718e-11             -2.08e-12             -1.7108e-05          
  1.3                   1.8274e-05            2.08e-11              -2.06e-12             -1.825e-05           
  1.35                  1.9338e-05            2.498e-11             -1.12e-12             -1.933e-05           
END_DB

BEGIN_DB
 ICCAP_VAR vb         -0.9           
 ICCAP_VAR vd         0.05           
 ICCAP_VAR vs         0              

 #vg                    id                    ig                    ib                    is                   
  -0.5                  1e-13                 -3.4e-13              -4.38e-12             3e-13                
  -0.45                 1.6e-13               -1.4e-13              -5.7e-12              1.8e-13              
  -0.4                  -1.4e-13              -1.2e-13              -5.6e-12              1.8e-13              
  -0.35                 4e-14                 -6e-14                -4.3e-12              8e-14                
  -0.3                  -4e-14                1.2e-13               -3.86e-12             1.4e-13              
  -0.25                 8e-14                 6e-14                 -3.58e-12             4e-14                
  -0.2                  1.6e-13               2.6e-13               -4.42e-12             2e-13                
  -0.15                 -4e-14                1.8e-13               -3.6e-12              8e-14                
  -0.1                  -8e-14                2.4e-13               -3.46e-12             6e-14                
  -0.05                 0                     3.6e-13               -2.36e-12             2e-14                
  0                     4e-14                 2.6e-13               -3.12e-12             8e-14                
  0.05                  2e-14                 3e-13                 -3.92e-12             8e-14                
  0.1                   -2e-14                3.2e-13               -2.74e-12             -1.4e-13             
  0.15                  6.6e-13               3.2e-13               -2.82e-12             -5.6e-13             
  0.2                   2.54e-12              4.4e-13               -1.64e-12             -2.54e-12            
  0.25                  1.212e-11             2.6e-13               -2.72e-12             -1.202e-11           
  0.3                   5.61e-11              4.4e-13               -3.02e-12             -5.602e-11           
  0.35                  2.543e-10             4.2e-13               -3.26e-12             -2.5402e-10          
  0.4                   1.13586e-09           4e-13                 -2.8e-12              -1.13614e-09         
  0.45                  4.9952e-09            4.8e-13               -1.62e-12             -4.9926e-09          
  0.5                   2.0656e-08            5.2e-13               -1.58e-12             -2.0646e-08          
  0.55                  7.8014e-08            6.6e-13               -2.44e-12             -7.801e-08           
  0.6                   2.4862e-07            8.8e-13               -2.5e-12              -2.4852e-07          
  0.65                  6.2708e-07            9.4e-13               -1.7e-12              -6.2706e-07          
  0.7                   1.2678e-06            1.32e-12              -1.98e-12             -1.263e-06           
  0.75                  2.2008e-06            1.64e-12              -2.08e-12             -2.1972e-06          
  0.8                   3.376e-06             2.34e-12              -1.3e-12              -3.3638e-06          
  0.85                  4.7264e-06            2.68e-12              -2.32e-12             -4.7106e-06          
  0.9                   6.1832e-06            3.66e-12              -2.92e-12             -6.1796e-06          
  0.95                  7.7074e-06            4.7e-12               -2.64e-12             -7.7028e-06          
  1                     9.2398e-06            5.9e-12               -1.64e-12             -9.2462e-06          
  1.05                  1.07476e-05           7.42e-12              -1.7e-12              -1.07432e-05         
  1.1                   1.2234e-05            9.22e-12              -2.32e-12             -1.2194e-05          
  1.15                  1.3604e-05            1.134e-11             -2.44e-12             -1.3588e-05          
  1.2                   1.4912e-05            1.406e-11             -1.7e-12              -1.4912e-05          
  1.25                  1.6182e-05            1.7e-11               -1.14e-12             -1.6164e-05          
  1.3                   1.7356e-05            2.044e-11             -1.98e-12             -1.734e-05           
  1.35                  1.846e-05             2.47e-11              -1.72e-12             -1.8452e-05          
END_DB

BEGIN_DB
 ICCAP_VAR vb         -1.2           
 ICCAP_VAR vd         0.05           
 ICCAP_VAR vs         0              

 #vg                    id                    ig                    ib                    is                   
  -0.5                  1.2e-13               -3.2e-13              -5.54e-12             2.4e-13              
  -0.45                 1e-13                 -6e-14                -5.04e-12             2.6e-13              
  -0.4                  4e-14                 -6e-14                -4.84e-12             1.2e-13              
  -0.35                 2e-14                 1.6e-13               -5.42e-12             0                    
  -0.3                  6e-14                 4e-14                 -5.06e-12             1.6e-13              
