! VERSION = 6.00
BEGIN_HEADER
 ICCAP_INPUTS
  vg         V  G GROUND SMU2 0.001 LIN        1    -0.5       1.35       38   0.05      
  vb         V  B GROUND SMU4 0.1 LIN        2    0          -1.2       5    -0.3      
  vd         V  D GROUND SMU1 0.1 LIST       3 3 0.05 0.6 1.2
  vs         V  S GROUND SMU3 0.1 CON        0
 ICCAP_OUTPUTS
  id         I  D GROUND SMU1 B
  ig         I  G GROUND SMU2 B
  ib         I  B GROUND SMU4 B
  is         I  S GROUND SMU3 B
 ICCAP_VALUES
  MASTER_SETUP_TYPE "~dc_idvg~"
  LINVT_VALUE ""
  LISTVT_VALUE ""
  TYPE "1"
  TEMP " 27.0000 "
  IS_TNOM " 1.00000 "
  MAIN.W "10.00u"
  MAIN.L "140.0n"
  MAIN.AD "3.400p"
  MAIN.AS "3.400p"
  MAIN.PD "20.68u"
  MAIN.PS "20.68u"
  MAIN.NF "1.000"
  MAIN.M "1"
  MAIN.NRD "0.000"
  MAIN.NRS "0.000"
  MAIN.LDRIFT1 "1E-06"
  MAIN.LDRIFT2 "1E-06"
  MAIN.SA "0.000"
  MAIN.SB "0.000"
  MAIN.SD "0.000"
  MAIN.SCA "0.000"
  MAIN.SCB "0.000"
  MAIN.SCC "0.000"
  MAIN.SC "0.000"
  MODULE "S540"
  PIN_D "16"
  PIN_G "5"
  PIN_S "6"
  PIN_B "15"
  PIN_E ""
  PIN_6 ""
  XY_ID ""
  FUNC "L Scale"
  STI "SA ref"
  WPE "WPE ref"
  COMMENT ""
  DIS_MEAS ""
  TypeTCI "10"
END_HEADER

BEGIN_DB
 ICCAP_VAR vb         0              
 ICCAP_VAR vd         0.05           
 ICCAP_VAR vs         0              

 #vg                    id                    ig                    ib                    is                   
  -0.5                  2.26e-12              -4.874e-11            4.604e-11             2.22e-12             
  -0.45                 1.68e-12              -9.94e-12             7.92e-12              1.68e-12             
  -0.4                  1.04e-12              -3.24e-12             2.74e-12              1.08e-12             
  -0.35                 7.2e-13               -1.72e-12             1.82e-12              8.8e-13              
  -0.3                  5e-13                 -1.12e-12             2.18e-12              4.6e-13              
  -0.25                 4.6e-13               -6e-13                2.12e-12              3e-13                
  -0.2                  5.2e-13               -3e-13                1.06e-12              -2e-14               
  -0.15                 1.36e-12              -1.4e-13              1.5e-12               -1.38e-12            
  -0.1                  6.24e-12              6e-14                 1.64e-12              -6.02e-12            
  -0.05                 2.652e-11             2.2e-13               1.96e-12              -2.66e-11            
  0                     1.1644e-10            3e-13                 1.72e-12              -1.1648e-10          
  0.05                  5.1644e-10            2e-13                 6e-13                 -5.1642e-10          
  0.1                   2.2918e-09            2.6e-13               9.8e-13               -2.287e-09           
  0.15                  1.01648e-08           5.6e-13               1.58e-12              -1.0164e-08          
  0.2                   4.4842e-08            6e-13                 1.38e-12              -4.4836e-08          
  0.25                  1.9336e-07            8.2e-13               1.8e-12               -1.9306e-07          
  0.3                   7.8516e-07            1.28e-12              8.8e-13               -7.833e-07           
  0.35                  2.8536e-06            2.32e-12              2.36e-12              -2.8454e-06          
  0.4                   8.736e-06             3.88e-12              6.2e-13               -8.735e-06           
  0.45                  2.2026e-05            6.44e-12              6e-14                 -2.2002e-05          
  0.5                   4.576e-05             1.034e-11             7e-13                 -4.5738e-05          
  0.55                  8.0588e-05            1.608e-11             9.6e-13               -8.0568e-05          
  0.6                   0.00012496            2.424e-11             1.88e-12              -0.00012456          
  0.65                  0.0001755             3.542e-11             1.04e-12              -0.00017506          
  0.7                   0.00022944            5.02e-11              8.4e-13               -0.00022908          
  0.75                  0.00028478            6.92e-11              1.26e-12              -0.00028442          
  0.8                   0.0003398             9.358e-11             1.94e-12              -0.00033942          
  0.85                  0.0003935             1.241e-10             1.12e-12              -0.00039312          
  0.9                   0.0004451             1.6164e-10            1.8e-13               -0.00044466          
  0.95                  0.00049416            2.0704e-10            4.8e-13               -0.00049372          
  1                     0.00054048            2.6272e-10            1.7e-12               -0.00054016          
  1.05                  0.0005841             3.2892e-10            1.28e-12              -0.00058372          
  1.1                   0.00062468            4.068e-10             -3.8e-13              -0.00062434          
  1.15                  0.00066268            4.9884e-10            8.8e-13               -0.00066222          
  1.2                   0.00069794            6.0568e-10            8.8e-13               -0.00069756          
  1.25                  0.00073052            7.297e-10             -2.2e-13              -0.00073026          
  1.3                   0.00076092            8.7264e-10            1.74e-12              -0.00076042          
  1.35                  0.0007889             1.038e-09             -2.6e-13              -0.0007885           
END_DB

BEGIN_DB
 ICCAP_VAR vb         -0.3           
 ICCAP_VAR vd         0.05           
 ICCAP_VAR vs         0              

 #vg                    id                    ig                    ib                    is                   
  -0.5                  2.16e-12              -4.44e-12             -1.2e-12              2.18e-12             
  -0.45                 1.62e-12              -3.26e-12             -3.46e-12             1.64e-12             
  -0.4                  1.02e-12              -2.18e-12             -2.36e-12             1.22e-12             
  -0.35                 7.6e-13               -1.44e-12             3.4e-13               7.8e-13              
  -0.3                  6e-13                 -9.4e-13              -3.14e-12             6e-13                
  -0.25                 4e-13                 -5e-13                -2.4e-12              3.2e-13              
  -0.2                  1.4e-13               -2.2e-13              -1.54e-12             2.6e-13              
  -0.15                 3.4e-13               0                     -9.6e-13              -6e-14               
  -0.1                  1.22e-12              0                     -1.14e-12             -8.4e-13             
  -0.05                 4.4e-12               1e-13                 -2.46e-12             -4.22e-12            
  0                     2.056e-11             2.6e-13               -1.08e-12             -2.054e-11           
  0.05                  9.716e-11             1.4e-13               -2.06e-12             -9.698e-11           
  0.1                   4.558e-10             2.8e-13               -6.6e-13              -4.559e-10           
  0.15                  2.1424e-09            3.6e-13               -4.8e-13              -2.1422e-09          
  0.2                   9.9746e-09            5.8e-13               -2.08e-12             -9.968e-09           
  0.25                  4.6016e-08            8.2e-13               -1.94e-12             -4.5944e-08          
  0.3                   2.0466e-07            1.42e-12              -4.8e-13              -2.0426e-07          
  0.35                  8.4818e-07            2.06e-12              -7.4e-13              -8.4848e-07          
  0.4                   3.0968e-06            3.52e-12              -4e-13                -3.0892e-06          
  0.45                  9.4296e-06            5.84e-12              -4.6e-13              -9.4284e-06          
  0.5                   2.3514e-05            9.26e-12              -1.14e-12             -2.3484e-05          
  0.55                  4.8236e-05            1.474e-11             -1e-12                -4.8218e-05          
  0.6                   8.4098e-05            2.244e-11             -1.18e-12             -8.4112e-05          
  0.65                  0.00012922            3.314e-11             -7.4e-13              -0.00012878          
  0.7                   0.00018006            4.74e-11              6e-14                 -0.00017968          
  0.75                  0.00023412            6.602e-11             -1.04e-12             -0.00023374          
  0.8                   0.00028924            8.966e-11             -1.4e-12              -0.00028884          
  0.85                  0.00034392            1.197e-10             -7.4e-13              -0.00034352          
  0.9                   0.00039692            1.5648e-10            -3.2e-13              -0.00039648          
  0.95                  0.00044768            2.0182e-10            -8.8e-13              -0.00044728          
  1                     0.00049588            2.5668e-10            -1.68e-12             -0.00049544          
  1.05                  0.00054126            3.2208e-10            -9.8e-13              -0.00054084          
  1.1                   0.00058372            3.994e-10             2.4e-13               -0.0005833           
  1.15                  0.00062344            4.9046e-10            4.6e-13               -0.0006231           
  1.2                   0.00066034            5.9648e-10            -1.42e-12             -0.00065998          
  1.25                  0.00069458            7.1944e-10            -3.8e-13              -0.00069416          
  1.3                   0.0007263             8.6214e-10            -1.24e-12             -0.00072596          
  1.35                  0.0007557             1.0262e-09            -1.22e-12             -0.00075534          
END_DB

BEGIN_DB
 ICCAP_VAR vb         -0.6           
 ICCAP_VAR vd         0.05           
 ICCAP_VAR vs         0              

 #vg                    id                    ig                    ib                    is                   
  -0.5                  2.12e-12              -4.5e-12              -4.42e-12             2.14e-12             
  -0.45                 1.62e-12              -3.18e-12             -4.52e-12             1.58e-12             
  -0.4                  1.22e-12              -2.18e-12             -3.14e-12             1.2e-12              
  -0.35                 8.2e-13               -1.5e-12              -3.88e-12             7.6e-13              
  -0.3                  4.6e-13               -9e-13                -4.64e-12             4.6e-13              
  -0.25                 2.2e-13               -5.4e-13              -3.22e-12             3.4e-13              
  -0.2                  3.2e-13               -1.6e-13              -2.16e-12             2e-13                
  -0.15                 2e-13                 -1e-13                -3.12e-12             8e-14                
  -0.1                  2.4e-13               1.2e-13               -2.72e-12             -8e-14               
  -0.05                 1.2e-12               8e-14                 -2.84e-12             -1.02e-12            
  0                     5.54e-12              3.2e-13               -2.88e-12             -5.48e-12            
  0.05                  2.726e-11             3.8e-13               -2.24e-12             -2.706e-11           
  0.1                   1.333e-10             3e-13                 -1.48e-12             -1.331e-10           
  0.15                  6.49e-10              5.8e-13               -1.82e-12             -6.4802e-10          
  0.2                   3.1294e-09            6.2e-13               -2.7e-12              -3.1304e-09          
  0.25                  1.499e-08             8e-13                 -1.6e-12              -1.4974e-08          
  0.3                   7.0316e-08            1.1e-12               -2.14e-12             -7.0194e-08          
  0.35                  3.1418e-07            1.98e-12              -2.02e-12             -3.1384e-07          
  0.4                   1.2754e-06            3.22e-12              -1.3e-12              -1.2704e-06          
  0.45                  4.4368e-06            5.18e-12              -1.68e-12             -4.4318e-06          
  0.5                   1.2758e-05            8.58e-12              -1.7e-12              -1.2734e-05          
  0.55                  2.9838e-05            1.366e-11             -2.32e-12             -2.981e-05           
  0.6                   5.8098e-05            2.084e-11             -1.72e-12             -5.8098e-05          
  0.65                  9.7086e-05            3.132e-11             -1.22e-12             -9.7072e-05          
  0.7                   0.00014416            4.522e-11             -1.22e-12             -0.00014378          
  0.75                  0.0001962             6.334e-11             -2.16e-12             -0.00019584          
  0.8                   0.00025052            8.684e-11             -2.12e-12             -0.00025012          
  0.85                  0.00030538            1.1618e-10            -5.4e-13              -0.000305            
  0.9                   0.0003593             1.5286e-10            -1.66e-12             -0.0003589           
  0.95                  0.00041126            1.9762e-10            -2.24e-12             -0.00041086          
  1                     0.00046078            2.5168e-10            -1.8e-12              -0.00046044          
  1.05                  0.0005076             3.1652e-10            -8.4e-13              -0.00050722          
  1.1                   0.00055142            3.932e-10             -1.18e-12             -0.00055102          
  1.15                  0.00059252            4.834e-10             -2.2e-12              -0.00059214          
  1.2                   0.00063062            5.8902e-10            -1.58e-12             -0.0006302           
  1.25                  0.00066618            7.1146e-10            -1.82e-12             -0.00066564          
  1.3                   0.00069908            8.5296e-10            -1.06e-12             -0.00069868          
  1.35                  0.00072946            1.0162e-09            -2.54e-12             -0.00072916          
END_DB

BEGIN_DB
 ICCAP_VAR vb         -0.9           
 ICCAP_VAR vd         0.05           
 ICCAP_VAR vs         0              

 #vg                    id                    ig                    ib                    is                   
  -0.5                  2.22e-12              -4.38e-12             -5.62e-12             2.18e-12             
  -0.45                 1.5e-12               -3.16e-12             -5.08e-12             1.72e-12             
  -0.4                  1.16e-12              -2.12e-12             -4.46e-12             1.08e-12             
  -0.35                 9e-13                 -1.42e-12             -3.96e-12             8.4e-13              
  -0.3                  4.2e-13               -9e-13                -3.78e-12             5e-13                
  -0.25                 3.6e-13               -5.2e-13              -4.56e-12             2.4e-13              
  -0.2                  3e-13                 -1e-13                -3.5e-12              3.4e-13              
  -0.15                 6e-14                 -2.2e-13              -2.8e-12              2e-14                
  -0.1                  1e-13                 6e-14                 -3.32e-12             8e-14                
  -0.05                 4.6e-13               2.2e-13               -3.22e-12             -3e-13               
  0                     2.06e-12              2.4e-13               -3.44e-12             -2.08e-12            
  0.05                  1.066e-11             3.4e-13               -3.02e-12             -1.058e-11           
  0.1                   5.31e-11              3e-13                 -2.92e-12             -5.296e-11           
  0.15                  2.6562e-10            3.4e-13               -3.08e-12             -2.6556e-10          
  0.2                   1.3174e-09            5.2e-13               -3.3e-12              -1.3176e-09          
  0.25                  6.4732e-09            8e-13                 -2.78e-12             -6.473e-09           
  0.3                   3.1318e-08            1.18e-12              -2.56e-12             -3.1288e-08          
  0.35                  1.4622e-07            1.84e-12              -2.14e-12             -1.4612e-07          
  0.4                   6.3226e-07            3.06e-12              -2.9e-12              -6.325e-07           
  0.45                  2.408e-06             4.88e-12              -1.34e-12             -2.4028e-06          
  0.5                   7.643e-06             7.94e-12              -3.52e-12             -7.638e-06           
  0.55                  1.9822e-05            1.29e-11              -2.26e-12             -1.9782e-05          
  0.6                   4.222e-05             1.972e-11             -2.82e-12             -4.2194e-05          
  0.65                  7.5872e-05            2.98e-11              -1.74e-12             -7.5848e-05          
  0.7                   0.0001191             4.33e-11              -1.98e-12             -0.0001187           
  0.75                  0.00016876            6.122e-11             -2.88e-12             -0.00016834          
  0.8                   0.00022194            8.442e-11             -2.9e-12              -0.00022158          
  0.85                  0.00027662            1.1362e-10            -2.38e-12             -0.00027622          
  0.9                   0.00033082            1.497e-10             -1.62e-12             -0.00033044          
  0.95                  0.0003835             1.9366e-10            -2.36e-12             -0.00038314          
  1                     0.000434              2.475e-10             -2.88e-12             -0.00043354          
  1.05                  0.00048174            3.119e-10             -2.3e-12              -0.00048132          
  1.1                   0.0005267             3.8796e-10            -1e-12                -0.0005263           
  1.15                  0.0005688             4.7784e-10            -9.8e-13              -0.00056832          
  1.2                   0.00060796            5.8284e-10            -3.18e-12             -0.00060756          
  1.25                  0.00064448            7.0434e-10            -2.08e-12             -0.00064408          
  1.3                   0.00067826            8.455e-10             -2.68e-12             -0.00067794          
  1.35                  0.00070964            1.0084e-09            -2.5e-12              -0.00070928          
END_DB

BEGIN_DB
 ICCAP_VAR vb         -1.2           
 ICCAP_VAR vd         0.05           
 ICCAP_VAR vs         0              

 #vg                    id                    ig                    ib                    is                   
  -0.5                  2.08e-12              -4.16e-12             -5.78e-12             2.34e-12             
  -0.45                 1.56e-12              -3e-12                -5.28e-12             1.64e-12             
  -0.4                  1.12e-12              -2.08e-12             -4.24e-12             1e-12                
  -0.35                 7.6e-13               -1.52e-12             -5.48e-12             9.2e-13              
  -0.3                  5e-13                 -8.8e-13              -5.16e-12             6e-13                
