! VERSION = 6.00
BEGIN_HEADER
 ICCAP_INPUTS
  vd         V  D GROUND SMU1 0.1 LIN        1    0          1.35       28   0.05      
  vg         V  G GROUND SMU2 0.001 LIN        2    0.242      1.35       5    0.277     
  vb         V  B GROUND SMU4 0.1 CON        0
  vs         V  S GROUND SMU3 0.1 CON        0
 ICCAP_OUTPUTS
  id         I  D GROUND SMU1 B
  ig         I  G GROUND SMU2 B
  ib         I  B GROUND SMU4 B
  is         I  S GROUND SMU3 B
 ICCAP_VALUES
  MASTER_SETUP_TYPE "~dc_idvd~"
  LINVT_VALUE "|idvg|100.0n|100.0m|1.000m|5|1.350|"
  LISTVT_VALUE ""
  TYPE "1"
  TEMP " 27.0000 "
  IS_TNOM " 1.00000 "
  MAIN.W "10.00u"
  MAIN.L "10.00u"
  MAIN.AD "3.400p"
  MAIN.AS "3.400p"
  MAIN.PD "20.68u"
  MAIN.PS "20.68u"
  MAIN.NF "1.000"
  MAIN.M "1"
  MAIN.NRD "0.000"
  MAIN.NRS "0.000"
  MAIN.LDRIFT1 "1E-06"
  MAIN.LDRIFT2 "1E-06"
  MAIN.SA "0.000"
  MAIN.SB "0.000"
  MAIN.SD "0.000"
  MAIN.SCA "0.000"
  MAIN.SCB "0.000"
  MAIN.SCC "0.000"
  MAIN.SC "0.000"
  MODULE "S541"
  PIN_D "12"
  PIN_G "9"
  PIN_S "10"
  PIN_B "11"
  PIN_E ""
  PIN_6 ""
  XY_ID ""
  FUNC "Large"
  STI "SA ref"
  WPE "WPE ref"
  COMMENT ""
  DIS_MEAS ""
  TypeTCI "10"
END_HEADER

BEGIN_DB
 ICCAP_VAR vg         0.242          
 ICCAP_VAR vb         0              
 ICCAP_VAR vs         0              

 #vd                    id                    ig                    ib                    is                   
  0                     1.7516e-09            6.464e-11             7.54e-12              -1.2332e-09          
  0.05                  7.1544e-07            4.906e-11             6.86e-12              -7.1538e-07          
  0.1                   9.363e-07             4.422e-11             7.1e-12               -9.364e-07           
  0.15                  1.00866e-06           4.256e-11             6.24e-12              -1.00864e-06         
  0.2                   1.04906e-06           4.146e-11             6.64e-12              -1.04916e-06         
  0.25                  1.08192e-06           4.082e-11             6.36e-12              -1.08172e-06         
  0.3                   1.1115e-06            4.002e-11             4.96e-12              -1.1117e-06          
  0.35                  1.13948e-06           3.932e-11             4.66e-12              -1.13936e-06         
  0.4                   1.1668e-06            3.852e-11             5.08e-12              -1.16536e-06         
  0.45                  1.192e-06             3.81e-11              5.46e-12              -1.1876e-06          
  0.5                   1.2152e-06            3.752e-11             5.34e-12              -1.211e-06           
  0.55                  1.2374e-06            3.68e-11              5.8e-13               -1.2336e-06          
  0.6                   1.2584e-06            3.61e-11              4.3e-12               -1.2544e-06          
  0.65                  1.2782e-06            3.548e-11             4.96e-12              -1.2748e-06          
  0.7                   1.2974e-06            3.464e-11             4.4e-12               -1.294e-06           
  0.75                  1.3156e-06            3.392e-11             3.6e-12               -1.3122e-06          
  0.8                   1.3332e-06            3.302e-11             4.58e-12              -1.3294e-06          
  0.85                  1.3494e-06            3.212e-11             4.78e-12              -1.346e-06           
  0.9                   1.3652e-06            3.1e-11               3.96e-12              -1.3616e-06          
  0.95                  1.3804e-06            2.976e-11             3.72e-12              -1.3772e-06          
  1                     1.3948e-06            2.862e-11             2.76e-12              -1.3908e-06          
  1.05                  1.4082e-06            2.71e-11              1e-12                 -1.4042e-06          
  1.1                   1.4212e-06            2.554e-11             -1.72e-12             -1.4178e-06          
  1.15                  1.4338e-06            2.376e-11             -9.02e-12             -1.43e-06            
  1.2                   1.4456e-06            2.174e-11             -2.114e-11            -1.442e-06           
  1.25                  1.4572e-06            1.94e-11              -4.062e-11            -1.4528e-06          
  1.3                   1.4676e-06            1.682e-11             -7.118e-11            -1.4636e-06          
  1.35                  1.4782e-06            1.406e-11             -1.1902e-10           -1.474e-06           
END_DB

BEGIN_DB
 ICCAP_VAR vg         0.519          
 ICCAP_VAR vb         0              
 ICCAP_VAR vs         0              

 #vd                    id                    ig                    ib                    is                   
  0                     9.446e-09             1.107e-09             2.84e-12              -1.0176e-08          
  0.05                  6.4226e-06            9.1266e-10            2.4e-12               -6.4188e-06          
  0.1                   1.1574e-05            7.7172e-10            2.6e-12               -1.1558e-05          
  0.15                  1.5352e-05            6.7544e-10            1.26e-12              -1.5334e-05          
  0.2                   1.7688e-05            6.1996e-10            3.16e-12              -1.7672e-05          
  0.25                  1.8822e-05            5.9372e-10            1.62e-12              -1.8806e-05          
  0.3                   1.9328e-05            5.822e-10             1.96e-12              -1.931e-05           
  0.35                  1.9616e-05            5.7562e-10            3.62e-12              -1.9598e-05          
  0.4                   1.9832e-05            5.7068e-10            1.66e-12              -1.9816e-05          
  0.45                  2.002e-05             5.665e-10             2.58e-12              -2.0002e-05          
  0.5                   2.0192e-05            5.6264e-10            2.86e-12              -2.0174e-05          
  0.55                  2.035e-05             5.592e-10             1.66e-12              -2.0334e-05          
  0.6                   2.0502e-05            5.56e-10              -3.16e-12             -2.0484e-05          
  0.65                  2.0644e-05            5.5278e-10            2.84e-12              -2.0626e-05          
  0.7                   2.0778e-05            5.497e-10             1.4e-12               -2.076e-05           
  0.75                  2.0906e-05            5.4688e-10            1.06e-12              -2.089e-05           
  0.8                   2.103e-05             5.4404e-10            1.98e-12              -2.1014e-05          
  0.85                  2.1148e-05            5.415e-10             1.3e-12               -2.1132e-05          
  0.9                   2.1262e-05            5.3876e-10            9.8e-13               -2.1244e-05          
  0.95                  2.137e-05             5.3632e-10            2.72e-12              -2.1352e-05          
  1                     2.1474e-05            5.337e-10             1.56e-12              -2.1456e-05          
  1.05                  2.1572e-05            5.31e-10              1.74e-12              -2.1556e-05          
  1.1                   2.167e-05             5.2838e-10            1.66e-12              -2.1652e-05          
  1.15                  2.1762e-05            5.2594e-10            -1.68e-12             -2.1744e-05          
  1.2                   2.185e-05             5.2334e-10            -6.14e-12             -2.1834e-05          
  1.25                  2.1936e-05            5.2066e-10            -1.882e-11            -2.192e-05           
  1.3                   2.2018e-05            5.1792e-10            -4.65e-11             -2.2002e-05          
  1.35                  2.2098e-05            5.1494e-10            -1.016e-10            -2.2082e-05          
END_DB

BEGIN_DB
 ICCAP_VAR vg         0.796          
 ICCAP_VAR vb         0              
 ICCAP_VAR vs         0              

 #vd                    id                    ig                    ib                    is                   
  0                     1.489e-08             7.089e-09             1.92e-12              -2.0924e-08          
  0.05                  1.214e-05             6.1636e-09            1.42e-12              -1.2128e-05          
  0.1                   2.3172e-05            5.398e-09             1.98e-12              -2.3158e-05          
  0.15                  3.3058e-05            4.7734e-09            6.4e-13               -3.3044e-05          
  0.2                   4.1744e-05            4.2706e-09            1.76e-12              -4.173e-05           
  0.25                  4.9184e-05            3.8744e-09            1.82e-12              -4.917e-05           
  0.3                   5.5298e-05            3.571e-09             4.6e-13               -5.5284e-05          
  0.35                  5.9986e-05            3.3522e-09            1.08e-12              -5.9972e-05          
  0.4                   6.318e-05             3.2104e-09            8.4e-13               -6.3166e-05          
  0.45                  6.5026e-05            3.1302e-09            6.6e-13               -6.5012e-05          
  0.5                   6.5998e-05            3.0892e-09            8.4e-13               -6.5986e-05          
  0.55                  6.6566e-05            3.0652e-09            1.82e-12              -6.6552e-05          
  0.6                   6.6972e-05            3.0484e-09            1.22e-12              -6.6958e-05          
  0.65                  6.7306e-05            3.034e-09             6e-13                 -6.7294e-05          
  0.7                   6.7606e-05            3.0218e-09            1.58e-12              -6.7594e-05          
  0.75                  6.7884e-05            3.0104e-09            1.06e-12              -6.787e-05           
  0.8                   6.814e-05             3.0002e-09            8.6e-13               -6.8126e-05          
  0.85                  6.8384e-05            2.9902e-09            1.5e-12               -6.837e-05           
  0.9                   6.8614e-05            2.981e-09             1.5e-12               -6.86e-05            
  0.95                  6.8834e-05            2.9716e-09            8.4e-13               -6.882e-05           
  1                     6.9044e-05            2.9634e-09            9.4e-13               -6.903e-05           
  1.05                  6.9246e-05            2.9548e-09            1.38e-12              -6.9232e-05          
  1.1                   6.944e-05             2.947e-09             6e-13                 -6.9426e-05          
  1.15                  6.9626e-05            2.9392e-09            4e-13                 -6.9612e-05          
  1.2                   6.9806e-05            2.9318e-09            1.3e-12               -6.979e-05           
  1.25                  6.9976e-05            2.9246e-09            1.6e-13               -6.9964e-05          
  1.3                   7.0144e-05            2.9182e-09            -7.8e-13              -7.013e-05           
  1.35                  7.0304e-05            2.9108e-09            -2.48e-12             -7.029e-05           
END_DB

BEGIN_DB
 ICCAP_VAR vg         1.073          
 ICCAP_VAR vb         0              
 ICCAP_VAR vs         0              

 #vd                    id                    ig                    ib                    is                   
  0                     1.2112e-08            2.8224e-08            2.48e-12              -3.8214e-08          
  0.05                  1.6718e-05            2.5322e-08            1.64e-12              -1.6724e-05          
  0.1                   3.259e-05             2.2788e-08            4.8e-13               -3.2596e-05          
  0.15                  4.7562e-05            2.0592e-08            1.04e-12              -4.7566e-05          
  0.2                   6.1574e-05            1.87e-08              1.28e-12              -6.1576e-05          
  0.25                  7.459e-05             1.7076e-08            9e-13                 -7.459e-05           
  0.3                   8.6552e-05            1.57e-08              6.2e-13               -8.6552e-05          
  0.35                  9.741e-05             1.4538e-08            3e-13                 -9.741e-05           
  0.4                   0.000107114           1.357e-08             1.4e-12               -0.000107112         
  0.45                  0.00011572            1.2778e-08            7.4e-13               -0.00011534          
  0.5                   0.0001229             1.2146e-08            -1.6e-13              -0.00012252          
  0.55                  0.0001287             1.1658e-08            1.24e-12              -0.00012832          
  0.6                   0.00013304            1.1308e-08            1.82e-12              -0.00013266          
  0.65                  0.00013594            1.108e-08             3e-13                 -0.00013558          
  0.7                   0.00013768            1.0948e-08            1.22e-12              -0.00013732          
  0.75                  0.0001387             1.0868e-08            8e-13                 -0.00013834          
  0.8                   0.00013938            1.082e-08             -6e-14                -0.00013902          
  0.85                  0.0001399             1.0778e-08            1.28e-12              -0.00013954          
  0.9                   0.00014034            1.0748e-08            1.26e-12              -0.00013998          
  0.95                  0.00014074            1.0718e-08            1.6e-13               -0.00014036          
  1                     0.0001411             1.069e-08             8.2e-13               -0.00014072          
  1.05                  0.00014142            1.0666e-08            1.6e-12               -0.00014106          
  1.1                   0.00014176            1.0642e-08            6e-13                 -0.00014138          
  1.15                  0.00014206            1.062e-08             1.42e-12              -0.00014168          
  1.2                   0.00014234            1.0598e-08            5e-13                 -0.00014198          
  1.25                  0.00014262            1.0578e-08            5.8e-13               -0.00014226          
  1.3                   0.00014288            1.0558e-08            1.06e-12              -0.00014252          
  1.35                  0.00014314            1.054e-08             8.2e-13               -0.00014278          
END_DB

BEGIN_DB
 ICCAP_VAR vg         1.35           
 ICCAP_VAR vb         0              
 ICCAP_VAR vs         0              

 #vd                    id                    ig                    ib                    is                   
  0                     -1.2254e-08           8.4006e-08            -7.644e-11            -7.0388e-08          
  0.05                  1.9876e-05            7.6892e-08            -5.668e-11            -1.9934e-05          
  0.1                   3.9196e-05            7.0492e-08            -4.128e-11            -3.925e-05           
  0.15                  5.7882e-05            6.477e-08             -3.228e-11            -5.7932e-05          
  0.2                   7.5876e-05            5.966e-08             -2.57e-11             -7.592e-05           
  0.25                  9.3146e-05            5.5106e-08            -2.01e-11             -9.3186e-05          
  0.3                   0.000109636           5.107e-08             -1.72e-11             -0.000109672         
  0.35                  0.00012542            4.7502e-08            -1.436e-11            -0.0001251           
  0.4                   0.0001402             4.436e-08             -1.35e-11             -0.00013988          
  0.45                  0.00015402            4.1616e-08            -1.26e-11             -0.00015368          
  0.5                   0.00016686            3.9226e-08            -1.07e-11             -0.00016652          
  0.55                  0.00017868            3.7158e-08            -9.68e-12             -0.00017834          
  0.6                   0.00018938            3.539e-08             -9.92e-12             -0.00018904          
  0.65                  0.00019894            3.3898e-08            -8.34e-12             -0.0001986           
  0.7                   0.00020724            3.2658e-08            -9.26e-12             -0.0002069           
  0.75                  0.00021424            3.166e-08             -8.82e-12             -0.0002139           
  0.8                   0.00021986            3.0888e-08            -7.08e-12             -0.00021952          
  0.85                  0.00022404            3.0328e-08            -4.74e-12             -0.0002237           
  0.9                   0.00022688            2.9954e-08            -8.82e-12             -0.00022652          
  0.95                  0.00022866            2.9724e-08            -7.04e-12             -0.00022832          
  1                     0.0002298             2.9576e-08            -7.52e-12             -0.00022946          
  1.05                  0.00023058            2.9476e-08            -8.54e-12             -0.00023024          
  1.1                   0.00023122            2.9396e-08            -6.9e-12              -0.00023086          
  1.15                  0.00023174            2.933e-08             -8.24e-12             -0.00023138          
  1.2                   0.0002322             2.9272e-08            -8.36e-12             -0.00023186          
  1.25                  0.00023264            2.922e-08             -7.14e-12             -0.0002323           
  1.3                   0.00023304            2.9168e-08            -8.14e-12             -0.0002327           
  1.35                  0.00023342            2.912e-08             -8.1e-12              -0.00023308          
END_DB

