! VERSION = 6.00
BEGIN_HEADER
 ICCAP_INPUTS
  vd         V  D GROUND SMU1 0.1 LIN        1    0          1.35       28   0.05      
  vg         V  G GROUND SMU2 0.001 LIST       2 3 -0.03 0.17 0.37
  vb         V  B GROUND SMU4 0.1 CON        0
  vs         V  S GROUND SMU3 0.1 CON        0
 ICCAP_OUTPUTS
  id         I  D GROUND SMU1 B
  ig         I  G GROUND SMU2 B
  ib         I  B GROUND SMU4 B
  is         I  S GROUND SMU3 B
 ICCAP_VALUES
  MASTER_SETUP_TYPE "~dc_idvd~"
  LINVT_VALUE ""
  LISTVT_VALUE "|idvg|100.0n|-200.0m|1.000m|3|200.0m|200.0m|"
  TYPE "1"
  TEMP " 27.0000 "
  IS_TNOM " 1.00000 "
  MAIN.W "600.0n"
  MAIN.L "10.00u"
  MAIN.AD "204.0f"
  MAIN.AS "204.0f"
  MAIN.PD "1.880u"
  MAIN.PS "1.880u"
  MAIN.NF "1.000"
  MAIN.M "1"
  MAIN.NRD "0.000"
  MAIN.NRS "0.000"
  MAIN.LDRIFT1 "1E-06"
  MAIN.LDRIFT2 "1E-06"
  MAIN.SA "0.000"
  MAIN.SB "0.000"
  MAIN.SD "0.000"
  MAIN.SCA "0.000"
  MAIN.SCB "0.000"
  MAIN.SCC "0.000"
  MAIN.SC "0.000"
  MODULE "S544"
  PIN_D "20"
  PIN_G "1"
  PIN_S "2"
  PIN_B "19"
  PIN_E ""
  PIN_6 ""
  XY_ID ""
  FUNC "W Scale"
  STI "SA ref"
  WPE "WPE ref"
  COMMENT ""
  DIS_MEAS ""
  TypeTCI "10"
END_HEADER

BEGIN_DB
 ICCAP_VAR vg         -0.03          
 ICCAP_VAR vb         0              
 ICCAP_VAR vs         0              

 #vd                    id                    ig                    ib                    is                   
  0                     -1.8e-13              -1.2e-13              -1.56e-12             1.4e-13              
  0.05                  1.078e-11             -1.4e-13              1.16e-12              -1.05e-11            
  0.1                   1.268e-11             -2.6e-13              1.72e-12              -1.244e-11           
  0.15                  1.322e-11             -2.4e-13              1.6e-12               -1.26e-11            
  0.2                   1.348e-11             -2.4e-13              2.6e-13               -1.29e-11            
  0.25                  1.372e-11             -1.8e-13              3.2e-13               -1.296e-11           
  0.3                   1.39e-11              -1.8e-13              1e-12                 -1.324e-11           
  0.35                  1.416e-11             -4e-14                7e-13                 -1.318e-11           
  0.4                   1.44e-11              -2.2e-13              1.38e-12              -1.34e-11            
  0.45                  1.456e-11             -2e-13                5.4e-13               -1.354e-11           
  0.5                   1.476e-11             -1e-13                1.6e-13               -1.356e-11           
  0.55                  1.476e-11             -2.4e-13              7e-13                 -1.38e-11            
  0.6                   1.496e-11             -2.6e-13              6.2e-13               -1.382e-11           
  0.65                  1.522e-11             -3e-13                9.4e-13               -1.386e-11           
  0.7                   1.53e-11              -2.8e-13              1e-13                 -1.404e-11           
  0.75                  1.552e-11             -4.2e-13              6e-13                 -1.41e-11            
  0.8                   1.572e-11             -5.4e-13              7.4e-13               -1.432e-11           
  0.85                  1.59e-11              -6.4e-13              1.74e-12              -1.426e-11           
  0.9                   1.62e-11              -6.2e-13              8.6e-13               -1.448e-11           
  0.95                  1.628e-11             -8.4e-13              -6e-14                -1.45e-11            
  1                     1.664e-11             -9e-13                2.8e-13               -1.45e-11            
  1.05                  1.686e-11             -1.14e-12             3.06e-12              -1.472e-11           
  1.1                   1.704e-11             -1.26e-12             1.34e-12              -1.476e-11           
  1.15                  1.744e-11             -1.44e-12             8.6e-13               -1.476e-11           
  1.2                   1.764e-11             -1.68e-12             7e-13                 -1.484e-11           
  1.25                  1.81e-11              -2.04e-12             -1.4e-13              -1.484e-11           
  1.3                   1.846e-11             -2.36e-12             5.6e-13               -1.492e-11           
  1.35                  1.892e-11             -2.62e-12             1.52e-12              -1.492e-11           
END_DB

BEGIN_DB
 ICCAP_VAR vg         0.17           
 ICCAP_VAR vb         0              
 ICCAP_VAR vs         0              

 #vd                    id                    ig                    ib                    is                   
  0                     1.256e-11             1.8e-12               1.42e-12              -1.418e-11           
  0.05                  4.7332e-09            1.06e-12              1.12e-12              -4.7312e-09          
  0.1                   5.7532e-09            8.6e-13               3.6e-13               -5.753e-09           
  0.15                  6.0292e-09            9e-13                 -1.6e-13              -6.0242e-09          
  0.2                   6.1622e-09            8.4e-13               -1e-13                -6.1618e-09          
  0.25                  6.2668e-09            8.6e-13               8e-13                 -6.265e-09           
  0.3                   6.3614e-09            8.6e-13               1.06e-12              -6.3616e-09          
  0.35                  6.4482e-09            7.6e-13               8.4e-13               -6.4442e-09          
  0.4                   6.5304e-09            7.6e-13               -1e-13                -6.526e-09           
  0.45                  6.6042e-09            7.6e-13               2.8e-13               -6.6022e-09          
  0.5                   6.674e-09             7.6e-13               1.02e-12              -6.6714e-09          
  0.55                  6.7408e-09            6.6e-13               1.28e-12              -6.7424e-09          
  0.6                   6.8062e-09            6.2e-13               -1.2e-13              -6.8096e-09          
  0.65                  6.8724e-09            6.6e-13               6e-14                 -6.8652e-09          
  0.7                   6.9276e-09            6.8e-13               3.2e-13               -6.926e-09           
  0.75                  6.9694e-09            4.8e-13               9.8e-13               -6.9758e-09          
  0.8                   7.0308e-09            4.2e-13               5.6e-13               -7.0256e-09          
  0.85                  7.0792e-09            4e-13                 -2e-13                -7.0774e-09          
  0.9                   7.129e-09             3e-13                 -6e-13                -7.1258e-09          
  0.95                  7.1732e-09            3e-13                 5e-13                 -7.1684e-09          
  1                     7.2172e-09            8e-14                 1.46e-12              -7.2142e-09          
  1.05                  7.2556e-09            4e-14                 4.8e-13               -7.2562e-09          
  1.1                   7.2836e-09            2e-14                 -1.6e-13              -7.2794e-09          
  1.15                  7.33e-09              -1.6e-13              1e-13                 -7.3318e-09          
  1.2                   7.3728e-09            -2.4e-13              4e-14                 -7.3612e-09          
  1.25                  7.3978e-09            -5.2e-13              8.8e-13               -7.3916e-09          
  1.3                   7.417e-09             -6.6e-13              -3e-13                -7.4192e-09          
  1.35                  7.4556e-09            -8.8e-13              -1.16e-12             -7.4544e-09          
END_DB

BEGIN_DB
 ICCAP_VAR vg         0.37           
 ICCAP_VAR vb         0              
 ICCAP_VAR vs         0              

 #vd                    id                    ig                    ib                    is                   
  0                     2.6214e-10            2.492e-11             1.8e-12               -2.871e-10           
  0.05                  1.3968e-07            2e-11                 5.8e-13               -1.3956e-07          
  0.1                   2.1646e-07            1.74e-11              4e-14                 -2.1636e-07          
  0.15                  2.5154e-07            1.612e-11             9.6e-13               -2.514e-07           
  0.2                   2.6672e-07            1.572e-11             2.2e-13               -2.6662e-07          
  0.25                  2.7506e-07            1.544e-11             0                     -2.7496e-07          
  0.3                   2.8114e-07            1.528e-11             -2e-13                -2.8102e-07          
  0.35                  2.8642e-07            1.506e-11             5.6e-13               -2.8632e-07          
  0.4                   2.9124e-07            1.492e-11             5.4e-13               -2.9116e-07          
  0.45                  2.9572e-07            1.478e-11             2.4e-13               -2.9566e-07          
  0.5                   3.0002e-07            1.458e-11             6.2e-13               -2.9994e-07          
  0.55                  3.042e-07             1.454e-11             1.86e-12              -3.0406e-07          
  0.6                   3.0812e-07            1.432e-11             1.4e-13               -3.08e-07            
  0.65                  3.1198e-07            1.414e-11             -5.4e-13              -3.1182e-07          
  0.7                   3.1566e-07            1.41e-11              -3.6e-13              -3.1558e-07          
  0.75                  3.1922e-07            1.388e-11             5e-13                 -3.1918e-07          
  0.8                   3.2276e-07            1.374e-11             -4e-14                -3.2264e-07          
  0.85                  3.2614e-07            1.376e-11             -3.4e-13              -3.2604e-07          
  0.9                   3.2944e-07            1.348e-11             5.8e-13               -3.2934e-07          
  0.95                  3.3262e-07            1.348e-11             1.74e-12              -3.3252e-07          
  1                     3.3578e-07            1.33e-11              6.4e-13               -3.3564e-07          
  1.05                  3.3878e-07            1.306e-11             -4e-13                -3.3866e-07          
  1.1                   3.417e-07             1.296e-11             0                     -3.4168e-07          
  1.15                  3.4454e-07            1.278e-11             -4e-14                -3.4446e-07          
  1.2                   3.4722e-07            1.266e-11             -1.66e-12             -3.4716e-07          
  1.25                  3.4992e-07            1.246e-11             -3.48e-12             -3.4986e-07          
  1.3                   3.524e-07             1.218e-11             -5.84e-12             -3.5228e-07          
  1.35                  3.5486e-07            1.2e-11               -1.07e-11             -3.5474e-07          
END_DB

