! VERSION = 6.00
BEGIN_HEADER
 ICCAP_INPUTS
  vg         V  G GROUND SMU2 0.001 LIN        1    -0.5       1.35       38   0.05      
  vb         V  B GROUND SMU4 0.1 LIN        2    0          -1.2       5    -0.3      
  vd         V  D GROUND SMU1 0.1 LIST       3 3 0.05 0.6 1.2
  vs         V  S GROUND SMU3 0.1 CON        0
 ICCAP_OUTPUTS
  id         I  D GROUND SMU1 B
  ig         I  G GROUND SMU2 B
  ib         I  B GROUND SMU4 B
  is         I  S GROUND SMU3 B
 ICCAP_VALUES
  MASTER_SETUP_TYPE "~dc_idvg~"
  LINVT_VALUE ""
  LISTVT_VALUE ""
  TYPE "1"
  TEMP " 27.0000 "
  IS_TNOM " 1.00000 "
  MAIN.W "600.0n"
  MAIN.L "500.0n"
  MAIN.AD "204.0f"
  MAIN.AS "204.0f"
  MAIN.PD "1.880u"
  MAIN.PS "1.880u"
  MAIN.NF "1.000"
  MAIN.M "1"
  MAIN.NRD "0.000"
  MAIN.NRS "0.000"
  MAIN.LDRIFT1 "1E-06"
  MAIN.LDRIFT2 "1E-06"
  MAIN.SA "0.000"
  MAIN.SB "0.000"
  MAIN.SD "0.000"
  MAIN.SCA "0.000"
  MAIN.SCB "0.000"
  MAIN.SCC "0.000"
  MAIN.SC "0.000"
  MODULE "S543"
  PIN_D "14"
  PIN_G "7"
  PIN_S "8"
  PIN_B "13"
  PIN_E ""
  PIN_6 ""
  XY_ID ""
  FUNC "LW Scale"
  STI "SA ref"
  WPE "WPE ref"
  COMMENT ""
  DIS_MEAS ""
  TypeTCI "10"
END_HEADER

BEGIN_DB
 ICCAP_VAR vb         0              
 ICCAP_VAR vd         0.05           
 ICCAP_VAR vs         0              

 #vg                    id                    ig                    ib                    is                   
  -0.5                  1.8e-13               -4.462e-11            4.588e-11             1e-13                
  -0.45                 0                     -7.16e-12             9.72e-12              1.2e-13              
  -0.4                  -2e-14                -9e-13                3.24e-12              1.6e-13              
  -0.35                 2e-14                 -1.2e-13              1.8e-12               4e-14                
  -0.3                  4e-14                 2e-13                 1.74e-12              1.6e-13              
  -0.25                 -8e-14                2e-13                 1.68e-12              -1e-13               
  -0.2                  0                     4e-14                 2.66e-12              1e-13                
  -0.15                 2.2e-13               5.2e-13               2.46e-12              -2.2e-13             
  -0.1                  1.02e-12              4e-13                 2.16e-12              -8.8e-13             
  -0.05                 4.82e-12              2.4e-13               1.04e-12              -4.72e-12            
  0                     2.208e-11             5.2e-13               2.48e-12              -2.218e-11           
  0.05                  1.0276e-10            4.6e-13               2.36e-12              -1.0246e-10          
  0.1                   4.688e-10             6.4e-13               1.84e-12              -4.6834e-10          
  0.15                  2.1046e-09            4.8e-13               1.72e-12              -2.1028e-09          
  0.2                   9.0594e-09            5.4e-13               1.36e-12              -9.0634e-09          
  0.25                  3.5992e-08            5e-13                 1.3e-12               -3.5972e-08          
  0.3                   1.237e-07             5.4e-13               2.48e-12              -1.2352e-07          
  0.35                  3.483e-07             1.28e-12              1.02e-12              -3.4864e-07          
  0.4                   7.9844e-07            1.46e-12              1.04e-12              -7.9854e-07          
  0.45                  1.5114e-06            2.36e-12              2.48e-12              -1.5058e-06          
  0.5                   2.4362e-06            3.5e-12               1.34e-12              -2.4318e-06          
  0.55                  3.4936e-06            4.96e-12              1.18e-12              -3.4898e-06          
  0.6                   4.6138e-06            7.4e-12               1.02e-12              -4.6108e-06          
  0.65                  5.746e-06             1.02e-11              2.02e-12              -5.7414e-06          
  0.7                   6.8574e-06            1.44e-11              1.24e-12              -6.852e-06           
  0.75                  7.936e-06             1.936e-11             3.6e-13               -7.9292e-06          
  0.8                   8.9748e-06            2.576e-11             6.4e-13               -8.9704e-06          
  0.85                  9.976e-06             3.462e-11             2.02e-12              -9.9744e-06          
  0.9                   1.09282e-05           4.48e-11              5.4e-13               -1.0924e-05          
  0.95                  1.1844e-05            5.74e-11              1.28e-12              -1.1824e-05          
  1                     1.2706e-05            7.358e-11             6.6e-13               -1.2684e-05          
  1.05                  1.3514e-05            9.256e-11             2.32e-12              -1.3494e-05          
  1.1                   1.4278e-05            1.159e-10             1.82e-12              -1.426e-05           
  1.15                  1.4996e-05            1.4308e-10            8.8e-13               -1.4978e-05          
  1.2                   1.5668e-05            1.7544e-10            8.6e-13               -1.565e-05           
  1.25                  1.6294e-05            2.1338e-10            1.58e-12              -1.6276e-05          
  1.3                   1.6878e-05            2.5706e-10            2.4e-12               -1.686e-05           
  1.35                  1.7418e-05            3.0866e-10            8e-14                 -1.7404e-05          
END_DB

BEGIN_DB
 ICCAP_VAR vb         -0.3           
 ICCAP_VAR vd         0.05           
 ICCAP_VAR vs         0              

 #vg                    id                    ig                    ib                    is                   
  -0.5                  2e-14                 -5.4e-13              -2.82e-12             1.4e-13              
  -0.45                 2e-14                 -2.4e-13              -1.9e-12              1.4e-13              
  -0.4                  2e-14                 1e-13                 -2.26e-12             1e-13                
  -0.35                 1e-13                 4e-14                 -2.58e-12             1.8e-13              
  -0.3                  6e-14                 1.6e-13               -2.94e-12             1e-13                
  -0.25                 -2e-14                1.8e-13               -1.82e-12             1.8e-13              
  -0.2                  6e-14                 4.6e-13               -1.28e-12             2.2e-13              
  -0.15                 6e-14                 1.6e-13               -9.6e-13              1e-13                
  -0.1                  2.6e-13               2.2e-13               -1.76e-12             -8e-14               
  -0.05                 1.08e-12              4.8e-13               -1.92e-12             -9.2e-13             
  0                     5.54e-12              2.6e-13               -1.6e-12              -5.32e-12            
  0.05                  2.678e-11             7.2e-13               -3.2e-13              -2.668e-11           
  0.1                   1.2962e-10            3.2e-13               2.96e-12              -1.295e-10           
  0.15                  6.1676e-10            5e-13                 -1.2e-12              -6.1702e-10          
  0.2                   2.8548e-09            4.8e-13               -1.52e-12             -2.8532e-09          
  0.25                  1.2478e-08            5e-13                 -1.6e-13              -1.2452e-08          
  0.3                   4.9198e-08            7.6e-13               -2.2e-13              -4.9254e-08          
  0.35                  1.6402e-07            1.06e-12              -1.38e-12             -1.6378e-07          
  0.4                   4.3942e-07            1.62e-12              -9.4e-13              -4.3932e-07          
  0.45                  9.5518e-07            2.6e-12               -4e-14                -9.5522e-07          
  0.5                   1.7262e-06            3.24e-12              -1e-12                -1.722e-06           
  0.55                  2.6844e-06            5.04e-12              -7.4e-13              -2.6804e-06          
  0.6                   3.7534e-06            6.88e-12              -1.6e-13              -3.7496e-06          
  0.65                  4.8662e-06            1.012e-11             -6.4e-13              -4.8616e-06          
  0.7                   5.9676e-06            1.392e-11             -6.6e-13              -5.9642e-06          
  0.75                  7.0548e-06            1.894e-11             -5.8e-13              -7.0514e-06          
  0.8                   8.1052e-06            2.576e-11             -1.4e-13              -8.1024e-06          
  0.85                  9.1168e-06            3.382e-11             -1.2e-13              -9.1138e-06          
  0.9                   1.00828e-05           4.452e-11             -9e-13                -1.0079e-05          
  0.95                  1.10008e-05           5.74e-11              -1.22e-12             -1.09984e-05         
  1                     1.188e-05             7.286e-11             2.6e-13               -1.1864e-05          
  1.05                  1.2696e-05            9.204e-11             1e-13                 -1.2678e-05          
  1.1                   1.3472e-05            1.1488e-10            -1.44e-12             -1.3456e-05          
  1.15                  1.42e-05              1.4206e-10            -6.6e-13              -1.4182e-05          
  1.2                   1.4884e-05            1.7448e-10            1.6e-13               -1.4866e-05          
  1.25                  1.5524e-05            2.1228e-10            3.4e-13               -1.5506e-05          
  1.3                   1.6116e-05            2.5598e-10            -8.8e-13              -1.61e-05            
  1.35                  1.6666e-05            3.073e-10             -1.16e-12             -1.6654e-05          
END_DB

BEGIN_DB
 ICCAP_VAR vb         -0.6           
 ICCAP_VAR vd         0.05           
 ICCAP_VAR vs         0              

 #vg                    id                    ig                    ib                    is                   
  -0.5                  1e-13                 -4.4e-13              -3.36e-12             4.2e-13              
  -0.45                 4e-14                 -1e-13                -4.04e-12             2.4e-13              
  -0.4                  0                     4e-14                 -4.34e-12             1.6e-13              
  -0.35                 0                     8e-14                 -3.56e-12             2e-13                
  -0.3                  -6e-14                1.6e-13               -2.78e-12             8e-14                
  -0.25                 6e-14                 1e-13                 -1.94e-12             1e-13                
  -0.2                  4e-14                 3.4e-13               -3.46e-12             2e-13                
  -0.15                 -2e-14                2.4e-13               -3.38e-12             1.2e-13              
  -0.1                  1.2e-13               4e-13                 -2.52e-12             8e-14                
  -0.05                 4.2e-13               4.2e-13               -2.98e-12             -1.8e-13             
  0                     1.82e-12              4.2e-13               -1.88e-12             -1.68e-12            
  0.05                  9.14e-12              5e-13                 -2.28e-12             -8.92e-12            
  0.1                   4.596e-11             5.8e-13               -2.36e-12             -4.574e-11           
  0.15                  2.2784e-10            5.6e-13               -2.6e-12              -2.2764e-10          
  0.2                   1.09852e-09           6e-13                 -2.82e-12             -1.0958e-09          
  0.25                  5.1098e-09            4.8e-13               -7e-13                -5.1044e-09          
  0.3                   2.1994e-08            7.6e-13               -1.08e-12             -2.1968e-08          
  0.35                  8.2408e-08            8e-13                 -2.56e-12             -8.2364e-08          
  0.4                   2.5246e-07            1.62e-12              -1.6e-12              -2.5188e-07          
  0.45                  6.1828e-07            2.22e-12              -1.12e-12             -6.1822e-07          
  0.5                   1.2402e-06            3.04e-12              -2.26e-12             -1.2358e-06          
  0.55                  2.0878e-06            4.82e-12              -1.96e-12             -2.0838e-06          
  0.6                   3.0902e-06            6.7e-12               -1.26e-12             -3.0868e-06          
  0.65                  4.1676e-06            9.8e-12               -1.72e-12             -4.1598e-06          
  0.7                   5.2596e-06            1.374e-11             -2.24e-12             -5.256e-06           
  0.75                  6.3436e-06            1.844e-11             -1.34e-12             -6.34e-06            
  0.8                   7.3958e-06            2.548e-11             -9.4e-13              -7.3924e-06          
  0.85                  8.4124e-06            3.348e-11             -9.8e-13              -8.4096e-06          
  0.9                   9.3854e-06            4.4e-11               -1.92e-12             -9.3814e-06          
  0.95                  1.03112e-05           5.66e-11              -1.42e-12             -1.0308e-05          
  1                     1.11908e-05           7.238e-11             -5e-13                -1.11846e-05         
  1.05                  1.2028e-05            9.128e-11             -1.76e-12             -1.201e-05           
  1.1                   1.2812e-05            1.1408e-10            -1.06e-12             -1.2796e-05          
  1.15                  1.3554e-05            1.4112e-10            -1.26e-12             -1.3536e-05          
  1.2                   1.4246e-05            1.7364e-10            -9.4e-13              -1.4228e-05          
  1.25                  1.4894e-05            2.1088e-10            -5.8e-13              -1.4876e-05          
  1.3                   1.5498e-05            2.5524e-10            -1.52e-12             -1.548e-05           
  1.35                  1.606e-05             3.065e-10             -1.88e-12             -1.6042e-05          
END_DB

BEGIN_DB
 ICCAP_VAR vb         -0.9           
 ICCAP_VAR vd         0.05           
 ICCAP_VAR vs         0              

 #vg                    id                    ig                    ib                    is                   
  -0.5                  4e-14                 -4.8e-13              -4.6e-12              2.2e-13              
  -0.45                 4e-14                 -2.2e-13              -4.38e-12             1.8e-13              
  -0.4                  1.2e-13               -1.4e-13              -4.92e-12             1.6e-13              
  -0.35                 4e-14                 1.2e-13               -4.62e-12             1e-13                
  -0.3                  1.2e-13               1.4e-13               -4.46e-12             1.6e-13              
  -0.25                 4e-14                 2e-13                 -3.52e-12             2.4e-13              
  -0.2                  0                     4e-13                 -2.52e-12             1.2e-13              
  -0.15                 1.4e-13               2.2e-13               -3.68e-12             6e-14                
  -0.1                  6e-14                 4.2e-13               -3.56e-12             2.6e-13              
  -0.05                 1e-13                 5.4e-13               -4.28e-12             2e-14                
  0                     8e-13                 2.4e-13               -2.72e-12             -6.2e-13             
  0.05                  3.74e-12              4.4e-13               -2.06e-12             -3.68e-12            
  0.1                   1.94e-11              3e-13                 -2.88e-12             -1.918e-11           
  0.15                  9.922e-11             5e-13                 -3.18e-12             -9.924e-11           
  0.2                   4.9748e-10            4.6e-13               -3.14e-12             -4.9824e-10          
  0.25                  2.4004e-09            5.8e-13               -2.48e-12             -2.398e-09           
  0.3                   1.09584e-08           8e-13                 -1.24e-12             -1.09794e-08         
  0.35                  4.484e-08             8.6e-13               -1.76e-12             -4.476e-08           
  0.4                   1.5236e-07            1.36e-12              -2.78e-12             -1.526e-07           
  0.45                  4.1552e-07            2.16e-12              -2.64e-12             -4.1616e-07          
  0.5                   9.1172e-07            3.14e-12              -1.58e-12             -9.1174e-07          
  0.55                  1.654e-06             4.44e-12              -2.64e-12             -1.6486e-06          
  0.6                   2.5822e-06            6.38e-12              -2.92e-12             -2.5776e-06          
  0.65                  3.6182e-06            9.76e-12              -1.06e-12             -3.614e-06           
  0.7                   4.693e-06             1.322e-11             -2.74e-12             -4.6896e-06          
  0.75                  5.7674e-06            1.832e-11             -2.54e-12             -5.764e-06           
  0.8                   6.8174e-06            2.486e-11             -2.02e-12             -6.8142e-06          
  0.85                  7.8316e-06            3.286e-11             -1.76e-12             -7.8274e-06          
  0.9                   8.8066e-06            4.356e-11             -2.68e-12             -8.8028e-06          
  0.95                  9.7402e-06            5.582e-11             -2.86e-12             -9.736e-06           
  1                     1.06184e-05           7.174e-11             -1.62e-12             -1.06192e-05         
  1.05                  1.14578e-05           9.062e-11             -1.22e-12             -1.14544e-05         
  1.1                   1.2258e-05            1.132e-10             -2.16e-12             -1.224e-05           
  1.15                  1.3002e-05            1.4036e-10            -2.16e-12             -1.2984e-05          
  1.2                   1.3704e-05            1.726e-10             -2.02e-12             -1.3686e-05          
  1.25                  1.4358e-05            2.1032e-10            -1.38e-12             -1.4336e-05          
  1.3                   1.4962e-05            2.5418e-10            -1.58e-12             -1.4944e-05          
  1.35                  1.5532e-05            3.0522e-10            -2.74e-12             -1.5512e-05          
END_DB

BEGIN_DB
 ICCAP_VAR vb         -1.2           
 ICCAP_VAR vd         0.05           
 ICCAP_VAR vs         0              

 #vg                    id                    ig                    ib                    is                   
  -0.5                  6e-14                 -3.4e-13              -5.3e-12              2.8e-13              
  -0.45                 0                     -6e-14                -5.56e-12             1.6e-13              
  -0.4                  1e-13                 -6e-14                -4.26e-12             3e-13                
  -0.35                 4e-14                 1e-13                 -4.96e-12             2.6e-13              
  -0.3                  4e-14                 1.2e-13               -3.98e-12             -2e-14               
