! VERSION = 6.00
BEGIN_HEADER
 ICCAP_INPUTS
  vd         V  D GROUND SMU1 0.1 LIN        1    0          1.35       28   0.05      
  vg         V  G GROUND SMU2 0.001 LIST       2 3 0.174 0.374 0.574
  vb         V  B GROUND SMU4 0.1 CON        0
  vs         V  S GROUND SMU3 0.1 CON        0
 ICCAP_OUTPUTS
  id         I  D GROUND SMU1 B
  ig         I  G GROUND SMU2 B
  ib         I  B GROUND SMU4 B
  is         I  S GROUND SMU3 B
 ICCAP_VALUES
  MASTER_SETUP_TYPE "~dc_idvd~"
  LINVT_VALUE ""
  LISTVT_VALUE "|idvg|100.0n|-200.0m|1.000m|3|200.0m|200.0m|"
  TYPE "1"
  TEMP " 27.0000 "
  IS_TNOM " 1.00000 "
  MAIN.W "10.00u"
  MAIN.L "130.0n"
  MAIN.AD "3.400p"
  MAIN.AS "3.400p"
  MAIN.PD "20.68u"
  MAIN.PS "20.68u"
  MAIN.NF "1.000"
  MAIN.M "1"
  MAIN.NRD "0.000"
  MAIN.NRS "0.000"
  MAIN.LDRIFT1 "1E-06"
  MAIN.LDRIFT2 "1E-06"
  MAIN.SA "0.000"
  MAIN.SB "0.000"
  MAIN.SD "0.000"
  MAIN.SCA "0.000"
  MAIN.SCB "0.000"
  MAIN.SCC "0.000"
  MAIN.SC "0.000"
  MODULE "S540"
  PIN_D "18"
  PIN_G "3"
  PIN_S "4"
  PIN_B "17"
  PIN_E ""
  PIN_6 ""
  XY_ID ""
  FUNC "Short"
  STI "SA ref"
  WPE "WPE ref"
  COMMENT ""
  DIS_MEAS ""
  TypeTCI "10"
END_HEADER

BEGIN_DB
 ICCAP_VAR vg         0.174          
 ICCAP_VAR vb         0              
 ICCAP_VAR vs         0              

 #vd                    id                    ig                    ib                    is                   
  0                     6.474e-11             8e-14                 1.34e-12              -3.942e-11           
  0.05                  1.6004e-08            1.6e-13               -1.4e-13              -1.598e-08           
  0.1                   1.9662e-08            -6e-14                -9.6e-13              -1.9634e-08          
  0.15                  2.1392e-08            6e-14                 8.6e-13               -2.1362e-08          
  0.2                   2.2836e-08            6e-14                 6e-14                 -2.2816e-08          
  0.25                  2.427e-08             2e-14                 6.2e-13               -2.4252e-08          
  0.3                   2.5748e-08            0                     4.02e-12              -2.5736e-08          
  0.35                  2.7272e-08            4e-14                 7e-13                 -2.7264e-08          
  0.4                   2.8876e-08            -1.2e-13              1.5e-12               -2.8862e-08          
  0.45                  3.053e-08             -1.2e-13              1.4e-13               -3.0514e-08          
  0.5                   3.227e-08             -3.6e-13              4.4e-13               -3.2264e-08          
  0.55                  3.41e-08              -5.6e-13              6e-13                 -3.4086e-08          
  0.6                   3.6006e-08            -8.6e-13              5.4e-13               -3.5984e-08          
  0.65                  3.7986e-08            -1.3e-12              6.4e-13               -3.7972e-08          
  0.7                   4.0074e-08            -1.6e-12              1.2e-13               -4.0036e-08          
  0.75                  4.2254e-08            -2.28e-12             6e-14                 -4.2234e-08          
  0.8                   4.4532e-08            -3.02e-12             9.8e-13               -4.4506e-08          
  0.85                  4.6916e-08            -3.82e-12             8.8e-13               -4.6908e-08          
  0.9                   4.942e-08             -4.96e-12             -1.6e-13              -4.9398e-08          
  0.95                  5.2014e-08            -6.18e-12             -3.4e-13              -5.199e-08           
  1                     5.4762e-08            -7.74e-12             -6e-13                -5.4726e-08          
  1.05                  5.7644e-08            -9.42e-12             1.8e-13               -5.7608e-08          
  1.1                   6.0668e-08            -1.154e-11            -1.62e-12             -6.0608e-08          
  1.15                  6.3856e-08            -1.394e-11            -3.4e-12              -6.3824e-08          
  1.2                   6.7156e-08            -1.654e-11            -5.38e-12             -6.7132e-08          
  1.25                  7.0642e-08            -1.968e-11            -8.36e-12             -7.0604e-08          
  1.3                   7.4294e-08            -2.32e-11             -1.366e-11            -7.4268e-08          
  1.35                  7.8192e-08            -2.756e-11            -2.188e-11            -7.8122e-08          
END_DB

BEGIN_DB
 ICCAP_VAR vg         0.374          
 ICCAP_VAR vb         0              
 ICCAP_VAR vs         0              

 #vd                    id                    ig                    ib                    is                   
  0                     3.0682e-09            3.14e-12              1.7e-12               -4.8856e-09          
  0.05                  3.811e-06             2.6e-12               8.6e-13               -3.8012e-06          
  0.1                   4.9678e-06            2.06e-12              -1.6e-13              -4.951e-06           
  0.15                  5.5116e-06            2.04e-12              1.04e-12              -5.5074e-06          
  0.2                   5.9114e-06            1.88e-12              4.6e-12               -5.9204e-06          
  0.25                  6.2894e-06            1.84e-12              -8e-13                -6.2878e-06          
  0.3                   6.6466e-06            1.84e-12              6.4e-13               -6.6238e-06          
  0.35                  6.9878e-06            1.78e-12              -3.8e-13              -6.9822e-06          
  0.4                   7.3494e-06            1.66e-12              -5.2e-13              -7.347e-06           
  0.45                  7.7148e-06            1.7e-12               1.4e-12               -7.7128e-06          
  0.5                   8.1068e-06            1.76e-12              1.4e-13               -8.1112e-06          
  0.55                  8.4944e-06            1.58e-12              0                     -8.485e-06           
  0.6                   8.8756e-06            1.66e-12              1.22e-12              -8.873e-06           
  0.65                  9.2752e-06            1.56e-12              -3.6e-13              -9.2718e-06          
  0.7                   9.6856e-06            1.22e-12              -7.6e-13              -9.6854e-06          
  0.75                  1.01146e-05           1e-12                 9.8e-13               -1.011e-05           
  0.8                   1.05506e-05           7.4e-13               -2.2e-13              -1.05488e-05         
  0.85                  1.09968e-05           5e-13                 -7.8e-13              -1.09888e-05         
  0.9                   1.1466e-05            -6e-14                -1.28e-12             -1.14462e-05         
  0.95                  1.1938e-05            -4.8e-13              -2.44e-12             -1.1916e-05          
  1                     1.242e-05             -1.26e-12             -8.92e-12             -1.2398e-05          
  1.05                  1.2924e-05            -2.28e-12             -2.218e-11            -1.291e-05           
  1.1                   1.3444e-05            -3.22e-12             -5.174e-11            -1.3434e-05          
  1.15                  1.3986e-05            -4.4e-12              -1.12e-10             -1.3974e-05          
  1.2                   1.454e-05             -5.92e-12             -2.265e-10            -1.4538e-05          
  1.25                  1.5126e-05            -7.62e-12             -4.2706e-10           -1.5104e-05          
  1.3                   1.5708e-05            -9.76e-12             -7.6014e-10           -1.5704e-05          
  1.35                  1.633e-05             -1.21e-11             -1.2838e-09           -1.6302e-05          
END_DB

BEGIN_DB
 ICCAP_VAR vg         0.574          
 ICCAP_VAR vb         0              
 ICCAP_VAR vs         0              

 #vd                    id                    ig                    ib                    is                   
  0                     2.854e-07             2.104e-11             1.28e-12              -1.055e-07           
  0.05                  8.9562e-05            1.738e-11             2e-13                 -8.9534e-05          
  0.1                   0.0001402             1.494e-11             -2.24e-12             -0.0001398           
  0.15                  0.00016836            1.338e-11             -5.6e-13              -0.00016798          
  0.2                   0.00018544            1.246e-11             8e-13                 -0.00018508          
  0.25                  0.00019708            1.18e-11              9e-13                 -0.00019672          
  0.3                   0.0002064             1.152e-11             -8.8e-13              -0.00020602          
  0.35                  0.00021452            1.124e-11             9.4e-13               -0.00021404          
  0.4                   0.0002218             1.114e-11             -2e-14                -0.00022148          
  0.45                  0.00022882            1.11e-11              6.8e-13               -0.00022848          
  0.5                   0.00023558            1.092e-11             6.2e-13               -0.00023536          
  0.55                  0.00024232            1.086e-11             -6e-13                -0.00024186          
  0.6                   0.00024888            1.088e-11             3.4e-13               -0.00024846          
  0.65                  0.00025538            1.066e-11             5e-13                 -0.000255            
  0.7                   0.00026194            1.062e-11             -2.8e-13              -0.00026144          
  0.75                  0.00026852            1.056e-11             6e-13                 -0.00026816          
  0.8                   0.00027502            1.038e-11             -7.4e-13              -0.00027494          
  0.85                  0.00028154            1.036e-11             -2.22e-12             -0.00028114          
  0.9                   0.00028804            1.024e-11             -3.26e-12             -0.00028772          
  0.95                  0.00029462            1e-11                 -1.108e-11            -0.00029458          
  1                     0.00030132            9.62e-12              -3.36e-11             -0.00030102          
  1.05                  0.00030836            9.16e-12              -9.086e-11            -0.00030798          
  1.1                   0.00031506            8.96e-12              -2.3628e-10           -0.00031474          
  1.15                  0.00032184            8.22e-12              -5.6948e-10           -0.0003214           
  1.2                   0.00032868            7.34e-12              -1.2686e-09           -0.00032828          
  1.25                  0.0003356             6.66e-12              -2.6368e-09           -0.0003353           
  1.3                   0.00034252            5.58e-12              -5.1336e-09           -0.00034212          
  1.35                  0.0003495             4.2e-12               -9.4114e-09           -0.00034914          
END_DB

