! VERSION = 6.00
BEGIN_HEADER
 ICCAP_INPUTS
  vg         V  G GROUND SMU2 0.001 LIN        1    -0.5       1.35       38   0.05      
  vb         V  B GROUND SMU4 0.1 LIN        2    0          -1.2       5    -0.3      
  vd         V  D GROUND SMU1 0.1 LIST       3 3 0.05 0.6 1.2
  vs         V  S GROUND SMU3 0.1 CON        0
 ICCAP_OUTPUTS
  id         I  D GROUND SMU1 B
  ig         I  G GROUND SMU2 B
  ib         I  B GROUND SMU4 B
  is         I  S GROUND SMU3 B
 ICCAP_VALUES
  MASTER_SETUP_TYPE "~dc_idvg~"
  LINVT_VALUE ""
  LISTVT_VALUE ""
  TYPE "1"
  TEMP " 27.0000 "
  IS_TNOM " 1.00000 "
  MAIN.W "10.00u"
  MAIN.L "500.0n"
  MAIN.AD "3.400p"
  MAIN.AS "3.400p"
  MAIN.PD "20.68u"
  MAIN.PS "20.68u"
  MAIN.NF "1.000"
  MAIN.M "1"
  MAIN.NRD "0.000"
  MAIN.NRS "0.000"
  MAIN.LDRIFT1 "1E-06"
  MAIN.LDRIFT2 "1E-06"
  MAIN.SA "0.000"
  MAIN.SB "0.000"
  MAIN.SD "0.000"
  MAIN.SCA "0.000"
  MAIN.SCB "0.000"
  MAIN.SCC "0.000"
  MAIN.SC "0.000"
  MODULE "S541"
  PIN_D "20"
  PIN_G "1"
  PIN_S "2"
  PIN_B "19"
  PIN_E ""
  PIN_6 ""
  XY_ID ""
  FUNC "L Scale"
  STI "SA ref"
  WPE "WPE ref"
  COMMENT ""
  DIS_MEAS ""
  TypeTCI "10"
END_HEADER

BEGIN_DB
 ICCAP_VAR vb         0              
 ICCAP_VAR vd         0.05           
 ICCAP_VAR vs         0              

 #vg                    id                    ig                    ib                    is                   
  -0.5                  1.86e-12              -4.928e-11            4.638e-11             2.4e-12              
  -0.45                 1.54e-12              -1e-11                7.56e-12              1.82e-12             
  -0.4                  1.08e-12              -3.38e-12             3.08e-12              1.3e-12              
  -0.35                 7.2e-13               -1.66e-12             1.14e-12              8.8e-13              
  -0.3                  6e-13                 -9.6e-13              1.1e-12               4.6e-13              
  -0.25                 8.8e-13               -5.4e-13              2e-12                 -6e-14               
  -0.2                  2.48e-12              -1.4e-13              1.54e-12              -2.02e-12            
  -0.15                 1.06e-11              1e-13                 2.3e-12               -1.032e-11           
  -0.1                  4.994e-11             2.2e-13               1.2e-12               -4.972e-11           
  -0.05                 2.3872e-10            3.4e-13               6.2e-13               -2.3848e-10          
  0                     1.14336e-09           4.6e-13               1.68e-12              -1.14332e-09         
  0.05                  5.4776e-09            4.4e-13               9.4e-13               -5.476e-09           
  0.1                   2.5908e-08            4e-13                 2.1e-12               -2.5882e-08          
  0.15                  1.1916e-07            6.6e-13               5.8e-13               -1.1908e-07          
  0.2                   5.067e-07             1.52e-12              1.52e-12              -5.0648e-07          
  0.25                  1.8724e-06            3.04e-12              8.4e-13               -1.8664e-06          
  0.3                   5.6046e-06            6.08e-12              1.8e-13               -5.6002e-06          
  0.35                  1.344e-05             1.114e-11             5e-13                 -1.341e-05           
  0.4                   2.607e-05             1.924e-11             2.06e-12              -2.605e-05           
  0.45                  4.2904e-05            3.17e-11              1.34e-12              -4.2892e-05          
  0.5                   6.2506e-05            5.006e-11             4.8e-13               -6.2474e-05          
  0.55                  8.3496e-05            7.59e-11              5.8e-13               -8.348e-05           
  0.6                   0.00010507            1.1136e-10            1e-12                 -0.000105058         
  0.65                  0.00012674            1.5924e-10            2.14e-12              -0.00012634          
  0.7                   0.00014776            2.223e-10             -1e-13                -0.00014738          
  0.75                  0.00016816            3.0418e-10            2e-14                 -0.00016778          
  0.8                   0.00018772            4.0872e-10            9.6e-13               -0.00018734          
  0.85                  0.00020638            5.4034e-10            1.94e-12              -0.000206            
  0.9                   0.00022404            7.0382e-10            6e-14                 -0.00022366          
  0.95                  0.00024076            9.0514e-10            8e-13                 -0.00024036          
  1                     0.00025644            1.1514e-09            8.6e-13               -0.00025608          
  1.05                  0.00027114            1.4474e-09            5.8e-13               -0.00027076          
  1.1                   0.00028478            1.8008e-09            3.8e-13               -0.0002844           
  1.15                  0.00029746            2.2208e-09            1.28e-12              -0.00029708          
  1.2                   0.0003092             2.7158e-09            6.2e-13               -0.00030884          
  1.25                  0.00032               3.295e-09             -1.2e-13              -0.00031964          
  1.3                   0.00032992            3.9702e-09            -2e-12                -0.00032954          
  1.35                  0.000339              4.7526e-09            -2.38e-12             -0.00033862          
END_DB

BEGIN_DB
 ICCAP_VAR vb         -0.3           
 ICCAP_VAR vd         0.05           
 ICCAP_VAR vs         0              

 #vg                    id                    ig                    ib                    is                   
  -0.5                  1.88e-12              -4.52e-12             -3.34e-12             2.42e-12             
  -0.45                 1.44e-12              -3.2e-12              -2.92e-12             1.76e-12             
  -0.4                  1.2e-12               -2.12e-12             -1.84e-12             1.34e-12             
  -0.35                 7.8e-13               -1.42e-12             -3.1e-12              8e-13                
  -0.3                  6e-13                 -9.2e-13              -3.08e-12             5.8e-13              
  -0.25                 4e-13                 -4.2e-13              -2.34e-12             2.8e-13              
  -0.2                  7.8e-13               -8e-14                -1.7e-12              -2.4e-13             
  -0.15                 2.58e-12              6e-14                 -1.46e-12             -2.12e-12            
  -0.1                  1.204e-11             1.6e-13               -1.54e-12             -1.188e-11           
  -0.05                 6.078e-11             2.2e-13               -2.76e-12             -6.028e-11           
  0                     3.0522e-10            4.4e-13               -2.04e-12             -3.0514e-10          
  0.05                  1.5384e-09            2.2e-13               -4.4e-13              -1.5368e-09          
  0.1                   7.6688e-09            4.2e-13               -1.4e-12              -7.6666e-09          
  0.15                  3.7688e-08            6.4e-13               -3.1e-12              -3.7662e-08          
  0.2                   1.7638e-07            1.32e-12              -1.62e-12             -1.7624e-07          
  0.25                  7.4668e-07            2.54e-12              -1e-12                -7.4654e-07          
  0.3                   2.6486e-06            5.12e-12              -2.28e-12             -2.6428e-06          
  0.35                  7.486e-06             9.92e-12              -1.6e-12              -7.4836e-06          
  0.4                   1.6816e-05            1.764e-11             -6.4e-13              -1.6792e-05          
  0.45                  3.091e-05             2.97e-11              1.8e-13               -3.0894e-05          
  0.5                   4.875e-05             4.736e-11             -8.8e-13              -4.8736e-05          
  0.55                  6.8822e-05            7.262e-11             -1.6e-12              -6.8796e-05          
  0.6                   8.9974e-05            1.075e-10             -9e-13                -8.9958e-05          
  0.65                  0.000111402           1.5462e-10            -4e-14                -0.000111386         
  0.7                   0.00013268            2.1672e-10            -3.2e-13              -0.00013228          
  0.75                  0.00015328            2.9786e-10            -9.2e-13              -0.0001529           
  0.8                   0.00017312            4.0122e-10            -8.4e-13              -0.00017274          
  0.85                  0.0001921             5.3192e-10            -7.2e-13              -0.00019172          
  0.9                   0.00021012            6.9414e-10            6.4e-13               -0.00020974          
  0.95                  0.00022718            8.9414e-10            -1.6e-13              -0.00022678          
  1                     0.0002432             1.1388e-09            -1.1e-12              -0.00024282          
  1.05                  0.00025822            1.4336e-09            -1.56e-12             -0.00025784          
  1.1                   0.00027218            1.7854e-09            -1.08e-12             -0.0002718           
  1.15                  0.0002852             2.2038e-09            2e-14                 -0.0002848           
  1.2                   0.00029724            2.6974e-09            -1e-12                -0.00029686          
  1.25                  0.00030832            3.275e-09             -9.4e-13              -0.00030796          
  1.3                   0.0003185             3.9482e-09            -3.1e-12              -0.00031814          
  1.35                  0.00032784            4.7292e-09            -5.26e-12             -0.00032748          
END_DB

BEGIN_DB
 ICCAP_VAR vb         -0.6           
 ICCAP_VAR vd         0.05           
 ICCAP_VAR vs         0              

 #vg                    id                    ig                    ib                    is                   
  -0.5                  1.76e-12              -4.48e-12             -4.06e-12             2.5e-12              
  -0.45                 1.38e-12              -3.08e-12             -4.38e-12             1.68e-12             
  -0.4                  1.08e-12              -2.26e-12             -3.12e-12             1.26e-12             
  -0.35                 7.6e-13               -1.44e-12             -3.66e-12             7.8e-13              
  -0.3                  5.4e-13               -9.4e-13              -3.74e-12             6.4e-13              
  -0.25                 4.6e-13               -4.4e-13              -3.94e-12             3.6e-13              
  -0.2                  3.8e-13               -1.2e-13              -2.94e-12             2e-13                
  -0.15                 9.4e-13               2e-14                 -1.34e-12             -6.8e-13             
  -0.1                  4.14e-12              2.2e-13               -2.76e-12             -3.78e-12            
  -0.05                 2.078e-11             3.2e-13               -2.42e-12             -2.056e-11           
  0                     1.0826e-10            3.6e-13               -3.04e-12             -1.0792e-10          
  0.05                  5.6402e-10            4.4e-13               -2.78e-12             -5.6396e-10          
  0.1                   2.915e-09             3.6e-13               -1.56e-12             -2.9138e-09          
  0.15                  1.4922e-08            5.4e-13               -2.56e-12             -1.49e-08            
  0.2                   7.3968e-08            1.1e-12               -3.08e-12             -7.396e-08           
  0.25                  3.4206e-07            2.12e-12              -1.82e-12             -3.4196e-07          
  0.3                   1.3702e-06            4.32e-12              -2.66e-12             -1.3644e-06          
  0.35                  4.4196e-06            8.84e-12              -1.7e-12              -4.416e-06           
  0.4                   1.12282e-05           1.62e-11              -1.66e-12             -1.12224e-05         
  0.45                  2.2856e-05            2.752e-11             -2.16e-12             -2.283e-05           
  0.5                   3.881e-05             4.478e-11             -1.92e-12             -3.8782e-05          
  0.55                  5.7686e-05            6.95e-11              -2.04e-12             -5.767e-05           
  0.6                   7.8212e-05            1.037e-10             -2.86e-12             -7.8192e-05          
  0.65                  9.935e-05             1.5012e-10            -1.32e-12             -9.932e-05           
  0.7                   0.00012056            2.1156e-10            -2.34e-12             -0.00012018          
  0.75                  0.00014124            2.9166e-10            -2.86e-12             -0.00014086          
  0.8                   0.00016122            3.9418e-10            -1.46e-12             -0.00016084          
  0.85                  0.00018044            5.2344e-10            -1.02e-12             -0.00018006          
  0.9                   0.00019868            6.849e-10             -1.44e-12             -0.0001983           
  0.95                  0.00021596            8.8372e-10            -2.02e-12             -0.00021558          
  1                     0.00023226            1.1266e-09            -2.04e-12             -0.00023188          
  1.05                  0.00024752            1.4204e-09            -2.16e-12             -0.00024714          
  1.1                   0.00026176            1.7706e-09            -1.56e-12             -0.00026136          
  1.15                  0.00027502            2.1876e-09            -1.46e-12             -0.00027464          
  1.2                   0.0002873             2.6792e-09            -1.6e-12              -0.0002869           
  1.25                  0.00029862            3.2552e-09            -2.74e-12             -0.0002982           
  1.3                   0.00030902            3.9258e-09            -3.04e-12             -0.00030864          
  1.35                  0.00031858            4.7054e-09            -5.48e-12             -0.0003182           
END_DB

BEGIN_DB
 ICCAP_VAR vb         -0.9           
 ICCAP_VAR vd         0.05           
 ICCAP_VAR vs         0              

 #vg                    id                    ig                    ib                    is                   
  -0.5                  1.84e-12              -4.36e-12             -5.4e-12              2.42e-12             
  -0.45                 1.42e-12              -3.16e-12             -5.52e-12             1.66e-12             
  -0.4                  1.12e-12              -2.1e-12              -4.34e-12             1.24e-12             
  -0.35                 8.2e-13               -1.42e-12             -3.56e-12             9.8e-13              
  -0.3                  5.6e-13               -8.4e-13              -4.8e-12              5.8e-13              
  -0.25                 4.4e-13               -4e-13                -4.22e-12             3.8e-13              
  -0.2                  4e-13                 -1.8e-13              -3.76e-12             2.4e-13              
  -0.15                 4.6e-13               1.8e-13               -3.82e-12             -1.4e-13             
  -0.1                  1.84e-12              1.2e-13               -2.76e-12             -1.38e-12            
  -0.05                 8.88e-12              2.6e-13               -3.94e-12             -8.66e-12            
  0                     4.716e-11             3.2e-13               -3.6e-12              -4.7e-11             
  0.05                  2.5196e-10            4.2e-13               -3.88e-12             -2.516e-10           
  0.1                   1.3364e-09            3.2e-13               -3.06e-12             -1.3344e-09          
  0.15                  7.0348e-09            6.6e-13               -2.82e-12             -7.0308e-09          
  0.2                   3.6216e-08            1.02e-12              -3.42e-12             -3.621e-08           
  0.25                  1.7744e-07            1.82e-12              -2.76e-12             -1.7734e-07          
  0.3                   7.7252e-07            3.82e-12              -2.14e-12             -7.724e-07           
  0.35                  2.7754e-06            7.74e-12              -2.86e-12             -2.7694e-06          
  0.4                   7.8118e-06            1.48e-11              -2.8e-12              -7.8062e-06          
  0.45                  1.736e-05             2.568e-11             -2.6e-12              -1.734e-05           
  0.5                   3.1528e-05            4.25e-11              -2.62e-12             -3.15e-05            
  0.55                  4.918e-05             6.652e-11             -2.2e-12              -4.916e-05           
  0.6                   6.8952e-05            1.0026e-10            -3.14e-12             -6.8936e-05          
  0.65                  8.9666e-05            1.4602e-10            -1.5e-12              -8.964e-05           
  0.7                   0.000110548           2.0674e-10            -2.32e-12             -0.000110532         
  0.75                  0.00013134            2.8578e-10            -2.28e-12             -0.00013094          
  0.8                   0.00015136            3.8738e-10            -2.56e-12             -0.00015096          
  0.85                  0.00017066            5.159e-10             -1.96e-12             -0.00017028          
  0.9                   0.00018908            6.7578e-10            -1.48e-12             -0.0001887           
  0.95                  0.00020654            8.7362e-10            -2.26e-12             -0.00020616          
  1                     0.00022302            1.1156e-09            -1.8e-12              -0.00022262          
  1.05                  0.0002385             1.4076e-09            -2.1e-12              -0.0002381           
  1.1                   0.00025294            1.7566e-09            -2.44e-12             -0.00025254          
  1.15                  0.0002664             2.1722e-09            -2.18e-12             -0.000266            
  1.2                   0.00027888            2.6626e-09            -1.44e-12             -0.0002785           
  1.25                  0.0002904             3.237e-09             -2.82e-12             -0.00029004          
  1.3                   0.000301              3.9062e-09            -4.32e-12             -0.00030064          
  1.35                  0.00031076            4.6842e-09            -6.34e-12             -0.0003104           
END_DB

BEGIN_DB
 ICCAP_VAR vb         -1.2           
 ICCAP_VAR vd         0.05           
 ICCAP_VAR vs         0              

 #vg                    id                    ig                    ib                    is                   
  -0.5                  1.78e-12              -4.52e-12             -6.14e-12             2.16e-12             
  -0.45                 1.4e-12               -3.06e-12             -6.66e-12             1.82e-12             
  -0.4                  9.2e-13               -2.04e-12             -4.78e-12             1.22e-12             
  -0.35                 6.8e-13               -1.28e-12             -3.92e-12             8.6e-13              
  -0.3                  5.6e-13               -8.6e-13              -5e-12                7.2e-13              
