! VERSION = 6.00
BEGIN_HEADER
 ICCAP_INPUTS
  vd         V  D GROUND SMU1 0.1 LIN        1    0          1.35       28   0.05      
  vg         V  G GROUND SMU2 0.001 LIN        2    0.646      1.35       5    0.176     
  vb         V  B GROUND SMU4 0.1 CON        -1.2
  vs         V  S GROUND SMU3 0.1 CON        0
 ICCAP_OUTPUTS
  id         I  D GROUND SMU1 B
  ig         I  G GROUND SMU2 B
  ib         I  B GROUND SMU4 B
  is         I  S GROUND SMU3 B
 ICCAP_VALUES
  MASTER_SETUP_TYPE "~dc_idvd~"
  LINVT_VALUE "|idvg|100.0n|100.0m|1.000m|5|1.350|"
  LISTVT_VALUE ""
  TYPE "1"
  TEMP " 27.0000 "
  IS_TNOM " 1.00000 "
  MAIN.W "180.0n"
  MAIN.L "130.0n"
  MAIN.AD "102.6f"
  MAIN.AS "102.6f"
  MAIN.PD "1.340u"
  MAIN.PS "1.340u"
  MAIN.NF "1.000"
  MAIN.M "1"
  MAIN.NRD "0.000"
  MAIN.NRS "0.000"
  MAIN.LDRIFT1 "1E-06"
  MAIN.LDRIFT2 "1E-06"
  MAIN.SA "0.000"
  MAIN.SB "0.000"
  MAIN.SD "0.000"
  MAIN.SCA "0.000"
  MAIN.SCB "0.000"
  MAIN.SCC "0.000"
  MAIN.SC "0.000"
  MODULE "S545"
  PIN_D "16"
  PIN_G "5"
  PIN_S "6"
  PIN_B "15"
  PIN_E ""
  PIN_6 ""
  XY_ID ""
  FUNC "LW Scale"
  STI "SA ref"
  WPE "WPE ref"
  COMMENT ""
  DIS_MEAS ""
  TypeTCI "10"
END_HEADER

BEGIN_DB
 ICCAP_VAR vg         0.646          
 ICCAP_VAR vb         -1.2           
 ICCAP_VAR vs         0              

 #vd                    id                    ig                    ib                    is                   
  0                     8.836e-10             1.06e-12              -1.368e-11            -6.6012e-10          
  0.05                  3.4334e-07            9.8e-13               -1.4e-11              -3.4356e-07          
  0.1                   5.049e-07             7.2e-13               -1.242e-11            -5.0458e-07          
  0.15                  6.0836e-07            6.2e-13               -1.214e-11            -6.081e-07           
  0.2                   6.9392e-07            5e-13                 -1.182e-11            -6.9348e-07          
  0.25                  7.7374e-07            6.6e-13               -1.136e-11            -7.7276e-07          
  0.3                   8.5006e-07            6.2e-13               -1.04e-11             -8.5e-07             
  0.35                  9.2564e-07            4.6e-13               -9.68e-12             -9.2528e-07          
  0.4                   1.00198e-06           6.6e-13               -1.022e-11            -1.00086e-06         
  0.45                  1.07594e-06           7e-13                 -9.64e-12             -1.07698e-06         
  0.5                   1.1568e-06            5.2e-13               -8.88e-12             -1.15432e-06         
  0.55                  1.238e-06             6e-13                 -8.06e-12             -1.233e-06           
  0.6                   1.3188e-06            6.4e-13               -7.58e-12             -1.3162e-06          
  0.65                  1.402e-06             6e-13                 -7.34e-12             -1.3998e-06          
  0.7                   1.491e-06             5.2e-13               -7.78e-12             -1.4854e-06          
  0.75                  1.581e-06             6.4e-13               -7.08e-12             -1.5764e-06          
  0.8                   1.6734e-06            5.2e-13               -5.38e-12             -1.6678e-06          
  0.85                  1.7668e-06            4.8e-13               -7.96e-12             -1.7644e-06          
  0.9                   1.8688e-06            5.4e-13               -7.02e-12             -1.864e-06           
  0.95                  1.9706e-06            5.4e-13               -8.14e-12             -1.965e-06           
  1                     2.076e-06             6.8e-13               -6.88e-12             -2.072e-06           
  1.05                  2.184e-06             3.6e-13               -7.34e-12             -2.184e-06           
  1.1                   2.3112e-06            5.4e-13               -9e-12                -2.304e-06           
  1.15                  2.4306e-06            5e-13                 -1.422e-11            -2.4236e-06          
  1.2                   2.5486e-06            5.4e-13               -2.202e-11            -2.546e-06           
  1.25                  2.6718e-06            4.8e-13               -3.982e-11            -2.6692e-06          
  1.3                   2.8048e-06            4e-13                 -7.246e-11            -2.8004e-06          
  1.35                  2.943e-06             4.4e-13               -1.2582e-10           -2.933e-06           
END_DB

BEGIN_DB
 ICCAP_VAR vg         0.822          
 ICCAP_VAR vb         -1.2           
 ICCAP_VAR vs         0              

 #vd                    id                    ig                    ib                    is                   
  0                     2.9864e-09            2.98e-12              -3.18e-12             -2.9338e-09          
  0.05                  2.6012e-06            2.52e-12              -2.96e-12             -2.5962e-06          
  0.1                   4.3524e-06            2.38e-12              -4.28e-12             -4.3468e-06          
  0.15                  5.5076e-06            1.92e-12              -3.72e-12             -5.5042e-06          
  0.2                   6.3132e-06            1.82e-12              -3.3e-12              -6.3038e-06          
  0.25                  6.9166e-06            1.84e-12              -4.5e-12              -6.9116e-06          
  0.3                   7.414e-06             1.62e-12              -3.94e-12             -7.4074e-06          
  0.35                  7.8428e-06            1.68e-12              -3.04e-12             -7.8392e-06          
  0.4                   8.2384e-06            1.66e-12              -3.84e-12             -8.2374e-06          
  0.45                  8.6006e-06            1.56e-12              -3.6e-12              -8.603e-06           
  0.5                   8.9536e-06            1.66e-12              -3.74e-12             -8.9554e-06          
  0.55                  9.2964e-06            1.5e-12               -3.96e-12             -9.29e-06            
  0.6                   9.6314e-06            1.58e-12              -3.22e-12             -9.6268e-06          
  0.65                  9.9642e-06            1.56e-12              -2.92e-12             -9.9568e-06          
  0.7                   1.02954e-05           1.58e-12              -4.04e-12             -1.02994e-05         
  0.75                  1.06284e-05           1.52e-12              -3.74e-12             -1.06224e-05         
  0.8                   1.09594e-05           1.38e-12              -3.32e-12             -1.09662e-05         
  0.85                  1.1318e-05            1.48e-12              -3.12e-12             -1.12936e-05         
  0.9                   1.1652e-05            1.54e-12              -3.94e-12             -1.16342e-05         
  0.95                  1.2046e-05            1.58e-12              -3.56e-12             -1.1982e-05          
  1                     1.2344e-05            1.52e-12              -4.8e-13              -1.2324e-05          
  1.05                  1.2684e-05            1.46e-12              -6.08e-12             -1.2748e-05          
  1.1                   1.312e-05             1.54e-12              -9.76e-12             -1.3064e-05          
  1.15                  1.3462e-05            1.48e-12              -1.896e-11            -1.3474e-05          
  1.2                   1.386e-05             1.36e-12              -3.992e-11            -1.3846e-05          
  1.25                  1.4238e-05            1.26e-12              -7.844e-11            -1.4222e-05          
  1.3                   1.462e-05             1.38e-12              -1.523e-10            -1.4616e-05          
  1.35                  1.5008e-05            1.38e-12              -2.835e-10            -1.5e-05             
END_DB

BEGIN_DB
 ICCAP_VAR vg         0.998          
 ICCAP_VAR vb         -1.2           
 ICCAP_VAR vs         0              

 #vd                    id                    ig                    ib                    is                   
  0                     1.016e-08             6.96e-12              -1.06e-12             -9.424e-09           
  0.05                  6.1484e-06            6.22e-12              -1.9e-12              -6.1428e-06          
  0.1                   1.10816e-05           5.72e-12              -1.82e-12             -1.1076e-05          
  0.15                  1.4874e-05            5.1e-12               -1.46e-12             -1.4856e-05          
  0.2                   1.7708e-05            4.66e-12              -2.8e-12              -1.7688e-05          
  0.25                  1.9676e-05            4.48e-12              -2.7e-12              -1.9658e-05          
  0.3                   2.1286e-05            4.1e-12               -1.44e-12             -2.1268e-05          
  0.35                  2.2558e-05            3.86e-12              -2.42e-12             -2.2546e-05          
  0.4                   2.3612e-05            3.74e-12              -3.16e-12             -2.359e-05           
  0.45                  2.4518e-05            3.52e-12              -1.68e-12             -2.4498e-05          
  0.5                   2.5512e-05            3.42e-12              -2.64e-12             -2.5494e-05          
  0.55                  2.625e-05             3.46e-12              -2.64e-12             -2.6228e-05          
  0.6                   2.6934e-05            3.56e-12              -2.12e-12             -2.6914e-05          
  0.65                  2.7592e-05            3.36e-12              -2.26e-12             -2.7582e-05          
  0.7                   2.8226e-05            3.34e-12              -2.74e-12             -2.8208e-05          
  0.75                  2.8846e-05            3.28e-12              -1.6e-12              -2.8828e-05          
  0.8                   2.945e-05             3.38e-12              -2.54e-12             -2.9452e-05          
  0.85                  2.9968e-05            3.38e-12              -3.18e-12             -3.006e-05           
  0.9                   3.0664e-05            3.14e-12              -2.7e-12              -3.0654e-05          
  0.95                  3.1276e-05            3.24e-12              -3.9e-12              -3.1252e-05          
  1                     3.188e-05             3.32e-12              -5.14e-12             -3.1856e-05          
  1.05                  3.2458e-05            3.14e-12              -7.34e-12             -3.2472e-05          
  1.1                   3.3162e-05            3.18e-12              -1.414e-11            -3.3128e-05          
  1.15                  3.3718e-05            3.3e-12               -2.874e-11            -3.371e-05           
  1.2                   3.4428e-05            3.16e-12              -5.77e-11             -3.4416e-05          
  1.25                  3.506e-05             3.22e-12              -1.1718e-10           -3.5036e-05          
  1.3                   3.5678e-05            3.16e-12              -2.2568e-10           -3.567e-05           
  1.35                  3.6322e-05            3.2e-12               -4.1628e-10           -3.63e-05            
END_DB

BEGIN_DB
 ICCAP_VAR vg         1.174          
 ICCAP_VAR vb         -1.2           
 ICCAP_VAR vs         0              

 #vd                    id                    ig                    ib                    is                   
  0                     1.5264e-08            1.404e-11             -1.42e-12             -1.463e-08           
  0.05                  9.616e-06             1.27e-11              -1.54e-12             -9.5322e-06          
  0.1                   1.7762e-05            1.158e-11             -8.4e-13              -1.7956e-05          
  0.15                  2.4928e-05            1.058e-11             -2.32e-12             -2.4914e-05          
  0.2                   3.0512e-05            9.84e-12              -1.88e-12             -3.0498e-05          
  0.25                  3.4912e-05            9.16e-12              -1.06e-12             -3.4898e-05          
  0.3                   3.8352e-05            8.58e-12              -2.38e-12             -3.833e-05           
  0.35                  4.1048e-05            8.18e-12              -2.62e-12             -4.104e-05           
  0.4                   4.3212e-05            7.7e-12               -1.32e-12             -4.3198e-05          
  0.45                  4.4974e-05            7.36e-12              -2.32e-12             -4.4942e-05          
  0.5                   4.6454e-05            7.26e-12              -2.22e-12             -4.6436e-05          
  0.55                  4.7732e-05            7.1e-12               -1.08e-12             -4.7724e-05          
  0.6                   4.9136e-05            7e-12                 -2.32e-12             -4.9144e-05          
  0.65                  5.0204e-05            6.82e-12              -2.66e-12             -5.0192e-05          
  0.7                   5.1154e-05            6.88e-12              -1.46e-12             -5.1022e-05          
  0.75                  5.2074e-05            6.6e-12               -2.82e-12             -5.207e-05           
  0.8                   5.295e-05             6.44e-12              -2.46e-12             -5.293e-05           
  0.85                  5.3788e-05            6.6e-12               -1.74e-12             -5.3776e-05          
  0.9                   5.461e-05             6.42e-12              -2.84e-12             -5.426e-05           
  0.95                  5.5036e-05            6.56e-12              -3.4e-12              -5.5062e-05          
  1                     5.585e-05             6.78e-12              -5e-12                -5.5572e-05          
  1.05                  5.6698e-05            6.48e-12              -1.004e-11            -5.671e-05           
  1.1                   5.7508e-05            6.32e-12              -1.93e-11             -5.7448e-05          
  1.15                  5.8222e-05            6.34e-12              -3.73e-11             -5.828e-05           
  1.2                   5.9044e-05            6.18e-12              -7.766e-11            -5.933e-05           
  1.25                  6.0244e-05            6.28e-12              -1.5076e-10           -6.0206e-05          
  1.3                   6.1042e-05            6.2e-12               -2.8154e-10           -6.082e-05           
  1.35                  6.182e-05             6.24e-12              -5.124e-10            -6.1546e-05          
END_DB

BEGIN_DB
 ICCAP_VAR vg         1.35           
 ICCAP_VAR vb         -1.2           
 ICCAP_VAR vs         0              

 #vd                    id                    ig                    ib                    is                   
  0                     1.9526e-08            2.5e-11               -6.4e-13              -1.8954e-08          
  0.05                  1.2476e-05            2.318e-11             -1.4e-12              -1.2456e-05          
  0.1                   2.3856e-05            2.146e-11             -1.88e-12             -2.3948e-05          
  0.15                  3.3878e-05            1.98e-11              -5.6e-13              -3.3856e-05          
  0.2                   4.2252e-05            1.842e-11             -2.1e-12              -4.2236e-05          
  0.25                  4.9172e-05            1.72e-11              -2.14e-12             -4.9152e-05          
  0.3                   5.475e-05             1.62e-11              -5.8e-13              -5.474e-05           
  0.35                  5.9252e-05            1.54e-11              -1.82e-12             -5.925e-05           
  0.4                   6.2824e-05            1.46e-11              -2.08e-12             -6.291e-05           
  0.45                  6.5878e-05            1.404e-11             -1.02e-12             -6.5862e-05          
  0.5                   6.8124e-05            1.348e-11             -2.2e-12              -6.7852e-05          
  0.55                  7.0344e-05            1.3e-11               -1.68e-12             -7.0366e-05          
  0.6                   7.2132e-05            1.27e-11              -1.1e-12              -7.2118e-05          
  0.65                  7.3636e-05            1.238e-11             -2.86e-12             -7.3658e-05          
  0.7                   7.5056e-05            1.23e-11              -1.78e-12             -7.505e-05           
  0.75                  7.633e-05             1.196e-11             -1.96e-12             -7.6262e-05          
  0.8                   7.7364e-05            1.2e-11               -2.42e-12             -7.7454e-05          
  0.85                  7.8588e-05            1.192e-11             -1.24e-12             -7.8562e-05          
  0.9                   7.953e-05             1.214e-11             -2e-12                -7.9596e-05          
  0.95                  8.0408e-05            1.158e-11             -4.16e-12             -8.0338e-05          
  1                     8.113e-05             1.148e-11             -6.14e-12             -8.098e-05           
  1.05                  8.1842e-05            1.134e-11             -1.278e-11            -8.195e-05           
  1.1                   8.2924e-05            1.14e-11              -2.552e-11            -8.2782e-05          
  1.15                  8.3822e-05            1.136e-11             -4.656e-11            -8.3824e-05          
  1.2                   8.4668e-05            1.158e-11             -9.194e-11            -8.47e-05            
  1.25                  8.59e-05              1.122e-11             -1.728e-10            -8.61e-05            
  1.3                   8.7056e-05            1.14e-11              -3.1608e-10           -8.7132e-05          
  1.35                  8.8176e-05            1.168e-11             -5.6508e-10           -8.8092e-05          
END_DB

