! VERSION = 6.00
BEGIN_HEADER
 ICCAP_INPUTS
  vd         V  D GROUND SMU1 0.1 LIN        1    0          1.35       28   0.05      
  vg         V  G GROUND SMU2 0.001 LIN        2    0.646      1.35       5    0.176     
  vb         V  B GROUND SMU4 0.1 CON        -1.2
  vs         V  S GROUND SMU3 0.1 CON        0
 ICCAP_OUTPUTS
  id         I  D GROUND SMU1 B
  ig         I  G GROUND SMU2 B
  ib         I  B GROUND SMU4 B
  is         I  S GROUND SMU3 B
 ICCAP_VALUES
  MASTER_SETUP_TYPE "~dc_idvd~"
  LINVT_VALUE "|idvg|100.0n|100.0m|1.000m|5|1.350|"
  LISTVT_VALUE ""
  TYPE "1"
  TEMP " 27.0000 "
  IS_TNOM " 1.00000 "
  MAIN.W "600.0n"
  MAIN.L "130.0n"
  MAIN.AD "204.0f"
  MAIN.AS "204.0f"
  MAIN.PD "1.880u"
  MAIN.PS "1.880u"
  MAIN.NF "1.000"
  MAIN.M "1"
  MAIN.NRD "0.000"
  MAIN.NRS "0.000"
  MAIN.LDRIFT1 "1E-06"
  MAIN.LDRIFT2 "1E-06"
  MAIN.SA "0.000"
  MAIN.SB "0.000"
  MAIN.SD "0.000"
  MAIN.SCA "0.000"
  MAIN.SCB "0.000"
  MAIN.SCC "0.000"
  MAIN.SC "0.000"
  MODULE "S543"
  PIN_D "18"
  PIN_G "3"
  PIN_S "4"
  PIN_B "17"
  PIN_E ""
  PIN_6 ""
  XY_ID ""
  FUNC "LW Scale"
  STI "SA ref"
  WPE "WPE ref"
  COMMENT ""
  DIS_MEAS ""
  TypeTCI "10"
END_HEADER

BEGIN_DB
 ICCAP_VAR vg         0.646          
 ICCAP_VAR vb         -1.2           
 ICCAP_VAR vs         0              

 #vd                    id                    ig                    ib                    is                   
  0                     2.6512e-09            2.12e-12              -1.304e-11            -1.9172e-09          
  0.05                  1.1832e-06            1.56e-12              -1.138e-11            -1.1772e-06          
  0.1                   1.7372e-06            1.62e-12              -1.174e-11            -1.7338e-06          
  0.15                  2.0592e-06            1.42e-12              -1.122e-11            -2.0506e-06          
  0.2                   2.2944e-06            1.6e-12               -1.054e-11            -2.2848e-06          
  0.25                  2.4952e-06            1.42e-12              -1.002e-11            -2.49e-06            
  0.3                   2.693e-06             1.38e-12              -9.32e-12             -2.685e-06           
  0.35                  2.8916e-06            1.34e-12              -9.34e-12             -2.8868e-06          
  0.4                   3.08e-06              1.4e-12               -9.12e-12             -3.0774e-06          
  0.45                  3.2752e-06            1.36e-12              -9.32e-12             -3.2736e-06          
  0.5                   3.478e-06             1.46e-12              -7.84e-12             -3.475e-06           
  0.55                  3.6864e-06            1.46e-12              -8.82e-12             -3.6824e-06          
  0.6                   3.904e-06             1.18e-12              -7.56e-12             -3.9046e-06          
  0.65                  4.1294e-06            1.26e-12              -7.24e-12             -4.1244e-06          
  0.7                   4.354e-06             1.36e-12              -7.44e-12             -4.3454e-06          
  0.75                  4.5888e-06            1.24e-12              -7.48e-12             -4.5812e-06          
  0.8                   4.832e-06             1.26e-12              -6.9e-12              -4.8242e-06          
  0.85                  5.0836e-06            1.38e-12              -7.8e-12              -5.0802e-06          
  0.9                   5.3456e-06            1.2e-12               -7.08e-12             -5.3376e-06          
  0.95                  5.617e-06             1.18e-12              -6.84e-12             -5.6158e-06          
  1                     5.9048e-06            1.16e-12              -8.4e-12              -5.8994e-06          
  1.05                  6.2038e-06            1.18e-12              -9.56e-12             -6.2056e-06          
  1.1                   6.5178e-06            1.16e-12              -1.386e-11            -6.5066e-06          
  1.15                  6.8384e-06            1.18e-12              -2.556e-11            -6.826e-06           
  1.2                   7.1654e-06            1.04e-12              -4.756e-11            -7.164e-06           
  1.25                  7.513e-06             1.02e-12              -9.208e-11            -7.5108e-06          
  1.3                   7.8784e-06            9.4e-13               -1.7372e-10           -7.878e-06           
  1.35                  8.2548e-06            8.8e-13               -3.121e-10            -8.2436e-06          
END_DB

BEGIN_DB
 ICCAP_VAR vg         0.822          
 ICCAP_VAR vb         -1.2           
 ICCAP_VAR vs         0              

 #vd                    id                    ig                    ib                    is                   
  0                     1.3856e-08            6.28e-12              -3.3e-12              -1.399e-08           
  0.05                  7.8114e-06            5.5e-12               -3.78e-12             -7.8066e-06          
  0.1                   1.3178e-05            5.06e-12              -4.28e-12             -1.3156e-05          
  0.15                  1.6762e-05            4.64e-12              -4.18e-12             -1.6744e-05          
  0.2                   1.9212e-05            4.36e-12              -4.02e-12             -1.9188e-05          
  0.25                  2.097e-05             4.26e-12              -3.36e-12             -2.096e-05           
  0.3                   2.2388e-05            4.2e-12               -3.18e-12             -2.2372e-05          
  0.35                  2.3606e-05            3.94e-12              -4.38e-12             -2.36e-05            
  0.4                   2.4722e-05            3.98e-12              -2.64e-12             -2.4712e-05          
  0.45                  2.5764e-05            3.86e-12              -3.86e-12             -2.5746e-05          
  0.5                   2.6762e-05            3.92e-12              -4.14e-12             -2.6744e-05          
  0.55                  2.7738e-05            3.98e-12              -3e-12                -2.7742e-05          
  0.6                   2.8724e-05            3.86e-12              -4.24e-12             -2.8702e-05          
  0.65                  2.9672e-05            3.92e-12              -3.8e-12              -2.9676e-05          
  0.7                   3.0628e-05            3.8e-12               -2.3e-12              -3.0628e-05          
  0.75                  3.1608e-05            3.66e-12              -3.4e-12              -3.1586e-05          
  0.8                   3.2586e-05            3.86e-12              -3.86e-12             -3.2568e-05          
  0.85                  3.3554e-05            3.8e-12               -2.86e-12             -3.3558e-05          
  0.9                   3.4568e-05            3.94e-12              -4.42e-12             -3.4546e-05          
  0.95                  3.555e-05             3.76e-12              -4.38e-12             -3.5544e-05          
  1                     3.6578e-05            3.84e-12              -4.92e-12             -3.6544e-05          
  1.05                  3.7578e-05            3.84e-12              -9.74e-12             -3.7562e-05          
  1.1                   3.8638e-05            3.64e-12              -2.008e-11            -3.8628e-05          
  1.15                  3.9706e-05            3.8e-12               -4.262e-11            -3.967e-05           
  1.2                   4.0744e-05            3.6e-12               -9.406e-11            -4.0746e-05          
  1.25                  4.1854e-05            3.54e-12              -1.9486e-10           -4.1824e-05          
  1.3                   4.2962e-05            3.52e-12              -3.8628e-10           -4.2916e-05          
  1.35                  4.4046e-05            3.52e-12              -7.3146e-10           -4.405e-05           
END_DB

BEGIN_DB
 ICCAP_VAR vg         0.998          
 ICCAP_VAR vb         -1.2           
 ICCAP_VAR vs         0              

 #vd                    id                    ig                    ib                    is                   
  0                     2.969e-08             1.598e-11             -2.14e-12             -2.8856e-08          
  0.05                  1.7894e-05            1.444e-11             -1.6e-12              -1.7874e-05          
  0.1                   3.2412e-05            1.324e-11             -3.12e-12             -3.2394e-05          
  0.15                  4.3718e-05            1.226e-11             -2.36e-12             -4.3684e-05          
  0.2                   5.2214e-05            1.136e-11             -1.92e-12             -5.2226e-05          
  0.25                  5.8594e-05            1.084e-11             -2.82e-12             -5.8582e-05          
  0.3                   6.3364e-05            1.042e-11             -2.6e-12              -6.3342e-05          
  0.35                  6.7038e-05            1.012e-11             -2.06e-12             -6.7026e-05          
  0.4                   6.998e-05             9.9e-12               -3.02e-12             -7.002e-05           
  0.45                  7.2534e-05            9.78e-12              -2.38e-12             -7.2552e-05          
  0.5                   7.4842e-05            9.64e-12              -1.98e-12             -7.4806e-05          
  0.55                  7.6998e-05            9.36e-12              -3.22e-12             -7.7016e-05          
  0.6                   7.8998e-05            9.38e-12              -2.7e-12              -7.8982e-05          
  0.65                  8.0814e-05            9.42e-12              -7.6e-13              -8.0844e-05          
  0.7                   8.2666e-05            9.26e-12              -2.98e-12             -8.2622e-05          
  0.75                  8.4374e-05            9.22e-12              -2.52e-12             -8.4392e-05          
  0.8                   8.6118e-05            9.2e-12               -2.02e-12             -8.6132e-05          
  0.85                  8.7868e-05            9.18e-12              -3.4e-12              -8.7832e-05          
  0.9                   8.9544e-05            9.08e-12              -3.22e-12             -8.955e-05           
  0.95                  9.125e-05             9e-12                 -4.42e-12             -9.1454e-05          
  1                     9.3186e-05            9.06e-12              -7.54e-12             -9.316e-05           
  1.05                  9.4858e-05            8.98e-12              -1.474e-11            -9.4746e-05          
  1.1                   9.646e-05             9.08e-12              -2.98e-11             -9.6444e-05          
  1.15                  9.8162e-05            8.9e-12               -6.568e-11            -9.8256e-05          
  1.2                   9.9978e-05            8.9e-12               -1.3516e-10           -9.997e-05           
  1.25                  0.000101686           8.82e-12              -2.7466e-10           -0.000101668         
  1.3                   0.00010339            8.74e-12              -5.4074e-10           -0.000103384         
  1.35                  0.000105132           8.88e-12              -1.0154e-09           -0.000105104         
END_DB

BEGIN_DB
 ICCAP_VAR vg         1.174          
 ICCAP_VAR vb         -1.2           
 ICCAP_VAR vs         0              

 #vd                    id                    ig                    ib                    is                   
  0                     4.5494e-08            3.366e-11             -1.1e-12              -4.4476e-08          
  0.05                  2.766e-05             3.086e-11             -2.34e-12             -2.7642e-05          
  0.1                   5.1764e-05            2.85e-11              -1.46e-12             -5.1758e-05          
  0.15                  7.198e-05             2.654e-11             -1.56e-12             -7.1966e-05          
  0.2                   8.8396e-05            2.484e-11             -2e-12                -8.8402e-05          
  0.25                  0.000101456           2.36e-11              -2.04e-12             -0.000101416         
  0.3                   0.000111644           2.246e-11             -1.9e-12              -0.00011165          
  0.35                  0.00011978            2.156e-11             -9.2e-13              -0.00011938          
  0.4                   0.00012604            2.096e-11             -2.1e-12              -0.00012566          
  0.45                  0.00013094            2.046e-11             -2.2e-12              -0.00013076          
  0.5                   0.0001353             1.998e-11             -1.38e-12             -0.00013492          
  0.55                  0.00013894            1.968e-11             -2.76e-12             -0.00013856          
  0.6                   0.00014214            1.954e-11             -1.86e-12             -0.0001417           
  0.65                  0.00014502            1.936e-11             -1.3e-12              -0.00014464          
  0.7                   0.00014774            1.9e-11               -2.52e-12             -0.00014736          
  0.75                  0.00015034            1.9e-11               -1.68e-12             -0.00014992          
  0.8                   0.00015276            1.894e-11             -2.16e-12             -0.00015236          
  0.85                  0.00015514            1.876e-11             -2.54e-12             -0.00015478          
  0.9                   0.0001575             1.876e-11             -2.72e-12             -0.00015712          
  0.95                  0.0001598             1.858e-11             -5.34e-12             -0.0001595           
  1                     0.00016228            1.848e-11             -9.86e-12             -0.0001619           
  1.05                  0.0001645             1.846e-11             -1.822e-11            -0.00016414          
  1.1                   0.00016668            1.846e-11             -4.086e-11            -0.00016616          
  1.15                  0.0001689             1.828e-11             -8.532e-11            -0.00016852          
  1.2                   0.00017114            1.836e-11             -1.7156e-10           -0.0001707           
  1.25                  0.00017324            1.83e-11              -3.392e-10            -0.00017284          
  1.3                   0.00017552            1.806e-11             -6.4632e-10           -0.000175            
  1.35                  0.0001775             1.812e-11             -1.1874e-09           -0.00017712          
END_DB

BEGIN_DB
 ICCAP_VAR vg         1.35           
 ICCAP_VAR vb         -1.2           
 ICCAP_VAR vs         0              

 #vd                    id                    ig                    ib                    is                   
  0                     5.7434e-08            6.38e-11              -1.1e-12              -5.6384e-08          
  0.05                  3.6002e-05            5.91e-11              -5.8e-13              -3.5976e-05          
  0.1                   6.8558e-05            5.498e-11             -2.32e-12             -6.8536e-05          
  0.15                  9.6992e-05            5.142e-11             -1.64e-12             -9.6972e-05          
  0.2                   0.00012128            4.824e-11             -1.62e-12             -0.0001209           
  0.25                  0.00014136            4.58e-11              -8.4e-13              -0.00014094          
  0.3                   0.00015792            4.342e-11             -1.92e-12             -0.00015754          
  0.35                  0.00017108            4.166e-11             -1.6e-12              -0.00017066          
  0.4                   0.00018174            4.022e-11             -1.06e-12             -0.00018136          
  0.45                  0.00019042            3.9e-11               -1.84e-12             -0.00019004          
  0.5                   0.00019776            3.806e-11             -1.12e-12             -0.00019712          
  0.55                  0.00020338            3.744e-11             -1.48e-12             -0.00020298          
  0.6                   0.00020838            3.672e-11             -2.42e-12             -0.00020798          
  0.65                  0.00021268            3.622e-11             -1.2e-12              -0.00021234          
  0.7                   0.00021662            3.568e-11             -1.42e-12             -0.00021624          
  0.75                  0.00021996            3.552e-11             -1.52e-12             -0.00021976          
  0.8                   0.00022342            3.514e-11             -2.06e-12             -0.00022304          
  0.85                  0.00022652            3.496e-11             -1.6e-12              -0.0002262           
  0.9                   0.00022946            3.474e-11             -3.18e-12             -0.00022932          
  0.95                  0.00023266            3.438e-11             -4.7e-12              -0.00023202          
  1                     0.00023534            3.438e-11             -1.144e-11            -0.00023476          
  1.05                  0.0002381             3.43e-11              -2.35e-11             -0.00023768          
  1.1                   0.00024076            3.4e-11               -4.754e-11            -0.00024042          
  1.15                  0.00024338            3.396e-11             -1.0002e-10           -0.000243            
  1.2                   0.00024594            3.376e-11             -1.9826e-10           -0.0002456           
  1.25                  0.00024854            3.356e-11             -3.8118e-10           -0.00024808          
  1.3                   0.00025096            3.346e-11             -7.1122e-10           -0.0002506           
  1.35                  0.00025344            3.328e-11             -1.2822e-09           -0.00025306          
END_DB

