! VERSION = 6.00
BEGIN_HEADER
 ICCAP_INPUTS
  vd         V  D GROUND SMU1 0.1 LIN        1    0          1.35       28   0.05      
  vg         V  G GROUND SMU2 0.001 LIN        2    0.65       1.35       5    0.175     
  vb         V  B GROUND SMU4 0.1 CON        -1.2
  vs         V  S GROUND SMU3 0.1 CON        0
 ICCAP_OUTPUTS
  id         I  D GROUND SMU1 B
  ig         I  G GROUND SMU2 B
  ib         I  B GROUND SMU4 B
  is         I  S GROUND SMU3 B
 ICCAP_VALUES
  MASTER_SETUP_TYPE "~dc_idvd~"
  LINVT_VALUE "|idvg|100.0n|100.0m|1.000m|5|1.350|"
  LISTVT_VALUE ""
  TYPE "1"
  TEMP " 70.0000 "
  IS_TNOM " 0.00000 "
  MAIN.W "300.0n"
  MAIN.L "130.0n"
  MAIN.AD "102.0f"
  MAIN.AS "102.0f"
  MAIN.PD "1.280u"
  MAIN.PS "1.280u"
  MAIN.NF "1.000"
  MAIN.M "1"
  MAIN.NRD "0.000"
  MAIN.NRS "0.000"
  MAIN.LDRIFT1 "1E-06"
  MAIN.LDRIFT2 "1E-06"
  MAIN.SA "0.000"
  MAIN.SB "0.000"
  MAIN.SD "0.000"
  MAIN.SCA "0.000"
  MAIN.SCB "0.000"
  MAIN.SCC "0.000"
  MAIN.SC "0.000"
  MODULE "S544"
  PIN_D "18"
  PIN_G "3"
  PIN_S "4"
  PIN_B "17"
  PIN_E ""
  PIN_6 ""
  XY_ID ""
  FUNC "LW Scale"
  STI "SA ref"
  WPE "WPE ref"
  COMMENT ""
  DIS_MEAS ""
  TypeTCI "10"
END_HEADER

BEGIN_DB
 ICCAP_VAR vg         0.65           
 ICCAP_VAR vb         -1.2           
 ICCAP_VAR vs         0              

 #vd                    id                    ig                    ib                    is                   
  0                     9.918e-10             1.04e-12              -2.53e-11             -6.7218e-10          
  0.05                  5.8518e-07            7.6e-13               -2.402e-11            -5.8468e-07          
  0.1                   8.5874e-07            7e-13                 -2.208e-11            -8.5526e-07          
  0.15                  9.9694e-07            6.2e-13               -2.008e-11            -9.9664e-07          
  0.2                   1.0831e-06            5.8e-13               -2.03e-11             -1.09058e-06         
  0.25                  1.1716e-06            6.2e-13               -1.656e-11            -1.191e-06           
  0.3                   1.2662e-06            5.2e-13               -1.604e-11            -1.2744e-06          
  0.35                  1.3694e-06            4.8e-13               -1.484e-11            -1.3538e-06          
  0.4                   1.4556e-06            4.8e-13               -1.57e-11             -1.4172e-06          
  0.45                  1.5252e-06            4.8e-13               -1.548e-11            -1.5332e-06          
  0.5                   1.6234e-06            4.4e-13               -1.398e-11            -1.6256e-06          
  0.55                  1.7148e-06            3.6e-13               -1.512e-11            -1.7156e-06          
  0.6                   1.8146e-06            4.4e-13               -1.442e-11            -1.8084e-06          
  0.65                  1.8966e-06            3.4e-13               -1.264e-11            -1.8906e-06          
  0.7                   1.9886e-06            5.2e-13               -1.27e-11             -1.9928e-06          
  0.75                  2.0974e-06            4.4e-13               -1.288e-11            -2.0806e-06          
  0.8                   2.1792e-06            5e-13                 -1.102e-11            -2.1886e-06          
  0.85                  2.3014e-06            4.4e-13               -1.232e-11            -2.3144e-06          
  0.9                   2.4014e-06            3.8e-13               -1.286e-11            -2.405e-06           
  0.95                  2.5224e-06            4.2e-13               -1.184e-11            -2.5326e-06          
  1                     2.6442e-06            3.2e-13               -1.29e-11             -2.656e-06           
  1.05                  2.785e-06             2.6e-13               -1.496e-11            -2.7734e-06          
  1.1                   2.903e-06             3.2e-13               -1.968e-11            -2.932e-06           
  1.15                  2.9744e-06            3.8e-13               -2.98e-11             -3.021e-06           
  1.2                   3.1622e-06            3.2e-13               -4.854e-11            -3.1622e-06          
  1.25                  3.2988e-06            3e-13                 -8.162e-11            -3.3556e-06          
  1.3                   3.4898e-06            3e-13                 -1.4126e-10           -3.4804e-06          
  1.35                  3.656e-06             3e-13                 -2.3208e-10           -3.615e-06           
END_DB

BEGIN_DB
 ICCAP_VAR vg         0.825          
 ICCAP_VAR vb         -1.2           
 ICCAP_VAR vs         0              

 #vd                    id                    ig                    ib                    is                   
  0                     2.2796e-09            2.64e-12              -5.86e-12             -2.4422e-09          
  0.05                  3.562e-06             2.3e-12               -7.26e-12             -3.556e-06           
  0.1                   5.9912e-06            1.94e-12              -7.38e-12             -6.0116e-06          
  0.15                  7.6114e-06            1.7e-12               -7.02e-12             -7.6118e-06          
  0.2                   8.7184e-06            1.56e-12              -7.22e-12             -8.6862e-06          
  0.25                  9.4476e-06            1.5e-12               -6.8e-12              -9.447e-06           
  0.3                   1.0047e-05            1.56e-12              -6.84e-12             -1.0051e-05          
  0.35                  1.05412e-05           1.4e-12               -7.2e-12              -1.05452e-05         
  0.4                   1.10184e-05           1.32e-12              -6.32e-12             -1.10416e-05         
  0.45                  1.145e-05             1.4e-12               -6.08e-12             -1.14544e-05         
  0.5                   1.1942e-05            1.3e-12               -4.54e-12             -1.185e-05           
  0.55                  1.227e-05             1.32e-12              -5.88e-12             -1.2264e-05          
  0.6                   1.2592e-05            1.3e-12               -6.86e-12             -1.2626e-05          
  0.65                  1.3028e-05            1.34e-12              -4.88e-12             -1.2994e-05          
  0.7                   1.3406e-05            1.28e-12              -6.8e-12              -1.3418e-05          
  0.75                  1.387e-05             1.28e-12              -6.48e-12             -1.3836e-05          
  0.8                   1.427e-05             1.24e-12              -5.46e-12             -1.4172e-05          
  0.85                  1.4642e-05            1.24e-12              -6.44e-12             -1.4656e-05          
  0.9                   1.517e-05             1.22e-12              -6.44e-12             -1.5086e-05          
  0.95                  1.5462e-05            1.34e-12              -7.04e-12             -1.5472e-05          
  1                     1.5858e-05            1.24e-12              -9.42e-12             -1.5888e-05          
  1.05                  1.625e-05             1.06e-12              -1.214e-11            -1.6276e-05          
  1.1                   1.6708e-05            1.22e-12              -2.234e-11            -1.6716e-05          
  1.15                  1.7158e-05            1.1e-12               -4.128e-11            -1.722e-05           
  1.2                   1.7704e-05            1.24e-12              -7.858e-11            -1.7618e-05          
  1.25                  1.8164e-05            1.18e-12              -1.512e-10            -1.8092e-05          
  1.3                   1.8628e-05            1.14e-12              -2.7994e-10           -1.852e-05           
  1.35                  1.9008e-05            1.08e-12              -4.9436e-10           -1.9024e-05          
END_DB

BEGIN_DB
 ICCAP_VAR vg         1              
 ICCAP_VAR vb         -1.2           
 ICCAP_VAR vs         0              

 #vd                    id                    ig                    ib                    is                   
  0                     8.654e-09             6.66e-12              -3.24e-12             -2.5814e-09          
  0.05                  8.0824e-06            5.86e-12              -5.4e-12              -8.0754e-06          
  0.1                   1.4658e-05            5.22e-12              -5.24e-12             -1.4652e-05          
  0.15                  1.9796e-05            4.7e-12               -5.04e-12             -1.9832e-05          
  0.2                   2.3742e-05            4.22e-12              -3.94e-12             -2.3736e-05          
  0.25                  2.663e-05             3.92e-12              -5.6e-12              -2.6616e-05          
  0.3                   2.8786e-05            3.78e-12              -4.5e-12              -2.8784e-05          
  0.35                  3.0416e-05            3.58e-12              -3.72e-12             -3.042e-05           
  0.4                   3.1744e-05            3.54e-12              -4.64e-12             -3.1732e-05          
  0.45                  3.276e-05             3.34e-12              -4.32e-12             -3.2748e-05          
  0.5                   3.3738e-05            3.28e-12              -5.26e-12             -3.3738e-05          
  0.55                  3.4618e-05            3.18e-12              -4.44e-12             -3.4628e-05          
  0.6                   3.5454e-05            3.16e-12              -3.7e-12              -3.5464e-05          
  0.65                  3.6248e-05            3.28e-12              -3.86e-12             -3.6266e-05          
  0.7                   3.7054e-05            3.12e-12              -4.98e-12             -3.7046e-05          
  0.75                  3.783e-05             3.08e-12              -3.92e-12             -3.7808e-05          
  0.8                   3.8582e-05            3.16e-12              -4.4e-12              -3.8562e-05          
  0.85                  3.9402e-05            3.06e-12              -5.18e-12             -3.9404e-05          
  0.9                   4.0168e-05            3.06e-12              -3.42e-12             -4.0146e-05          
  0.95                  4.0882e-05            3.18e-12              -6.18e-12             -4.0874e-05          
  1                     4.1634e-05            3.06e-12              -9.14e-12             -4.1656e-05          
  1.05                  4.2374e-05            3.02e-12              -1.292e-11            -4.2302e-05          
  1.1                   4.3016e-05            3.16e-12              -2.698e-11            -4.302e-05           
  1.15                  4.3752e-05            3.04e-12              -5.228e-11            -4.3746e-05          
  1.2                   4.4506e-05            2.94e-12              -1.0176e-10           -4.4496e-05          
  1.25                  4.5228e-05            2.96e-12              -2e-10                -4.5376e-05          
  1.3                   4.6052e-05            2.94e-12              -3.7326e-10           -4.5986e-05          
  1.35                  4.6872e-05            2.9e-12               -6.7144e-10           -4.6858e-05          
END_DB

BEGIN_DB
 ICCAP_VAR vg         1.175          
 ICCAP_VAR vb         -1.2           
 ICCAP_VAR vs         0              

 #vd                    id                    ig                    ib                    is                   
  0                     1.3656e-08            1.442e-11             -2.58e-12             -1.2878e-08          
  0.05                  1.2536e-05            1.282e-11             -3.02e-12             -1.2528e-05          
  0.1                   2.3538e-05            1.176e-11             -3.08e-12             -2.3542e-05          
  0.15                  3.286e-05             1.078e-11             -3.84e-12             -3.2858e-05          
  0.2                   4.0504e-05            9.78e-12              -2.8e-12              -4.048e-05           
  0.25                  4.6682e-05            9.18e-12              -3.26e-12             -4.667e-05           
  0.3                   5.143e-05             8.68e-12              -4.72e-12             -5.148e-05           
  0.35                  5.5226e-05            8.24e-12              -2.94e-12             -5.5222e-05          
  0.4                   5.8086e-05            7.86e-12              -4.1e-12              -5.8086e-05          
  0.45                  6.044e-05             7.6e-12               -4.06e-12             -6.041e-05           
  0.5                   6.242e-05             7.32e-12              -2.54e-12             -6.2326e-05          
  0.55                  6.3938e-05            7.24e-12              -3.9e-12              -6.399e-05           
  0.6                   6.538e-05             7.14e-12              -4.2e-12              -6.5364e-05          
  0.65                  6.676e-05             6.96e-12              -2.22e-12             -6.668e-05           
  0.7                   6.795e-05             6.86e-12              -4.68e-12             -6.789e-05           
  0.75                  6.9024e-05            6.76e-12              -4.18e-12             -6.9036e-05          
  0.8                   7.012e-05             6.64e-12              -2.5e-12              -7.0152e-05          
  0.85                  7.1204e-05            6.72e-12              -4.78e-12             -7.1208e-05          
  0.9                   7.2234e-05            6.6e-12               -4.36e-12             -7.223e-05           
  0.95                  7.3298e-05            6.56e-12              -6.16e-12             -7.3256e-05          
  1                     7.4246e-05            6.46e-12              -1.002e-11            -7.4372e-05          
  1.05                  7.5238e-05            6.5e-12               -1.708e-11            -7.5354e-05          
  1.1                   7.6348e-05            6.48e-12              -3.288e-11            -7.6258e-05          
  1.15                  7.722e-05             6.36e-12              -6.402e-11            -7.7224e-05          
  1.2                   7.821e-05             6.44e-12              -1.2238e-10           -7.8166e-05          
  1.25                  7.9138e-05            6.5e-12               -2.3424e-10           -7.9132e-05          
  1.3                   8.0102e-05            6.46e-12              -4.3166e-10           -8.0128e-05          
  1.35                  8.1072e-05            6.26e-12              -7.6868e-10           -8.1052e-05          
END_DB

BEGIN_DB
 ICCAP_VAR vg         1.35           
 ICCAP_VAR vb         -1.2           
 ICCAP_VAR vs         0              

 #vd                    id                    ig                    ib                    is                   
  0                     1.7172e-08            2.784e-11             -1.48e-12             -1.6458e-08          
  0.05                  1.6322e-05            2.54e-11              -2.68e-12             -1.6302e-05          
  0.1                   3.1208e-05            2.332e-11             -2.74e-12             -3.1206e-05          
  0.15                  4.4404e-05            2.144e-11             -3.98e-12             -4.4424e-05          
  0.2                   5.5768e-05            1.996e-11             -3.42e-12             -5.576e-05           
  0.25                  6.533e-05             1.862e-11             -2.58e-12             -6.5324e-05          
  0.3                   7.317e-05             1.748e-11             -3.72e-12             -7.3158e-05          
  0.35                  7.9542e-05            1.648e-11             -3.24e-12             -7.9612e-05          
  0.4                   8.4712e-05            1.564e-11             -2.96e-12             -8.4708e-05          
  0.45                  8.8912e-05            1.51e-11              -3.16e-12             -8.8868e-05          
  0.5                   9.2266e-05            1.466e-11             -2.54e-12             -9.23e-05            
  0.55                  9.5034e-05            1.432e-11             -3.04e-12             -9.5018e-05          
  0.6                   9.7392e-05            1.392e-11             -4.12e-12             -9.7354e-05          
  0.65                  9.9458e-05            1.368e-11             -3.14e-12             -9.9392e-05          
  0.7                   0.000101198           1.352e-11             -2.96e-12             -0.000101218         
  0.75                  0.000102778           1.338e-11             -2.58e-12             -0.00010285          
  0.8                   0.000104424           1.318e-11             -3.28e-12             -0.000104312         
  0.85                  0.00010576            1.3e-11               -3.7e-12              -0.000105736         
  0.9                   0.000107104           1.288e-11             -4.94e-12             -0.000107104         
  0.95                  0.000108492           1.268e-11             -5.76e-12             -0.000108402         
  1                     0.00010967            1.278e-11             -1.086e-11            -0.000109642         
  1.05                  0.000110988           1.274e-11             -1.946e-11            -0.000110876         
  1.1                   0.000112116           1.258e-11             -3.618e-11            -0.000112102         
  1.15                  0.000113298           1.268e-11             -7.242e-11            -0.000113294         
  1.2                   0.0001146             1.24e-11              -1.3862e-10           -0.00011449          
  1.25                  0.00011576            1.236e-11             -2.564e-10            -0.000115604         
  1.3                   0.00011686            1.232e-11             -4.6928e-10           -0.000116708         
  1.35                  0.00011798            1.23e-11              -8.258e-10            -0.0001176           
END_DB

