! VERSION = 6.00
BEGIN_HEADER
 ICCAP_INPUTS
  vd         V  D GROUND SMU1 0.1 LIN        1    0          1.35       28   0.05      
  vg         V  G GROUND SMU2 0.001 LIST       2 3 0.05 0.25 0.45
  vb         V  B GROUND SMU4 0.1 CON        -1.2
  vs         V  S GROUND SMU3 0.1 CON        0
 ICCAP_OUTPUTS
  id         I  D GROUND SMU1 B
  ig         I  G GROUND SMU2 B
  ib         I  B GROUND SMU4 B
  is         I  S GROUND SMU3 B
 ICCAP_VALUES
  MASTER_SETUP_TYPE "~dc_idvd~"
  LINVT_VALUE ""
  LISTVT_VALUE "|idvg|100.0n|-200.0m|1.000m|3|200.0m|200.0m|"
  TYPE "1"
  TEMP " 27.0000 "
  IS_TNOM " 1.00000 "
  MAIN.W "10.00u"
  MAIN.L "10.00u"
  MAIN.AD "3.400p"
  MAIN.AS "3.400p"
  MAIN.PD "20.68u"
  MAIN.PS "20.68u"
  MAIN.NF "1.000"
  MAIN.M "1"
  MAIN.NRD "0.000"
  MAIN.NRS "0.000"
  MAIN.LDRIFT1 "1E-06"
  MAIN.LDRIFT2 "1E-06"
  MAIN.SA "0.000"
  MAIN.SB "0.000"
  MAIN.SD "0.000"
  MAIN.SCA "0.000"
  MAIN.SCB "0.000"
  MAIN.SCC "0.000"
  MAIN.SC "0.000"
  MODULE "S541"
  PIN_D "12"
  PIN_G "9"
  PIN_S "10"
  PIN_B "11"
  PIN_E ""
  PIN_6 ""
  XY_ID ""
  FUNC "Large"
  STI "SA ref"
  WPE "WPE ref"
  COMMENT ""
  DIS_MEAS ""
  TypeTCI "10"
END_HEADER

BEGIN_DB
 ICCAP_VAR vg         0.05           
 ICCAP_VAR vb         -1.2           
 ICCAP_VAR vs         0              

 #vd                    id                    ig                    ib                    is                   
  0                     2.8e-13               -2e-14                -5.96e-12             -2.2e-13             
  0.05                  9.414e-11             -2e-14                -5.5e-12              -9.408e-11           
  0.1                   1.1274e-10            -2e-13                -5.68e-12             -1.1238e-10          
  0.15                  1.1954e-10            -1.8e-13              -5.8e-12              -1.1906e-10          
  0.2                   1.2386e-10            -1.8e-13              -5.22e-12             -1.235e-10           
  0.25                  1.2802e-10            -2.4e-13              -4.94e-12             -1.2738e-10          
  0.3                   1.3148e-10            -2.6e-13              -3.9e-12              -1.3082e-10          
  0.35                  1.3482e-10            -3.8e-13              -3.76e-12             -1.3398e-10          
  0.4                   1.3794e-10            -5.4e-13              -4.46e-12             -1.3678e-10          
  0.45                  1.4068e-10            -8.6e-13              -4.26e-12             -1.3948e-10          
  0.5                   1.4338e-10            -9.8e-13              -3.46e-12             -1.4178e-10          
  0.55                  1.4582e-10            -1.36e-12             -2.2e-12              -1.4394e-10          
  0.6                   1.4838e-10            -1.8e-12              -2.34e-12             -1.4606e-10          
  0.65                  1.5064e-10            -2.4e-12              -3.6e-12              -1.4768e-10          
  0.7                   1.5262e-10            -3.1e-12              -3.3e-12              -1.493e-10           
  0.75                  1.552e-10             -3.62e-12             -2.44e-12             -1.5092e-10          
  0.8                   1.5744e-10            -4.62e-12             2.54e-12              -1.5228e-10          
  0.85                  1.5962e-10            -5.76e-12             -2.22e-12             -1.532e-10           
  0.9                   1.623e-10             -6.88e-12             -2.46e-12             -1.5446e-10          
  0.95                  1.6452e-10            -8.42e-12             -3.08e-12             -1.5542e-10          
  1                     1.6718e-10            -1.004e-11            -3.26e-12             -1.5646e-10          
  1.05                  1.6998e-10            -1.204e-11            -1.44e-12             -1.5712e-10          
  1.1                   1.7284e-10            -1.412e-11            -2.12e-12             -1.5792e-10          
  1.15                  1.7588e-10            -1.674e-11            -2.54e-12             -1.5854e-10          
  1.2                   1.7948e-10            -1.96e-11             -3.44e-12             -1.5898e-10          
  1.25                  1.8334e-10            -2.278e-11            -2.44e-12             -1.5978e-10          
  1.3                   1.8762e-10            -2.652e-11            -1.66e-12             -1.6012e-10          
  1.35                  1.924e-10             -3.054e-11            -2.78e-12             -1.6068e-10          
END_DB

BEGIN_DB
 ICCAP_VAR vg         0.25           
 ICCAP_VAR vb         -1.2           
 ICCAP_VAR vs         0              

 #vd                    id                    ig                    ib                    is                   
  0                     1.6644e-10            3.708e-11             -8.4e-13              -2.0682e-10          
  0.05                  6.8038e-08            2.65e-11              -1.3e-12              -6.8e-08             
  0.1                   8.3898e-08            2.362e-11             -2.36e-12             -8.3988e-08          
  0.15                  8.9942e-08            2.234e-11             -1.76e-12             -9.0014e-08          
  0.2                   9.4106e-08            2.176e-11             -6.4e-13              -9.4124e-08          
  0.25                  9.7616e-08            2.098e-11             -1.56e-12             -9.763e-08           
  0.3                   1.00808e-07           2.028e-11             -1.32e-12             -1.00782e-07         
  0.35                  1.03718e-07           1.968e-11             -2.12e-12             -1.03728e-07         
  0.4                   1.06378e-07           1.904e-11             -1.34e-12             -1.06386e-07         
  0.45                  1.0888e-07            1.838e-11             -1.7e-12              -1.0878e-07          
  0.5                   1.1104e-07            1.796e-11             -2.3e-12              -1.1099e-07          
  0.55                  1.1308e-07            1.724e-11             -3.8e-13              -1.13032e-07         
  0.6                   1.1492e-07            1.676e-11             -1.78e-12             -1.1487e-07          
  0.65                  1.1666e-07            1.614e-11             -2.16e-12             -1.16526e-07         
  0.7                   1.1818e-07            1.56e-11              -1.28e-12             -1.1804e-07          
  0.75                  1.1956e-07            1.488e-11             -1.3e-12              -1.1944e-07          
  0.8                   1.2086e-07            1.402e-11             -1.6e-12              -1.2072e-07          
  0.85                  1.22e-07              1.326e-11             -2e-12                -1.2186e-07          
  0.9                   1.2304e-07            1.23e-11              -1.18e-12             -1.229e-07           
  0.95                  1.2402e-07            1.134e-11             -2.1e-12              -1.239e-07           
  1                     1.249e-07             1.026e-11             -3.44e-12             -1.2476e-07          
  1.05                  1.2572e-07            8.92e-12              -2.74e-12             -1.2562e-07          
  1.1                   1.2646e-07            7.5e-12               -1.9e-12              -1.263e-07           
  1.15                  1.2714e-07            5.96e-12              -3.74e-12             -1.27e-07            
  1.2                   1.2774e-07            4.18e-12              -5.64e-12             -1.276e-07           
  1.25                  1.283e-07             2.12e-12              -8.28e-12             -1.2818e-07          
  1.3                   1.2884e-07            -1.6e-13              -1.102e-11            -1.2868e-07          
  1.35                  1.2892e-07            -2.98e-12             -1.806e-11            -1.2874e-07          
END_DB

BEGIN_DB
 ICCAP_VAR vg         0.45           
 ICCAP_VAR vb         -1.2           
 ICCAP_VAR vs         0              

 #vd                    id                    ig                    ib                    is                   
  0                     3.0238e-09            5.2062e-10            -8.8e-13              -3.3102e-09          
  0.05                  2.413e-06             4.1652e-10            -2.4e-13              -2.4094e-06          
  0.1                   3.7482e-06            3.5984e-10            -2.44e-12             -3.7446e-06          
  0.15                  4.2986e-06            3.3642e-10            -1.36e-12             -4.2952e-06          
  0.2                   4.5154e-06            3.2714e-10            -7e-13                -4.512e-06           
  0.25                  4.639e-06             3.2202e-10            -2.18e-12             -4.6354e-06          
  0.3                   4.7354e-06            3.1786e-10            -1.6e-12              -4.7322e-06          
  0.35                  4.8206e-06            3.1394e-10            -1e-12                -4.8172e-06          
  0.4                   4.898e-06             3.1066e-10            -2.38e-12             -4.8948e-06          
  0.45                  4.97e-06              3.0766e-10            -1.54e-12             -4.9664e-06          
  0.5                   5.0364e-06            3.0486e-10            8e-14                 -5.0332e-06          
  0.55                  5.0988e-06            3.0212e-10            -1.36e-12             -5.0956e-06          
  0.6                   5.1574e-06            2.9974e-10            -1.6e-12              -5.1538e-06          
  0.65                  5.2118e-06            2.9732e-10            -3.8e-13              -5.2086e-06          
  0.7                   5.2632e-06            2.9514e-10            -1.48e-12             -5.26e-06            
  0.75                  5.3114e-06            2.9274e-10            -1.9e-12              -5.3082e-06          
  0.8                   5.3566e-06            2.9072e-10            -8e-13                -5.3532e-06          
  0.85                  5.399e-06             2.8876e-10            -1.32e-12             -5.3962e-06          
  0.9                   5.4392e-06            2.8672e-10            -1.56e-12             -5.4362e-06          
  0.95                  5.4772e-06            2.8478e-10            -2e-13                -5.4734e-06          
  1                     5.5122e-06            2.8276e-10            -2.16e-12             -5.5088e-06          
  1.05                  5.5452e-06            2.8082e-10            -2.68e-12             -5.542e-06           
  1.1                   5.5766e-06            2.7876e-10            -3.4e-12              -5.5732e-06          
  1.15                  5.606e-06             2.7668e-10            -7.62e-12             -5.6024e-06          
  1.2                   5.6334e-06            2.7454e-10            -1.648e-11            -5.63e-06            
  1.25                  5.6596e-06            2.7236e-10            -3.28e-11             -5.6562e-06          
  1.3                   5.6842e-06            2.702e-10             -6.516e-11            -5.6804e-06          
  1.35                  5.7072e-06            2.675e-10             -1.195e-10            -5.704e-06           
END_DB

