! VERSION = 6.00
BEGIN_HEADER
 ICCAP_INPUTS
  vd         V  D GROUND SMU1 0.1 LIN        1    0          1.35       28   0.05      
  vg         V  G GROUND SMU2 0.001 LIN        2    0.438      1.35       5    0.228     
  vb         V  B GROUND SMU4 0.1 CON        0
  vs         V  S GROUND SMU3 0.1 CON        0
 ICCAP_OUTPUTS
  id         I  D GROUND SMU1 B
  ig         I  G GROUND SMU2 B
  ib         I  B GROUND SMU4 B
  is         I  S GROUND SMU3 B
 ICCAP_VALUES
  MASTER_SETUP_TYPE "~dc_idvd~"
  LINVT_VALUE "|idvg|100.0n|100.0m|1.000m|5|1.350|"
  LISTVT_VALUE ""
  TYPE "1"
  TEMP " 27.0000 "
  IS_TNOM " 1.00000 "
  MAIN.W "300.0n"
  MAIN.L "180.0n"
  MAIN.AD "102.0f"
  MAIN.AS "102.0f"
  MAIN.PD "1.280u"
  MAIN.PS "1.280u"
  MAIN.NF "1.000"
  MAIN.M "1"
  MAIN.NRD "0.000"
  MAIN.NRS "0.000"
  MAIN.LDRIFT1 "1E-06"
  MAIN.LDRIFT2 "1E-06"
  MAIN.SA "0.000"
  MAIN.SB "0.000"
  MAIN.SD "0.000"
  MAIN.SCA "0.000"
  MAIN.SCB "0.000"
  MAIN.SCC "0.000"
  MAIN.SC "0.000"
  MODULE "S544"
  PIN_D "12"
  PIN_G "9"
  PIN_S "10"
  PIN_B "11"
  PIN_E ""
  PIN_6 ""
  XY_ID ""
  FUNC "LW Scale"
  STI "SA ref"
  WPE "WPE ref"
  COMMENT ""
  DIS_MEAS ""
  TypeTCI "10"
END_HEADER

BEGIN_DB
 ICCAP_VAR vg         0.438          
 ICCAP_VAR vb         0              
 ICCAP_VAR vs         0              

 #vd                    id                    ig                    ib                    is                   
  0                     1.548e-09             4e-13                 7.98e-12              -1.1108e-09          
  0.05                  6.6506e-07            2.6e-13               7.7e-12               -6.65e-07            
  0.1                   9.4478e-07            2.4e-13               6.42e-12              -9.4446e-07          
  0.15                  1.05476e-06           1.8e-13               6.5e-12               -1.05486e-06         
  0.2                   1.10998e-06           1e-13                 5.8e-12               -1.10986e-06         
  0.25                  1.1482e-06            1.4e-13               6.32e-12              -1.14842e-06         
  0.3                   1.1822e-06            1.8e-13               6.26e-12              -1.1782e-06          
  0.35                  1.211e-06             2.2e-13               4.74e-12              -1.207e-06           
  0.4                   1.2378e-06            1e-13                 5.38e-12              -1.2336e-06          
  0.45                  1.2624e-06            -2e-14                5.7e-12               -1.259e-06           
  0.5                   1.286e-06             2.2e-13               5.3e-12               -1.2824e-06          
  0.55                  1.3054e-06            8e-14                 3.88e-12              -1.3018e-06          
  0.6                   1.327e-06             4e-14                 4.52e-12              -1.3264e-06          
  0.65                  1.351e-06             6e-14                 4.28e-12              -1.347e-06           
  0.7                   1.371e-06             6e-14                 3.56e-12              -1.3672e-06          
  0.75                  1.3904e-06            8e-14                 5.02e-12              -1.3864e-06          
  0.8                   1.4092e-06            1.4e-13               4.46e-12              -1.4054e-06          
  0.85                  1.4278e-06            -2e-14                3.52e-12              -1.424e-06           
  0.9                   1.4458e-06            -1.8e-13              3.86e-12              -1.4422e-06          
  0.95                  1.4646e-06            2e-14                 4.1e-12               -1.4598e-06          
  1                     1.481e-06             -1.6e-13              3.8e-12               -1.4772e-06          
  1.05                  1.4978e-06            -4.8e-13              5.9e-12               -1.494e-06           
  1.1                   1.5146e-06            -7e-13                2.46e-12              -1.5084e-06          
  1.15                  1.5308e-06            -9.2e-13              -4.6e-13              -1.5274e-06          
  1.2                   1.5478e-06            -1.2e-12              -5.5e-12              -1.5434e-06          
  1.25                  1.5634e-06            -1.52e-12             -1.396e-11            -1.5592e-06          
  1.3                   1.5786e-06            -1.84e-12             -3.044e-11            -1.5752e-06          
  1.35                  1.594e-06             -2.2e-12              -5.572e-11            -1.5904e-06          
END_DB

BEGIN_DB
 ICCAP_VAR vg         0.666          
 ICCAP_VAR vb         0              
 ICCAP_VAR vs         0              

 #vd                    id                    ig                    ib                    is                   
  0                     3.7268e-09            2.12e-12              3.18e-12              -4.6758e-09          
  0.05                  4.5466e-06            1.68e-12              2.56e-12              -4.5424e-06          
  0.1                   7.8798e-06            1.46e-12              3.54e-12              -7.8762e-06          
  0.15                  1.01742e-05           1.22e-12              2.76e-12              -1.01704e-05         
  0.2                   1.1664e-05            1.1e-12               2.92e-12              -1.1653e-05          
  0.25                  1.2588e-05            9.8e-13               2.42e-12              -1.257e-05           
  0.3                   1.3188e-05            1.04e-12              2.12e-12              -1.317e-05           
  0.35                  1.361e-05             1.04e-12              3.44e-12              -1.3588e-05          
  0.4                   1.3942e-05            9.6e-13               1.44e-12              -1.3924e-05          
  0.45                  1.4226e-05            9.8e-13               1.94e-12              -1.4208e-05          
  0.5                   1.4482e-05            8.8e-13               2.68e-12              -1.4464e-05          
  0.55                  1.4718e-05            9.2e-13               1.46e-12              -1.4702e-05          
  0.6                   1.495e-05             8.8e-13               1.44e-12              -1.4932e-05          
  0.65                  1.516e-05             8.8e-13               1.92e-12              -1.5146e-05          
  0.7                   1.5366e-05            8.2e-13               1.08e-12              -1.5346e-05          
  0.75                  1.556e-05             7.8e-13               1.86e-12              -1.5542e-05          
  0.8                   1.5746e-05            8.8e-13               2e-12                 -1.5728e-05          
  0.85                  1.5928e-05            8e-13                 1.24e-12              -1.591e-05           
  0.9                   1.6102e-05            6.6e-13               3.84e-12              -1.6086e-05          
  0.95                  1.6274e-05            7.8e-13               1.44e-12              -1.6258e-05          
  1                     1.644e-05             9.2e-13               3.6e-13               -1.6426e-05          
  1.05                  1.6604e-05            6.8e-13               8.4e-13               -1.6588e-05          
  1.1                   1.6764e-05            6e-13                 -8e-14                -1.6746e-05          
  1.15                  1.6918e-05            6e-13                 -4.66e-12             -1.69e-05            
  1.2                   1.707e-05             5.8e-13               -1.218e-11            -1.7052e-05          
  1.25                  1.722e-05             3.4e-13               -3.06e-11             -1.7202e-05          
  1.3                   1.7366e-05            2.2e-13               -6.858e-11            -1.7348e-05          
  1.35                  1.751e-05             -4e-14                -1.3828e-10           -1.7492e-05          
END_DB

BEGIN_DB
 ICCAP_VAR vg         0.894          
 ICCAP_VAR vb         0              
 ICCAP_VAR vs         0              

 #vd                    id                    ig                    ib                    is                   
  0                     1.5166e-08            7.44e-12              1.58e-12              -1.4622e-08          
  0.05                  9.7106e-06            6.54e-12              2.14e-12              -9.706e-06           
  0.1                   1.8028e-05            5.74e-12              2.22e-12              -1.8012e-05          
  0.15                  2.4882e-05            5.16e-12              1.42e-12              -2.487e-05           
  0.2                   3.0326e-05            4.6e-12               6.4e-13               -3.0308e-05          
  0.25                  3.4482e-05            4.1e-12               2.08e-12              -3.4466e-05          
  0.3                   3.7538e-05            3.96e-12              1e-12                 -3.752e-05           
  0.35                  3.9736e-05            3.76e-12              1.26e-12              -3.9718e-05          
  0.4                   4.1308e-05            3.62e-12              1.92e-12              -4.1294e-05          
  0.45                  4.2474e-05            3.54e-12              1.04e-12              -4.2458e-05          
  0.5                   4.3374e-05            3.56e-12              1e-12                 -4.3356e-05          
  0.55                  4.4118e-05            3.42e-12              1.82e-12              -4.41e-05            
  0.6                   4.4762e-05            3.4e-12               1.16e-12              -4.4744e-05          
  0.65                  4.5338e-05            3.42e-12              1.5e-12               -4.5328e-05          
  0.7                   4.581e-05             3.24e-12              2.08e-12              -4.5758e-05          
  0.75                  4.6282e-05            3.3e-12               7.6e-13               -4.636e-05           
  0.8                   4.685e-05             3.08e-12              7.6e-13               -4.6834e-05          
  0.85                  4.7306e-05            3.14e-12              1.82e-12              -4.7288e-05          
  0.9                   4.774e-05             3.08e-12              1.3e-12               -4.7722e-05          
  0.95                  4.816e-05             3.2e-12               1.44e-12              -4.8146e-05          
  1                     4.8564e-05            3.06e-12              1.16e-12              -4.8548e-05          
  1.05                  4.8956e-05            3e-12                 -3.2e-13              -4.894e-05           
  1.1                   4.934e-05             3.16e-12              -9e-13                -4.9322e-05          
  1.15                  4.971e-05             3.02e-12              -4.02e-12             -4.9694e-05          
  1.2                   5.0076e-05            3.06e-12              -1.326e-11            -5.0054e-05          
  1.25                  5.043e-05             2.92e-12              -3.012e-11            -5.0412e-05          
  1.3                   5.0776e-05            2.96e-12              -6.628e-11            -5.0762e-05          
  1.35                  5.1118e-05            2.84e-12              -1.3978e-10           -5.1102e-05          
END_DB

BEGIN_DB
 ICCAP_VAR vg         1.122          
 ICCAP_VAR vb         0              
 ICCAP_VAR vs         0              

 #vd                    id                    ig                    ib                    is                   
  0                     2.2336e-08            2.146e-11             9e-13                 -2.1644e-08          
  0.05                  1.426e-05             1.912e-11             1.3e-12               -1.4242e-05          
  0.1                   2.7204e-05            1.736e-11             2.8e-13               -2.7186e-05          
  0.15                  3.8654e-05            1.576e-11             1.4e-12               -3.8616e-05          
  0.2                   4.8488e-05            1.452e-11             1.52e-12              -4.8496e-05          
  0.25                  5.6792e-05            1.314e-11             1.2e-13               -5.678e-05           
  0.3                   6.3564e-05            1.228e-11             1.42e-12              -6.3544e-05          
  0.35                  6.8956e-05            1.156e-11             1.22e-12              -6.8946e-05          
  0.4                   7.3148e-05            1.09e-11              -1e-13                -7.3138e-05          
  0.45                  7.6364e-05            1.058e-11             1.38e-12              -7.6342e-05          
  0.5                   7.8796e-05            1.018e-11             9.2e-13               -7.8788e-05          
  0.55                  8.0674e-05            9.9e-12               2.2e-13               -8.0656e-05          
  0.6                   8.2158e-05            9.66e-12              1.02e-12              -8.2136e-05          
  0.65                  8.3356e-05            9.54e-12              1.1e-12               -8.3334e-05          
  0.7                   8.4378e-05            9.38e-12              -8e-14                -8.4366e-05          
  0.75                  8.5248e-05            9.24e-12              1.46e-12              -8.527e-05           
  0.8                   8.6088e-05            9.18e-12              7.2e-13               -8.6072e-05          
  0.85                  8.6836e-05            8.94e-12              -4.8e-13              -8.683e-05           
  0.9                   8.754e-05             8.9e-12               7.2e-13               -8.753e-05           
  0.95                  8.8196e-05            8.84e-12              7.6e-13               -8.8196e-05          
  1                     8.884e-05             8.86e-12              -4.4e-13              -8.8826e-05          
  1.05                  8.9444e-05            8.78e-12              8e-13                 -8.9432e-05          
  1.1                   9.003e-05             8.8e-12               -1.56e-12             -9.0006e-05          
  1.15                  9.059e-05             8.56e-12              -5.2e-12              -9.0584e-05          
  1.2                   9.1134e-05            8.5e-12               -1.172e-11            -9.112e-05           
  1.25                  9.1676e-05            8.46e-12              -2.688e-11            -9.1656e-05          
  1.3                   9.2102e-05            8.54e-12              -5.458e-11            -9.2088e-05          
  1.35                  9.2696e-05            8.36e-12              -1.1404e-10           -9.2672e-05          
END_DB

BEGIN_DB
 ICCAP_VAR vg         1.35           
 ICCAP_VAR vb         0              
 ICCAP_VAR vs         0              

 #vd                    id                    ig                    ib                    is                   
  0                     2.544e-08             5.122e-11             2.08e-12              -2.495e-08           
  0.05                  1.7794e-05            4.668e-11             4e-13                 -1.7776e-05          
  0.1                   3.4434e-05            4.296e-11             8.4e-13               -3.4416e-05          
  0.15                  4.968e-05             3.95e-11              8.8e-13               -4.9658e-05          
  0.2                   6.335e-05             3.644e-11             4.4e-13               -6.3322e-05          
  0.25                  7.537e-05             3.386e-11             1.64e-12              -7.535e-05           
  0.3                   8.5782e-05            3.134e-11             5.6e-13               -8.576e-05           
  0.35                  9.456e-05             2.94e-11              -2.6e-13              -9.4546e-05          
  0.4                   0.000101904           2.772e-11             9.2e-13               -0.000101912         
  0.45                  0.00010795            2.636e-11             8.6e-13               -0.000107912         
  0.5                   0.000112762           2.522e-11             2.4e-13               -0.000112776         
  0.55                  0.00011678            2.434e-11             9.4e-13               -0.000116666         
  0.6                   0.00011988            2.368e-11             1.14e-12              -0.0001195           
  0.65                  0.00012228            2.304e-11             1.8e-12               -0.0001219           
  0.7                   0.00012426            2.262e-11             2.8e-13               -0.00012388          
  0.75                  0.00012592            2.226e-11             7e-13                 -0.00012556          
  0.8                   0.00012728            2.184e-11             3e-13                 -0.00012694          
  0.85                  0.00012848            2.16e-11              2.2e-13               -0.00012812          
  0.9                   0.00012954            2.144e-11             8.2e-13               -0.0001292           
  0.95                  0.00013052            2.114e-11             4e-14                 -0.00013014          
  1                     0.00013148            2.092e-11             0                     -0.0001311           
  1.05                  0.00013228            2.082e-11             3.2e-13               -0.00013194          
  1.1                   0.00013312            2.06e-11              -1.48e-12             -0.00013268          
  1.15                  0.00013382            2.046e-11             -4.02e-12             -0.00013348          
  1.2                   0.00013462            2.048e-11             -8.76e-12             -0.00013424          
  1.25                  0.0001353             2.022e-11             -2.05e-11             -0.00013494          
  1.3                   0.00013606            2e-11                 -4.352e-11            -0.0001357           
  1.35                  0.00013672            1.996e-11             -8.682e-11            -0.00013634          
END_DB

