! VERSION = 6.00
BEGIN_HEADER
 ICCAP_INPUTS
  vd         V  D GROUND SMU1 0.1 LIN        1    0          1.35       28   0.05      
  vg         V  G GROUND SMU2 0.001 LIST       2 3 0.328 0.528 0.728
  vb         V  B GROUND SMU4 0.1 CON        -1.2
  vs         V  S GROUND SMU3 0.1 CON        0
 ICCAP_OUTPUTS
  id         I  D GROUND SMU1 B
  ig         I  G GROUND SMU2 B
  ib         I  B GROUND SMU4 B
  is         I  S GROUND SMU3 B
 ICCAP_VALUES
  MASTER_SETUP_TYPE "~dc_idvd~"
  LINVT_VALUE ""
  LISTVT_VALUE "|idvg|100.0n|-200.0m|1.000m|3|200.0m|200.0m|"
  TYPE "1"
  TEMP " 27.0000 "
  IS_TNOM " 1.00000 "
  MAIN.W "300.0n"
  MAIN.L "150.0n"
  MAIN.AD "102.0f"
  MAIN.AS "102.0f"
  MAIN.PD "1.280u"
  MAIN.PS "1.280u"
  MAIN.NF "1.000"
  MAIN.M "1"
  MAIN.NRD "0.000"
  MAIN.NRS "0.000"
  MAIN.LDRIFT1 "1E-06"
  MAIN.LDRIFT2 "1E-06"
  MAIN.SA "0.000"
  MAIN.SB "0.000"
  MAIN.SD "0.000"
  MAIN.SCA "0.000"
  MAIN.SCB "0.000"
  MAIN.SCC "0.000"
  MAIN.SC "0.000"
  MODULE "S544"
  PIN_D "14"
  PIN_G "7"
  PIN_S "8"
  PIN_B "13"
  PIN_E ""
  PIN_6 ""
  XY_ID ""
  FUNC "LW Scale"
  STI "SA ref"
  WPE "WPE ref"
  COMMENT ""
  DIS_MEAS ""
  TypeTCI "10"
END_HEADER

BEGIN_DB
 ICCAP_VAR vg         0.328          
 ICCAP_VAR vb         -1.2           
 ICCAP_VAR vs         0              

 #vd                    id                    ig                    ib                    is                   
  0                     1e-12                 -4e-14                -7.24e-12             -6.4e-13             
  0.05                  2.6258e-10            -4e-14                -3.8e-12              -2.624e-10           
  0.1                   3.2216e-10            -4e-14                -5.72e-12             -3.2156e-10          
  0.15                  3.4936e-10            0                     -4.94e-12             -3.4886e-10          
  0.2                   3.722e-10             -2e-14                -5.14e-12             -3.7158e-10          
  0.25                  3.9494e-10            8e-14                 -4.66e-12             -3.9448e-10          
  0.3                   4.184e-10             -1e-13                -4.14e-12             -4.1788e-10          
  0.35                  4.4288e-10            -1.2e-13              -4.04e-12             -4.4196e-10          
  0.4                   4.6804e-10            -4.4e-13              -3e-12                -4.6738e-10          
  0.45                  4.9394e-10            6e-14                 -4.04e-12             -4.9302e-10          
  0.5                   5.2032e-10            -1.8e-13              -3.92e-12             -5.198e-10           
  0.55                  5.4784e-10            -1.4e-13              -3.08e-12             -5.4668e-10          
  0.6                   5.7564e-10            4e-14                 -2.5e-12              -5.7476e-10          
  0.65                  6.0424e-10            8e-14                 -3.2e-12              -6.036e-10           
  0.7                   6.3366e-10            -2.2e-13              -2.22e-12             -6.3282e-10          
  0.75                  6.6372e-10            -2e-14                -2.44e-12             -6.6328e-10          
  0.8                   6.9458e-10            -1.6e-13              -2.32e-12             -6.938e-10           
  0.85                  7.266e-10             -2.8e-13              -2.62e-12             -7.257e-10           
  0.9                   7.591e-10             -1.2e-13              -2.86e-12             -7.5786e-10          
  0.95                  7.9276e-10            -1.2e-13              -1.46e-12             -7.92e-10            
  1                     8.2794e-10            -6e-14                -2.4e-12              -8.264e-10           
  1.05                  8.6362e-10            -4.4e-13              -2e-12                -8.6224e-10          
  1.1                   9.0032e-10            -6e-14                -1.78e-12             -8.9924e-10          
  1.15                  9.3828e-10            -2.2e-13              -1.84e-12             -9.3766e-10          
  1.2                   9.7826e-10            -5e-13                -1.42e-12             -9.7622e-10          
  1.25                  1.02e-09              -5.6e-13              -2.32e-12             -1.01764e-09         
  1.3                   1.0622e-09            -8e-13                -2.38e-12             -1.05936e-09         
  1.35                  1.1054e-09            -8e-13                -2.14e-12             -1.1023e-09          
END_DB

BEGIN_DB
 ICCAP_VAR vg         0.528          
 ICCAP_VAR vb         -1.2           
 ICCAP_VAR vs         0              

 #vd                    id                    ig                    ib                    is                   
  0                     2.6954e-10            5e-13                 -1.58e-12             -2.7132e-10          
  0.05                  1.0644e-07            3.2e-13               -2.04e-12             -1.063e-07           
  0.1                   1.3966e-07            3.2e-13               -2e-12                -1.395e-07           
  0.15                  1.545e-07             2.8e-13               -1.74e-12             -1.5432e-07          
  0.2                   1.6476e-07            2.4e-13               -1.04e-12             -1.632e-07           
  0.25                  1.739e-07             4e-13                 -1.28e-12             -1.7376e-07          
  0.3                   1.8274e-07            3.2e-13               -2.1e-12              -1.8264e-07          
  0.35                  1.9164e-07            4.6e-13               -1.2e-12              -1.9142e-07          
  0.4                   2.0044e-07            5e-13                 -1.6e-13              -2.0036e-07          
  0.45                  2.0934e-07            4.4e-13               -1.66e-12             -2.093e-07           
  0.5                   2.131e-07             2e-13                 -1.46e-12             -2.1392e-07          
  0.55                  2.2664e-07            2.4e-13               -1.5e-12              -2.273e-07           
  0.6                   2.366e-07             2e-13                 -1.06e-12             -2.3652e-07          
  0.65                  2.4592e-07            4e-14                 -1.22e-12             -2.4574e-07          
  0.7                   2.5522e-07            2e-13                 -1.34e-12             -2.5506e-07          
  0.75                  2.6468e-07            4e-14                 -1.4e-12              -2.6452e-07          
  0.8                   2.7418e-07            2.2e-13               -3.2e-13              -2.7408e-07          
  0.85                  2.8396e-07            3.6e-13               -1.1e-12              -2.8386e-07          
  0.9                   2.9356e-07            4.2e-13               -1.36e-12             -2.9358e-07          
  0.95                  3.0114e-07            2.4e-13               -1.16e-12             -3.0348e-07          
  1                     3.1374e-07            8e-14                 -7.8e-13              -3.1354e-07          
  1.05                  3.2394e-07            -2e-14                -1.08e-12             -3.1936e-07          
  1.1                   3.3442e-07            0                     -1.86e-12             -3.3816e-07          
  1.15                  3.4518e-07            1.8e-13               -2.3e-12              -3.4416e-07          
  1.2                   3.561e-07             -2e-13                -3.46e-12             -3.5616e-07          
  1.25                  3.675e-07             4e-14                 -7.18e-12             -3.6744e-07          
  1.3                   3.789e-07             2.2e-13               -1.23e-11             -3.7896e-07          
  1.35                  3.9082e-07            -2e-14                -1.96e-11             -3.9076e-07          
END_DB

BEGIN_DB
 ICCAP_VAR vg         0.728          
 ICCAP_VAR vb         -1.2           
 ICCAP_VAR vs         0              

 #vd                    id                    ig                    ib                    is                   
  0                     2.9712e-09            2.26e-12              -9.8e-13              -2.855e-09           
  0.05                  2.3508e-06            1.64e-12              -1.22e-12             -2.3414e-06          
  0.1                   3.808e-06             1.58e-12              -1.36e-12             -3.8032e-06          
  0.15                  4.6786e-06            1.38e-12              -1.54e-12             -4.6746e-06          
  0.2                   5.2026e-06            1.16e-12              -1.18e-12             -5.1996e-06          
  0.25                  5.545e-06             1.28e-12              -1.02e-12             -5.5406e-06          
  0.3                   5.7938e-06            1.24e-12              -1.08e-12             -5.788e-06           
  0.35                  5.9956e-06            1.32e-12              -6e-13                -5.9904e-06          
  0.4                   6.1758e-06            1.14e-12              -9.6e-13              -6.1698e-06          
  0.45                  6.3404e-06            1.12e-12              -1.28e-12             -6.3388e-06          
  0.5                   6.503e-06             1.1e-12               -7e-13                -6.495e-06           
  0.55                  6.6578e-06            1.1e-12               -1.24e-12             -6.6576e-06          
  0.6                   6.8116e-06            1.08e-12              -1.9e-12              -6.8072e-06          
  0.65                  6.9644e-06            1.1e-12               -5e-13                -6.9626e-06          
  0.7                   7.1132e-06            1.18e-12              -1.96e-12             -7.1118e-06          
  0.75                  7.265e-06             9.6e-13               -2.16e-12             -7.2672e-06          
  0.8                   7.4188e-06            1.1e-12               -9.6e-13              -7.4094e-06          
  0.85                  7.5658e-06            1e-12                 -6.6e-13              -7.563e-06           
  0.9                   7.7188e-06            1.1e-12               -1.46e-12             -7.7146e-06          
  0.95                  7.8668e-06            1.14e-12              -1.06e-12             -7.865e-06           
  1                     8.019e-06             9.8e-13               -9.4e-13              -8.0192e-06          
  1.05                  8.168e-06             1e-12                 -2.3e-12              -8.1664e-06          
  1.1                   8.324e-06             1.02e-12              -2.56e-12             -8.3294e-06          
  1.15                  8.4834e-06            1.36e-12              -6.2e-12              -8.4834e-06          
  1.2                   8.6368e-06            1.12e-12              -1.314e-11            -8.6372e-06          
  1.25                  8.7962e-06            1.08e-12              -2.664e-11            -8.7888e-06          
  1.3                   8.952e-06             8.6e-13               -5.452e-11            -8.9538e-06          
  1.35                  9.1166e-06            7.8e-13               -1.0644e-10           -9.113e-06           
END_DB

