! VERSION = 6.00
BEGIN_HEADER
 ICCAP_INPUTS
  vd         V  D GROUND SMU1 0.1 LIN        1    0          1.35       28   0.05      
  vg         V  G GROUND SMU2 0.001 LIN        2    0.518      1.35       5    0.208     
  vb         V  B GROUND SMU4 0.1 CON        0
  vs         V  S GROUND SMU3 0.1 CON        0
 ICCAP_OUTPUTS
  id         I  D GROUND SMU1 B
  ig         I  G GROUND SMU2 B
  ib         I  B GROUND SMU4 B
  is         I  S GROUND SMU3 B
 ICCAP_VALUES
  MASTER_SETUP_TYPE "~dc_idvd~"
  LINVT_VALUE "|idvg|100.0n|100.0m|1.000m|5|1.350|"
  LISTVT_VALUE ""
  TYPE "1"
  TEMP "-40.0000 "
  IS_TNOM " 0.00000 "
  MAIN.W "10.00u"
  MAIN.L "130.0n"
  MAIN.AD "3.400p"
  MAIN.AS "3.400p"
  MAIN.PD "20.68u"
  MAIN.PS "20.68u"
  MAIN.NF "1.000"
  MAIN.M "1"
  MAIN.NRD "0.000"
  MAIN.NRS "0.000"
  MAIN.LDRIFT1 "1E-06"
  MAIN.LDRIFT2 "1E-06"
  MAIN.SA "0.000"
  MAIN.SB "0.000"
  MAIN.SD "0.000"
  MAIN.SCA "0.000"
  MAIN.SCB "0.000"
  MAIN.SCC "0.000"
  MAIN.SC "0.000"
  MODULE "S540"
  PIN_D "18"
  PIN_G "3"
  PIN_S "4"
  PIN_B "17"
  PIN_E ""
  PIN_6 ""
  XY_ID ""
  FUNC "Short"
  STI "SA ref"
  WPE "WPE ref"
  COMMENT ""
  DIS_MEAS ""
  TypeTCI "10"
END_HEADER

BEGIN_DB
 ICCAP_VAR vg         0.518          
 ICCAP_VAR vb         0              
 ICCAP_VAR vs         0              

 #vd                    id                    ig                    ib                    is                   
  0                     6.8352e-08            1.064e-11             6.08e-12              -5.0016e-08          
  0.05                  3.118e-05             8.64e-12              2.52e-12              -3.1138e-05          
  0.1                   4.458e-05             7.42e-12              4.56e-12              -4.4574e-05          
  0.15                  5.1518e-05            6.64e-12              3.72e-12              -5.1574e-05          
  0.2                   5.6218e-05            6.12e-12              2.72e-12              -5.619e-05           
  0.25                  5.997e-05             6.02e-12              4e-12                 -5.9952e-05          
  0.3                   6.3302e-05            5.86e-12              3.48e-12              -6.3316e-05          
  0.35                  6.6496e-05            5.74e-12              2.1e-12               -6.6532e-05          
  0.4                   6.963e-05             5.68e-12              3.78e-12              -6.9636e-05          
  0.45                  7.2648e-05            5.84e-12              2.88e-12              -7.2696e-05          
  0.5                   7.5784e-05            5.72e-12              2.58e-12              -7.5718e-05          
  0.55                  7.8834e-05            5.64e-12              3.5e-12               -7.8906e-05          
  0.6                   8.194e-05             5.6e-12               1.94e-12              -8.189e-05           
  0.65                  8.5096e-05            5.72e-12              2.26e-12              -8.5142e-05          
  0.7                   8.8204e-05            5.5e-12               3.6e-12               -8.8182e-05          
  0.75                  9.1548e-05            5.38e-12              1.5e-12               -9.1516e-05          
  0.8                   9.4766e-05            5.52e-12              1.98e-12              -9.4702e-05          
  0.85                  9.8092e-05            5.34e-12              3.28e-12              -9.7954e-05          
  0.9                   0.000101414           4.98e-12              -5.36e-12             -0.000101504         
  0.95                  0.000104966           4.76e-12              1.56e-12              -0.000105102         
  1                     0.000108568           4.4e-12               -4.2e-13              -0.000108526         
  1.05                  0.00011214            4.02e-12              -9.18e-12             -0.00011204          
  1.1                   0.00011586            3.46e-12              -3.224e-11            -0.00011606          
  1.15                  0.00011988            2.9e-12               -9.626e-11            -0.00011956          
  1.2                   0.00012368            2.24e-12              -2.6068e-10           -0.00012334          
  1.25                  0.00012762            1.28e-12              -6.2008e-10           -0.00012726          
  1.3                   0.00013188            0                     -1.3386e-09           -0.0001314           
  1.35                  0.00013588            -1.22e-12             -2.6626e-09           -0.00013554          
END_DB

BEGIN_DB
 ICCAP_VAR vg         0.726          
 ICCAP_VAR vb         0              
 ICCAP_VAR vs         0              

 #vd                    id                    ig                    ib                    is                   
  0                     6.3992e-07            5.464e-11             1.2e-12               -2.231e-07           
  0.05                  0.00025664            4.664e-11             7.6e-13               -0.00025632          
  0.1                   0.00043432            4.056e-11             8.2e-13               -0.00043388          
  0.15                  0.00055138            3.64e-11              2.9e-12               -0.000551            
  0.2                   0.00062772            3.346e-11             5.4e-13               -0.00062738          
  0.25                  0.00067892            3.148e-11             1.04e-12              -0.00067878          
  0.3                   0.00071576            3.012e-11             1.34e-12              -0.0007154           
  0.35                  0.0007446             2.918e-11             4.2e-13               -0.00074402          
  0.4                   0.00076846            2.854e-11             1.76e-12              -0.00076806          
  0.45                  0.00078936            2.82e-11              1.58e-12              -0.0007885           
  0.5                   0.00080824            2.786e-11             -3.4e-13              -0.00080816          
  0.55                  0.00082716            2.772e-11             1.32e-12              -0.00082666          
  0.6                   0.00084468            2.738e-11             7.6e-13               -0.0008441           
  0.65                  0.00086166            2.72e-11              1.22e-12              -0.00086122          
  0.7                   0.00087814            2.72e-11              1.1e-12               -0.00087736          
  0.75                  0.00089398            2.7e-11               8.4e-13               -0.00089392          
  0.8                   0.00091042            2.69e-11              -7.2e-13              -0.0009099           
  0.85                  0.00092624            2.666e-11             -8e-14                -0.00092532          
  0.9                   0.00094162            2.652e-11             -2.8e-12              -0.0009413           
  0.95                  0.00095742            2.64e-11              -5.72e-12             -0.00095706          
  1                     0.00097298            2.628e-11             -1.98e-11             -0.0009727           
  1.05                  0.00098856            2.602e-11             -5.698e-11            -0.00098832          
  1.1                   0.00100462            2.578e-11             -1.5078e-10           -0.0010038           
  1.15                  0.00101938            2.556e-11             -3.9328e-10           -0.0010197           
  1.2                   0.00103532            2.514e-11             -9.6606e-10           -0.0010347           
  1.25                  0.00105068            2.462e-11             -2.2228e-09           -0.00105             
  1.3                   0.00106664            2.428e-11             -4.7942e-09           -0.0010656           
  1.35                  0.00108164            2.354e-11             -9.6722e-09           -0.0010808           
END_DB

BEGIN_DB
 ICCAP_VAR vg         0.934          
 ICCAP_VAR vb         0              
 ICCAP_VAR vs         0              

 #vd                    id                    ig                    ib                    is                   
  0                     1.01404e-06           1.7998e-10            8.4e-13               -4.0934e-07          
  0.05                  0.00055406            1.6014e-10            -1.6e-13              -0.00055366          
  0.1                   0.00100532            1.436e-10             1.32e-12              -0.00100486          
  0.15                  0.0013516             1.303e-10             1.14e-12              -0.0013498           
  0.2                   0.001606              1.195e-10             -3.8e-13              -0.0016042           
  0.25                  0.00179               1.1138e-10            2.4e-13               -0.0017884           
  0.3                   0.001923              1.054e-10             1.88e-12              -0.001921            
  0.35                  0.0020206             1.0072e-10            6e-14                 -0.0020184           
  0.4                   0.002094              9.754e-11             9.4e-13               -0.0020924           
  0.45                  0.002152              9.5e-11               7.8e-13               -0.0021504           
  0.5                   0.0021998             9.306e-11             -1.2e-13              -0.002198            
  0.55                  0.0022408             9.176e-11             1.68e-12              -0.0022396           
  0.6                   0.0022778             9.068e-11             9.2e-13               -0.0022756           
  0.65                  0.0023106             8.962e-11             5.4e-13               -0.002309            
  0.7                   0.002342              8.896e-11             1.04e-12              -0.0023402           
  0.75                  0.0023716             8.844e-11             -2.8e-13              -0.0023698           
  0.8                   0.0023998             8.768e-11             -2.4e-13              -0.002398            
  0.85                  0.0024268             8.712e-11             -1.18e-12             -0.0024256           
  0.9                   0.002454              8.67e-11              -8.52e-12             -0.0024522           
  0.95                  0.0024802             8.626e-11             -2.38e-11             -0.0024782           
  1                     0.0025056             8.578e-11             -6.09e-11             -0.0025038           
  1.05                  0.0025306             8.528e-11             -1.5358e-10           -0.0025292           
  1.1                   0.0025546             8.488e-11             -3.6606e-10           -0.0025538           
  1.15                  0.0025794             8.454e-11             -8.4034e-10           -0.002578            
  1.2                   0.0026038             8.414e-11             -1.8638e-09           -0.002602            
  1.25                  0.002627              8.374e-11             -3.9512e-09           -0.0026256           
  1.3                   0.0026516             8.328e-11             -8.0202e-09           -0.00265             
  1.35                  0.0026752             8.284e-11             -1.555e-08            -0.0026738           
END_DB

BEGIN_DB
 ICCAP_VAR vg         1.142          
 ICCAP_VAR vb         0              
 ICCAP_VAR vs         0              

 #vd                    id                    ig                    ib                    is                   
  0                     9.944e-07             4.489e-10             6.4e-13               1.9332e-07           
  0.05                  0.00079348            4.0836e-10            5.4e-13               -0.00079296          
  0.1                   0.0014858             3.7408e-10            1.14e-12              -0.001484            
  0.15                  0.0020566             3.4504e-10            -1.8e-13              -0.0020546           
  0.2                   0.0025106             3.2032e-10            8.8e-13               -0.0025088           
  0.25                  0.0028636             3.0014e-10            1.6e-13               -0.0028618           
  0.3                   0.0031352             2.832e-10             2e-13                 -0.003133            
  0.35                  0.0033428             2.6948e-10            5.8e-13               -0.0033408           
  0.4                   0.0035024             2.5862e-10            3.4e-13               -0.0035004           
  0.45                  0.0036256             2.5004e-10            6e-14                 -0.003624            
  0.5                   0.0037242             2.433e-10             9.2e-13               -0.0037218           
  0.55                  0.0038032             2.381e-10             -2.4e-13              -0.003801            
  0.6                   0.0038696             2.3358e-10            -1e-13                -0.0038688           
  0.65                  0.0039266             2.3042e-10            7.6e-13               -0.0039246           
  0.7                   0.0039766             2.274e-10             -5.2e-13              -0.0039746           
  0.75                  0.0040214             2.2524e-10            -3.8e-13              -0.0040202           
  0.8                   0.0040634             2.2326e-10            -2.04e-12             -0.0040616           
  0.85                  0.004102              2.2154e-10            -6.46e-12             -0.0041004           
  0.9                   0.0041388             2.1998e-10            -1.636e-11            -0.0041366           
  0.95                  0.0041736             2.1848e-10            -4.154e-11            -0.0041716           
  1                     0.0042072             2.1754e-10            -1.0486e-10           -0.0042056           
  1.05                  0.0042402             2.1616e-10            -2.482e-10            -0.0042386           
  1.1                   0.0042718             2.1506e-10            -5.619e-10            -0.00427             
  1.15                  0.0043026             2.1414e-10            -1.2242e-09           -0.0043008           
  1.2                   0.004333              2.132e-10             -2.5674e-09           -0.0043308           
  1.25                  0.004362              2.1206e-10            -5.1784e-09           -0.004361            
  1.3                   0.0043926             2.1136e-10            -1.0072e-08           -0.0043906           
  1.35                  0.0044216             2.1028e-10            -1.8858e-08           -0.0044202           
END_DB

BEGIN_DB
 ICCAP_VAR vg         1.35           
 ICCAP_VAR vb         0              
 ICCAP_VAR vs         0              

 #vd                    id                    ig                    ib                    is                   
  0                     1.1558e-06            9.6164e-10            3.6e-13               -1.1624e-06          
  0.05                  0.00096474            8.8746e-10            -1.26e-12             -0.00096436          
  0.1                   0.0018376             8.2308e-10            2.8e-13               -0.0018358           
  0.15                  0.0025894             7.6804e-10            -2e-13                -0.002588            
  0.2                   0.0032182             7.1944e-10            7.2e-13               -0.0032162           
  0.25                  0.0037328             6.7694e-10            1.4e-13               -0.003731            
  0.3                   0.0041482             6.4034e-10            -4.4e-13              -0.0041466           
  0.35                  0.0044814             6.0894e-10            -8e-14                -0.0044798           
  0.4                   0.004746              5.8312e-10            -4.6e-13              -0.0047452           
  0.45                  0.0049576             5.612e-10             6.6e-13               -0.0049558           
  0.5                   0.0051272             5.429e-10             -4e-14                -0.0051254           
  0.55                  0.005264              5.2802e-10            -3.2e-13              -0.0052626           
  0.6                   0.005377              5.1608e-10            -1.6e-13              -0.0053754           
  0.65                  0.0054706             5.0576e-10            -3.4e-13              -0.0054694           
  0.7                   0.0055504             4.9764e-10            -9e-13                -0.0055486           
  0.75                  0.0056192             4.9092e-10            -2e-13                -0.0056168           
  0.8                   0.0056782             4.8504e-10            -2.46e-12             -0.005678            
  0.85                  0.0057332             4.7998e-10            -8.26e-12             -0.0057318           
  0.9                   0.0057834             4.7568e-10            -2.076e-11            -0.0057826           
  0.95                  0.0058306             4.7222e-10            -5.504e-11            -0.0058284           
  1                     0.005874              4.6868e-10            -1.3334e-10           -0.0058726           
  1.05                  0.0059148             4.657e-10             -3.0696e-10           -0.005914            
  1.1                   0.0059548             4.6312e-10            -6.7938e-10           -0.0059522           
  1.15                  0.0059916             4.607e-10             -1.437e-09            -0.0059888           
  1.2                   0.0060278             4.5816e-10            -2.9288e-09           -0.0060266           
  1.25                  0.0060634             4.5606e-10            -5.745e-09            -0.0060618           
  1.3                   0.0060972             4.5386e-10            -1.08942e-08          -0.0060946           
  1.35                  0.006131              4.5202e-10            -1.9948e-08           -0.00613             
END_DB

