! VERSION = 6.00
BEGIN_HEADER
 ICCAP_INPUTS
  vg         V  G GROUND SMU2 0.001 LIN        1    -0.5       1.35       38   0.05      
  vb         V  B GROUND SMU4 0.1 LIN        2    0          -1.2       5    -0.3      
  vd         V  D GROUND SMU1 0.1 LIST       3 3 0.05 0.6 1.2
  vs         V  S GROUND SMU3 0.1 CON        0
 ICCAP_OUTPUTS
  id         I  D GROUND SMU1 B
  ig         I  G GROUND SMU2 B
  ib         I  B GROUND SMU4 B
  is         I  S GROUND SMU3 B
 ICCAP_VALUES
  MASTER_SETUP_TYPE "~dc_idvg~"
  LINVT_VALUE ""
  LISTVT_VALUE ""
  TYPE "1"
  TEMP " 125.000 "
  IS_TNOM " 0.00000 "
  MAIN.W "10.00u"
  MAIN.L "10.00u"
  MAIN.AD "3.400p"
  MAIN.AS "3.400p"
  MAIN.PD "20.68u"
  MAIN.PS "20.68u"
  MAIN.NF "1.000"
  MAIN.M "1"
  MAIN.NRD "0.000"
  MAIN.NRS "0.000"
  MAIN.LDRIFT1 "1E-06"
  MAIN.LDRIFT2 "1E-06"
  MAIN.SA "0.000"
  MAIN.SB "0.000"
  MAIN.SD "0.000"
  MAIN.SCA "0.000"
  MAIN.SCB "0.000"
  MAIN.SCC "0.000"
  MAIN.SC "0.000"
  MODULE "S541"
  PIN_D "12"
  PIN_G "9"
  PIN_S "10"
  PIN_B "11"
  PIN_E ""
  PIN_6 ""
  XY_ID ""
  FUNC "Large"
  STI "SA ref"
  WPE "WPE ref"
  COMMENT ""
  DIS_MEAS ""
  TypeTCI "10"
END_HEADER

BEGIN_DB
 ICCAP_VAR vb         0              
 ICCAP_VAR vd         0.05           
 ICCAP_VAR vs         0              

 #vg                    id                    ig                    ib                    is                   
  -0.5                  9.6e-12               -5.5462e-08           5.5424e-08            7.86e-12             
  -0.45                 5.62e-12              -1.3072e-08           1.3072e-08            4.88e-12             
  -0.4                  6.28e-12              -3.0906e-09           3.093e-09             3e-12                
  -0.35                 1.222e-11             -7.3362e-10           7.3496e-10            -1.78e-12            
  -0.3                  2.474e-11             -1.7802e-10           1.807e-10             -1.584e-11           
  -0.25                 6.744e-11             -4.606e-11            4.984e-11             -5.94e-11            
  -0.2                  2.065e-10             -1.426e-11            1.816e-11             -1.9974e-10          
  -0.15                 6.6e-10               -6e-12                9.82e-12              -6.5404e-10          
  -0.1                  2.1426e-09            -3.72e-12             7.66e-12              -2.137e-09           
  -0.05                 6.9462e-09            -2.42e-12             6.46e-12              -6.94e-09            
  0                     2.2024e-08            -6.4e-13              6.46e-12              -2.2002e-08          
  0.05                  6.617e-08             3.08e-12              6.18e-12              -6.6152e-08          
  0.1                   1.7882e-07            1.116e-11             5e-12                 -1.7878e-07          
  0.15                  4.158e-07             2.698e-11             4.24e-12              -4.1574e-07          
  0.2                   8.1072e-07            5.592e-11             4.86e-12              -8.1082e-07          
  0.25                  1.3468e-06            1.0456e-10            3.4e-12               -1.3434e-06          
  0.3                   1.9642e-06            1.8394e-10            3.5e-12               -1.9612e-06          
  0.35                  2.619e-06             3.0736e-10            3.26e-12              -2.6158e-06          
  0.4                   3.283e-06             4.921e-10             3.8e-12               -3.2802e-06          
  0.45                  3.9472e-06            7.6076e-10            2.42e-12              -3.9448e-06          
  0.5                   4.6056e-06            1.141e-09             1.64e-12              -4.6034e-06          
  0.55                  5.2544e-06            1.6642e-09            2.28e-12              -5.2528e-06          
  0.6                   5.8932e-06            2.3732e-09            2.9e-12               -5.8922e-06          
  0.65                  6.5198e-06            3.3144e-09            1.48e-12              -6.5198e-06          
  0.7                   7.1306e-06            4.5408e-09            1.06e-12              -7.132e-06           
  0.75                  7.7264e-06            6.1206e-09            7.2e-13               -7.7292e-06          
  0.8                   8.3038e-06            8.1204e-09            1.3e-12               -8.309e-06           
  0.85                  8.8648e-06            1.06308e-08           1.18e-12              -8.8718e-06          
  0.9                   9.4042e-06            1.3736e-08            -1.8e-13              -9.4144e-06          
  0.95                  9.9234e-06            1.7544e-08            1.2e-13               -9.9374e-06          
  1                     1.04222e-05           2.217e-08             3e-13                 -1.04404e-05         
  1.05                  1.08988e-05           2.7742e-08            -6e-13                -1.0923e-05          
  1.1                   1.13526e-05           3.4382e-08            -2.68e-12             -1.13832e-05         
  1.15                  1.1788e-05            4.2268e-08            -6.1e-12              -1.1822e-05          
  1.2                   1.2196e-05            5.1562e-08            -1.468e-11            -1.2242e-05          
  1.25                  1.2584e-05            6.2446e-08            -3.148e-11            -1.264e-05           
  1.3                   1.295e-05             7.5138e-08            -6.044e-11            -1.3016e-05          
  1.35                  1.3292e-05            8.9882e-08            -1.1392e-10           -1.3376e-05          
END_DB

BEGIN_DB
 ICCAP_VAR vb         -0.3           
 ICCAP_VAR vd         0.05           
 ICCAP_VAR vs         0              

 #vg                    id                    ig                    ib                    is                   
  -0.5                  9.44e-12              -1.926e-11            -1.524e-11            8.54e-12             
  -0.45                 8.64e-12              -9.98e-12             -2.266e-11            7.7e-12              
  -0.4                  8.08e-12              -6.78e-12             -2.344e-11            6.46e-12             
  -0.35                 8.32e-12              -5.34e-12             -2.232e-11            5.02e-12             
  -0.3                  1.086e-11             -4.14e-12             -2e-11                6.8e-13              
  -0.25                 2.144e-11             -3.38e-12             -1.914e-11            -1.148e-11           
  -0.2                  6.01e-11              -2.66e-12             -1.826e-11            -5.15e-11            
  -0.15                 1.9366e-10            -2.2e-12              -1.752e-11            -1.861e-10           
  -0.1                  6.5328e-10            -1.48e-12             -1.74e-11             -6.4646e-10          
  -0.05                 2.2246e-09            -1.16e-12             -1.58e-11             -2.2176e-09          
  0                     7.5066e-09            -1.4e-13              -1.466e-11            -7.499e-09           
  0.05                  2.4638e-08            2.34e-12              -1.458e-11            -2.4622e-08          
  0.1                   7.5476e-08            8.22e-12              -1.636e-11            -7.5472e-08          
  0.15                  2.0532e-07            2.216e-11             -1.51e-11             -2.0528e-07          
  0.2                   4.7128e-07            4.886e-11             -1.384e-11            -4.7124e-07          
  0.25                  9.0034e-07            9.508e-11             -1.436e-11            -9.0048e-07          
  0.3                   1.46e-06              1.7132e-10            -1.442e-11            -1.4564e-06          
  0.35                  2.0886e-06            2.9066e-10            -1.434e-11            -2.0856e-06          
  0.4                   2.7436e-06            4.7096e-10            -1.338e-11            -2.7406e-06          
  0.45                  3.4046e-06            7.3446e-10            -1.426e-11            -3.402e-06           
  0.5                   4.062e-06             1.1088e-09            -1.388e-11            -4.0596e-06          
  0.55                  4.711e-06             1.6258e-09            -1.288e-11            -4.7092e-06          
  0.6                   5.3512e-06            2.3272e-09            -1.348e-11            -5.3504e-06          
  0.65                  5.9796e-06            3.2604e-09            -1.406e-11            -5.9796e-06          
  0.7                   6.593e-06             4.477e-09             -1.398e-11            -6.5942e-06          
  0.75                  7.1918e-06            6.0464e-09            -1.384e-11            -7.1946e-06          
  0.8                   7.773e-06             8.0366e-09            -1.266e-11            -7.7774e-06          
  0.85                  8.3366e-06            1.0535e-08            -1.336e-11            -8.3434e-06          
  0.9                   8.8798e-06            1.3628e-08            -1.356e-11            -8.8902e-06          
  0.95                  9.4038e-06            1.7422e-08            -1.402e-11            -9.4178e-06          
  1                     9.9066e-06            2.2038e-08            -1.34e-11             -9.9248e-06          
  1.05                  1.03878e-05           2.7594e-08            -1.402e-11            -1.04118e-05         
  1.1                   1.08462e-05           3.4218e-08            -1.564e-11            -1.0877e-05          
  1.15                  1.1283e-05            4.2086e-08            -1.986e-11            -1.13216e-05         
  1.2                   1.17e-05              5.1366e-08            -2.794e-11            -1.1744e-05          
  1.25                  1.2092e-05            6.2234e-08            -4.406e-11            -1.2146e-05          
  1.3                   1.246e-05             7.4904e-08            -7.434e-11            -1.2528e-05          
  1.35                  1.2808e-05            8.9632e-08            -1.2604e-10           -1.289e-05           
END_DB

BEGIN_DB
 ICCAP_VAR vb         -0.6           
 ICCAP_VAR vd         0.05           
 ICCAP_VAR vs         0              

 #vg                    id                    ig                    ib                    is                   
  -0.5                  8.64e-12              -7.54e-12             -3.26e-11             8.02e-12             
  -0.45                 7.86e-12              -5.98e-12             -3.122e-11            7.38e-12             
  -0.4                  7.44e-12              -4.64e-12             -3.026e-11            6.66e-12             
  -0.35                 7.2e-12               -3.64e-12             -2.864e-11            5.68e-12             
  -0.3                  7.68e-12              -2.98e-12             -2.846e-11            4.06e-12             
  -0.25                 1.114e-11             -2.22e-12             -2.656e-11            -7.8e-13             
  -0.2                  2.474e-11             -1.66e-12             -2.598e-11            -1.604e-11           
  -0.15                 7.524e-11             -1.28e-12             -2.402e-11            -6.758e-11           
  -0.1                  2.5514e-10            -7.4e-13              -2.168e-11            -2.4832e-10          
  -0.05                 8.8962e-10            -4.8e-13              -2.234e-11            -8.8344e-10          
  0                     3.1068e-09            -8e-14                -2.176e-11            -3.0998e-09          
  0.05                  1.07044e-08           1.66e-12              -2.228e-11            -1.06996e-08         
  0.1                   3.5292e-08            6.12e-12              -2.108e-11            -3.5278e-08          
  0.15                  1.06556e-07           1.752e-11             -2.136e-11            -1.06556e-07         
  0.2                   2.7748e-07            4.146e-11             -2.078e-11            -2.7754e-07          
  0.25                  6.0074e-07            8.496e-11             -2.05e-11             -6.008e-07           
  0.3                   1.0788e-06            1.5772e-10            -2.09e-11             -1.079e-06           
  0.35                  1.6652e-06            2.7298e-10            -1.922e-11            -1.6616e-06          
  0.4                   2.2988e-06            4.4832e-10            -2.002e-11            -2.296e-06           
  0.45                  2.95e-06              7.064e-10             -2.004e-11            -2.9474e-06          
  0.5                   3.6028e-06            1.074e-09             -1.894e-11            -3.6004e-06          
  0.55                  4.2494e-06            1.5842e-09            -1.946e-11            -4.2476e-06          
  0.6                   4.8888e-06            2.2774e-09            -1.958e-11            -4.8878e-06          
  0.65                  5.5176e-06            3.2018e-09            -1.962e-11            -5.5174e-06          
  0.7                   6.1322e-06            4.409e-09             -1.924e-11            -6.1332e-06          
  0.75                  6.7328e-06            5.967e-09             -1.862e-11            -6.7356e-06          
  0.8                   7.3164e-06            7.9452e-09            -1.914e-11            -7.3208e-06          
  0.85                  7.8834e-06            1.04306e-08           -1.982e-11            -7.89e-06            
  0.9                   8.43e-06              1.351e-08             -1.94e-11             -8.4398e-06          
  0.95                  8.9566e-06            1.7292e-08            -1.926e-11            -8.9708e-06          
  1                     9.4634e-06            2.1888e-08            -1.996e-11            -9.482e-06           
  1.05                  9.9488e-06            2.7428e-08            -1.96e-11             -9.9726e-06          
  1.1                   1.04108e-05           3.4038e-08            -2.038e-11            -1.04414e-05         
  1.15                  1.08522e-05           4.1892e-08            -2.544e-11            -1.08904e-05         
  1.2                   1.12704e-05           5.115e-08             -3.302e-11            -1.1318e-05          
  1.25                  1.1668e-05            6.2e-08               -4.966e-11            -1.1724e-05          
  1.3                   1.2042e-05            7.4652e-08            -8.002e-11            -1.2108e-05          
  1.35                  1.2394e-05            8.9366e-08            -1.3266e-10           -1.2476e-05          
END_DB

BEGIN_DB
 ICCAP_VAR vb         -0.9           
 ICCAP_VAR vd         0.05           
 ICCAP_VAR vs         0              

 #vg                    id                    ig                    ib                    is                   
  -0.5                  8.46e-12              -6.46e-12             -3.844e-11            7.8e-12              
  -0.45                 7.74e-12              -4.92e-12             -3.734e-11            7.14e-12             
  -0.4                  7.34e-12              -3.9e-12              -3.612e-11            6.76e-12             
  -0.35                 6.84e-12              -2.86e-12             -3.33e-11             5.96e-12             
  -0.3                  6.92e-12              -2.24e-12             -3.376e-11            5.08e-12             
  -0.25                 8.04e-12              -1.6e-12              -3.222e-11            2.72e-12             
  -0.2                  1.362e-11             -1.2e-12              -3.09e-11             -4.36e-12            
  -0.15                 3.57e-11              -7e-13                -2.936e-11            -2.768e-11           
  -0.1                  1.1752e-10            -4.8e-13              -2.748e-11            -1.1042e-10          
  -0.05                 4.1404e-10            -1e-13                -2.616e-11            -4.0746e-10          
  0                     1.4764e-09            -2e-14                -2.642e-11            -1.4698e-09          
  0.05                  5.246e-09             1.2e-12               -2.668e-11            -5.2392e-09          
  0.1                   1.8112e-08            4.34e-12              -2.628e-11            -1.8094e-08          
  0.15                  5.8716e-08            1.332e-11             -2.542e-11            -5.8706e-08          
  0.2                   1.6802e-07            3.404e-11             -2.532e-11            -1.6802e-07          
  0.25                  4.0384e-07            7.42e-11              -2.544e-11            -4.039e-07           
  0.3                   7.976e-07             1.4332e-10            -2.51e-11             -7.9778e-07          
  0.35                  1.3254e-06            2.5424e-10            -2.396e-11            -1.322e-06           
  0.4                   1.9268e-06            4.2458e-10            -2.466e-11            -1.9238e-06          
  0.45                  2.5608e-06            6.7682e-10            -2.474e-11            -2.5582e-06          
  0.5                   3.2044e-06            1.038e-09             -2.288e-11            -3.202e-06           
  0.55                  3.8454e-06            1.5404e-09            -2.462e-11            -3.8438e-06          
  0.6                   4.4822e-06            2.2258e-09            -2.46e-11             -4.481e-06           
  0.65                  5.1098e-06            3.1408e-09            -2.39e-11             -5.1096e-06          
  0.7                   5.7244e-06            4.338e-09             -2.316e-11            -5.7256e-06          
  0.75                  6.3262e-06            5.8848e-09            -2.304e-11            -6.3286e-06          
  0.8                   6.9114e-06            7.8502e-09            -2.396e-11            -6.9158e-06          
  0.85                  7.48e-06              1.03226e-08           -2.414e-11            -7.487e-06           
  0.9                   8.0296e-06            1.3388e-08            -2.31e-11             -8.0398e-06          
  0.95                  8.56e-06              1.7152e-08            -2.35e-11             -8.5738e-06          
  1                     9.0696e-06            2.1734e-08            -2.378e-11            -9.0876e-06          
  1.05                  9.5578e-06            2.7258e-08            -2.418e-11            -9.582e-06           
  1.1                   1.00242e-05           3.3848e-08            -2.446e-11            -1.00542e-05         
  1.15                  1.04686e-05           4.1684e-08            -2.894e-11            -1.05066e-05         
  1.2                   1.08908e-05           5.0926e-08            -3.76e-11             -1.0938e-05          
  1.25                  1.129e-05             6.1756e-08            -5.356e-11            -1.13482e-05         
  1.3                   1.167e-05             7.4382e-08            -8.392e-11            -1.1736e-05          
  1.35                  1.2024e-05            8.9078e-08            -1.3724e-10           -1.2106e-05          
END_DB

BEGIN_DB
 ICCAP_VAR vb         -1.2           
 ICCAP_VAR vd         0.05           
 ICCAP_VAR vs         0              

 #vg                    id                    ig                    ib                    is                   
  -0.5                  8.28e-12              -5.92e-12             -3.99e-11             7.84e-12             
  -0.45                 7.82e-12              -4.32e-12             -3.978e-11            7.26e-12             
  -0.4                  7.42e-12              -3.32e-12             -3.918e-11            6.8e-12              
  -0.35                 7.04e-12              -2.46e-12             -3.786e-11            6.24e-12             
  -0.3                  6.74e-12              -1.82e-12             -3.7e-11              5.92e-12             
