! VERSION = 6.00
BEGIN_HEADER
 ICCAP_INPUTS
  vd         V  D GROUND SMU1 0.1 LIN        1    0          1.35       28   0.05      
  vg         V  G GROUND SMU2 0.001 LIN        2    0.722      1.35       5    0.157     
  vb         V  B GROUND SMU4 0.1 CON        -1.2
  vs         V  S GROUND SMU3 0.1 CON        0
 ICCAP_OUTPUTS
  id         I  D GROUND SMU1 B
  ig         I  G GROUND SMU2 B
  ib         I  B GROUND SMU4 B
  is         I  S GROUND SMU3 B
 ICCAP_VALUES
  MASTER_SETUP_TYPE "~dc_idvd~"
  LINVT_VALUE "|idvg|100.0n|100.0m|1.000m|5|1.350|"
  LISTVT_VALUE ""
  TYPE "1"
  TEMP "-40.0000 "
  IS_TNOM " 0.00000 "
  MAIN.W "300.0n"
  MAIN.L "130.0n"
  MAIN.AD "102.0f"
  MAIN.AS "102.0f"
  MAIN.PD "1.280u"
  MAIN.PS "1.280u"
  MAIN.NF "1.000"
  MAIN.M "1"
  MAIN.NRD "0.000"
  MAIN.NRS "0.000"
  MAIN.LDRIFT1 "1E-06"
  MAIN.LDRIFT2 "1E-06"
  MAIN.SA "0.000"
  MAIN.SB "0.000"
  MAIN.SD "0.000"
  MAIN.SCA "0.000"
  MAIN.SCB "0.000"
  MAIN.SCC "0.000"
  MAIN.SC "0.000"
  MODULE "S544"
  PIN_D "18"
  PIN_G "3"
  PIN_S "4"
  PIN_B "17"
  PIN_E ""
  PIN_6 ""
  XY_ID ""
  FUNC "LW Scale"
  STI "SA ref"
  WPE "WPE ref"
  COMMENT ""
  DIS_MEAS ""
  TypeTCI "10"
END_HEADER

BEGIN_DB
 ICCAP_VAR vg         0.722          
 ICCAP_VAR vb         -1.2           
 ICCAP_VAR vs         0              

 #vd                    id                    ig                    ib                    is                   
  0                     1.442e-09             1.26e-12              -7.88e-12             -1.01804e-09         
  0.05                  7.3848e-07            9.6e-13               -8.26e-12             -7.3796e-07          
  0.1                   1.069e-06             9.8e-13               -7.26e-12             -1.06936e-06         
  0.15                  1.2632e-06            7.8e-13               -5.76e-12             -1.2584e-06          
  0.2                   1.411e-06             7e-13                 -7e-12                -1.4082e-06          
  0.25                  1.5486e-06            6.8e-13               -6.26e-12             -1.5446e-06          
  0.3                   1.6788e-06            5.4e-13               -6.52e-12             -1.6746e-06          
  0.35                  1.8062e-06            6e-13                 -6.08e-12             -1.8038e-06          
  0.4                   1.9362e-06            5.2e-13               -4.94e-12             -1.9328e-06          
  0.45                  2.0676e-06            6e-13                 -5.52e-12             -2.0642e-06          
  0.5                   2.1966e-06            6.2e-13               -5.4e-12              -2.198e-06           
  0.55                  2.334e-06             6e-13                 -4.74e-12             -2.3314e-06          
  0.6                   2.4818e-06            6e-13                 -5.58e-12             -2.4732e-06          
  0.65                  2.626e-06             6e-13                 -4.66e-12             -2.6254e-06          
  0.7                   2.7872e-06            6.2e-13               -3.28e-12             -2.783e-06           
  0.75                  2.9428e-06            5.6e-13               -4.38e-12             -2.9424e-06          
  0.8                   3.1168e-06            6.6e-13               -4.68e-12             -3.1134e-06          
  0.85                  3.2948e-06            6e-13                 -3.66e-12             -3.2946e-06          
  0.9                   3.481e-06             5.4e-13               -5.36e-12             -3.476e-06           
  0.95                  3.6718e-06            4.6e-13               -4.8e-12              -3.6674e-06          
  1                     3.871e-06             3.6e-13               -3.4e-12              -3.8656e-06          
  1.05                  4.0824e-06            5.8e-13               -4.86e-12             -4.0668e-06          
  1.1                   4.2926e-06            5e-13                 -5.04e-12             -4.2908e-06          
  1.15                  4.5172e-06            5.2e-13               -6.56e-12             -4.514e-06           
  1.2                   4.742e-06             4e-13                 -1.16e-11             -4.736e-06           
  1.25                  4.9696e-06            5.2e-13               -2.268e-11            -4.9694e-06          
  1.3                   5.2142e-06            4.6e-13               -4.144e-11            -5.2074e-06          
  1.35                  5.4614e-06            4e-13                 -8.868e-11            -5.4572e-06          
END_DB

BEGIN_DB
 ICCAP_VAR vg         0.879          
 ICCAP_VAR vb         -1.2           
 ICCAP_VAR vs         0              

 #vd                    id                    ig                    ib                    is                   
  0                     2.838e-09             2.84e-12              -2.02e-12             -3.428e-09           
  0.05                  4.4058e-06            2.54e-12              -2.5e-12              -4.401e-06           
  0.1                   7.4224e-06            2.22e-12              -1.7e-12              -7.418e-06           
  0.15                  9.4632e-06            1.9e-12               -3.22e-12             -9.4588e-06          
  0.2                   1.08678e-05           1.78e-12              -3.1e-12              -1.0864e-05          
  0.25                  1.1862e-05            1.62e-12              -2.78e-12             -1.1844e-05          
  0.3                   1.268e-05             1.6e-12               -1.6e-12              -1.2662e-05          
  0.35                  1.3388e-05            1.52e-12              -2.4e-12              -1.337e-05           
  0.4                   1.4034e-05            1.52e-12              -2.7e-12              -1.4016e-05          
  0.45                  1.465e-05             1.42e-12              -1.66e-12             -1.463e-05           
  0.5                   1.5228e-05            1.48e-12              -2.84e-12             -1.5218e-05          
  0.55                  1.5806e-05            1.44e-12              -2.78e-12             -1.5792e-05          
  0.6                   1.6384e-05            1.42e-12              -1.3e-12              -1.6366e-05          
  0.65                  1.6954e-05            1.42e-12              -2.3e-12              -1.694e-05           
  0.7                   1.7532e-05            1.36e-12              -2.28e-12             -1.7514e-05          
  0.75                  1.8116e-05            1.34e-12              -1.76e-12             -1.8094e-05          
  0.8                   1.8696e-05            1.34e-12              -2.32e-12             -1.8678e-05          
  0.85                  1.9286e-05            1.48e-12              -2.4e-12              -1.927e-05           
  0.9                   1.9872e-05            1.4e-12               -2.06e-12             -1.9864e-05          
  0.95                  2.0484e-05            1.2e-12               -2.88e-12             -2.0466e-05          
  1                     2.1082e-05            1.3e-12               -2.96e-12             -2.107e-05           
  1.05                  2.1702e-05            1.4e-12               -2.66e-12             -2.1684e-05          
  1.1                   2.2316e-05            1.26e-12              -5.56e-12             -2.2288e-05          
  1.15                  2.2928e-05            1.32e-12              -8.96e-12             -2.291e-05           
  1.2                   2.354e-05             1.42e-12              -2.054e-11            -2.3534e-05          
  1.25                  2.4178e-05            1.24e-12              -4.63e-11             -2.4152e-05          
  1.3                   2.4824e-05            1.36e-12              -9.684e-11            -2.484e-05           
  1.35                  2.5556e-05            1.36e-12              -2.0062e-10           -2.5538e-05          
END_DB

BEGIN_DB
 ICCAP_VAR vg         1.036          
 ICCAP_VAR vb         -1.2           
 ICCAP_VAR vs         0              

 #vd                    id                    ig                    ib                    is                   
  0                     1.227e-08             6.6e-12               -6e-14                -1.1772e-08          
  0.05                  1.0122e-05            5.78e-12              -2.12e-12             -1.0098e-05          
  0.1                   1.8232e-05            5.08e-12              -2.4e-13              -1.8212e-05          
  0.15                  2.4514e-05            4.52e-12              -1.78e-12             -2.4516e-05          
  0.2                   2.9182e-05            4.2e-12               -1.36e-12             -2.9168e-05          
  0.25                  3.264e-05             3.92e-12              -1.3e-12              -3.2618e-05          
  0.3                   3.5194e-05            3.76e-12              -2.04e-12             -3.5174e-05          
  0.35                  3.7164e-05            3.52e-12              -2.18e-12             -3.715e-05           
  0.4                   3.876e-05             3.5e-12               -1.16e-12             -3.8746e-05          
  0.45                  4.0112e-05            3.36e-12              -1.9e-12              -4.0098e-05          
  0.5                   4.1326e-05            3.3e-12               -1.54e-12             -4.1308e-05          
  0.55                  4.2454e-05            3.22e-12              -1.08e-12             -4.244e-05           
  0.6                   4.352e-05             3.12e-12              -1.84e-12             -4.3496e-05          
  0.65                  4.4546e-05            3.14e-12              -1.52e-12             -4.46e-05            
  0.7                   4.5628e-05            3.12e-12              -1.7e-12              -4.5606e-05          
  0.75                  4.6614e-05            3.16e-12              -1.92e-12             -4.6594e-05          
  0.8                   4.758e-05             3.04e-12              -1.72e-12             -4.7564e-05          
  0.85                  4.854e-05             3.06e-12              -1.34e-12             -4.8512e-05          
  0.9                   4.9486e-05            3.14e-12              -1.42e-12             -4.9448e-05          
  0.95                  5.0428e-05            3.02e-12              -2.36e-12             -5.0408e-05          
  1                     5.1362e-05            3.1e-12               -2.64e-12             -5.1354e-05          
  1.05                  5.2294e-05            2.96e-12              -4.68e-12             -5.2282e-05          
  1.1                   5.3228e-05            2.92e-12              -7.3e-12              -5.3224e-05          
  1.15                  5.4174e-05            2.86e-12              -1.55e-11             -5.4156e-05          
  1.2                   5.5104e-05            2.96e-12              -3.518e-11            -5.509e-05           
  1.25                  5.603e-05             2.96e-12              -7.422e-11            -5.602e-05           
  1.3                   5.6962e-05            2.9e-12               -1.5486e-10           -5.696e-05           
  1.35                  5.781e-05             2.92e-12              -3.0828e-10           -5.7794e-05          
END_DB

BEGIN_DB
 ICCAP_VAR vg         1.193          
 ICCAP_VAR vb         -1.2           
 ICCAP_VAR vs         0              

 #vd                    id                    ig                    ib                    is                   
  0                     1.9234e-08            1.328e-11             -1.34e-12             -1.7992e-08          
  0.05                  1.5576e-05            1.196e-11             -7.8e-13              -1.5556e-05          
  0.1                   2.9012e-05            1.076e-11             -1.68e-12             -2.8996e-05          
  0.15                  4.0114e-05            9.82e-12              -1.1e-12              -4.0096e-05          
  0.2                   4.8982e-05            8.98e-12              -7e-13                -4.8972e-05          
  0.25                  5.59e-05              8.3e-12               -1.68e-12             -5.586e-05           
  0.3                   6.1198e-05            7.94e-12              -1.3e-12              -6.1188e-05          
  0.35                  6.53e-05              7.48e-12              -1.18e-12             -6.5278e-05          
  0.4                   6.849e-05             7.14e-12              -1.14e-12             -6.8476e-05          
  0.45                  7.1048e-05            6.96e-12              -1.74e-12             -7.1096e-05          
  0.5                   7.3242e-05            6.8e-12               -6.6e-13              -7.32e-05            
  0.55                  7.4994e-05            6.52e-12              -2.24e-12             -7.497e-05           
  0.6                   7.6634e-05            6.54e-12              -1.48e-12             -7.6616e-05          
  0.65                  7.8138e-05            6.52e-12              -1.36e-12             -7.8114e-05          
  0.7                   7.9546e-05            6.38e-12              -1.18e-12             -7.9532e-05          
  0.75                  8.0896e-05            6.28e-12              -1.06e-12             -8.0888e-05          
  0.8                   8.2202e-05            6.3e-12               -1.58e-12             -8.2188e-05          
  0.85                  8.3456e-05            6.08e-12              -2.44e-12             -8.3448e-05          
  0.9                   8.4682e-05            6.08e-12              -9.4e-13              -8.4674e-05          
  0.95                  8.5886e-05            6.2e-12               -2.28e-12             -8.5882e-05          
  1                     8.708e-05             6.06e-12              -4.12e-12             -8.706e-05           
  1.05                  8.8256e-05            5.96e-12              -5.54e-12             -8.8268e-05          
  1.1                   8.9336e-05            6.06e-12              -1.092e-11            -8.9308e-05          
  1.15                  9.0564e-05            6.08e-12              -2.524e-11            -9.0534e-05          
  1.2                   9.1768e-05            6.04e-12              -5.01e-11             -9.1808e-05          
  1.25                  9.2944e-05            5.98e-12              -1.032e-10            -9.2936e-05          
  1.3                   9.4072e-05            5.88e-12              -2.0656e-10           -9.4076e-05          
  1.35                  9.5238e-05            5.78e-12              -3.9548e-10           -9.5248e-05          
END_DB

BEGIN_DB
 ICCAP_VAR vg         1.35           
 ICCAP_VAR vb         -1.2           
 ICCAP_VAR vs         0              

 #vd                    id                    ig                    ib                    is                   
  0                     2.5244e-08            2.432e-11             4e-13                 -2.2702e-08          
  0.05                  2.0092e-05            2.216e-11             -1.74e-12             -2.0078e-05          
  0.1                   3.8126e-05            2.034e-11             -3.6e-13              -3.811e-05           
  0.15                  5.3668e-05            1.874e-11             -1.64e-12             -5.3658e-05          
  0.2                   6.6642e-05            1.728e-11             -1.3e-12              -6.6616e-05          
  0.25                  7.7216e-05            1.61e-11              -5.2e-13              -7.7206e-05          
  0.3                   8.573e-05             1.51e-11              -1.7e-12              -8.5712e-05          
  0.35                  9.248e-05             1.42e-11              -1.38e-12             -9.247e-05           
  0.4                   9.7894e-05            1.372e-11             -3.8e-13              -9.7852e-05          
  0.45                  0.000102126           1.33e-11              -1.62e-12             -0.000102162         
  0.5                   0.000105672           1.272e-11             -1.16e-12             -0.000105584         
  0.55                  0.000108492           1.238e-11             -6e-13                -0.000108456         
  0.6                   0.00011081            1.212e-11             3.9e-12               -0.00011093          
  0.65                  0.000113058           1.182e-11             -1.02e-12             -0.000113092         
  0.7                   0.00011516            1.176e-11             -5.4e-13              -0.000115038         
  0.75                  0.00011694            1.172e-11             -6.2e-13              -0.000116704         
  0.8                   0.0001185             1.148e-11             -1.18e-12             -0.00011826          
  0.85                  0.00012036            1.148e-11             -1.68e-12             -0.00011998          
  0.9                   0.00012176            1.144e-11             -7.8e-13              -0.00012122          
  0.95                  0.00012324            1.14e-11              -2.7e-12              -0.0001228           
  1                     0.00012426            1.116e-11             -4.06e-12             -0.00012424          
  1.05                  0.00012596            1.112e-11             -6.3e-12              -0.0001257           
  1.1                   0.00012746            1.114e-11             -1.566e-11            -0.00012718          
  1.15                  0.00012892            1.1e-11               -3.218e-11            -0.00012838          
  1.2                   0.00013002            1.086e-11             -6.37e-11             -0.00012974          
  1.25                  0.00013142            1.094e-11             -1.2908e-10           -0.00013116          
  1.3                   0.00013288            1.08e-11              -2.4874e-10           -0.00013238          
  1.35                  0.00013406            1.076e-11             -4.6576e-10           -0.00013366          
END_DB

