! VERSION = 6.00
BEGIN_HEADER
 ICCAP_INPUTS
  vd         V  D GROUND SMU1 0.1 LIN        1    0          1.35       28   0.05      
  vg         V  G GROUND SMU2 0.001 LIST       2 3 0.102 0.302 0.502
  vb         V  B GROUND SMU4 0.1 CON        0
  vs         V  S GROUND SMU3 0.1 CON        0
 ICCAP_OUTPUTS
  id         I  D GROUND SMU1 B
  ig         I  G GROUND SMU2 B
  ib         I  B GROUND SMU4 B
  is         I  S GROUND SMU3 B
 ICCAP_VALUES
  MASTER_SETUP_TYPE "~dc_idvd~"
  LINVT_VALUE ""
  LISTVT_VALUE "|idvg|100.0n|-200.0m|1.000m|3|200.0m|200.0m|"
  TYPE "1"
  TEMP " 70.0000 "
  IS_TNOM " 0.00000 "
  MAIN.W "150.0n"
  MAIN.L "180.0n"
  MAIN.AD "100.5f"
  MAIN.AS "100.5f"
  MAIN.PD "1.340u"
  MAIN.PS "1.340u"
  MAIN.NF "1.000"
  MAIN.M "1"
  MAIN.NRD "0.000"
  MAIN.NRS "0.000"
  MAIN.LDRIFT1 "1E-06"
  MAIN.LDRIFT2 "1E-06"
  MAIN.SA "0.000"
  MAIN.SB "0.000"
  MAIN.SD "0.000"
  MAIN.SCA "0.000"
  MAIN.SCB "0.000"
  MAIN.SCC "0.000"
  MAIN.SC "0.000"
  MODULE "S547"
  PIN_D "20"
  PIN_G "1"
  PIN_S "2"
  PIN_B "19"
  PIN_E ""
  PIN_6 ""
  XY_ID ""
  FUNC "LW Scale"
  STI "SA ref"
  WPE "WPE ref"
  COMMENT ""
  DIS_MEAS ""
  TypeTCI "10"
END_HEADER

BEGIN_DB
 ICCAP_VAR vg         0.102          
 ICCAP_VAR vb         0              
 ICCAP_VAR vs         0              

 #vd                    id                    ig                    ib                    is                   
  0                     1.04e-12              -2.6e-13              2.08e-12              -7.8e-13             
  0.05                  2.931e-10             -2.4e-13              1.26e-12              -2.9272e-10          
  0.1                   3.5694e-10            -1.2e-13              1.22e-12              -3.5652e-10          
  0.15                  3.771e-10             -2e-13                1.38e-12              -3.7644e-10          
  0.2                   3.8918e-10            -2.2e-13              1.82e-12              -3.8842e-10          
  0.25                  3.9934e-10            -1e-13                -3.2e-13              -3.9846e-10          
  0.3                   4.0946e-10            -1.8e-13              5.8e-13               -4.0848e-10          
  0.35                  4.191e-10             -8e-14                8.4e-13               -4.1848e-10          
  0.4                   4.2944e-10            -1.6e-13              1e-12                 -4.2834e-10          
  0.45                  4.3926e-10            -8e-14                2.18e-12              -4.3854e-10          
  0.5                   4.4966e-10            -6e-14                7.4e-13               -4.4844e-10          
  0.55                  4.5964e-10            -8e-14                1.36e-12              -4.5874e-10          
  0.6                   4.7018e-10            -1e-13                7.2e-13               -4.6906e-10          
  0.65                  4.8066e-10            -2e-13                1.12e-12              -4.7948e-10          
  0.7                   4.9136e-10            -1.6e-13              1.66e-12              -4.9022e-10          
  0.75                  5.0216e-10            -1e-13                1.72e-12              -5.0092e-10          
  0.8                   5.1316e-10            -1.8e-13              7e-13                 -5.1176e-10          
  0.85                  5.2438e-10            -8e-14                9.4e-13               -5.2286e-10          
  0.9                   5.3574e-10            -1.4e-13              1.12e-12              -5.345e-10           
  0.95                  5.4746e-10            -1.8e-13              1.54e-12              -5.46e-10            
  1                     5.5904e-10            -1.4e-13              1.42e-12              -5.5782e-10          
  1.05                  5.7164e-10            -2e-13                6.6e-13               -5.6994e-10          
  1.1                   5.8388e-10            -2.4e-13              5e-13                 -5.82e-10            
  1.15                  5.9646e-10            -2.6e-13              1.44e-12              -5.9476e-10          
  1.2                   6.0932e-10            -3.2e-13              1.2e-12               -6.0754e-10          
  1.25                  6.2246e-10            -4.4e-13              1.24e-12              -6.2046e-10          
  1.3                   6.3516e-10            -4.4e-13              1.04e-12              -6.338e-10           
  1.35                  6.4818e-10            -5.2e-13              7.8e-13               -6.4706e-10          
END_DB

BEGIN_DB
 ICCAP_VAR vg         0.302          
 ICCAP_VAR vb         0              
 ICCAP_VAR vs         0              

 #vd                    id                    ig                    ib                    is                   
  0                     1.3232e-10            2e-14                 1.82e-12              -1.3484e-10          
  0.05                  5.3896e-08            6e-14                 6.8e-13               -5.3918e-08          
  0.1                   6.8548e-08            4e-14                 3.2e-13               -6.8544e-08          
  0.15                  7.3398e-08            0                     1.84e-12              -7.3396e-08          
  0.2                   7.6134e-08            1.2e-13               1.7e-12               -7.6114e-08          
  0.25                  7.8384e-08            -2e-14                -1.4e-13              -7.8366e-08          
  0.3                   8.048e-08             4e-14                 3e-13                 -8.0466e-08          
  0.35                  8.253e-08             2e-14                 1.12e-12              -8.253e-08           
  0.4                   8.46e-08              1e-13                 9e-13                 -8.4576e-08          
  0.45                  8.6636e-08            1e-13                 8e-14                 -8.6626e-08          
  0.5                   8.8718e-08            6e-14                 -8e-14                -8.8692e-08          
  0.55                  9.078e-08             4e-14                 7.4e-13               -9.0736e-08          
  0.6                   9.285e-08             4e-14                 1.46e-12              -9.2846e-08          
  0.65                  9.4974e-08            0                     3.6e-13               -9.4946e-08          
  0.7                   9.7086e-08            0                     -2e-13                -9.709e-08           
  0.75                  9.9252e-08            4e-14                 1.6e-13               -9.9252e-08          
  0.8                   1.01422e-07           4e-14                 1.9e-12               -1.01448e-07         
  0.85                  1.0366e-07            8e-14                 2e-13                 -1.03648e-07         
  0.9                   1.05894e-07           -2e-14                6e-14                 -1.05914e-07         
  0.95                  1.082e-07             -6e-14                8.8e-13               -1.08172e-07         
  1                     1.105e-07             -2e-14                -1.4e-13              -1.10498e-07         
  1.05                  1.1278e-07            -1.2e-13              5.6e-13               -1.12818e-07         
  1.1                   1.1524e-07            -1.4e-13              -4.8e-13              -1.15196e-07         
  1.15                  1.1762e-07            -8e-14                -7.6e-13              -1.1762e-07          
  1.2                   1.201e-07             0                     -3.66e-12             -1.2004e-07          
  1.25                  1.2258e-07            -6e-14                -6.98e-12             -1.2254e-07          
  1.3                   1.251e-07             -2e-13                -1.29e-11             -1.2502e-07          
  1.35                  1.2764e-07            -2e-13                -1.842e-11            -1.2758e-07          
END_DB

BEGIN_DB
 ICCAP_VAR vg         0.502          
 ICCAP_VAR vb         0              
 ICCAP_VAR vs         0              

 #vd                    id                    ig                    ib                    is                   
  0                     1.7598e-09            5e-13                 4e-14                 -1.591e-09           
  0.05                  1.05578e-06           4e-13                 -2.4e-13              -1.05578e-06         
  0.1                   1.683e-06             2.6e-13               1.66e-12              -1.6792e-06          
  0.15                  2.0254e-06            3.6e-13               8.8e-13               -2.0218e-06          
  0.2                   2.2092e-06            2.6e-13               0                     -2.2062e-06          
  0.25                  2.318e-06             2.4e-13               1.4e-12               -2.3144e-06          
  0.3                   2.3934e-06            2.8e-13               4e-13                 -2.3902e-06          
  0.35                  2.4558e-06            2.8e-13               3.2e-13               -2.4526e-06          
  0.4                   2.5114e-06            2.8e-13               1.24e-12              -2.508e-06           
  0.45                  2.564e-06             3.2e-13               6.8e-13               -2.5602e-06          
  0.5                   2.6142e-06            2.6e-13               2.8e-13               -2.6108e-06          
  0.55                  2.6632e-06            3.6e-13               1.22e-12              -2.6602e-06          
  0.6                   2.7112e-06            3.2e-13               1.3e-12               -2.7078e-06          
  0.65                  2.7582e-06            2.6e-13               2.8e-13               -2.755e-06           
  0.7                   2.8044e-06            2.4e-13               1.42e-12              -2.8008e-06          
  0.75                  2.8502e-06            1.8e-13               8.4e-13               -2.847e-06           
  0.8                   2.8956e-06            3.6e-13               6.8e-13               -2.8928e-06          
  0.85                  2.9412e-06            2.8e-13               1e-12                 -2.9374e-06          
  0.9                   2.9862e-06            3e-13                 2.2e-13               -2.9826e-06          
  0.95                  3.0312e-06            3e-13                 4e-13                 -3.0282e-06          
  1                     3.076e-06             3e-13                 -2e-14                -3.072e-06           
  1.05                  3.1204e-06            2.8e-13               -1.56e-12             -3.1174e-06          
  1.1                   3.1648e-06            2.2e-13               -4.1e-12              -3.1614e-06          
  1.15                  3.209e-06             2.6e-13               -9.54e-12             -3.2054e-06          
  1.2                   3.2532e-06            1.2e-13               -2.148e-11            -3.2504e-06          
  1.25                  3.2972e-06            2.2e-13               -4.178e-11            -3.2942e-06          
  1.3                   3.341e-06             2.4e-13               -7.688e-11            -3.3376e-06          
  1.35                  3.3852e-06            1.6e-13               -1.3404e-10           -3.3816e-06          
END_DB

