! VERSION = 6.00
BEGIN_HEADER
 ICCAP_INPUTS
  vd         V  D GROUND SMU1 0.1 LIN        1    0          1.35       28   0.05      
  vg         V  G GROUND SMU2 0.001 LIST       2 3 0.26 0.46 0.66
  vb         V  B GROUND SMU4 0.1 CON        -1.2
  vs         V  S GROUND SMU3 0.1 CON        0
 ICCAP_OUTPUTS
  id         I  D GROUND SMU1 B
  ig         I  G GROUND SMU2 B
  ib         I  B GROUND SMU4 B
  is         I  S GROUND SMU3 B
 ICCAP_VALUES
  MASTER_SETUP_TYPE "~dc_idvd~"
  LINVT_VALUE ""
  LISTVT_VALUE "|idvg|100.0n|-200.0m|1.000m|3|200.0m|200.0m|"
  TYPE "1"
  TEMP " 27.0000 "
  IS_TNOM " 1.00000 "
  MAIN.W "10.00u"
  MAIN.L "130.0n"
  MAIN.AD "3.400p"
  MAIN.AS "3.400p"
  MAIN.PD "20.68u"
  MAIN.PS "20.68u"
  MAIN.NF "1.000"
  MAIN.M "1"
  MAIN.NRD "0.000"
  MAIN.NRS "0.000"
  MAIN.LDRIFT1 "1E-06"
  MAIN.LDRIFT2 "1E-06"
  MAIN.SA "0.000"
  MAIN.SB "0.000"
  MAIN.SD "0.000"
  MAIN.SCA "0.000"
  MAIN.SCB "0.000"
  MAIN.SCC "0.000"
  MAIN.SC "0.000"
  MODULE "S540"
  PIN_D "18"
  PIN_G "3"
  PIN_S "4"
  PIN_B "17"
  PIN_E ""
  PIN_6 ""
  XY_ID ""
  FUNC "Short"
  STI "SA ref"
  WPE "WPE ref"
  COMMENT ""
  DIS_MEAS ""
  TypeTCI "10"
END_HEADER

BEGIN_DB
 ICCAP_VAR vg         0.26           
 ICCAP_VAR vb         -1.2           
 ICCAP_VAR vs         0              

 #vd                    id                    ig                    ib                    is                   
  0                     2.084e-11             6.2e-13               -6.1e-12              -1.326e-11           
  0.05                  5.9124e-09            3e-13                 -5.26e-12             -5.9116e-09          
  0.1                   7.7998e-09            4.2e-13               -5.96e-12             -7.7964e-09          
  0.15                  9.1022e-09            2.4e-13               -5.92e-12             -9.1014e-09          
  0.2                   1.04266e-08           3.6e-13               -4.54e-12             -1.04204e-08         
  0.25                  1.1888e-08            3.2e-13               -3.92e-12             -1.1868e-08          
  0.3                   1.3524e-08            3.4e-13               -4.48e-12             -1.3502e-08          
  0.35                  1.5362e-08            2e-13                 -4.04e-12             -1.5338e-08          
  0.4                   1.7418e-08            3.2e-13               -3.94e-12             -1.7396e-08          
  0.45                  1.9718e-08            1.4e-13               -2.92e-12             -1.9694e-08          
  0.5                   2.2292e-08            1.2e-13               -2.88e-12             -2.2272e-08          
  0.55                  2.5176e-08            4e-14                 -4.06e-12             -2.5158e-08          
  0.6                   2.8398e-08            -1e-13                -3.74e-12             -2.8382e-08          
  0.65                  3.1982e-08            -4e-13                -2.32e-12             -3.1962e-08          
  0.7                   3.5988e-08            -5.6e-13              -2.96e-12             -3.598e-08           
  0.75                  4.0456e-08            -1e-12                -3.56e-12             -4.0428e-08          
  0.8                   4.5398e-08            -1.48e-12             -3.6e-12              -4.5372e-08          
  0.85                  5.0908e-08            -2.08e-12             -2.48e-12             -5.0866e-08          
  0.9                   5.7014e-08            -2.9e-12              -2.02e-12             -5.6986e-08          
  0.95                  6.378e-08             -3.7e-12              -3.14e-12             -6.3754e-08          
  1                     7.1282e-08            -4.88e-12             -3.42e-12             -7.1262e-08          
  1.05                  7.954e-08             -6.2e-12              -3.64e-12             -7.9524e-08          
  1.1                   8.8706e-08            -7.64e-12             -3.86e-12             -8.8694e-08          
  1.15                  9.8766e-08            -9.44e-12             -6.54e-12             -9.8724e-08          
  1.2                   1.09916e-07           -1.148e-11            -1.048e-11            -1.0987e-07          
  1.25                  1.2222e-07            -1.408e-11            -1.4e-11              -1.2206e-07          
  1.3                   1.357e-07             -1.678e-11            -2.346e-11            -1.3536e-07          
  1.35                  1.5052e-07            -2e-11                -3.646e-11            -1.5034e-07          
END_DB

BEGIN_DB
 ICCAP_VAR vg         0.46           
 ICCAP_VAR vb         -1.2           
 ICCAP_VAR vs         0              

 #vd                    id                    ig                    ib                    is                   
  0                     3.0416e-09            5.66e-12              -1.48e-12             -3.1026e-09          
  0.05                  2.112e-06             4.66e-12              -1e-12                -2.1052e-06          
  0.1                   2.9212e-06            4.18e-12              -7e-12                -2.9128e-06          
  0.15                  3.4368e-06            3.8e-12               -2.12e-12             -3.428e-06           
  0.2                   3.9234e-06            3.62e-12              -1.26e-12             -3.9202e-06          
  0.25                  4.4114e-06            3.52e-12              -2.1e-12              -4.411e-06           
  0.3                   4.9316e-06            3.42e-12              -1.9e-12              -4.93e-06            
  0.35                  5.4846e-06            3.4e-12               -1.62e-12             -5.4856e-06          
  0.4                   6.0902e-06            3.36e-12              -2.04e-12             -6.087e-06           
  0.45                  6.7318e-06            3.4e-12               -2.52e-12             -6.7284e-06          
  0.5                   7.41e-06              3.36e-12              -1.72e-12             -7.4002e-06          
  0.55                  8.1482e-06            3.38e-12              -1.68e-12             -8.1418e-06          
  0.6                   8.92e-06              3.32e-12              -2.42e-12             -8.9324e-06          
  0.65                  9.769e-06             3.36e-12              -2.54e-12             -9.7816e-06          
  0.7                   1.06834e-05           3.16e-12              -1.82e-12             -1.06788e-05         
  0.75                  1.167e-05             3.08e-12              -1.62e-12             -1.1662e-05          
  0.8                   1.27e-05              3.06e-12              -2.86e-12             -1.2682e-05          
  0.85                  1.3804e-05            2.72e-12              -2.28e-12             -1.3788e-05          
  0.9                   1.4978e-05            2.54e-12              -2.08e-12             -1.4978e-05          
  0.95                  1.6232e-05            2.08e-12              -5.14e-12             -1.6218e-05          
  1                     1.7532e-05            1.7e-12               -9.94e-12             -1.7516e-05          
  1.05                  1.895e-05             1.08e-12              -2.424e-11            -1.892e-05           
  1.1                   2.0376e-05            4e-13                 -5.714e-11            -2.0368e-05          
  1.15                  2.197e-05             -5.8e-13              -1.281e-10            -2.1948e-05          
  1.2                   2.3612e-05            -1.6e-12              -2.6736e-10           -2.3524e-05          
  1.25                  2.534e-05             -2.86e-12             -5.3286e-10           -2.5264e-05          
  1.3                   2.7096e-05            -4.24e-12             -9.9382e-10           -2.7134e-05          
  1.35                  2.8996e-05            -6.24e-12             -1.7614e-09           -2.9058e-05          
END_DB

BEGIN_DB
 ICCAP_VAR vg         0.66           
 ICCAP_VAR vb         -1.2           
 ICCAP_VAR vs         0              

 #vd                    id                    ig                    ib                    is                   
  0                     1.1497e-07            3.326e-11             -1.32e-12             -1.10678e-07         
  0.05                  6.917e-05             2.812e-11             -7e-13                -6.917e-05           
  0.1                   0.0001106             2.454e-11             -1.24e-12             -0.000110572         
  0.15                  0.00013686            2.228e-11             -8.2e-13              -0.00013654          
  0.2                   0.00015546            2.082e-11             -1.9e-12              -0.00015506          
  0.25                  0.00017034            1.972e-11             -5.9e-12              -0.00016998          
  0.3                   0.00018352            1.92e-11              -8.8e-13              -0.00018314          
  0.35                  0.00019572            1.888e-11             -2.38e-12             -0.00019522          
  0.4                   0.00020756            1.858e-11             -4.8e-13              -0.0002072           
  0.45                  0.0002193             1.846e-11             -1.68e-12             -0.00021904          
  0.5                   0.0002312             1.842e-11             -1.76e-12             -0.00023086          
  0.55                  0.00024308            1.828e-11             -6.8e-13              -0.00024274          
  0.6                   0.00025506            1.84e-11              -2.02e-12             -0.00025474          
  0.65                  0.00026716            1.82e-11              -2.38e-12             -0.00026686          
  0.7                   0.00027952            1.814e-11             -1.06e-12             -0.00027908          
  0.75                  0.00029188            1.816e-11             -2e-12                -0.00029152          
  0.8                   0.00030448            1.812e-11             -2.3e-12              -0.00030412          
  0.85                  0.00031732            1.802e-11             -2.12e-12             -0.00031706          
  0.9                   0.0003304             1.794e-11             -5.78e-12             -0.00032996          
  0.95                  0.00034344            1.78e-11              -1.284e-11            -0.00034314          
  1                     0.00035678            1.766e-11             -3.244e-11            -0.00035644          
  1.05                  0.00037052            1.754e-11             -9.042e-11            -0.00036998          
  1.1                   0.0003841             1.726e-11             -2.3134e-10           -0.0003838           
  1.15                  0.0003982             1.682e-11             -5.6104e-10           -0.0003979           
  1.2                   0.00041208            1.632e-11             -1.2694e-09           -0.00041194          
  1.25                  0.00042672            1.576e-11             -2.6852e-09           -0.00042632          
  1.3                   0.00044108            1.508e-11             -5.3362e-09           -0.0004407           
  1.35                  0.00045552            1.412e-11             -9.9872e-09           -0.00045532          
END_DB

