! VERSION = 6.00
BEGIN_HEADER
 ICCAP_INPUTS
  vd         V  D GROUND SMU1 0.1 LIN        1    0          1.35       28   0.05      
  vg         V  G GROUND SMU2 0.001 LIST       2 3 -0.144 0.056 0.256
  vb         V  B GROUND SMU4 0.1 CON        0
  vs         V  S GROUND SMU3 0.1 CON        0
 ICCAP_OUTPUTS
  id         I  D GROUND SMU1 B
  ig         I  G GROUND SMU2 B
  ib         I  B GROUND SMU4 B
  is         I  S GROUND SMU3 B
 ICCAP_VALUES
  MASTER_SETUP_TYPE "~dc_idvd~"
  LINVT_VALUE ""
  LISTVT_VALUE "|idvg|100.0n|-200.0m|1.000m|3|200.0m|200.0m|"
  TYPE "1"
  TEMP " 125.000 "
  IS_TNOM " 0.00000 "
  MAIN.W "150.0n"
  MAIN.L "10.00u"
  MAIN.AD "100.5f"
  MAIN.AS "100.5f"
  MAIN.PD "1.340u"
  MAIN.PS "1.340u"
  MAIN.NF "1.000"
  MAIN.M "1"
  MAIN.NRD "0.000"
  MAIN.NRS "0.000"
  MAIN.LDRIFT1 "1E-06"
  MAIN.LDRIFT2 "1E-06"
  MAIN.SA "0.000"
  MAIN.SB "0.000"
  MAIN.SD "0.000"
  MAIN.SCA "0.000"
  MAIN.SCB "0.000"
  MAIN.SCC "0.000"
  MAIN.SC "0.000"
  MODULE "S547"
  PIN_D "16"
  PIN_G "5"
  PIN_S "6"
  PIN_B "15"
  PIN_E ""
  PIN_6 ""
  XY_ID ""
  FUNC "Narrow"
  STI "SA ref"
  WPE "WPE ref"
  COMMENT ""
  DIS_MEAS ""
  TypeTCI "10"
END_HEADER

BEGIN_DB
 ICCAP_VAR vg         -0.144         
 ICCAP_VAR vb         0              
 ICCAP_VAR vs         0              

 #vd                    id                    ig                    ib                    is                   
  0                     -2.6e-13              -2.46e-12             4.84e-12              1.6e-13              
  0.05                  1.152e-11             -2.32e-12             4.94e-12              -1.112e-11           
  0.1                   1.456e-11             -2.36e-12             4.88e-12              -1.37e-11            
  0.15                  1.52e-11              -2.22e-12             5.38e-12              -1.452e-11           
  0.2                   1.552e-11             -2.36e-12             3.98e-12              -1.474e-11           
  0.25                  1.556e-11             -2.34e-12             4.26e-12              -1.492e-11           
  0.3                   1.566e-11             -2.46e-12             3.46e-12              -1.484e-11           
  0.35                  1.596e-11             -2.4e-12              4.06e-12              -1.484e-11           
  0.4                   1.614e-11             -2.28e-12             4.48e-12              -1.488e-11           
  0.45                  1.62e-11              -2.5e-12              4.26e-12              -1.492e-11           
  0.5                   1.626e-11             -2.48e-12             2.92e-12              -1.49e-11            
  0.55                  1.652e-11             -2.36e-12             3.86e-12              -1.52e-11            
  0.6                   1.648e-11             -2.5e-12              3.92e-12              -1.524e-11           
  0.65                  1.674e-11             -2.7e-12              4.22e-12              -1.522e-11           
  0.7                   1.708e-11             -2.84e-12             4.02e-12              -1.524e-11           
  0.75                  1.712e-11             -2.78e-12             3.76e-12              -1.542e-11           
  0.8                   1.738e-11             -2.98e-12             3.02e-12              -1.52e-11            
  0.85                  1.746e-11             -2.98e-12             3.04e-12              -1.552e-11           
  0.9                   1.764e-11             -3.06e-12             3.48e-12              -1.518e-11           
  0.95                  1.782e-11             -3.3e-12              4.82e-12              -1.556e-11           
  1                     1.802e-11             -3.42e-12             3.34e-12              -1.546e-11           
  1.05                  1.82e-11              -3.6e-12              2.6e-12               -1.534e-11           
  1.1                   1.832e-11             -3.7e-12              3.6e-12               -1.554e-11           
  1.15                  1.868e-11             -3.98e-12             3.2e-12               -1.536e-11           
  1.2                   1.88e-11              -4.02e-12             3.04e-12              -1.55e-11            
  1.25                  1.906e-11             -4.26e-12             3.4e-12               -1.556e-11           
  1.3                   1.908e-11             -4.38e-12             3.18e-12              -1.564e-11           
  1.35                  1.946e-11             -4.54e-12             2.92e-12              -1.554e-11           
END_DB

BEGIN_DB
 ICCAP_VAR vg         0.056          
 ICCAP_VAR vb         0              
 ICCAP_VAR vs         0              

 #vd                    id                    ig                    ib                    is                   
  0                     1.58e-12              4e-14                 3.1e-12               -2.38e-12            
  0.05                  1.1826e-09            2e-14                 1.6e-12               -1.182e-09           
  0.1                   1.5196e-09            0                     1.98e-12              -1.518e-09           
  0.15                  1.6146e-09            6e-14                 2.6e-12               -1.6134e-09          
  0.2                   1.6472e-09            -6e-14                1.42e-12              -1.646e-09           
  0.25                  1.6644e-09            -4e-14                8.8e-13               -1.663e-09           
  0.3                   1.6764e-09            -2e-14                1.24e-12              -1.6746e-09          
  0.35                  1.6854e-09            -2.4e-13              1.7e-12               -1.6846e-09          
  0.4                   1.6946e-09            2e-14                 2.82e-12              -1.6934e-09          
  0.45                  1.7032e-09            -4e-14                1.86e-12              -1.7016e-09          
  0.5                   1.7114e-09            -6e-14                1.16e-12              -1.7094e-09          
  0.55                  1.7186e-09            -6e-14                1.2e-12               -1.7166e-09          
  0.6                   1.7252e-09            -1.6e-13              5.8e-13               -1.7228e-09          
  0.65                  1.7312e-09            -8e-14                1.84e-12              -1.7296e-09          
  0.7                   1.737e-09             -3.8e-13              2.64e-12              -1.735e-09           
  0.75                  1.743e-09             -3.8e-13              1.46e-12              -1.7408e-09          
  0.8                   1.7482e-09            -4.6e-13              6.4e-13               -1.7454e-09          
  0.85                  1.7524e-09            -5e-13                6.2e-13               -1.7504e-09          
  0.9                   1.7576e-09            -5e-13                1.44e-12              -1.7552e-09          
  0.95                  1.762e-09             -7.2e-13              1.06e-12              -1.7592e-09          
  1                     1.766e-09             -7.8e-13              1.16e-12              -1.7632e-09          
  1.05                  1.7698e-09            -8.8e-13              6.4e-13               -1.767e-09           
  1.1                   1.7738e-09            -1.04e-12             9.8e-13               -1.7706e-09          
  1.15                  1.7772e-09            -1e-12                7.6e-13               -1.7732e-09          
  1.2                   1.7812e-09            -1.36e-12             1.06e-12              -1.7772e-09          
  1.25                  1.7836e-09            -1.34e-12             1.02e-12              -1.7808e-09          
  1.3                   1.7876e-09            -1.64e-12             -3.4e-13              -1.7826e-09          
  1.35                  1.7902e-09            -1.78e-12             6e-14                 -1.7858e-09          
END_DB

BEGIN_DB
 ICCAP_VAR vg         0.256          
 ICCAP_VAR vb         0              
 ICCAP_VAR vs         0              

 #vd                    id                    ig                    ib                    is                   
  0                     2.938e-11             2.84e-12              2.2e-12               -3.242e-11           
  0.05                  2.1574e-08            2.16e-12              1.62e-12              -2.156e-08           
  0.1                   3.4136e-08            1.8e-12               1.28e-12              -3.4134e-08          
  0.15                  3.9962e-08            1.54e-12              7.6e-13               -3.994e-08           
  0.2                   4.2212e-08            1.5e-12               6.4e-13               -4.2202e-08          
  0.25                  4.315e-08             1.6e-12               1.78e-12              -4.313e-08           
  0.3                   4.3658e-08            1.46e-12              1.52e-12              -4.3654e-08          
  0.35                  4.4028e-08            1.48e-12              7.8e-13               -4.4012e-08          
  0.4                   4.4342e-08            1.4e-12               2.2e-13               -4.4324e-08          
  0.45                  4.462e-08             1.44e-12              1.08e-12              -4.4604e-08          
  0.5                   4.4886e-08            1.38e-12              1.4e-12               -4.4876e-08          
  0.55                  4.5136e-08            1.48e-12              2.2e-13               -4.5118e-08          
  0.6                   4.5356e-08            1.44e-12              6.4e-13               -4.534e-08           
  0.65                  4.5556e-08            1.42e-12              1.66e-12              -4.5562e-08          
  0.7                   4.5768e-08            1.32e-12              1.02e-12              -4.5762e-08          
  0.75                  4.597e-08             1.28e-12              7e-13                 -4.5946e-08          
  0.8                   4.6142e-08            1.26e-12              -6e-14                -4.6124e-08          
  0.85                  4.6314e-08            1.24e-12              3.6e-13               -4.6306e-08          
  0.9                   4.6482e-08            1.08e-12              1.22e-12              -4.6474e-08          
  0.95                  4.6636e-08            9.4e-13               -2.4e-13              -4.6626e-08          
  1                     4.6786e-08            9.8e-13               3.6e-13               -4.6778e-08          
  1.05                  4.6934e-08            9.8e-13               4e-13                 -4.692e-08           
  1.1                   4.7066e-08            8.4e-13               4.8e-13               -4.7056e-08          
  1.15                  4.7198e-08            8e-13                 -3.6e-13              -4.7192e-08          
  1.2                   4.7334e-08            6.6e-13               -2.18e-12             -4.731e-08           
  1.25                  4.7448e-08            5.6e-13               -1.98e-12             -4.7438e-08          
  1.3                   4.7572e-08            3e-13                 -2.46e-12             -4.7554e-08          
  1.35                  4.7688e-08            2.2e-13               -6.64e-12             -4.7664e-08          
END_DB

