! VERSION = 6.00
BEGIN_HEADER
 ICCAP_INPUTS
  vd         V  D GROUND SMU1 0.1 LIN        1    0          1.35       28   0.05      
  vg         V  G GROUND SMU2 0.001 LIN        2    0.306      1.35       5    0.261     
  vb         V  B GROUND SMU4 0.1 CON        0
  vs         V  S GROUND SMU3 0.1 CON        0
 ICCAP_OUTPUTS
  id         I  D GROUND SMU1 B
  ig         I  G GROUND SMU2 B
  ib         I  B GROUND SMU4 B
  is         I  S GROUND SMU3 B
 ICCAP_VALUES
  MASTER_SETUP_TYPE "~dc_idvd~"
  LINVT_VALUE "|idvg|100.0n|100.0m|1.000m|5|1.350|"
  LISTVT_VALUE ""
  TYPE "1"
  TEMP "-40.0000 "
  IS_TNOM " 0.00000 "
  MAIN.W "10.00u"
  MAIN.L "10.00u"
  MAIN.AD "3.400p"
  MAIN.AS "3.400p"
  MAIN.PD "20.68u"
  MAIN.PS "20.68u"
  MAIN.NF "1.000"
  MAIN.M "1"
  MAIN.NRD "0.000"
  MAIN.NRS "0.000"
  MAIN.LDRIFT1 "1E-06"
  MAIN.LDRIFT2 "1E-06"
  MAIN.SA "0.000"
  MAIN.SB "0.000"
  MAIN.SD "0.000"
  MAIN.SCA "0.000"
  MAIN.SCB "0.000"
  MAIN.SCC "0.000"
  MAIN.SC "0.000"
  MODULE "S541"
  PIN_D "12"
  PIN_G "9"
  PIN_S "10"
  PIN_B "11"
  PIN_E ""
  PIN_6 ""
  XY_ID ""
  FUNC "Large"
  STI "SA ref"
  WPE "WPE ref"
  COMMENT ""
  DIS_MEAS ""
  TypeTCI "10"
END_HEADER

BEGIN_DB
 ICCAP_VAR vg         0.306          
 ICCAP_VAR vb         0              
 ICCAP_VAR vs         0              

 #vd                    id                    ig                    ib                    is                   
  0                     2.67e-09              1.0232e-10            5.78e-12              -1.8956e-09          
  0.05                  1.1918e-06            8.04e-11              3.42e-12              -1.1876e-06          
  0.1                   1.5206e-06            7.406e-11             3.4e-12               -1.5164e-06          
  0.15                  1.6324e-06            7.174e-11             4.22e-12              -1.6284e-06          
  0.2                   1.707e-06             7.026e-11             3.18e-12              -1.704e-06           
  0.25                  1.7722e-06            6.908e-11             2.92e-12              -1.7686e-06          
  0.3                   1.8316e-06            6.782e-11             3.68e-12              -1.828e-06           
  0.35                  1.8868e-06            6.662e-11             2.86e-12              -1.8838e-06          
  0.4                   1.9404e-06            6.558e-11             2.94e-12              -1.937e-06           
  0.45                  1.99e-06              6.446e-11             3.02e-12              -1.9862e-06          
  0.5                   2.0366e-06            6.352e-11             2.48e-12              -2.0332e-06          
  0.55                  2.0814e-06            6.26e-11              2.94e-12              -2.0782e-06          
  0.6                   2.1238e-06            6.17e-11              2.96e-12              -2.1202e-06          
  0.65                  2.1644e-06            6.064e-11             2.36e-12              -2.161e-06           
  0.7                   2.2032e-06            5.97e-11              3.04e-12              -2.1998e-06          
  0.75                  2.2398e-06            5.874e-11             2.72e-12              -2.2362e-06          
  0.8                   2.2744e-06            5.774e-11             1.48e-12              -2.271e-06           
  0.85                  2.3076e-06            5.654e-11             2.1e-12               -2.304e-06           
  0.9                   2.338e-06             5.546e-11             2.54e-12              -2.335e-06           
  0.95                  2.3684e-06            5.414e-11             2.44e-12              -2.3644e-06          
  1                     2.3974e-06            5.288e-11             1.78e-12              -2.3942e-06          
  1.05                  2.425e-06             5.154e-11             2.68e-12              -2.4212e-06          
  1.1                   2.4516e-06            4.992e-11             1.14e-12              -2.4478e-06          
  1.15                  2.4766e-06            4.834e-11             -1.74e-12             -2.4726e-06          
  1.2                   2.5e-06               4.654e-11             -5.84e-12             -2.4968e-06          
  1.25                  2.5234e-06            4.456e-11             -1.69e-11             -2.5194e-06          
  1.3                   2.5458e-06            4.238e-11             -3.592e-11            -2.5424e-06          
  1.35                  2.5664e-06            3.998e-11             -6.92e-11             -2.5628e-06          
END_DB

BEGIN_DB
 ICCAP_VAR vg         0.567          
 ICCAP_VAR vb         0              
 ICCAP_VAR vs         0              

 #vd                    id                    ig                    ib                    is                   
  0                     1.425e-08             1.3054e-09            3.1e-12               -1.5394e-08          
  0.05                  9.6292e-06            1.0826e-09            1.54e-12              -9.6258e-06          
  0.1                   1.7346e-05            9.1888e-10            2.34e-12              -1.7328e-05          
  0.15                  2.297e-05             8.08e-10              1.36e-12              -2.2956e-05          
  0.2                   2.6378e-05            7.4456e-10            7.8e-13               -2.6362e-05          
  0.25                  2.798e-05             7.1538e-10            1.64e-12              -2.7964e-05          
  0.3                   2.8704e-05            7.0234e-10            1.54e-12              -2.8694e-05          
  0.35                  2.9152e-05            6.9454e-10            6e-13                 -2.9134e-05          
  0.4                   2.95e-05              6.8822e-10            2.22e-12              -2.9484e-05          
  0.45                  2.98e-05              6.8286e-10            1.3e-12               -2.9784e-05          
  0.5                   3.007e-05             6.7812e-10            9.2e-13               -3.0054e-05          
  0.55                  3.0326e-05            6.7384e-10            1.64e-12              -3.0308e-05          
  0.6                   3.0564e-05            6.6984e-10            1.22e-12              -3.0546e-05          
  0.65                  3.0788e-05            6.6574e-10            9.4e-13               -3.0774e-05          
  0.7                   3.1004e-05            6.623e-10             1.8e-12               -3.099e-05           
  0.75                  3.121e-05             6.5856e-10            -2.4e-13              -3.1192e-05          
  0.8                   3.1404e-05            6.5512e-10            9.6e-13               -3.1388e-05          
  0.85                  3.1592e-05            6.5188e-10            1.58e-12              -3.1576e-05          
  0.9                   3.177e-05             6.4888e-10            2.8e-13               -3.1754e-05          
  0.95                  3.1944e-05            6.4552e-10            8.8e-13               -3.1926e-05          
  1                     3.2104e-05            6.4264e-10            1.96e-12              -3.2088e-05          
  1.05                  3.2264e-05            6.3968e-10            8e-13                 -3.2246e-05          
  1.1                   3.2416e-05            6.3696e-10            4.2e-13               -3.24e-05            
  1.15                  3.2562e-05            6.3396e-10            1.54e-12              -3.2546e-05          
  1.2                   3.2704e-05            6.3104e-10            -7.6e-13              -3.2686e-05          
  1.25                  3.2838e-05            6.279e-10             -2.04e-12             -3.282e-05           
  1.3                   3.2966e-05            6.2494e-10            -8.66e-12             -3.295e-05           
  1.35                  3.3092e-05            6.2192e-10            -2.946e-11            -3.3074e-05          
END_DB

BEGIN_DB
 ICCAP_VAR vg         0.828          
 ICCAP_VAR vb         0              
 ICCAP_VAR vs         0              

 #vd                    id                    ig                    ib                    is                   
  0                     2.299e-08             7.3326e-09            1.9e-12               -2.9398e-08          
  0.05                  1.7676e-05            6.3792e-09            1.4e-13               -1.7666e-05          
  0.1                   3.3746e-05            5.5894e-09            1.26e-12              -3.3734e-05          
  0.15                  4.8124e-05            4.9456e-09            1.98e-12              -4.8112e-05          
  0.2                   6.0714e-05            4.4282e-09            2e-13                 -6.0702e-05          
  0.25                  7.1422e-05            4.022e-09             3.8e-13               -7.1408e-05          
  0.3                   8.0104e-05            3.7146e-09            1.04e-12              -8.0094e-05          
  0.35                  8.6602e-05            3.4978e-09            5.6e-13               -8.6588e-05          
  0.4                   9.0844e-05            3.3616e-09            3.6e-13               -9.0828e-05          
  0.45                  9.319e-05             3.288e-09             1e-12                 -9.3182e-05          
  0.5                   9.4464e-05            3.2488e-09            3.16e-12              -9.4452e-05          
  0.55                  9.526e-05             3.2242e-09            1.2e-13               -9.5246e-05          
  0.6                   9.5846e-05            3.2064e-09            7e-13                 -9.5834e-05          
  0.65                  9.6358e-05            3.1914e-09            4e-14                 -9.6346e-05          
  0.7                   9.681e-05             3.1772e-09            1.8e-13               -9.6802e-05          
  0.75                  9.7228e-05            3.1648e-09            1.28e-12              -9.7208e-05          
  0.8                   9.7612e-05            3.1534e-09            1.2e-13               -9.7598e-05          
  0.85                  9.7976e-05            3.143e-09             6.8e-13               -9.7964e-05          
  0.9                   9.8322e-05            3.1322e-09            1.02e-12              -9.8308e-05          
  0.95                  9.8654e-05            3.1226e-09            5.4e-13               -9.8642e-05          
  1                     9.8968e-05            3.1136e-09            -2e-13                -9.896e-05           
  1.05                  9.9274e-05            3.1046e-09            1.12e-12              -9.9262e-05          
  1.1                   9.9564e-05            3.0958e-09            8e-13                 -9.9552e-05          
  1.15                  9.9844e-05            3.0876e-09            -2.6e-13              -9.9828e-05          
  1.2                   0.00010011            3.0798e-09            1.04e-12              -0.000100098         
  1.25                  0.000100366           3.0724e-09            6.2e-13               -0.000100356         
  1.3                   0.000100612           3.0646e-09            -3.6e-13              -0.000100606         
  1.35                  0.000100854           3.057e-09             4.6e-13               -0.000100842         
END_DB

BEGIN_DB
 ICCAP_VAR vg         1.089          
 ICCAP_VAR vb         0              
 ICCAP_VAR vs         0              

 #vd                    id                    ig                    ib                    is                   
  0                     2.1626e-08            2.7014e-08            1.5e-12               -4.7344e-08          
  0.05                  2.3764e-05            2.4216e-08            3.6e-13               -2.377e-05           
  0.1                   4.638e-05             2.177e-08             2.2e-13               -4.6384e-05          
  0.15                  6.7746e-05            1.9652e-08            7.6e-13               -6.7748e-05          
  0.2                   8.7754e-05            1.7828e-08            -1.6e-13              -8.7756e-05          
  0.25                  0.000106332           1.6266e-08            -3.4e-13              -0.000106332         
  0.3                   0.0001235             1.4944e-08            4.2e-13               -0.00012314          
  0.35                  0.0001389             1.3836e-08            2.14e-12              -0.00013854          
  0.4                   0.00015256            1.2916e-08            -1e-13                -0.0001522           
  0.45                  0.00016432            1.2174e-08            -2.4e-13              -0.00016398          
  0.5                   0.00017412            1.159e-08             6e-13                 -0.00017376          
  0.55                  0.00018176            1.1154e-08            4e-13                 -0.0001814           
  0.6                   0.0001872             1.0856e-08            7.2e-13               -0.00018684          
  0.65                  0.00019064            1.0672e-08            -2.6e-12              -0.00019028          
  0.7                   0.00019266            1.0564e-08            2.8e-13               -0.0001923           
  0.75                  0.0001939             1.0498e-08            -1.6e-13              -0.00019356          
  0.8                   0.0001948             1.0452e-08            2.6e-13               -0.00019446          
  0.85                  0.00019552            1.0414e-08            1e-13                 -0.00019518          
  0.9                   0.00019616            1.0382e-08            6.2e-13               -0.0001958           
  0.95                  0.00019672            1.0354e-08            1.6e-13               -0.00019638          
  1                     0.00019724            1.0326e-08            2e-14                 -0.0001969           
  1.05                  0.00019774            1.0302e-08            -8e-14                -0.00019738          
  1.1                   0.0001982             1.0278e-08            2.2e-13               -0.00019784          
  1.15                  0.00019864            1.0256e-08            -2.8e-13              -0.0001983           
  1.2                   0.00019908            1.0234e-08            2e-13                 -0.00019872          
  1.25                  0.00019948            1.0212e-08            6.4e-13               -0.00019912          
  1.3                   0.00019986            1.0194e-08            8.4e-13               -0.0001995           
  1.35                  0.00020024            1.0174e-08            5.8e-13               -0.00019988          
END_DB

BEGIN_DB
 ICCAP_VAR vg         1.35           
 ICCAP_VAR vb         0              
 ICCAP_VAR vs         0              

 #vd                    id                    ig                    ib                    is                   
  0                     5.272e-10             7.6388e-08            -5.086e-11            -7.6394e-08          
  0.05                  2.755e-05             6.9824e-08            -3.56e-11             -2.76e-05            
  0.1                   5.4418e-05            6.3924e-08            -2.736e-11            -5.4466e-05          
  0.15                  8.0496e-05            5.864e-08             -1.958e-11            -8.054e-05           
  0.2                   0.00010568            5.3922e-08            -1.468e-11            -0.000105718         
  0.25                  0.00013004            4.973e-08             -1.11e-11             -0.00012972          
  0.3                   0.0001532             4.6012e-08            -1.086e-11            -0.00015288          
  0.35                  0.0001752             4.2734e-08            -9.44e-12             -0.00017488          
  0.4                   0.00019596            3.9856e-08            -7.42e-12             -0.00019564          
  0.45                  0.00021532            3.735e-08             -7.22e-12             -0.000215            
  0.5                   0.00023326            3.5176e-08            -6.76e-12             -0.00023294          
  0.55                  0.00024966            3.3312e-08            -5.7e-12              -0.00024932          
  0.6                   0.00026438            3.1732e-08            -5.64e-12             -0.00026404          
  0.65                  0.0002773             3.0418e-08            -5.98e-12             -0.00027696          
  0.7                   0.0002883             2.9346e-08            -4.7e-12              -0.00028798          
  0.75                  0.00029726            2.8512e-08            1.74e-12              -0.00029692          
  0.8                   0.00030404            2.7898e-08            -5.94e-12             -0.0003037           
  0.85                  0.00030878            2.7478e-08            -2.94e-12             -0.00030846          
  0.9                   0.00031184            2.7214e-08            -5.18e-12             -0.0003115           
  0.95                  0.00031376            2.7048e-08            -4.56e-12             -0.00031342          
  1                     0.00031508            2.6936e-08            -3.72e-12             -0.00031474          
  1.05                  0.00031606            2.685e-08             -5.74e-12             -0.00031572          
  1.1                   0.00031688            2.678e-08             -5.24e-12             -0.00031654          
  1.15                  0.0003176             2.672e-08             -3.9e-12              -0.00031726          
  1.2                   0.00031826            2.6666e-08            -5.64e-12             -0.00031792          
  1.25                  0.00031886            2.6614e-08            -4.6e-12              -0.00031852          
  1.3                   0.00031944            2.6566e-08            -3.64e-12             -0.0003191           
  1.35                  0.00031998            2.6522e-08            -5.7e-12              -0.00031964          
END_DB

