! VERSION = 6.00
BEGIN_HEADER
 ICCAP_INPUTS
  vd         V  D GROUND SMU1 0.1 LIN        1    0          1.35       28   0.05      
  vg         V  G GROUND SMU2 0.001 LIN        2    0.458      1.35       5    0.223     
  vb         V  B GROUND SMU4 0.1 CON        0
  vs         V  S GROUND SMU3 0.1 CON        0
 ICCAP_OUTPUTS
  id         I  D GROUND SMU1 B
  ig         I  G GROUND SMU2 B
  ib         I  B GROUND SMU4 B
  is         I  S GROUND SMU3 B
 ICCAP_VALUES
  MASTER_SETUP_TYPE "~dc_idvd~"
  LINVT_VALUE "|idvg|100.0n|100.0m|1.000m|5|1.350|"
  LISTVT_VALUE ""
  TYPE "1"
  TEMP " 70.0000 "
  IS_TNOM " 0.00000 "
  MAIN.W "150.0n"
  MAIN.L "130.0n"
  MAIN.AD "100.5f"
  MAIN.AS "100.5f"
  MAIN.PD "1.340u"
  MAIN.PS "1.340u"
  MAIN.NF "1.000"
  MAIN.M "1"
  MAIN.NRD "0.000"
  MAIN.NRS "0.000"
  MAIN.LDRIFT1 "1E-06"
  MAIN.LDRIFT2 "1E-06"
  MAIN.SA "0.000"
  MAIN.SB "0.000"
  MAIN.SD "0.000"
  MAIN.SCA "0.000"
  MAIN.SCB "0.000"
  MAIN.SCC "0.000"
  MAIN.SC "0.000"
  MODULE "S546"
  PIN_D "16"
  PIN_G "5"
  PIN_S "6"
  PIN_B "15"
  PIN_E ""
  PIN_6 ""
  XY_ID ""
  FUNC "Small"
  STI "SA ref"
  WPE "WPE ref"
  COMMENT ""
  DIS_MEAS ""
  TypeTCI "10"
END_HEADER

BEGIN_DB
 ICCAP_VAR vg         0.458          
 ICCAP_VAR vb         0              
 ICCAP_VAR vs         0              

 #vd                    id                    ig                    ib                    is                   
  0                     1.1528e-09            7.4e-13               1.332e-11             -8.5598e-10          
  0.05                  5.035e-07             4.2e-13               1.256e-11             -5.0334e-07          
  0.1                   7.0366e-07            4.8e-13               1.134e-11             -7.0394e-07          
  0.15                  7.8238e-07            3.8e-13               1.28e-11              -7.8268e-07          
  0.2                   8.2212e-07            3.2e-13               1.116e-11             -8.2208e-07          
  0.25                  8.5036e-07            3.8e-13               9.94e-12              -8.5052e-07          
  0.3                   8.7466e-07            3.8e-13               1.112e-11             -8.7416e-07          
  0.35                  8.9664e-07            5.6e-13               9.88e-12              -8.968e-07           
  0.4                   9.1848e-07            4.8e-13               9.18e-12              -9.1876e-07          
  0.45                  9.4e-07               4e-13                 9.5e-12               -9.395e-07           
  0.5                   9.6052e-07            3.6e-13               8.98e-12              -9.6004e-07          
  0.55                  9.797e-07             2.8e-13               7.86e-12              -9.809e-07           
  0.6                   1.00188e-06           2.4e-13               7.86e-12              -9.997e-07           
  0.65                  1.02232e-06           3e-13                 8.22e-12              -1.02194e-06         
  0.7                   1.04248e-06           3.4e-13               8.38e-12              -1.04282e-06         
  0.75                  1.06344e-06           3.2e-13               7.68e-12              -1.06362e-06         
  0.8                   1.0845e-06            2.8e-13               6.4e-12               -1.08438e-06         
  0.85                  1.1036e-06            4.6e-13               7.28e-12              -1.10546e-06         
  0.9                   1.12486e-06           2e-13                 7.64e-12              -1.12668e-06         
  0.95                  1.149e-06             3e-13                 8e-12                 -1.1456e-06          
  1                     1.1708e-06            3.4e-13               5.6e-12               -1.1658e-06          
  1.05                  1.1926e-06            2.8e-13               3.48e-12              -1.1894e-06          
  1.1                   1.2134e-06            2.8e-13               6e-13                 -1.211e-06           
  1.15                  1.2366e-06            1.4e-13               -6.24e-12             -1.2328e-06          
  1.2                   1.2576e-06            2.6e-13               -1.704e-11            -1.2526e-06          
  1.25                  1.2806e-06            1e-13                 -3.286e-11            -1.2774e-06          
  1.3                   1.3028e-06            3.2e-13               -6.142e-11            -1.3002e-06          
  1.35                  1.3268e-06            1e-13                 -1.0488e-10           -1.3236e-06          
END_DB

BEGIN_DB
 ICCAP_VAR vg         0.681          
 ICCAP_VAR vb         0              
 ICCAP_VAR vs         0              

 #vd                    id                    ig                    ib                    is                   
  0                     3.0962e-09            2.96e-12              5.82e-12              -3.4518e-09          
  0.05                  3.7902e-06            2.7e-12               4.6e-12               -3.7862e-06          
  0.1                   6.4938e-06            2.44e-12              4.78e-12              -6.4872e-06          
  0.15                  8.3022e-06            2.3e-12               3.64e-12              -8.299e-06           
  0.2                   9.4482e-06            2.2e-12               4.34e-12              -9.4428e-06          
  0.25                  1.01662e-05           2.32e-12              4.52e-12              -1.01586e-05         
  0.3                   1.0632e-05            2.16e-12              3.5e-12               -1.06312e-05         
  0.35                  1.09696e-05           2.08e-12              4.04e-12              -1.0967e-05          
  0.4                   1.124e-05             2.24e-12              3.58e-12              -1.12284e-05         
  0.45                  1.1468e-05            2.08e-12              2.78e-12              -1.14614e-05         
  0.5                   1.1674e-05            2.2e-12               3.28e-12              -1.16678e-05         
  0.55                  1.1858e-05            2.02e-12              3.04e-12              -1.1862e-05          
  0.6                   1.205e-05             2.04e-12              4.48e-12              -1.2044e-05          
  0.65                  1.2224e-05            2.18e-12              2.98e-12              -1.2216e-05          
  0.7                   1.2388e-05            2.14e-12              3.5e-12               -1.2388e-05          
  0.75                  1.2552e-05            2e-12                 4.06e-12              -1.2556e-05          
  0.8                   1.272e-05             2.08e-12              2.44e-12              -1.2718e-05          
  0.85                  1.2888e-05            2.14e-12              3.24e-12              -1.2878e-05          
  0.9                   1.3046e-05            2e-12                 3.98e-12              -1.3036e-05          
  0.95                  1.3204e-05            2.02e-12              1.26e-12              -1.3198e-05          
  1                     1.3352e-05            2.06e-12              1.82e-12              -1.3352e-05          
  1.05                  1.351e-05             2.1e-12               -2.26e-12             -1.3482e-05          
  1.1                   1.3636e-05            2.06e-12              -1.14e-11             -1.366e-05           
  1.15                  1.3812e-05            1.98e-12              -2.496e-11            -1.381e-05           
  1.2                   1.3966e-05            1.88e-12              -5.77e-11             -1.3958e-05          
  1.25                  1.412e-05             1.98e-12              -1.153e-10            -1.4096e-05          
  1.3                   1.4248e-05            2.02e-12              -2.1378e-10           -1.4256e-05          
  1.35                  1.442e-05             1.98e-12              -3.8258e-10           -1.4412e-05          
END_DB

BEGIN_DB
 ICCAP_VAR vg         0.904          
 ICCAP_VAR vb         0              
 ICCAP_VAR vs         0              

 #vd                    id                    ig                    ib                    is                   
  0                     1.1348e-08            9.08e-12              3.28e-12              -1.0896e-08          
  0.05                  8.2384e-06            8.66e-12              2.46e-12              -8.2326e-06          
  0.1                   1.516e-05             8.26e-12              2.58e-12              -1.5158e-05          
  0.15                  2.0716e-05            7.74e-12              1.82e-12              -2.073e-05           
  0.2                   2.5014e-05            7.46e-12              3.22e-12              -2.5018e-05          
  0.25                  2.8206e-05            7.14e-12              2.44e-12              -2.8184e-05          
  0.3                   3.0484e-05            6.96e-12              1.4e-12               -3.05e-05            
  0.35                  3.2162e-05            6.94e-12              3.68e-12              -3.214e-05           
  0.4                   3.3342e-05            6.84e-12              2.2e-12               -3.3342e-05          
  0.45                  3.4266e-05            6.74e-12              1.98e-12              -3.4256e-05          
  0.5                   3.499e-05             6.56e-12              3.2e-12               -3.4978e-05          
  0.55                  3.557e-05             6.56e-12              2.34e-12              -3.5568e-05          
  0.6                   3.6084e-05            6.56e-12              2.14e-12              -3.6076e-05          
  0.65                  3.6558e-05            6.46e-12              2.8e-12               -3.6542e-05          
  0.7                   3.6996e-05            6.52e-12              1.08e-12              -3.6988e-05          
  0.75                  3.7408e-05            6.54e-12              2.34e-12              -3.7408e-05          
  0.8                   3.7778e-05            6.34e-12              2.58e-12              -3.7798e-05          
  0.85                  3.8154e-05            6.48e-12              1.1e-12               -3.8142e-05          
  0.9                   3.853e-05             6.38e-12              1.76e-12              -3.8526e-05          
  0.95                  3.8862e-05            6.48e-12              4e-14                 -3.8844e-05          
  1                     3.9226e-05            6.46e-12              -2.6e-12              -3.92e-05            
  1.05                  3.9552e-05            6.4e-12               -6.66e-12             -3.9544e-05          
  1.1                   3.9854e-05            6.32e-12              -1.826e-11            -3.988e-05           
  1.15                  4.0198e-05            6.36e-12              -4.192e-11            -4.0186e-05          
  1.2                   4.0522e-05            6.42e-12              -8.454e-11            -4.048e-05           
  1.25                  4.0808e-05            6.3e-12               -1.666e-10            -4.0818e-05          
  1.3                   4.1112e-05            6.28e-12              -3.097e-10            -4.112e-05           
  1.35                  4.1422e-05            6.14e-12              -5.5246e-10           -4.1408e-05          
END_DB

BEGIN_DB
 ICCAP_VAR vg         1.127          
 ICCAP_VAR vb         0              
 ICCAP_VAR vs         0              

 #vd                    id                    ig                    ib                    is                   
  0                     1.6484e-08            2.118e-11             2.46e-12              -1.6204e-08          
  0.05                  1.2178e-05            2.022e-11             1.6e-12               -1.2168e-05          
  0.1                   2.307e-05             1.92e-11              1.36e-12              -2.3056e-05          
  0.15                  3.2456e-05            1.838e-11             2.64e-12              -3.2454e-05          
  0.2                   4.0306e-05            1.766e-11             1.36e-12              -4.0284e-05          
  0.25                  4.6666e-05            1.712e-11             7.4e-13               -4.6648e-05          
  0.3                   5.1694e-05            1.668e-11             2.44e-12              -5.17e-05            
  0.35                  5.5614e-05            1.622e-11             1.2e-12               -5.5604e-05          
  0.4                   5.858e-05             1.58e-11              1.88e-12              -5.8586e-05          
  0.45                  6.0896e-05            1.562e-11             2.04e-12              -6.0866e-05          
  0.5                   6.266e-05             1.53e-11              1.02e-12              -6.2642e-05          
  0.55                  6.4048e-05            1.53e-11              1.54e-12              -6.402e-05           
  0.6                   6.518e-05             1.512e-11             2.22e-12              -6.5182e-05          
  0.65                  6.6148e-05            1.524e-11             1.18e-12              -6.6126e-05          
  0.7                   6.6984e-05            1.494e-11             2.78e-12              -6.6978e-05          
  0.75                  6.7718e-05            1.494e-11             1e-12                 -6.7712e-05          
  0.8                   6.838e-05             1.484e-11             8.2e-13               -6.839e-05           
  0.85                  6.9018e-05            1.488e-11             1.18e-12              -6.9016e-05          
  0.9                   6.9612e-05            1.478e-11             7.4e-13               -6.9604e-05          
  0.95                  7.0146e-05            1.476e-11             -1.06e-12             -7.0172e-05          
  1                     7.0678e-05            1.474e-11             -3.36e-12             -7.0676e-05          
  1.05                  7.1214e-05            1.464e-11             -1.104e-11            -7.1208e-05          
  1.1                   7.1704e-05            1.458e-11             -2.54e-11             -7.1698e-05          
  1.15                  7.2176e-05            1.462e-11             -5.13e-11             -7.2172e-05          
  1.2                   7.266e-05             1.462e-11             -1.0464e-10           -7.2676e-05          
  1.25                  7.3112e-05            1.448e-11             -1.975e-10            -7.3108e-05          
  1.3                   7.3548e-05            1.452e-11             -3.5982e-10           -7.3546e-05          
  1.35                  7.3994e-05            1.442e-11             -6.3812e-10           -7.3998e-05          
END_DB

BEGIN_DB
 ICCAP_VAR vg         1.35           
 ICCAP_VAR vb         0              
 ICCAP_VAR vs         0              

 #vd                    id                    ig                    ib                    is                   
  0                     2.1416e-08            4.104e-11             1.64e-12              -2.0664e-08          
  0.05                  1.5304e-05            3.936e-11             1.2e-12               -1.5292e-05          
  0.1                   2.9428e-05            3.766e-11             1.26e-12              -2.9416e-05          
  0.15                  4.2064e-05            3.622e-11             1.24e-12              -4.2086e-05          
  0.2                   5.3086e-05            3.476e-11             5.8e-13               -5.3084e-05          
  0.25                  6.2522e-05            3.366e-11             1.26e-12              -6.2512e-05          
  0.3                   7.036e-05             3.27e-11              2.04e-12              -7.0368e-05          
  0.35                  7.6814e-05            3.172e-11             9.4e-13               -7.6878e-05          
  0.4                   8.21e-05              3.098e-11             1.64e-12              -8.2132e-05          
  0.45                  8.6334e-05            3.028e-11             8.8e-13               -8.6368e-05          
  0.5                   8.9692e-05            2.986e-11             4.8e-13               -8.9692e-05          
  0.55                  9.24e-05              2.95e-11              1.82e-12              -9.2356e-05          
  0.6                   9.4548e-05            2.918e-11             1.66e-12              -9.4556e-05          
  0.65                  9.6282e-05            2.88e-11              1.36e-12              -9.6268e-05          
  0.7                   9.7808e-05            2.866e-11             1.62e-12              -9.7736e-05          
  0.75                  9.9052e-05            2.842e-11             5.6e-13               -9.9034e-05          
  0.8                   0.000100102           2.824e-11             8.6e-13               -0.00010011          
  0.85                  0.000101094           2.82e-11              2.2e-12               -0.000101072         
  0.9                   0.000102014           2.808e-11             3e-13                 -0.000101976         
  0.95                  0.000102834           2.78e-11              -2.52e-12             -0.000102816         
  1                     0.000103572           2.774e-11             -5.98e-12             -0.000103584         
  1.05                  0.000104326           2.782e-11             -1.388e-11            -0.000104298         
  1.1                   0.000104946           2.762e-11             -2.956e-11            -0.000104962         
  1.15                  0.00010561            2.758e-11             -5.916e-11            -0.000105622         
  1.2                   0.000106256           2.75e-11              -1.1538e-10           -0.000106286         
  1.25                  0.000106722           2.732e-11             -2.1376e-10           -0.000106674         
  1.3                   0.000107304           2.722e-11             -3.84e-10             -0.000107328         
  1.35                  0.00010789            2.714e-11             -6.6886e-10           -0.00010789          
END_DB

