! VERSION = 6.00
BEGIN_HEADER
 ICCAP_INPUTS
  vg         V  G GROUND SMU2 0.001 LIN        1    -0.5       1.35       38   0.05      
  vb         V  B GROUND SMU4 0.1 LIN        2    0          -1.2       5    -0.3      
  vd         V  D GROUND SMU1 0.1 LIST       3 3 0.05 0.6 1.2
  vs         V  S GROUND SMU3 0.1 CON        0
 ICCAP_OUTPUTS
  id         I  D GROUND SMU1 B
  ig         I  G GROUND SMU2 B
  ib         I  B GROUND SMU4 B
  is         I  S GROUND SMU3 B
 ICCAP_VALUES
  MASTER_SETUP_TYPE "~dc_idvg~"
  LINVT_VALUE ""
  LISTVT_VALUE ""
  TYPE "1"
  TEMP " 27.0000 "
  IS_TNOM " 1.00000 "
  MAIN.W "10.00u"
  MAIN.L "10.00u"
  MAIN.AD "3.400p"
  MAIN.AS "3.400p"
  MAIN.PD "20.68u"
  MAIN.PS "20.68u"
  MAIN.NF "1.000"
  MAIN.M "1"
  MAIN.NRD "0.000"
  MAIN.NRS "0.000"
  MAIN.LDRIFT1 "1E-06"
  MAIN.LDRIFT2 "1E-06"
  MAIN.SA "0.000"
  MAIN.SB "0.000"
  MAIN.SD "0.000"
  MAIN.SCA "0.000"
  MAIN.SCB "0.000"
  MAIN.SCC "0.000"
  MAIN.SC "0.000"
  MODULE "S541"
  PIN_D "12"
  PIN_G "9"
  PIN_S "10"
  PIN_B "11"
  PIN_E ""
  PIN_6 ""
  XY_ID ""
  FUNC "Large"
  STI "SA ref"
  WPE "WPE ref"
  COMMENT ""
  DIS_MEAS ""
  TypeTCI "10"
END_HEADER

BEGIN_DB
 ICCAP_VAR vb         0              
 ICCAP_VAR vd         0.05           
 ICCAP_VAR vs         0              

 #vg                    id                    ig                    ib                    is                   
  -0.5                  2.2e-12               -4.986e-11            4.71e-11              1.98e-12             
  -0.45                 2.06e-12              -1.09e-11             9.72e-12              1.7e-12              
  -0.4                  1.5e-12               -4.2e-12              3.48e-12              1.32e-12             
  -0.35                 1.2e-12               -2.4e-12              1.64e-12              9.8e-13              
  -0.3                  9.6e-13               -1.74e-12             1.12e-12              7.2e-13              
  -0.25                 9.8e-13               -1.14e-12             5.16e-12              6e-14                
  -0.2                  2.3e-12               -8.4e-13              2.42e-12              -1.22e-12            
  -0.15                 8.6e-12               -6.6e-13              2.54e-12              -7.7e-12             
  -0.1                  3.924e-11             -3.2e-13              2.3e-12               -3.892e-11           
  -0.05                 1.91e-10              -2.2e-13              5e-13                 -1.9032e-10          
  0                     9.2886e-10            1e-13                 1.22e-12              -9.2864e-10          
  0.05                  4.4842e-09            6.8e-13               1.26e-12              -4.484e-09           
  0.1                   2.0804e-08            3.26e-12              3.3e-12               -2.0786e-08          
  0.15                  8.7886e-08            1.04e-11              3.2e-13               -8.7878e-08          
  0.2                   3.0748e-07            2.6e-11               1.62e-12              -3.0746e-07          
  0.25                  8.2062e-07            5.538e-11             2.6e-12               -8.2066e-07          
  0.3                   1.656e-06             1.0488e-10            1.02e-12              -1.6514e-06          
  0.35                  2.6876e-06            1.8612e-10            1.22e-12              -2.6838e-06          
  0.4                   3.7878e-06            3.1228e-10            1.54e-12              -3.7842e-06          
  0.45                  4.8998e-06            5.0254e-10            1.98e-12              -4.8966e-06          
  0.5                   6.0048e-06            7.7964e-10            7.6e-13               -6.0018e-06          
  0.55                  7.0956e-06            1.1716e-09            2.5e-12               -7.0928e-06          
  0.6                   8.1702e-06            1.713e-09             1.88e-12              -8.1682e-06          
  0.65                  9.2238e-06            2.4454e-09            8.2e-13               -9.2222e-06          
  0.7                   1.02486e-05           3.415e-09             -4e-14                -1.02482e-05         
  0.75                  1.12444e-05           4.6824e-09            3.2e-13               -1.12452e-05         
  0.8                   1.2212e-05            6.3094e-09            1.74e-12              -1.22e-05            
  0.85                  1.3134e-05            8.3752e-09            1.88e-12              -1.3124e-05          
  0.9                   1.4014e-05            1.09568e-08           5.6e-13               -1.4006e-05          
  0.95                  1.485e-05             1.4156e-08            1.74e-12              -1.4846e-05          
  1                     1.5642e-05            1.8072e-08            5.8e-13               -1.5642e-05          
  1.05                  1.6386e-05            2.2822e-08            1.2e-13               -1.639e-05           
  1.1                   1.7082e-05            2.8524e-08            8e-13                 -1.7094e-05          
  1.15                  1.7734e-05            3.5328e-08            -1.6e-13              -1.775e-05           
  1.2                   1.8336e-05            4.339e-08             -2.76e-12             -1.8362e-05          
  1.25                  1.8892e-05            5.2866e-08            -1.156e-11            -1.8928e-05          
  1.3                   1.9402e-05            6.3952e-08            -2.682e-11            -1.9448e-05          
  1.35                  1.987e-05             7.6886e-08            -5.552e-11            -1.9928e-05          
END_DB

BEGIN_DB
 ICCAP_VAR vb         -0.3           
 ICCAP_VAR vd         0.05           
 ICCAP_VAR vs         0              

 #vg                    id                    ig                    ib                    is                   
  -0.5                  2.06e-12              -4.28e-12             -2.66e-12             1.84e-12             
  -0.45                 1.56e-12              -3.34e-12             -3.34e-12             1.62e-12             
  -0.4                  1.26e-12              -2.4e-12              -3.42e-12             9.4e-13              
  -0.35                 8.6e-13               -1.8e-12              -2.82e-12             9.6e-13              
  -0.3                  7.2e-13               -1.12e-12             -1.9e-12              5.2e-13              
  -0.25                 6.6e-13               -8.4e-13              -1.88e-12             3.4e-13              
  -0.2                  7.4e-13               -6.4e-13              -2.34e-12             0                    
  -0.15                 2.04e-12              -2.4e-13              -2.44e-12             -1.72e-12            
  -0.1                  9.64e-12              -1.4e-13              -2e-12                -9.26e-12            
  -0.05                 4.846e-11             1.4e-13               -1.02e-12             -4.814e-11           
  0                     2.47e-10              2e-13                 -7.6e-13              -2.4706e-10          
  0.05                  1.2612e-09            5.6e-13               -1.6e-12              -1.2596e-09          
  0.1                   6.2892e-09            2.12e-12              -8.8e-13              -6.2842e-09          
  0.15                  2.981e-08             7.56e-12              -9.8e-13              -2.9796e-08          
  0.2                   1.245e-07             2.13e-11              -1.78e-12             -1.244e-07           
  0.25                  4.1586e-07            4.878e-11             -1.58e-12             -4.159e-07           
  0.3                   1.0309e-06            9.658e-11             -1.04e-12             -1.03088e-06         
  0.35                  1.9462e-06            1.747e-10             -1.14e-12             -1.942e-06           
  0.4                   3.0086e-06            2.9732e-10            -1.6e-12              -3.005e-06           
  0.45                  4.1138e-06            4.8336e-10            -7e-13                -4.1108e-06          
  0.5                   5.2196e-06            7.5532e-10            2.8e-13               -5.2164e-06          
  0.55                  6.3124e-06            1.1418e-09            -1.16e-12             -6.3092e-06          
  0.6                   7.3902e-06            1.6772e-09            -1.12e-12             -7.3878e-06          
  0.65                  8.448e-06             2.403e-09             -3.2e-13              -8.4464e-06          
  0.7                   9.479e-06             3.365e-09             2.42e-12              -9.4784e-06          
  0.75                  1.04812e-05           4.6246e-09            -1.94e-12             -1.04818e-05         
  0.8                   1.14484e-05           6.242e-09             -1.36e-12             -1.14508e-05         
  0.85                  1.2388e-05            8.2984e-09            -4.6e-13              -1.2376e-05          
  0.9                   1.3276e-05            1.08704e-08           4.8e-13               -1.3268e-05          
  0.95                  1.412e-05             1.4058e-08            -1.34e-12             -1.4116e-05          
  1                     1.4922e-05            1.7964e-08            -6e-13                -1.4922e-05          
  1.05                  1.5676e-05            2.2704e-08            3e-13                 -1.568e-05           
  1.1                   1.6382e-05            2.839e-08             -1.2e-12              -1.6392e-05          
  1.15                  1.7042e-05            3.5184e-08            -2.04e-12             -1.706e-05           
  1.2                   1.7654e-05            4.323e-08             -5.44e-12             -1.768e-05           
  1.25                  1.822e-05             5.2694e-08            -1.234e-11            -1.8256e-05          
  1.3                   1.8742e-05            6.3768e-08            -2.756e-11            -1.8786e-05          
  1.35                  1.9216e-05            7.669e-08             -5.834e-11            -1.9276e-05          
END_DB

BEGIN_DB
 ICCAP_VAR vb         -0.6           
 ICCAP_VAR vd         0.05           
 ICCAP_VAR vs         0              

 #vg                    id                    ig                    ib                    is                   
  -0.5                  2.06e-12              -4.16e-12             -4.58e-12             1.72e-12             
  -0.45                 1.46e-12              -2.88e-12             -4.62e-12             1.3e-12              
  -0.4                  1.18e-12              -2.12e-12             -3.6e-12              8.6e-13              
  -0.35                 8.2e-13               -1.4e-12              -2.74e-12             7.6e-13              
  -0.3                  6.8e-13               -9.8e-13              -3.04e-12             5.2e-13              
  -0.25                 3.2e-13               -8e-13                -3.98e-12             4.6e-13              
  -0.2                  4.8e-13               -5.2e-13              -3.52e-12             1.4e-13              
  -0.15                 7.8e-13               -1.4e-13              -2.7e-12              -3.2e-13             
  -0.1                  3.12e-12              4e-14                 -2.82e-12             -2.88e-12            
  -0.05                 1.636e-11             0                     -2.56e-12             -1.598e-11           
  0                     8.568e-11             2.4e-13               -3.2e-12              -8.572e-11           
  0.05                  4.5292e-10            3.6e-13               -2.94e-12             -4.5276e-10          
  0.1                   2.3578e-09            1.34e-12              -1.88e-12             -2.3566e-09          
  0.15                  1.1928e-08            5.1e-12               -2.34e-12             -1.1908e-08          
  0.2                   5.5366e-08            1.644e-11             -2.64e-12             -5.5382e-08          
  0.25                  2.1582e-07            4.134e-11             -7.4e-13              -2.1576e-07          
  0.3                   6.3704e-07            8.702e-11             -2.44e-12             -6.3714e-07          
  0.35                  1.3918e-06            1.622e-10             -2.24e-12             -1.3876e-06          
  0.4                   2.3746e-06            2.81e-10              -1.52e-12             -2.371e-06           
  0.45                  3.4506e-06            4.6256e-10            -2.2e-12              -3.4472e-06          
  0.5                   4.5454e-06            7.2924e-10            -2.56e-12             -4.5424e-06          
  0.55                  5.6334e-06            1.1102e-09            -1.76e-12             -5.6304e-06          
  0.6                   6.71e-06              1.6386e-09            -1.6e-12              -6.7076e-06          
  0.65                  7.7688e-06            2.3568e-09            -2.44e-12             -7.7674e-06          
  0.7                   8.802e-06             3.311e-09             -2.3e-12              -8.8016e-06          
  0.75                  9.809e-06             4.5614e-09            -2.34e-12             -9.8094e-06          
  0.8                   1.07818e-05           6.1694e-09            -1.02e-12             -1.07842e-05         
  0.85                  1.1728e-05            8.2142e-09            1.02e-12              -1.1716e-05          
  0.9                   1.2624e-05            1.07752e-08           -1.92e-12             -1.2616e-05          
  0.95                  1.3476e-05            1.3952e-08            -1.28e-12             -1.3472e-05          
  1                     1.4286e-05            1.7846e-08            9.4e-13               -1.4286e-05          
  1.05                  1.505e-05             2.257e-08             -2.56e-12             -1.5054e-05          
  1.1                   1.5764e-05            2.8244e-08            -1.52e-12             -1.5776e-05          
  1.15                  1.6434e-05            3.5022e-08            -2.14e-12             -1.645e-05           
  1.2                   1.7056e-05            4.3056e-08            -6.02e-12             -1.708e-05           
  1.25                  1.763e-05             5.2508e-08            -1.398e-11            -1.7664e-05          
  1.3                   1.816e-05             6.3566e-08            -3.01e-11             -1.8204e-05          
  1.35                  1.8644e-05            7.6472e-08            -5.872e-11            -1.8702e-05          
END_DB

BEGIN_DB
 ICCAP_VAR vb         -0.9           
 ICCAP_VAR vd         0.05           
 ICCAP_VAR vs         0              

 #vg                    id                    ig                    ib                    is                   
  -0.5                  1.68e-12              -3.9e-12              -4.8e-12              1.6e-12              
  -0.45                 1.36e-12              -2.68e-12             -4.68e-12             1.2e-12              
  -0.4                  9.2e-13               -1.98e-12             -4.9e-12              1.02e-12             
  -0.35                 6.8e-13               -1.36e-12             -4.28e-12             7e-13                
  -0.3                  5.2e-13               -9.6e-13              -3.32e-12             4.8e-13              
  -0.25                 2.8e-13               -6.8e-13              -4.2e-12              4e-13                
  -0.2                  4e-13                 -3e-13                -4e-12                3.2e-13              
  -0.15                 2.6e-13               -1.2e-13              -4.64e-12             1.6e-13              
  -0.1                  1.24e-12              4e-14                 -3.24e-12             -9.6e-13             
  -0.05                 6.68e-12              2.4e-13               -2.74e-12             -6.5e-12             
  0                     3.594e-11             1.2e-13               -3.04e-12             -3.568e-11           
  0.05                  1.9442e-10            3.8e-13               -3.92e-12             -1.9456e-10          
  0.1                   1.04416e-09           1.02e-12              -3.24e-12             -1.04498e-09         
  0.15                  5.5092e-09            3.44e-12              -2.82e-12             -5.5102e-09          
  0.2                   2.7294e-08            1.22e-11              -2.6e-12              -2.7334e-08          
  0.25                  1.1836e-07            3.4e-11               -2.2e-12              -1.1822e-07          
  0.3                   3.9962e-07            7.652e-11             -4.78e-12             -3.9966e-07          
  0.35                  9.9232e-07            1.4894e-10            -2.7e-12              -9.923e-07           
  0.4                   1.8678e-06            2.6388e-10            -2.54e-12             -1.8636e-06          
  0.45                  2.889e-06             4.4018e-10            -3.38e-12             -2.8858e-06          
  0.5                   3.9584e-06            7.0148e-10            -2.82e-12             -3.9552e-06          
  0.55                  5.0332e-06            1.076e-09             -2.42e-12             -5.0304e-06          
  0.6                   6.1028e-06            1.5978e-09            -2.44e-12             -6.1008e-06          
  0.65                  7.159e-06             2.308e-09             -2.8e-12              -7.1576e-06          
  0.7                   8.193e-06             3.2536e-09            -2.16e-12             -8.1926e-06          
  0.75                  9.2028e-06            4.494e-09             -2.26e-12             -9.2034e-06          
  0.8                   1.01798e-05           6.0916e-09            -2.18e-12             -1.01822e-05         
  0.85                  1.11228e-05           8.126e-09             -2.24e-12             -1.11266e-05         
  0.9                   1.2034e-05            1.06736e-08           -2.04e-12             -1.2026e-05          
  0.95                  1.2894e-05            1.3838e-08            -1.78e-12             -1.289e-05           
  1                     1.3712e-05            1.7716e-08            -5.22e-12             -1.3712e-05          
  1.05                  1.4482e-05            2.2428e-08            -2.36e-12             -1.4488e-05          
  1.1                   1.5206e-05            2.8086e-08            -2.94e-12             -1.5216e-05          
  1.15                  1.5884e-05            3.4852e-08            -4.36e-12             -1.59e-05            
  1.2                   1.6514e-05            4.287e-08             -6.36e-12             -1.6538e-05          
  1.25                  1.7096e-05            5.2308e-08            -1.4e-11              -1.7132e-05          
  1.3                   1.7636e-05            6.3352e-08            -3.042e-11            -1.768e-05           
  1.35                  1.8128e-05            7.6236e-08            -5.974e-11            -1.8186e-05          
END_DB

BEGIN_DB
 ICCAP_VAR vb         -1.2           
 ICCAP_VAR vd         0.05           
 ICCAP_VAR vs         0              

 #vg                    id                    ig                    ib                    is                   
  -0.5                  1.74e-12              -3.74e-12             -5.48e-12             1.62e-12             
  -0.45                 1.52e-12              -2.6e-12              -6.02e-12             1.2e-12              
  -0.4                  9.8e-13               -1.84e-12             -5.64e-12             9.8e-13              
  -0.35                 5.8e-13               -1.3e-12              -4.8e-12              7.2e-13              
  -0.3                  5.4e-13               -8.6e-13              -4.32e-12             4.2e-13              
