! VERSION = 6.00
BEGIN_HEADER
 ICCAP_INPUTS
  vd         V  D GROUND SMU1 0.1 LIN        1    0          1.35       28   0.05      
  vg         V  G GROUND SMU2 0.001 LIST       2 3 0.072 0.272 0.472
  vb         V  B GROUND SMU4 0.1 CON        -1.2
  vs         V  S GROUND SMU3 0.1 CON        0
 ICCAP_OUTPUTS
  id         I  D GROUND SMU1 B
  ig         I  G GROUND SMU2 B
  ib         I  B GROUND SMU4 B
  is         I  S GROUND SMU3 B
 ICCAP_VALUES
  MASTER_SETUP_TYPE "~dc_idvd~"
  LINVT_VALUE ""
  LISTVT_VALUE "|idvg|100.0n|-200.0m|1.000m|3|200.0m|200.0m|"
  TYPE "1"
  TEMP " 27.0000 "
  IS_TNOM " 1.00000 "
  MAIN.W "180.0n"
  MAIN.L "10.00u"
  MAIN.AD "102.6f"
  MAIN.AS "102.6f"
  MAIN.PD "1.340u"
  MAIN.PS "1.340u"
  MAIN.NF "1.000"
  MAIN.M "1"
  MAIN.NRD "0.000"
  MAIN.NRS "0.000"
  MAIN.LDRIFT1 "1E-06"
  MAIN.LDRIFT2 "1E-06"
  MAIN.SA "0.000"
  MAIN.SB "0.000"
  MAIN.SD "0.000"
  MAIN.SCA "0.000"
  MAIN.SCB "0.000"
  MAIN.SCC "0.000"
  MAIN.SC "0.000"
  MODULE "S546"
  PIN_D "20"
  PIN_G "1"
  PIN_S "2"
  PIN_B "19"
  PIN_E ""
  PIN_6 ""
  XY_ID ""
  FUNC "W Scale"
  STI "SA ref"
  WPE "WPE ref"
  COMMENT ""
  DIS_MEAS ""
  TypeTCI "10"
END_HEADER

BEGIN_DB
 ICCAP_VAR vg         0.072          
 ICCAP_VAR vb         -1.2           
 ICCAP_VAR vs         0              

 #vd                    id                    ig                    ib                    is                   
  0                     -1.4e-13              -1.4e-13              -6.08e-12             0                    
  0.05                  1.5e-12               -1.2e-13              -5.44e-12             -1.08e-12            
  0.1                   1.98e-12              -1.8e-13              -4.88e-12             -1.32e-12            
  0.15                  2.12e-12              -1.6e-13              -5.3e-12              -1.66e-12            
  0.2                   2.5e-12               -1.8e-13              -5.12e-12             -1.86e-12            
  0.25                  2.74e-12              -6e-14                -4.3e-12              -2.12e-12            
  0.3                   2.98e-12              6e-14                 -3.36e-12             -2.12e-12            
  0.35                  3.16e-12              -1e-13                -3.32e-12             -2.4e-12             
  0.4                   3.3e-12               -8e-14                -3.98e-12             -2.44e-12            
  0.45                  3.56e-12              -8e-14                -3.38e-12             -2.72e-12            
  0.5                   3.78e-12              -4e-14                -3.36e-12             -2.84e-12            
  0.55                  3.88e-12              -4e-14                -2.24e-12             -2.98e-12            
  0.6                   4.04e-12              -1e-13                -1.56e-12             -3.28e-12            
  0.65                  4.26e-12              2e-14                 -3.28e-12             -3.24e-12            
  0.7                   4.48e-12              -2e-14                -3.24e-12             -3.38e-12            
  0.75                  4.54e-12              0                     -2.08e-12             -3.46e-12            
  0.8                   4.7e-12               -8e-14                -4.52e-12             -3.6e-12             
  0.85                  4.82e-12              -2e-14                -1.78e-12             -3.82e-12            
  0.9                   4.94e-12              -6e-14                -2.46e-12             -3.76e-12            
  0.95                  5.06e-12              2e-14                 -2.96e-12             -3.96e-12            
  1                     5.04e-12              -6e-14                -2.18e-12             -4.08e-12            
  1.05                  5.36e-12              -8e-14                -1.78e-12             -3.92e-12            
  1.1                   5.3e-12               -8e-14                -1.58e-12             -4.1e-12             
  1.15                  5.44e-12              -1.2e-13              -2e-12                -4.14e-12            
  1.2                   5.5e-12               -2e-14                -2.72e-12             -4.26e-12            
  1.25                  5.64e-12              -1.6e-13              -1.92e-12             -4.22e-12            
  1.3                   5.7e-12               -2.8e-13              -9e-13                -4.26e-12            
  1.35                  5.78e-12              -3.8e-13              -1.32e-12             -4.16e-12            
END_DB

BEGIN_DB
 ICCAP_VAR vg         0.272          
 ICCAP_VAR vb         -1.2           
 ICCAP_VAR vs         0              

 #vd                    id                    ig                    ib                    is                   
  0                     1.38e-12              1.36e-12              2e-14                 -3.22e-12            
  0.05                  8.1712e-10            1.2e-12               -1.28e-12             -8.1714e-10          
  0.1                   1.0698e-09            1.08e-12              -1.8e-12              -1.06926e-09         
  0.15                  1.2114e-09            1.2e-12               -9.2e-13              -1.221e-09           
  0.2                   1.3258e-09            1.06e-12              -2e-12                -1.3574e-09          
  0.25                  1.492e-09             1.04e-12              -1.44e-12             -1.4572e-09          
  0.3                   1.5908e-09            1.02e-12              -1.64e-12             -1.6078e-09          
  0.35                  1.755e-09             1.04e-12              -6.2e-13              -1.7248e-09          
  0.4                   1.884e-09             1.04e-12              -1.22e-12             -1.8792e-09          
  0.45                  2.0076e-09            9.6e-13               -1.4e-12              -1.9972e-09          
  0.5                   2.1044e-09            8.4e-13               -1.94e-12             -2.1088e-09          
  0.55                  2.2216e-09            8.4e-13               -9e-13                -2.2184e-09          
  0.6                   2.3346e-09            7.2e-13               6e-14                 -2.3498e-09          
  0.65                  2.4578e-09            8e-13                 -1.62e-12             -2.456e-09           
  0.7                   2.54e-09              8e-13                 -1.48e-12             -2.5372e-09          
  0.75                  2.6476e-09            8.2e-13               -2.02e-12             -2.64e-09            
  0.8                   2.7216e-09            7.6e-13               -1.2e-12              -2.7172e-09          
  0.85                  2.8114e-09            6.6e-13               -1.12e-12             -2.8018e-09          
  0.9                   2.8768e-09            6.2e-13               -8.6e-13              -2.8728e-09          
  0.95                  2.9494e-09            5.8e-13               -1.8e-12              -2.9494e-09          
  1                     3.0064e-09            6e-13                 -2.02e-12             -3.0066e-09          
  1.05                  3.0658e-09            7e-13                 -9.6e-13              -3.0616e-09          
  1.1                   3.1202e-09            6.2e-13               -8.4e-13              -3.1128e-09          
  1.15                  3.1646e-09            6e-13                 -9.2e-13              -3.1628e-09          
  1.2                   3.2096e-09            5.8e-13               -1.7e-12              -3.2032e-09          
  1.25                  3.2424e-09            5.8e-13               -1.98e-12             -3.2408e-09          
  1.3                   3.2792e-09            4.6e-13               -9.4e-13              -3.2746e-09          
  1.35                  3.309e-09             3.8e-13               -1.42e-12             -3.3062e-09          
END_DB

BEGIN_DB
 ICCAP_VAR vg         0.472          
 ICCAP_VAR vb         -1.2           
 ICCAP_VAR vs         0              

 #vd                    id                    ig                    ib                    is                   
  0                     6.568e-11             1.568e-11             2.6e-13               -8.01e-11            
  0.05                  3.9336e-08            1.31e-11              -8.6e-13              -3.9506e-08          
  0.1                   5.8796e-08            1.174e-11             -1.46e-12             -5.883e-08           
  0.15                  6.6108e-08            1.116e-11             -1.48e-12             -6.611e-08           
  0.2                   7.0698e-08            1.094e-11             -1e-12                -7.0712e-08          
  0.25                  7.3404e-08            1.088e-11             -1.86e-12             -7.3446e-08          
  0.3                   7.66e-08              1.06e-11              -2.04e-12             -7.6576e-08          
  0.35                  7.8898e-08            1.04e-11              -1.62e-12             -7.8964e-08          
  0.4                   8.1496e-08            1.026e-11             -6.4e-13              -8.1506e-08          
  0.45                  8.3754e-08            1.012e-11             -1.78e-12             -8.3728e-08          
  0.5                   8.5898e-08            9.98e-12              -1.6e-12              -8.5872e-08          
  0.55                  8.7906e-08            9.78e-12              -1.04e-12             -8.7496e-08          
  0.6                   8.9866e-08            9.74e-12              -6.6e-13              -8.9864e-08          
  0.65                  9.1608e-08            9.56e-12              -3.2e-13              -9.1548e-08          
  0.7                   9.3272e-08            9.54e-12              -4e-13                -9.3372e-08          
  0.75                  9.5006e-08            9.5e-12               -1.82e-12             -9.5032e-08          
  0.8                   9.6506e-08            9.28e-12              -8.8e-13              -9.6736e-08          
  0.85                  9.8248e-08            9.16e-12              -3.4e-13              -9.8236e-08          
  0.9                   9.9664e-08            9.06e-12              -2.08e-12             -9.9642e-08          
  0.95                  1.01016e-07           8.98e-12              -1.3e-12              -1.0097e-07          
  1                     1.02322e-07           8.94e-12              -1.5e-12              -1.02318e-07         
  1.05                  1.03448e-07           8.84e-12              -9.2e-13              -1.03486e-07         
  1.1                   1.0469e-07            8.76e-12              -8.8e-13              -1.04556e-07         
  1.15                  1.05782e-07           8.72e-12              -1.96e-12             -1.05674e-07         
  1.2                   1.06718e-07           8.56e-12              -1.64e-12             -1.06728e-07         
  1.25                  1.0778e-07            8.54e-12              -2.02e-12             -1.0773e-07          
  1.3                   1.0874e-07            8.44e-12              -3.66e-12             -1.0867e-07          
  1.35                  1.0964e-07            8.34e-12              -4.14e-12             -1.095e-07           
END_DB

