! VERSION = 6.00
BEGIN_HEADER
 ICCAP_INPUTS
  vd         V  D GROUND SMU1 0.1 LIN        1    0          1.35       28   0.05      
  vg         V  G GROUND SMU2 0.001 LIST       2 3 0.002 0.202 0.402
  vb         V  B GROUND SMU4 0.1 CON        0
  vs         V  S GROUND SMU3 0.1 CON        0
 ICCAP_OUTPUTS
  id         I  D GROUND SMU1 B
  ig         I  G GROUND SMU2 B
  ib         I  B GROUND SMU4 B
  is         I  S GROUND SMU3 B
 ICCAP_VALUES
  MASTER_SETUP_TYPE "~dc_idvd~"
  LINVT_VALUE ""
  LISTVT_VALUE "|idvg|100.0n|-200.0m|1.000m|3|200.0m|200.0m|"
  TYPE "1"
  TEMP "-40.0000 "
  IS_TNOM " 0.00000 "
  MAIN.W "10.00u"
  MAIN.L "10.00u"
  MAIN.AD "3.400p"
  MAIN.AS "3.400p"
  MAIN.PD "20.68u"
  MAIN.PS "20.68u"
  MAIN.NF "1.000"
  MAIN.M "1"
  MAIN.NRD "0.000"
  MAIN.NRS "0.000"
  MAIN.LDRIFT1 "1E-06"
  MAIN.LDRIFT2 "1E-06"
  MAIN.SA "0.000"
  MAIN.SB "0.000"
  MAIN.SD "0.000"
  MAIN.SCA "0.000"
  MAIN.SCB "0.000"
  MAIN.SCC "0.000"
  MAIN.SC "0.000"
  MODULE "S541"
  PIN_D "12"
  PIN_G "9"
  PIN_S "10"
  PIN_B "11"
  PIN_E ""
  PIN_6 ""
  XY_ID ""
  FUNC "Large"
  STI "SA ref"
  WPE "WPE ref"
  COMMENT ""
  DIS_MEAS ""
  TypeTCI "10"
END_HEADER

BEGIN_DB
 ICCAP_VAR vg         0.002          
 ICCAP_VAR vb         0              
 ICCAP_VAR vs         0              

 #vd                    id                    ig                    ib                    is                   
  0                     -2e-14                -2e-13                5.2e-13               1e-13                
  0.05                  2.424e-11             -2.8e-13              0                     -2.402e-11           
  0.1                   2.766e-11             -1.8e-13              3.4e-13               -2.736e-11           
  0.15                  2.908e-11             -1.6e-13              9.6e-13               -2.87e-11            
  0.2                   3.032e-11             -2.6e-13              5e-13                 -2.982e-11           
  0.25                  3.144e-11             -4.8e-13              -9.2e-13              -3.09e-11            
  0.3                   3.242e-11             -4e-13                3.6e-13               -3.184e-11           
  0.35                  3.342e-11             -4.8e-13              4e-14                 -3.268e-11           
  0.4                   3.462e-11             -6.6e-13              1.26e-12              -3.336e-11           
  0.45                  3.54e-11              -8.8e-13              8e-14                 -3.444e-11           
  0.5                   3.65e-11              -1.2e-12              1.4e-13               -3.486e-11           
  0.55                  3.74e-11              -1.68e-12             -2e-13                -3.552e-11           
  0.6                   3.854e-11             -2.04e-12             4.6e-13               -3.632e-11           
  0.65                  3.974e-11             -2.68e-12             1.06e-12              -3.662e-11           
  0.7                   4.086e-11             -3.4e-12              5.2e-13               -3.708e-11           
  0.75                  4.216e-11             -4.16e-12             -1.6e-13              -3.758e-11           
  0.8                   4.338e-11             -5.22e-12             -4.4e-13              -3.786e-11           
  0.85                  4.488e-11             -6.22e-12             7.6e-13               -3.838e-11           
  0.9                   4.668e-11             -7.62e-12             1.52e-12              -3.862e-11           
  0.95                  4.842e-11             -9.08e-12             2e-13                 -3.882e-11           
  1                     5.056e-11             -1.082e-11            -5e-13                -3.906e-11           
  1.05                  5.282e-11             -1.28e-11             -1.4e-13              -3.962e-11           
  1.1                   5.542e-11             -1.508e-11            -4.4e-13              -3.968e-11           
  1.15                  5.812e-11             -1.764e-11            3e-13                 -3.996e-11           
  1.2                   6.124e-11             -2.06e-11             5.7e-12               -4.032e-11           
  1.25                  6.502e-11             -2.408e-11            -2.4e-13              -4.034e-11           
  1.3                   6.922e-11             -2.796e-11            4e-14                 -4.078e-11           
  1.35                  7.372e-11             -3.242e-11            7.2e-13               -4.078e-11           
END_DB

BEGIN_DB
 ICCAP_VAR vg         0.202          
 ICCAP_VAR vb         0              
 ICCAP_VAR vs         0              

 #vd                    id                    ig                    ib                    is                   
  0                     1.9308e-10            2.142e-11             1.52e-12              -2.075e-10           
  0.05                  6.848e-08             1.578e-11             2.6e-13               -6.8498e-08          
  0.1                   8.0514e-08            1.438e-11             -3.96e-12             -8.0556e-08          
  0.15                  8.567e-08             1.376e-11             7e-13                 -8.5868e-08          
  0.2                   9.0086e-08            1.334e-11             -3.2e-13              -9.0014e-08          
  0.25                  9.3786e-08            1.284e-11             -6e-13                -9.3906e-08          
  0.3                   9.7238e-08            1.25e-11              5.2e-13               -9.7206e-08          
  0.35                  1.00478e-07           1.2e-11               6e-13                 -1.0054e-07          
  0.4                   1.03512e-07           1.146e-11             -2.4e-13              -1.0345e-07          
  0.45                  1.06136e-07           1.1e-11               -3.6e-13              -1.06156e-07         
  0.5                   1.0872e-07            1.042e-11             5.6e-13               -1.08616e-07         
  0.55                  1.11e-07              9.98e-12              4.2e-13               -1.10984e-07         
  0.6                   1.1312e-07            9.56e-12              8e-14                 -1.13032e-07         
  0.65                  1.1498e-07            8.96e-12              6e-13                 -1.15024e-07         
  0.7                   1.1676e-07            8.34e-12              4e-13                 -1.16654e-07         
  0.75                  1.1858e-07            7.72e-12              -6e-13                -1.1848e-07          
  0.8                   1.2012e-07            7e-12                 9.6e-13               -1.1992e-07          
  0.85                  1.2142e-07            6.16e-12              1.8e-13               -1.2124e-07          
  0.9                   1.228e-07             5.2e-12               -1.8e-13              -1.2254e-07          
  0.95                  1.2398e-07            4.16e-12              -2.6e-13              -1.2374e-07          
  1                     1.2508e-07            2.94e-12              2.8e-13               -1.2502e-07          
  1.05                  1.261e-07             1.6e-12               -4e-14                -1.2604e-07          
  1.1                   1.2704e-07            0                     -8.4e-13              -1.2684e-07          
  1.15                  1.278e-07             -1.64e-12             -7.8e-13              -1.2794e-07          
  1.2                   1.2872e-07            -3.56e-12             -1.18e-12             -1.2868e-07          
  1.25                  1.2952e-07            -5.62e-12             -2.22e-12             -1.2928e-07          
  1.3                   1.3034e-07            -8.14e-12             -6e-12                -1.3006e-07          
  1.35                  1.3096e-07            -1.082e-11            -1.026e-11            -1.3076e-07          
END_DB

BEGIN_DB
 ICCAP_VAR vg         0.402          
 ICCAP_VAR vb         0              
 ICCAP_VAR vs         0              

 #vd                    id                    ig                    ib                    is                   
  0                     3.4306e-09            3.032e-10             1.6e-12               -4.478e-09           
  0.05                  4.051e-06             2.411e-10             2e-13                 -4.0468e-06          
  0.1                   6.1436e-06            2.1022e-10            -4.2e-13              -6.1402e-06          
  0.15                  6.8996e-06            1.9916e-10            6.4e-13               -6.8962e-06          
  0.2                   7.2062e-06            1.9476e-10            -4.26e-12             -7.2022e-06          
  0.25                  7.4078e-06            1.917e-10             -3.6e-13              -7.4042e-06          
  0.3                   7.5806e-06            1.893e-10             3.4e-13               -7.5768e-06          
  0.35                  7.7328e-06            1.8706e-10            1.2e-13               -7.7308e-06          
  0.4                   7.8756e-06            1.8498e-10            -2e-14                -7.8728e-06          
  0.45                  8.0074e-06            1.8316e-10            5e-13                 -8.0054e-06          
  0.5                   8.1324e-06            1.8128e-10            -6.2e-13              -8.128e-06           
  0.55                  8.2506e-06            1.7972e-10            3.6e-13               -8.2476e-06          
  0.6                   8.3646e-06            1.7796e-10            4.8e-13               -8.3612e-06          
  0.65                  8.4728e-06            1.766e-10             -3.6e-13              -8.4686e-06          
  0.7                   8.5754e-06            1.7492e-10            4e-13                 -8.572e-06           
  0.75                  8.674e-06             1.734e-10             5.2e-13               -8.6698e-06          
  0.8                   8.7676e-06            1.719e-10             -1.56e-12             -8.7636e-06          
  0.85                  8.8572e-06            1.704e-10             -1e-13                -8.8546e-06          
  0.9                   8.9434e-06            1.6886e-10            1.8e-13               -8.9396e-06          
  0.95                  9.0264e-06            1.6732e-10            -1.14e-12             -9.0226e-06          
  1                     9.1054e-06            1.657e-10             -2.8e-13              -9.1018e-06          
  1.05                  9.181e-06             1.6394e-10            -1.8e-13              -9.1772e-06          
  1.1                   9.2542e-06            1.6218e-10            -1.78e-12             -9.2504e-06          
  1.15                  9.3236e-06            1.6038e-10            -1.74e-12             -9.32e-06            
  1.2                   9.3908e-06            1.5854e-10            -6.8e-12              -9.3878e-06          
  1.25                  9.4546e-06            1.566e-10             -1.942e-11            -9.4512e-06          
  1.3                   9.5168e-06            1.5452e-10            -4.372e-11            -9.5132e-06          
  1.35                  9.576e-06             1.5214e-10            -9.354e-11            -9.5728e-06          
END_DB

