! VERSION = 6.00
BEGIN_HEADER
 ICCAP_INPUTS
  vg         V  G GROUND SMU2 0.001 LIN        1    -0.5       1.35       38   0.05      
  vb         V  B GROUND SMU4 0.1 LIN        2    0          -1.2       5    -0.3      
  vd         V  D GROUND SMU1 0.1 LIST       3 3 0.05 0.6 1.2
  vs         V  S GROUND SMU3 0.1 CON        0
 ICCAP_OUTPUTS
  id         I  D GROUND SMU1 B
  ig         I  G GROUND SMU2 B
  ib         I  B GROUND SMU4 B
  is         I  S GROUND SMU3 B
 ICCAP_VALUES
  MASTER_SETUP_TYPE "~dc_idvg~"
  LINVT_VALUE ""
  LISTVT_VALUE ""
  TYPE "1"
  TEMP " 27.0000 "
  IS_TNOM " 1.00000 "
  MAIN.W "300.0n"
  MAIN.L "180.0n"
  MAIN.AD "102.0f"
  MAIN.AS "102.0f"
  MAIN.PD "1.280u"
  MAIN.PS "1.280u"
  MAIN.NF "1.000"
  MAIN.M "1"
  MAIN.NRD "0.000"
  MAIN.NRS "0.000"
  MAIN.LDRIFT1 "1E-06"
  MAIN.LDRIFT2 "1E-06"
  MAIN.SA "0.000"
  MAIN.SB "0.000"
  MAIN.SD "0.000"
  MAIN.SCA "0.000"
  MAIN.SCB "0.000"
  MAIN.SCC "0.000"
  MAIN.SC "0.000"
  MODULE "S544"
  PIN_D "12"
  PIN_G "9"
  PIN_S "10"
  PIN_B "11"
  PIN_E ""
  PIN_6 ""
  XY_ID ""
  FUNC "LW Scale"
  STI "SA ref"
  WPE "WPE ref"
  COMMENT ""
  DIS_MEAS ""
  TypeTCI "10"
END_HEADER

BEGIN_DB
 ICCAP_VAR vb         0              
 ICCAP_VAR vd         0.05           
 ICCAP_VAR vs         0              

 #vg                    id                    ig                    ib                    is                   
  -0.5                  1.6e-13               -4.398e-11            4.582e-11             2.2e-13              
  -0.45                 3.6e-13               -6.9e-12              8.66e-12              1.8e-13              
  -0.4                  2.2e-13               -1.22e-12             3.42e-12              1e-13                
  -0.35                 2e-13                 -2.8e-13              1.82e-12              1.2e-13              
  -0.3                  0                     -6e-14                1.38e-12              1.6e-13              
  -0.25                 -2e-14                0                     2.48e-12              6e-14                
  -0.2                  -2e-14                1.6e-13               2.58e-12              -2e-14               
  -0.15                 6e-14                 1.8e-13               1.54e-12              2e-14                
  -0.1                  1e-13                 2.4e-13               1.38e-12              -3.6e-13             
  -0.05                 1.56e-12              3.8e-13               2.3e-12               -1.42e-12            
  0                     6.34e-12              2.8e-13               2.9e-12               -6.36e-12            
  0.05                  2.942e-11             3.4e-13               1.48e-12              -2.93e-11            
  0.1                   1.3626e-10            3.8e-13               2.1e-12               -1.3618e-10          
  0.15                  6.2988e-10            3.4e-13               1.44e-12              -6.2962e-10          
  0.2                   2.85e-09              4e-13                 3.92e-12              -2.854e-09           
  0.25                  1.2264e-08            3.6e-13               2.02e-12              -1.2246e-08          
  0.3                   4.7146e-08            4.8e-13               1.92e-12              -4.6908e-08          
  0.35                  1.4874e-07            4.8e-13               1.38e-12              -1.4866e-07          
  0.4                   3.7496e-07            6.2e-13               2.2e-12               -3.7486e-07          
  0.45                  7.8198e-07            8e-13                 1.9e-12               -7.8194e-07          
  0.5                   1.3962e-06            6.6e-13               9.4e-13               -1.3918e-06          
  0.55                  2.1932e-06            1.1e-12               2.1e-12               -2.1894e-06          
  0.6                   3.1424e-06            1.5e-12               1.96e-12              -3.1384e-06          
  0.65                  4.1962e-06            1.96e-12              8.8e-13               -4.1922e-06          
  0.7                   5.3098e-06            2.52e-12              1.12e-12              -5.3058e-06          
  0.75                  6.4548e-06            3.2e-12               2.18e-12              -6.4506e-06          
  0.8                   7.6016e-06            4.22e-12              1e-12                 -7.5974e-06          
  0.85                  8.734e-06             5.58e-12              8.4e-13               -8.7298e-06          
  0.9                   9.8362e-06            7.06e-12              1.6e-12               -9.833e-06           
  0.95                  1.0906e-05            9.06e-12              8.2e-13               -1.0902e-05          
  1                     1.1942e-05            1.146e-11             1.62e-12              -1.1926e-05          
  1.05                  1.2924e-05            1.434e-11             2.8e-13               -1.2908e-05          
  1.1                   1.3858e-05            1.784e-11             9.4e-13               -1.3842e-05          
  1.15                  1.4744e-05            2.21e-11              5.6e-13               -1.4728e-05          
  1.2                   1.5582e-05            2.702e-11             1.66e-12              -1.5564e-05          
  1.25                  1.637e-05             3.27e-11              1.14e-12              -1.6348e-05          
  1.3                   1.711e-05             3.966e-11             8e-13                 -1.7088e-05          
  1.35                  1.78e-05              4.75e-11              8.8e-13               -1.7784e-05          
END_DB

BEGIN_DB
 ICCAP_VAR vb         -0.3           
 ICCAP_VAR vd         0.05           
 ICCAP_VAR vs         0              

 #vg                    id                    ig                    ib                    is                   
  -0.5                  1.8e-13               -7.2e-13              -2.34e-12             1.8e-13              
  -0.45                 1.6e-13               -4.2e-13              -3.08e-12             8e-14                
  -0.4                  2.6e-13               -1.8e-13              -2.84e-12             1e-13                
  -0.35                 4e-14                 -1e-13                -2.62e-12             1.4e-13              
  -0.3                  2e-14                 1.6e-13               -1.86e-12             6e-14                
  -0.25                 2e-13                 -2e-14                -1.34e-12             3e-13                
  -0.2                  0                     1.4e-13               -1.9e-12              8e-14                
  -0.15                 2e-14                 1.8e-13               -1.82e-12             1.4e-13              
  -0.1                  4e-14                 2e-13                 -1.28e-12             8e-14                
  -0.05                 2.2e-13               2.8e-13               -1.06e-12             -6e-14               
  0                     1.14e-12              3.2e-13               -7.6e-13              -1.08e-12            
  0.05                  5.88e-12              2e-13                 -2.14e-12             -5.72e-12            
  0.1                   2.838e-11             3.4e-13               -1.32e-12             -2.834e-11           
  0.15                  1.3838e-10            4e-13                 -4.8e-13              -1.3844e-10          
  0.2                   6.6734e-10            3.6e-13               -3.6e-13              -6.672e-10           
  0.25                  3.1558e-09            3.8e-13               -1.6e-13              -3.154e-09           
  0.3                   1.3948e-08            3.8e-13               -1.38e-12             -1.3878e-08          
  0.35                  5.344e-08             4.4e-13               -6.4e-13              -5.3422e-08          
  0.4                   1.6586e-07            6e-13                 -1.4e-13              -1.6572e-07          
  0.45                  4.125e-07             6.6e-13               -1.48e-12             -4.1244e-07          
  0.5                   8.4858e-07            7.6e-13               -1.52e-12             -8.4858e-07          
  0.55                  1.4882e-06            8.8e-13               -2e-13                -1.484e-06           
  0.6                   2.3064e-06            1.3e-12               -4e-13                -2.3026e-06          
  0.65                  3.2636e-06            1.82e-12              -1.32e-12             -3.2594e-06          
  0.7                   4.3136e-06            2.5e-12               -1.24e-12             -4.3102e-06          
  0.75                  5.4206e-06            3.2e-12               1.04e-12              -5.4168e-06          
  0.8                   6.5486e-06            4.14e-12              -1.18e-12             -6.5448e-06          
  0.85                  7.6746e-06            5.38e-12              -9.4e-13              -7.6718e-06          
  0.9                   8.7818e-06            6.9e-12               -8.4e-13              -8.778e-06           
  0.95                  9.86e-06              8.82e-12              5e-13                 -9.8548e-06          
  1                     1.08992e-05           1.12e-11              -2.8e-13              -1.08954e-05         
  1.05                  1.1904e-05            1.404e-11             -1.02e-12             -1.1886e-05          
  1.1                   1.2852e-05            1.752e-11             -7.2e-13              -1.2828e-05          
  1.15                  1.3754e-05            2.172e-11             4.8e-13               -1.3736e-05          
  1.2                   1.4592e-05            2.67e-11              -4.4e-13              -1.4576e-05          
  1.25                  1.5398e-05            3.24e-11              -1.28e-12             -1.538e-05           
  1.3                   1.6148e-05            3.92e-11              -3e-13                -1.613e-05           
  1.35                  1.6864e-05            4.696e-11             -2e-14                -1.6842e-05          
END_DB

BEGIN_DB
 ICCAP_VAR vb         -0.6           
 ICCAP_VAR vd         0.05           
 ICCAP_VAR vs         0              

 #vg                    id                    ig                    ib                    is                   
  -0.5                  2.8e-13               -6e-13                -4.92e-12             1.2e-13              
  -0.45                 2.8e-13               -3.2e-13              -3.84e-12             8e-14                
  -0.4                  2e-14                 -2.4e-13              -4.1e-12              1.6e-13              
  -0.35                 1.2e-13               -1.2e-13              -2.9e-12              8e-14                
  -0.3                  -8e-14                2e-14                 -3.9e-12              1.4e-13              
  -0.25                 1.4e-13               1.2e-13               -3.2e-12              1e-13                
  -0.2                  -2e-14                1.8e-13               -3e-12                -4e-14               
  -0.15                 -4e-14                1.8e-13               -2.34e-12             2e-14                
  -0.1                  -6e-14                1.8e-13               -2.48e-12             0                    
  -0.05                 8e-14                 2.4e-13               -3.36e-12             2e-14                
  0                     3.8e-13               3e-13                 -2.62e-12             -3e-13               
  0.05                  1.46e-12              2.8e-13               -2.64e-12             -1.36e-12            
  0.1                   7.6e-12               2.8e-13               -1.5e-12              -7.42e-12            
  0.15                  3.834e-11             2.6e-13               -1.62e-12             -3.818e-11           
  0.2                   1.9232e-10            3.2e-13               -2.8e-12              -1.9222e-10          
  0.25                  9.5496e-10            3.6e-13               -3.08e-12             -9.5454e-10          
  0.3                   4.5648e-09            3.2e-13               -2.16e-12             -4.578e-09           
  0.35                  2.01e-08              3.6e-13               -1.24e-12             -2.0076e-08          
  0.4                   7.4102e-08            3.8e-13               -2.06e-12             -7.4088e-08          
  0.45                  2.174e-07             5.6e-13               -2.38e-12             -2.1736e-07          
  0.5                   5.1654e-07            7.6e-13               -1.88e-12             -5.1644e-07          
  0.55                  1.01286e-06           8.6e-13               -1.22e-12             -1.01282e-06         
  0.6                   1.7086e-06            1.18e-12              -2.16e-12             -1.7046e-06          
  0.65                  2.567e-06             1.52e-12              -1.8e-12              -2.5632e-06          
  0.7                   3.5458e-06            2.2e-12               -6.2e-13              -3.5422e-06          
  0.75                  4.6074e-06            2.82e-12              -1.78e-12             -4.6034e-06          
  0.8                   5.7104e-06            4e-12                 -2e-12                -5.7068e-06          
  0.85                  6.8276e-06            5.22e-12              -2.7e-12              -6.8236e-06          
  0.9                   7.9338e-06            6.62e-12              -9.4e-13              -7.9288e-06          
  0.95                  9.0162e-06            8.72e-12              -1.5e-12              -9.0124e-06          
  1                     1.00634e-05           1.096e-11             -1.72e-12             -1.00592e-05         
  1.05                  1.10706e-05           1.39e-11              -1.94e-12             -1.10678e-05         
  1.1                   1.2042e-05            1.726e-11             -1.08e-12             -1.202e-05           
  1.15                  1.2956e-05            2.154e-11             -4.6e-13              -1.2938e-05          
  1.2                   1.3816e-05            2.626e-11             -1.82e-12             -1.3798e-05          
  1.25                  1.4634e-05            3.216e-11             -1.96e-12             -1.4616e-05          
  1.3                   1.541e-05             3.872e-11             -5.4e-13              -1.5392e-05          
  1.35                  1.613e-05             4.65e-11              -4e-14                -1.6112e-05          
END_DB

BEGIN_DB
 ICCAP_VAR vb         -0.9           
 ICCAP_VAR vd         0.05           
 ICCAP_VAR vs         0              

 #vg                    id                    ig                    ib                    is                   
  -0.5                  3e-13                 -6.4e-13              -4.98e-12             1.6e-13              
  -0.45                 1.8e-13               -3.8e-13              -3.2e-12              2e-13                
  -0.4                  1.6e-13               -1e-13                -4.4e-12              -8e-14               
  -0.35                 4e-14                 -2.2e-13              -3.94e-12             1.6e-13              
  -0.3                  2e-14                 0                     -3.4e-12              -2e-14               
  -0.25                 6e-14                 1.2e-13               -4.1e-12              2e-14                
  -0.2                  0                     8e-14                 -3.88e-12             1.8e-13              
  -0.15                 -2e-14                1.6e-13               -4.14e-12             4e-14                
  -0.1                  -2e-14                8e-14                 -3.1e-12              1.4e-13              
  -0.05                 -2e-14                2e-13                 -2.74e-12             -2e-14               
  0                     1e-13                 2e-13                 -3.34e-12             1.6e-13              
  0.05                  5e-13                 2.8e-13               -3.64e-12             -4.4e-13             
  0.1                   2.52e-12              2.4e-13               -3.26e-12             -2.36e-12            
  0.15                  1.316e-11             3e-13                 -2.38e-12             -1.288e-11           
  0.2                   6.802e-11             3.2e-13               -2.44e-12             -6.782e-11           
  0.25                  3.489e-10             3.8e-13               -2.56e-12             -3.4892e-10          
  0.3                   1.749e-09             2.2e-13               -3.28e-12             -1.7554e-09          
  0.35                  8.4136e-09            4e-13                 -2.8e-12              -8.4128e-09          
  0.4                   3.5154e-08            5e-13                 -1.68e-12             -3.5128e-08          
  0.45                  1.1914e-07            5e-13                 -2.98e-12             -1.1898e-07          
  0.5                   3.2232e-07            6.6e-13               -2.58e-12             -3.2226e-07          
  0.55                  7.053e-07             9e-13                 -2.86e-12             -7.0528e-07          
  0.6                   1.2924e-06            1.14e-12              -2.34e-12             -1.2882e-06          
  0.65                  2.0604e-06            1.54e-12              -3.38e-12             -2.057e-06           
  0.7                   2.9706e-06            2.1e-12               -2.32e-12             -2.9668e-06          
  0.75                  3.9842e-06            2.8e-12               -9.6e-13              -3.9738e-06          
  0.8                   5.0486e-06            3.72e-12              -2.14e-12             -5.0438e-06          
  0.85                  6.153e-06             5.08e-12              -2.3e-12              -6.1488e-06          
  0.9                   7.2562e-06            6.48e-12              -2.86e-12             -7.2514e-06          
  0.95                  8.344e-06             8.62e-12              -1.64e-12             -8.3388e-06          
  1                     9.4014e-06            1.08e-11              -1.16e-12             -9.3974e-06          
  1.05                  1.04174e-05           1.356e-11             -2.9e-12              -1.0414e-05          
  1.1                   1.13906e-05           1.71e-11              -2.04e-12             -1.1386e-05          
  1.15                  1.2326e-05            2.112e-11             -1.7e-12              -1.2308e-05          
  1.2                   1.3204e-05            2.594e-11             -1.2e-12              -1.3188e-05          
  1.25                  1.4034e-05            3.166e-11             -1.76e-12             -1.4016e-05          
  1.3                   1.4816e-05            3.838e-11             -1.84e-12             -1.4798e-05          
  1.35                  1.5546e-05            4.616e-11             -1.96e-12             -1.553e-05           
END_DB

BEGIN_DB
 ICCAP_VAR vb         -1.2           
 ICCAP_VAR vd         0.05           
 ICCAP_VAR vs         0              

 #vg                    id                    ig                    ib                    is                   
  -0.5                  4.6e-13               -6.8e-13              -4.88e-12             2e-13                
  -0.45                 1.6e-13               -5e-13                -5.26e-12             2.6e-13              
  -0.4                  2e-14                 -2.4e-13              -5.38e-12             1e-13                
  -0.35                 2e-13                 -1.4e-13              -3.22e-12             1.4e-13              
  -0.3                  4e-14                 0                     -4.96e-12             1.4e-13              
