! VERSION = 6.00
BEGIN_HEADER
 ICCAP_INPUTS
  vd         V  D GROUND SMU1 0.1 LIN        1    0          1.35       28   0.05      
  vg         V  G GROUND SMU2 0.001 LIST       2 3 0.052 0.252 0.452
  vb         V  B GROUND SMU4 0.1 CON        -1.2
  vs         V  S GROUND SMU3 0.1 CON        0
 ICCAP_OUTPUTS
  id         I  D GROUND SMU1 B
  ig         I  G GROUND SMU2 B
  ib         I  B GROUND SMU4 B
  is         I  S GROUND SMU3 B
 ICCAP_VALUES
  MASTER_SETUP_TYPE "~dc_idvd~"
  LINVT_VALUE ""
  LISTVT_VALUE "|idvg|100.0n|-200.0m|1.000m|3|200.0m|200.0m|"
  TYPE "1"
  TEMP " 27.0000 "
  IS_TNOM " 1.00000 "
  MAIN.W "5.000u"
  MAIN.L "10.00u"
  MAIN.AD "1.700p"
  MAIN.AS "1.700p"
  MAIN.PD "10.68u"
  MAIN.PS "10.68u"
  MAIN.NF "1.000"
  MAIN.M "1"
  MAIN.NRD "0.000"
  MAIN.NRS "0.000"
  MAIN.LDRIFT1 "1E-06"
  MAIN.LDRIFT2 "1E-06"
  MAIN.SA "0.000"
  MAIN.SB "0.000"
  MAIN.SD "0.000"
  MAIN.SCA "0.000"
  MAIN.SCB "0.000"
  MAIN.SCC "0.000"
  MAIN.SC "0.000"
  MODULE "S542"
  PIN_D "16"
  PIN_G "5"
  PIN_S "6"
  PIN_B "15"
  PIN_E ""
  PIN_6 ""
  XY_ID ""
  FUNC "W Scale"
  STI "SA ref"
  WPE "WPE ref"
  COMMENT ""
  DIS_MEAS ""
  TypeTCI "10"
END_HEADER

BEGIN_DB
 ICCAP_VAR vg         0.052          
 ICCAP_VAR vb         -1.2           
 ICCAP_VAR vs         0              

 #vd                    id                    ig                    ib                    is                   
  0                     8e-14                 -6e-14                -6.72e-12             1.4e-13              
  0.05                  4.818e-11             -2e-14                -5.16e-12             -4.802e-11           
  0.1                   5.814e-11             -1.4e-13              -4.38e-12             -5.814e-11           
  0.15                  6.214e-11             2e-14                 -5.12e-12             -6.164e-11           
  0.2                   6.496e-11             -1.2e-13              -4.88e-12             -6.46e-11            
  0.25                  6.73e-11              0                     -4.52e-12             -6.67e-11            
  0.3                   6.954e-11             -1.4e-13              -3.42e-12             -6.906e-11           
  0.35                  7.16e-11              -3e-13                -3.64e-12             -7.094e-11           
  0.4                   7.358e-11             -1.6e-13              -3.96e-12             -7.268e-11           
  0.45                  7.52e-11              -3e-13                -3.5e-12              -7.426e-11           
  0.5                   7.698e-11             -5.6e-13              -3.9e-12              -7.576e-11           
  0.55                  7.834e-11             -6.2e-13              -2.76e-12             -7.722e-11           
  0.6                   8.006e-11             -9.2e-13              -2.2e-12              -7.84e-11            
  0.65                  8.138e-11             -9.4e-13              -3.02e-12             -7.952e-11           
  0.7                   8.258e-11             -1.14e-12             -3.56e-12             -8.086e-11           
  0.75                  8.396e-11             -1.68e-12             -2.94e-12             -8.158e-11           
  0.8                   8.522e-11             -2.1e-12              -2.22e-12             -8.254e-11           
  0.85                  8.648e-11             -2.4e-12              -2.5e-12              -8.342e-11           
  0.9                   8.78e-11              -2.86e-12             -2.22e-12             -8.416e-11           
  0.95                  8.916e-11             -3.78e-12             -2.9e-12              -8.468e-11           
  1                     9.058e-11             -4.42e-12             -2.22e-12             -8.546e-11           
  1.05                  9.212e-11             -5.4e-12              -2e-12                -8.596e-11           
  1.1                   9.354e-11             -6.42e-12             -2.18e-12             -8.642e-11           
  1.15                  9.514e-11             -7.5e-12              -1.88e-12             -8.692e-11           
  1.2                   9.692e-11             -8.86e-12             -1.8e-12              -8.722e-11           
  1.25                  9.878e-11             -1.024e-11            -2.72e-12             -8.762e-11           
  1.3                   1.0064e-10            -1.162e-11            -1.62e-12             -8.808e-11           
  1.35                  1.0282e-10            -1.354e-11            -1.68e-12             -8.814e-11           
END_DB

BEGIN_DB
 ICCAP_VAR vg         0.252          
 ICCAP_VAR vb         -1.2           
 ICCAP_VAR vs         0              

 #vd                    id                    ig                    ib                    is                   
  0                     5.28e-11              2.364e-11             3.4e-13               -7.546e-11           
  0.05                  3.3332e-08            1.758e-11             -1.36e-12             -3.3342e-08          
  0.1                   4.1336e-08            1.6e-11               -2.24e-12             -4.1358e-08          
  0.15                  4.4562e-08            1.528e-11             -1.56e-12             -4.4586e-08          
  0.2                   4.6864e-08            1.474e-11             -8.6e-13              -4.6854e-08          
  0.25                  4.8828e-08            1.424e-11             -1.7e-12              -4.8828e-08          
  0.3                   5.063e-08             1.396e-11             -1.54e-12             -5.0606e-08          
  0.35                  5.2268e-08            1.342e-11             -1.82e-12             -5.2272e-08          
  0.4                   5.3792e-08            1.308e-11             -5.8e-13              -5.376e-08           
  0.45                  5.5162e-08            1.28e-11              -1.58e-12             -5.5172e-08          
  0.5                   5.6426e-08            1.23e-11              -2.92e-12             -5.6404e-08          
  0.55                  5.7602e-08            1.204e-11             -1.86e-12             -5.76e-08            
  0.6                   5.862e-08             1.168e-11             -1.18e-12             -5.8666e-08          
  0.65                  5.9628e-08            1.136e-11             -1.2e-12              -5.9642e-08          
  0.7                   6.0528e-08            1.106e-11             -1.86e-12             -6.0464e-08          
  0.75                  6.1314e-08            1.064e-11             -2.02e-12             -6.1312e-08          
  0.8                   6.2078e-08            1.022e-11             -1.62e-12             -6.2064e-08          
  0.85                  6.2762e-08            9.86e-12              -1.26e-12             -6.277e-08           
  0.9                   6.34e-08              9.46e-12              -2.08e-12             -6.339e-08           
  0.95                  6.395e-08             8.88e-12              -2.56e-12             -6.397e-08           
  1                     6.4506e-08            8.32e-12              -2.68e-12             -6.4498e-08          
  1.05                  6.498e-08             7.6e-12               -1.7e-12              -6.4964e-08          
  1.1                   6.5416e-08            6.92e-12              -2.06e-12             -6.5428e-08          
  1.15                  6.581e-08             6.26e-12              -2.9e-12              -6.5818e-08          
  1.2                   6.6204e-08            5.28e-12              -4.36e-12             -6.6194e-08          
  1.25                  6.6552e-08            4.38e-12              -4.8e-12              -6.6506e-08          
  1.3                   6.6858e-08            3.4e-12               -6.54e-12             -6.6822e-08          
  1.35                  6.7086e-08            2.12e-12              -9.98e-12             -6.7052e-08          
END_DB

BEGIN_DB
 ICCAP_VAR vg         0.452          
 ICCAP_VAR vb         -1.2           
 ICCAP_VAR vs         0              

 #vd                    id                    ig                    ib                    is                   
  0                     1.4092e-09            3.285e-10             -1.64e-12             -1.5162e-09          
  0.05                  1.1674e-06            2.6456e-10            -1.92e-12             -1.1638e-06          
  0.1                   1.8034e-06            2.2982e-10            -6e-13                -1.8e-06             
  0.15                  2.0612e-06            2.1586e-10            -1.92e-12             -2.0576e-06          
  0.2                   2.1636e-06            2.1028e-10            -1.5e-12              -2.1602e-06          
  0.25                  2.224e-06             2.0696e-10            -1.04e-12             -2.2202e-06          
  0.3                   2.2718e-06            2.0438e-10            -1.68e-12             -2.268e-06           
  0.35                  2.314e-06             2.0204e-10            -1.42e-12             -2.3104e-06          
  0.4                   2.353e-06             2.0004e-10            -9e-13                -2.349e-06           
  0.45                  2.3888e-06            1.9794e-10            -8e-13                -2.3852e-06          
  0.5                   2.4222e-06            1.9626e-10            -1.38e-12             -2.4184e-06          
  0.55                  2.454e-06             1.9448e-10            -7.2e-13              -2.4502e-06          
  0.6                   2.4832e-06            1.9296e-10            -1.22e-12             -2.4796e-06          
  0.65                  2.511e-06             1.914e-10             -1.5e-12              -2.5074e-06          
  0.7                   2.537e-06             1.8978e-10            -9.8e-13              -2.5334e-06          
  0.75                  2.5616e-06            1.8852e-10            -9.8e-13              -2.5582e-06          
  0.8                   2.5846e-06            1.8708e-10            -1.36e-12             -2.5808e-06          
  0.85                  2.6066e-06            1.8584e-10            -9.8e-13              -2.6028e-06          
  0.9                   2.6272e-06            1.8434e-10            -2.02e-12             -2.6234e-06          
  0.95                  2.6466e-06            1.8326e-10            -1.92e-12             -2.6426e-06          
  1                     2.6648e-06            1.8218e-10            -1.24e-12             -2.6608e-06          
  1.05                  2.6816e-06            1.8084e-10            -1.82e-12             -2.6782e-06          
  1.1                   2.6978e-06            1.7982e-10            -3.22e-12             -2.6944e-06          
  1.15                  2.7132e-06            1.7864e-10            -3.7e-12              -2.7094e-06          
  1.2                   2.7274e-06            1.7748e-10            -9.14e-12             -2.7238e-06          
  1.25                  2.741e-06             1.7628e-10            -1.804e-11            -2.7376e-06          
  1.3                   2.7536e-06            1.7498e-10            -3.28e-11             -2.7498e-06          
  1.35                  2.7654e-06            1.7364e-10            -6.104e-11            -2.7616e-06          
END_DB

