! VERSION = 6.00
BEGIN_HEADER
 ICCAP_INPUTS
  vg         V  G GROUND SMU2 0.001 LIN        1    -0.5       1.35       38   0.05      
  vb         V  B GROUND SMU4 0.1 LIN        2    0          -1.2       5    -0.3      
  vd         V  D GROUND SMU1 0.1 LIST       3 3 0.05 0.6 1.2
  vs         V  S GROUND SMU3 0.1 CON        0
 ICCAP_OUTPUTS
  id         I  D GROUND SMU1 B
  ig         I  G GROUND SMU2 B
  ib         I  B GROUND SMU4 B
  is         I  S GROUND SMU3 B
 ICCAP_VALUES
  MASTER_SETUP_TYPE "~dc_idvg~"
  LINVT_VALUE ""
  LISTVT_VALUE ""
  TYPE "1"
  TEMP "-40.0000 "
  IS_TNOM " 0.00000 "
  MAIN.W "300.0n"
  MAIN.L "130.0n"
  MAIN.AD "102.0f"
  MAIN.AS "102.0f"
  MAIN.PD "1.280u"
  MAIN.PS "1.280u"
  MAIN.NF "1.000"
  MAIN.M "1"
  MAIN.NRD "0.000"
  MAIN.NRS "0.000"
  MAIN.LDRIFT1 "1E-06"
  MAIN.LDRIFT2 "1E-06"
  MAIN.SA "0.000"
  MAIN.SB "0.000"
  MAIN.SD "0.000"
  MAIN.SCA "0.000"
  MAIN.SCB "0.000"
  MAIN.SCC "0.000"
  MAIN.SC "0.000"
  MODULE "S544"
  PIN_D "18"
  PIN_G "3"
  PIN_S "4"
  PIN_B "17"
  PIN_E ""
  PIN_6 ""
  XY_ID ""
  FUNC "LW Scale"
  STI "SA ref"
  WPE "WPE ref"
  COMMENT ""
  DIS_MEAS ""
  TypeTCI "10"
END_HEADER

BEGIN_DB
 ICCAP_VAR vb         0              
 ICCAP_VAR vd         0.05           
 ICCAP_VAR vs         0              

 #vg                    id                    ig                    ib                    is                   
  -0.5                  1.4e-13               -6.8e-13              5.8e-13               2.6e-13              
  -0.45                 8e-14                 -2.2e-13              5.2e-13               1e-13                
  -0.4                  -4e-14                -8e-14                9.2e-13               2e-14                
  -0.35                 1.4e-13               2e-14                 1.3e-12               2e-13                
  -0.3                  -4e-14                2e-14                 7.2e-13               1.4e-13              
  -0.25                 1.4e-13               1.4e-13               3.8e-13               1.2e-13              
  -0.2                  0                     1.2e-13               4.8e-13               8e-14                
  -0.15                 0                     1.8e-13               2e-13                 4e-14                
  -0.1                  0                     2e-13                 9.2e-13               1.4e-13              
  -0.05                 -6e-14                1.8e-13               8.4e-13               1.4e-13              
  0                     2e-14                 2.2e-13               -6e-14                6e-14                
  0.05                  0                     2.8e-13               -4e-14                4e-14                
  0.1                   1.6e-13               3e-13                 7.6e-13               -2e-14               
  0.15                  5.6e-13               3.2e-13               1.2e-12               -4.8e-13             
  0.2                   3.82e-12              4.2e-13               9.6e-13               -3.78e-12            
  0.25                  2.438e-11             3.4e-13               -2.8e-13              -2.414e-11           
  0.3                   1.5652e-10            2.4e-13               -4.6e-13              -1.5618e-10          
  0.35                  9.7212e-10            4.6e-13               6.4e-13               -9.6696e-10          
  0.4                   5.8e-09               2.8e-13               1.52e-12              -5.776e-09           
  0.45                  3.1572e-08            3.6e-13               1.76e-12              -3.1564e-08          
  0.5                   1.3812e-07            6e-13                 -1.8e-13              -1.3806e-07          
  0.55                  4.3662e-07            6.2e-13               -6e-14                -4.37e-07            
  0.6                   1.05672e-06           8.8e-13               1.4e-13               -1.05636e-06         
  0.65                  2.06e-06              9.8e-13               -1.8e-13              -2.0558e-06          
  0.7                   3.391e-06             1.24e-12              5.4e-13               -3.389e-06           
  0.75                  4.9844e-06            1.7e-12               4.2e-13               -4.9786e-06          
  0.8                   6.7652e-06            2.22e-12              6.2e-13               -6.7616e-06          
  0.85                  8.648e-06             2.84e-12              -2.2e-13              -8.645e-06           
  0.9                   1.0553e-05            3.64e-12              3.2e-13               -1.05496e-05         
  0.95                  1.244e-05             4.56e-12              2e-13                 -1.2422e-05          
  1                     1.4262e-05            5.76e-12              4.2e-13               -1.4246e-05          
  1.05                  1.6002e-05            7.24e-12              4.8e-13               -1.5986e-05          
  1.1                   1.7656e-05            8.82e-12              -2e-14                -1.7638e-05          
  1.15                  1.9214e-05            1.088e-11             0                     -1.92e-05            
  1.2                   2.0678e-05            1.336e-11             3.8e-13               -2.0662e-05          
  1.25                  2.2052e-05            1.63e-11              1.16e-12              -2.2034e-05          
  1.3                   2.3326e-05            1.966e-11             4e-13                 -2.3308e-05          
  1.35                  2.4502e-05            2.37e-11              8e-14                 -2.449e-05           
END_DB

BEGIN_DB
 ICCAP_VAR vb         -0.3           
 ICCAP_VAR vd         0.05           
 ICCAP_VAR vs         0              

 #vg                    id                    ig                    ib                    is                   
  -0.5                  1.8e-13               -2.4e-13              -1.3e-12              2e-13                
  -0.45                 2.2e-13               -1.6e-13              -3.14e-12             2.4e-13              
  -0.4                  4e-14                 0                     -1.7e-12              -6e-14               
  -0.35                 2e-14                 1e-13                 -3.4e-13              6e-14                
  -0.3                  6e-14                 0                     -1.44e-12             8e-14                
  -0.25                 1.2e-13               1.4e-13               -1.8e-12              1.4e-13              
  -0.2                  1e-13                 2e-13                 -2.3e-12              2.2e-13              
  -0.15                 -2e-14                1.4e-13               -1.3e-12              0                    
  -0.1                  -2e-14                2.2e-13               -1.14e-12             1e-13                
  -0.05                 -6e-14                2.4e-13               -4.8e-13              4e-14                
  0                     -8e-14                2.6e-13               -1.12e-12             6e-14                
  0.05                  2e-14                 3e-13                 -1.14e-12             1.4e-13              
  0.1                   -6e-14                3.2e-13               -9.8e-13              -1e-13               
  0.15                  8e-14                 3.2e-13               -3.6e-13              -1e-13               
  0.2                   4.6e-13               3.2e-13               -4e-14                -4e-13               
  0.25                  3.54e-12              2.2e-13               -5.4e-13              -3.4e-12             
  0.3                   2.236e-11             4.4e-13               -1e-12                -2.24e-11            
  0.35                  1.5164e-10            3.2e-13               -1.76e-12             -1.514e-10           
  0.4                   9.8982e-10            4.4e-13               -4.2e-13              -9.9068e-10          
  0.45                  6.04e-09              3.6e-13               8.8e-13               -5.9846e-09          
  0.5                   3.376e-08             6e-13                 2.8e-13               -3.3866e-08          
  0.55                  1.4762e-07            5.8e-13               -4.8e-13              -1.4752e-07          
  0.6                   4.6034e-07            8e-13                 -5.2e-13              -4.6002e-07          
  0.65                  1.09702e-06           9.8e-13               -3.8e-13              -1.09758e-06         
  0.7                   2.106e-06             1.16e-12              -1e-12                -2.101e-06           
  0.75                  3.4364e-06            1.56e-12              -1.06e-12             -3.4356e-06          
  0.8                   5.0416e-06            2.06e-12              6.2e-13               -5.0382e-06          
  0.85                  6.8356e-06            2.74e-12              -4e-14                -6.832e-06           
  0.9                   8.7162e-06            3.46e-12              -1.22e-12             -8.7146e-06          
  0.95                  1.0609e-05            4.3e-12               -9e-13                -1.06056e-05         
  1                     1.2474e-05            5.54e-12              -3.8e-13              -1.2456e-05          
  1.05                  1.4262e-05            7.02e-12              -3.8e-13              -1.4246e-05          
  1.1                   1.5966e-05            8.7e-12               -1.08e-12             -1.5948e-05          
  1.15                  1.7576e-05            1.076e-11             1.44e-12              -1.756e-05           
  1.2                   1.9092e-05            1.32e-11              -8.8e-13              -1.9078e-05          
  1.25                  2.0514e-05            1.622e-11             3.8e-13               -2.0496e-05          
  1.3                   2.1836e-05            1.948e-11             -1.8e-13              -2.1818e-05          
  1.35                  2.3064e-05            2.328e-11             -1.1e-12              -2.305e-05           
END_DB

BEGIN_DB
 ICCAP_VAR vb         -0.6           
 ICCAP_VAR vd         0.05           
 ICCAP_VAR vs         0              

 #vg                    id                    ig                    ib                    is                   
  -0.5                  1.6e-13               -4.2e-13              -2.74e-12             1.4e-13              
  -0.45                 2e-14                 -6e-14                -3.4e-12              1.8e-13              
  -0.4                  4e-14                 0                     -2.04e-12             2.2e-13              
  -0.35                 4e-14                 -2e-14                -1.84e-12             2e-13                
  -0.3                  -4e-14                8e-14                 -2.52e-12             2.4e-13              
  -0.25                 4e-14                 1.4e-13               -3.18e-12             1.6e-13              
  -0.2                  1.4e-13               1e-13                 -1.9e-12              1.4e-13              
  -0.15                 1e-13                 2.6e-13               -2e-12                1.2e-13              
  -0.1                  1.2e-13               2e-13                 -1.2e-12              -6e-14               
  -0.05                 1e-13                 2.6e-13               -1.38e-12             6e-14                
  0                     0                     2e-13                 -1.64e-12             8e-14                
  0.05                  6e-14                 3.2e-13               -1.74e-12             2e-14                
  0.1                   -6e-14                2e-13                 -1.94e-12             4e-14                
  0.15                  4e-14                 4e-13                 0                     4e-14                
  0.2                   0                     3.2e-13               -1.94e-12             2e-14                
  0.25                  7e-13                 3e-13                 -1.74e-12             -5e-13               
  0.3                   4.72e-12              4.4e-13               -2.2e-12              -4.68e-12            
  0.35                  3.2e-11               4e-13                 -1.2e-12              -3.182e-11           
  0.4                   2.194e-10             4e-13                 5.8e-12               -2.1952e-10          
  0.45                  1.427e-09             4.2e-13               -1.6e-12              -1.4476e-09          
  0.5                   8.8768e-09            4.6e-13               -1.86e-12             -8.8624e-09          
  0.55                  4.8596e-08            6.4e-13               -1.32e-12             -4.8608e-08          
  0.6                   1.963e-07             7.2e-13               -2.2e-13              -1.9598e-07          
  0.65                  5.7264e-07            8.6e-13               -1.46e-12             -5.7278e-07          
  0.7                   1.2888e-06            1.06e-12              -1.46e-12             -1.2838e-06          
  0.75                  2.3574e-06            1.52e-12              1.8e-13               -2.354e-06           
  0.8                   3.7488e-06            2.04e-12              -8.8e-13              -3.7448e-06          
  0.85                  5.4066e-06            2.5e-12               -1.78e-12             -5.402e-06           
  0.9                   7.2232e-06            3.38e-12              -1.28e-12             -7.2218e-06          
  0.95                  9.1064e-06            4.22e-12              -7.6e-13              -9.1028e-06          
  1                     1.0982e-05            5.34e-12              -8.2e-13              -1.0979e-05          
  1.05                  1.2814e-05            6.74e-12              -2e-12                -1.2798e-05          
  1.1                   1.4558e-05            8.68e-12              -8.6e-13              -1.4542e-05          
  1.15                  1.6212e-05            1.058e-11             -9.2e-13              -1.6196e-05          
  1.2                   1.7776e-05            1.302e-11             -1.8e-13              -1.776e-05           
  1.25                  1.9242e-05            1.59e-11              -1.68e-12             -1.9222e-05          
  1.3                   2.0606e-05            1.908e-11             -1.4e-12              -2.0586e-05          
  1.35                  2.187e-05             2.308e-11             -1.08e-12             -2.1856e-05          
END_DB

BEGIN_DB
 ICCAP_VAR vb         -0.9           
 ICCAP_VAR vd         0.05           
 ICCAP_VAR vs         0              

 #vg                    id                    ig                    ib                    is                   
  -0.5                  2.2e-13               -2.4e-13              -2.56e-12             3e-13                
  -0.45                 4e-14                 -1e-13                -7.42e-12             2.6e-13              
  -0.4                  1.4e-13               -4e-14                -2.58e-12             2.2e-13              
  -0.35                 2e-14                 -2e-14                -1.52e-12             8e-14                
  -0.3                  0                     1e-13                 -2.14e-12             1.4e-13              
  -0.25                 6e-14                 1.6e-13               -2.42e-12             6e-14                
  -0.2                  2e-14                 1.6e-13               -2.62e-12             8e-14                
  -0.15                 6e-14                 1.6e-13               -2.62e-12             1.6e-13              
  -0.1                  -2e-14                1.6e-13               -2.14e-12             1.2e-13              
  -0.05                 2e-14                 2.8e-13               -1.12e-12             -8e-14               
  0                     8e-14                 2.8e-13               -2.26e-12             1.4e-13              
  0.05                  4e-14                 2.6e-13               -2.52e-12             4e-14                
  0.1                   0                     3.2e-13               -2.78e-12             1.4e-13              
  0.15                  -8e-14                3.4e-13               -1.38e-12             1.2e-13              
  0.2                   -6e-14                2.8e-13               -1.76e-12             -2e-14               
  0.25                  2.2e-13               2.6e-13               -1.78e-12             -1.2e-13             
  0.3                   1.3e-12               4.8e-13               -2.54e-12             -1.16e-12            
  0.35                  8.54e-12              3.8e-13               -1.76e-12             -8.58e-12            
  0.4                   6.144e-11             3.6e-13               -8e-13                -6.104e-11           
  0.45                  4.245e-10             4.8e-13               -1.74e-12             -4.2452e-10          
  0.5                   2.735e-09             3.8e-13               -1.02e-12             -2.733e-09           
  0.55                  1.675e-08             4.8e-13               -1.86e-12             -1.6714e-08          
  0.6                   8.4052e-08            7.4e-13               -2.22e-12             -8.4306e-08          
  0.65                  2.999e-07             8.6e-13               -1.22e-12             -2.9988e-07          
  0.7                   7.8836e-07            1.24e-12              -1.82e-12             -7.8846e-07          
  0.75                  1.6234e-06            1.34e-12              0                     -1.6224e-06          
  0.8                   2.801e-06             1.94e-12              -9.2e-13              -2.7968e-06          
  0.85                  4.3052e-06            2.5e-12               -2.38e-12             -4.3004e-06          
  0.9                   6.0318e-06            3.16e-12              -1.56e-12             -6.028e-06           
  0.95                  7.878e-06             4.26e-12              -1.14e-12             -7.874e-06           
  1                     9.754e-06             5.18e-12              -9.6e-13              -9.7506e-06          
  1.05                  1.161e-05             6.56e-12              -2.32e-12             -1.1592e-05          
  1.1                   1.3386e-05            8.4e-12               -1.6e-12              -1.3368e-05          
  1.15                  1.508e-05             1.034e-11             -1.28e-12             -1.506e-05           
  1.2                   1.6678e-05            1.278e-11             -1.38e-12             -1.666e-05           
  1.25                  1.8182e-05            1.55e-11              1.16e-12              -1.8164e-05          
  1.3                   1.958e-05             1.876e-11             -1.36e-12             -1.9562e-05          
  1.35                  2.0882e-05            2.278e-11             -1.26e-12             -2.087e-05           
END_DB

BEGIN_DB
 ICCAP_VAR vb         -1.2           
 ICCAP_VAR vd         0.05           
 ICCAP_VAR vs         0              

 #vg                    id                    ig                    ib                    is                   
  -0.5                  1.8e-13               -3.6e-13              -2.52e-12             3e-13                
  -0.45                 1.2e-13               -2e-13                -4.08e-12             4e-13                
  -0.4                  -4e-14                0                     -3.92e-12             1.4e-13              
  -0.35                 -2e-14                0                     1.48e-12              8e-14                
  -0.3                  1.8e-13               2e-14                 -2.32e-12             4e-14                
