! VERSION = 6.00
BEGIN_HEADER
 ICCAP_INPUTS
  vd         V  D GROUND SMU1 0.1 LIN        1    0          1.35       28   0.05      
  vg         V  G GROUND SMU2 0.001 LIN        2    0.154      1.35       5    0.299     
  vb         V  B GROUND SMU4 0.1 CON        0
  vs         V  S GROUND SMU3 0.1 CON        0
 ICCAP_OUTPUTS
  id         I  D GROUND SMU1 B
  ig         I  G GROUND SMU2 B
  ib         I  B GROUND SMU4 B
  is         I  S GROUND SMU3 B
 ICCAP_VALUES
  MASTER_SETUP_TYPE "~dc_idvd~"
  LINVT_VALUE "|idvg|100.0n|100.0m|1.000m|5|1.350|"
  LISTVT_VALUE ""
  TYPE "1"
  TEMP " 125.000 "
  IS_TNOM " 0.00000 "
  MAIN.W "10.00u"
  MAIN.L "10.00u"
  MAIN.AD "3.400p"
  MAIN.AS "3.400p"
  MAIN.PD "20.68u"
  MAIN.PS "20.68u"
  MAIN.NF "1.000"
  MAIN.M "1"
  MAIN.NRD "0.000"
  MAIN.NRS "0.000"
  MAIN.LDRIFT1 "1E-06"
  MAIN.LDRIFT2 "1E-06"
  MAIN.SA "0.000"
  MAIN.SB "0.000"
  MAIN.SD "0.000"
  MAIN.SCA "0.000"
  MAIN.SCB "0.000"
  MAIN.SCC "0.000"
  MAIN.SC "0.000"
  MODULE "S541"
  PIN_D "12"
  PIN_G "9"
  PIN_S "10"
  PIN_B "11"
  PIN_E ""
  PIN_6 ""
  XY_ID ""
  FUNC "Large"
  STI "SA ref"
  WPE "WPE ref"
  COMMENT ""
  DIS_MEAS ""
  TypeTCI "10"
END_HEADER

BEGIN_DB
 ICCAP_VAR vg         0.154          
 ICCAP_VAR vb         0              
 ICCAP_VAR vs         0              

 #vd                    id                    ig                    ib                    is                   
  0                     9.488e-10             3.87e-11              4.686e-11             -7.8244e-10          
  0.05                  4.4112e-07            2.812e-11             4.118e-11             -4.4118e-07          
  0.1                   6.0656e-07            2.408e-11             3.776e-11             -6.0662e-07          
  0.15                  6.6406e-07            2.258e-11             3.528e-11             -6.6412e-07          
  0.2                   6.891e-07             2.206e-11             3.248e-11             -6.8934e-07          
  0.25                  7.0502e-07            2.152e-11             3.182e-11             -7.05e-07            
  0.3                   7.1794e-07            2.112e-11             2.93e-11              -7.18e-07            
  0.35                  7.2954e-07            2.082e-11             2.656e-11             -7.296e-07           
  0.4                   7.403e-07             2.04e-11              2.574e-11             -7.405e-07           
  0.45                  7.5052e-07            1.998e-11             2.506e-11             -7.5056e-07          
  0.5                   7.5972e-07            1.97e-11              2.27e-11              -7.6006e-07          
  0.55                  7.69e-07              1.9e-11               2.116e-11             -7.6904e-07          
  0.6                   7.7742e-07            1.842e-11             2.068e-11             -7.777e-07           
  0.65                  7.8562e-07            1.788e-11             1.94e-11              -7.8576e-07          
  0.7                   7.9338e-07            1.696e-11             1.78e-11              -7.9336e-07          
  0.75                  8.0074e-07            1.616e-11             1.702e-11             -8.007e-07           
  0.8                   8.0758e-07            1.524e-11             1.682e-11             -8.0764e-07          
  0.85                  8.1426e-07            1.422e-11             1.426e-11             -8.1418e-07          
  0.9                   8.2058e-07            1.286e-11             1.222e-11             -8.206e-07           
  0.95                  8.2652e-07            1.134e-11             9.48e-12              -8.2662e-07          
  1                     8.3192e-07            9.62e-12              5.18e-12              -8.3226e-07          
  1.05                  8.375e-07             7.78e-12              -3.88e-12             -8.3776e-07          
  1.1                   8.4282e-07            5.52e-12              -1.72e-11             -8.428e-07           
  1.15                  8.478e-07             3.18e-12              -3.534e-11            -8.4798e-07          
  1.2                   8.528e-07             5e-13                 -6.278e-11            -8.528e-07           
  1.25                  8.5728e-07            -2.68e-12             -1.0388e-10           -8.572e-07           
  1.3                   8.6162e-07            -6.14e-12             -1.5892e-10           -8.6146e-07          
  1.35                  8.6576e-07            -1.004e-11            -2.3272e-10           -8.6564e-07          
END_DB

BEGIN_DB
 ICCAP_VAR vg         0.453          
 ICCAP_VAR vb         0              
 ICCAP_VAR vs         0              

 #vd                    id                    ig                    ib                    is                   
  0                     2.8696e-09            9.4816e-10            1.552e-11             -3.7308e-09          
  0.05                  3.9874e-06            7.7938e-10            1.258e-11             -3.9846e-06          
  0.1                   7.1946e-06            6.5622e-10            1.192e-11             -7.1918e-06          
  0.15                  9.5838e-06            5.7216e-10            1.024e-11             -9.5812e-06          
  0.2                   1.11366e-05           5.2096e-10            9.64e-12              -1.11336e-05         
  0.25                  1.197e-05             4.9456e-10            8.74e-12              -1.1964e-05          
  0.3                   1.2358e-05            4.8256e-10            9.16e-12              -1.235e-05           
  0.35                  1.2554e-05            4.7652e-10            7.64e-12              -1.2548e-05          
  0.4                   1.2686e-05            4.7234e-10            7.06e-12              -1.268e-05           
  0.45                  1.2792e-05            4.6908e-10            7.16e-12              -1.2786e-05          
  0.5                   1.2886e-05            4.662e-10             6.26e-12              -1.2878e-05          
  0.55                  1.2972e-05            4.6372e-10            5.16e-12              -1.2964e-05          
  0.6                   1.3052e-05            4.6124e-10            6e-12                 -1.3046e-05          
  0.65                  1.313e-05             4.5898e-10            4.9e-12               -1.3124e-05          
  0.7                   1.3202e-05            4.566e-10             4.78e-12              -1.3196e-05          
  0.75                  1.3272e-05            4.545e-10             4.48e-12              -1.3266e-05          
  0.8                   1.3338e-05            4.522e-10             3.48e-12              -1.3332e-05          
  0.85                  1.3402e-05            4.5004e-10            3.72e-12              -1.3396e-05          
  0.9                   1.3462e-05            4.4804e-10            2.56e-12              -1.3456e-05          
  0.95                  1.3522e-05            4.458e-10             1.7e-12               -1.3514e-05          
  1                     1.3576e-05            4.4364e-10            6e-14                 -1.357e-05           
  1.05                  1.363e-05             4.413e-10             -4.02e-12             -1.3624e-05          
  1.1                   1.3682e-05            4.3904e-10            -1.206e-11            -1.3676e-05          
  1.15                  1.3734e-05            4.3664e-10            -2.84e-11             -1.3726e-05          
  1.2                   1.378e-05             4.341e-10             -6.148e-11            -1.3774e-05          
  1.25                  1.3826e-05            4.3146e-10            -1.1866e-10           -1.382e-05           
  1.3                   1.387e-05             4.2862e-10            -2.1826e-10           -1.3864e-05          
  1.35                  1.3914e-05            4.2564e-10            -3.8346e-10           -1.3906e-05          
END_DB

BEGIN_DB
 ICCAP_VAR vg         0.752          
 ICCAP_VAR vb         0              
 ICCAP_VAR vs         0              

 #vd                    id                    ig                    ib                    is                   
  0                     2.3112e-09            7.1134e-09            9.62e-12              -1.2244e-08          
  0.05                  7.7498e-06            6.1892e-09            4.9e-12               -7.7522e-06          
  0.1                   1.4814e-05            5.423e-09             4.66e-12              -1.4812e-05          
  0.15                  2.1162e-05            4.7968e-09            3.98e-12              -2.1158e-05          
  0.2                   2.677e-05             4.2908e-09            3.96e-12              -2.6768e-05          
  0.25                  3.1624e-05            3.8882e-09            2.6e-12               -3.162e-05           
  0.3                   3.568e-05             3.5764e-09            2.3e-12               -3.5676e-05          
  0.35                  3.8894e-05            3.345e-09             2.82e-12              -3.889e-05           
  0.4                   4.1222e-05            3.1862e-09            1.48e-12              -4.122e-05           
  0.45                  4.2694e-05            3.0888e-09            1.36e-12              -4.2692e-05          
  0.5                   4.3512e-05            3.0364e-09            1.68e-12              -4.3508e-05          
  0.55                  4.3958e-05            3.008e-09             1e-13                 -4.3956e-05          
  0.6                   4.424e-05             2.9902e-09            9.6e-13               -4.4236e-05          
  0.65                  4.4454e-05            2.9768e-09            8.6e-13               -4.445e-05           
  0.7                   4.4638e-05            2.965e-09             -5.6e-13              -4.4634e-05          
  0.75                  4.4804e-05            2.955e-09             -3.2e-13              -4.4802e-05          
  0.8                   4.4958e-05            2.9454e-09            4.2e-13               -4.4956e-05          
  0.85                  4.5102e-05            2.9366e-09            -1.02e-12             -4.51e-05            
  0.9                   4.524e-05             2.9278e-09            -8.6e-13              -4.5238e-05          
  0.95                  4.5372e-05            2.9198e-09            -5.2e-13              -4.5368e-05          
  1                     4.5498e-05            2.9122e-09            -1.72e-12             -4.5496e-05          
  1.05                  4.562e-05             2.9052e-09            -1.46e-12             -4.5614e-05          
  1.1                   4.5734e-05            2.8974e-09            -2.22e-12             -4.5732e-05          
  1.15                  4.5846e-05            2.8906e-09            -3.4e-12              -4.5844e-05          
  1.2                   4.5954e-05            2.8838e-09            -4.76e-12             -4.595e-05           
  1.25                  4.6056e-05            2.8772e-09            -9.2e-12              -4.6052e-05          
  1.3                   4.6156e-05            2.8704e-09            -1.922e-11            -4.6152e-05          
  1.35                  4.625e-05             2.8646e-09            -3.93e-11             -4.6248e-05          
END_DB

BEGIN_DB
 ICCAP_VAR vg         1.051          
 ICCAP_VAR vb         0              
 ICCAP_VAR vs         0              

 #vd                    id                    ig                    ib                    is                   
  0                     -6.2598e-10           3.0988e-08            4.44e-12              -2.9824e-08          
  0.05                  1.0912e-05            2.7858e-08            1.82e-12              -1.0932e-05          
  0.1                   2.1266e-05            2.5124e-08            1.34e-12              -2.1284e-05          
  0.15                  3.103e-05             2.2748e-08            2.6e-13               -3.1046e-05          
  0.2                   4.0172e-05            2.0696e-08            6.4e-13               -4.0186e-05          
  0.25                  4.8682e-05            1.893e-08             7.2e-13               -4.8694e-05          
  0.3                   5.6536e-05            1.742e-08             -8.4e-13              -5.6546e-05          
  0.35                  6.3706e-05            1.6142e-08            -4e-13                -6.3716e-05          
  0.4                   7.0172e-05            1.5064e-08            -2.4e-13              -7.0182e-05          
  0.45                  7.5896e-05            1.4172e-08            -1.74e-12             -7.5904e-05          
  0.5                   8.086e-05             1.3446e-08            -1.32e-12             -8.0868e-05          
  0.55                  8.5018e-05            1.2866e-08            -1.52e-12             -8.5026e-05          
  0.6                   8.832e-05             1.2428e-08            -2.6e-12              -8.8328e-05          
  0.65                  9.0738e-05            1.2118e-08            -2.06e-12             -9.0746e-05          
  0.7                   9.2326e-05            1.1918e-08            -2.68e-12             -9.2332e-05          
  0.75                  9.3276e-05            1.1802e-08            -3.5e-12              -9.3282e-05          
  0.8                   9.3846e-05            1.1732e-08            -2.66e-12             -9.3852e-05          
  0.85                  9.4228e-05            1.1686e-08            -2.76e-12             -9.4238e-05          
  0.9                   9.4528e-05            1.165e-08             -3.88e-12             -9.4536e-05          
  0.95                  9.4784e-05            1.162e-08             -2.92e-12             -9.479e-05           
  1                     9.5016e-05            1.1592e-08            -3.7e-12              -9.5022e-05          
  1.05                  9.5232e-05            1.1566e-08            -4.38e-12             -9.5236e-05          
  1.1                   9.5432e-05            1.1544e-08            -3.8e-12              -9.544e-05           
  1.15                  9.5624e-05            1.152e-08             -3.58e-12             -9.563e-05           
  1.2                   9.5806e-05            1.1498e-08            -4.78e-12             -9.5812e-05          
  1.25                  9.598e-05             1.1478e-08            -4.44e-12             -9.5986e-05          
  1.3                   9.6146e-05            1.1458e-08            -4.38e-12             -9.6154e-05          
  1.35                  9.6308e-05            1.144e-08             -5.04e-12             -9.6312e-05          
END_DB

BEGIN_DB
 ICCAP_VAR vg         1.35           
 ICCAP_VAR vb         0              
 ICCAP_VAR vs         0              

 #vd                    id                    ig                    ib                    is                   
  0                     -3.2518e-08           9.7986e-08            -1.47e-10             -6.4664e-08          
  0.05                  1.3292e-05            8.989e-08             -1.1252e-10           -1.3374e-05          
  0.1                   2.6196e-05            8.2604e-08            -8.79e-11             -2.6272e-05          
  0.15                  3.8644e-05            7.6076e-08            -6.874e-11            -3.8712e-05          
  0.2                   5.0604e-05            7.0246e-08            -5.672e-11            -5.0668e-05          
  0.25                  6.2068e-05            6.5038e-08            -4.806e-11            -6.2128e-05          
  0.3                   7.3008e-05            6.041e-08             -4.138e-11            -7.3064e-05          
  0.35                  8.3402e-05            5.6298e-08            -3.684e-11            -8.3452e-05          
  0.4                   9.3226e-05            5.2668e-08            -3.38e-11             -9.3276e-05          
  0.45                  0.000102446           4.9476e-08            -3.078e-11            -0.00010249          
  0.5                   0.00011106            4.6678e-08            -2.854e-11            -0.000111102         
  0.55                  0.00011914            4.4238e-08            -2.626e-11            -0.00011884          
  0.6                   0.00012644            4.2128e-08            -2.654e-11            -0.00012616          
  0.65                  0.00013306            4.032e-08             -2.54e-11             -0.00013278          
  0.7                   0.00013896            3.8784e-08            -2.332e-11            -0.00013866          
  0.75                  0.0001441             3.7512e-08            -2.436e-11            -0.0001438           
  0.8                   0.00014844            3.6476e-08            -2.354e-11            -0.00014814          
  0.85                  0.00015192            3.5672e-08            -2.19e-11             -0.00015162          
  0.9                   0.00015456            3.508e-08             -2.312e-11            -0.00015426          
  0.95                  0.00015638            3.4674e-08            -2.206e-11            -0.00015608          
  1                     0.00015754            3.442e-08             -2.2e-11              -0.00015724          
  1.05                  0.00015828            3.4262e-08            -2.294e-11            -0.00015798          
  1.1                   0.00015878            3.4154e-08            -2.238e-11            -0.00015848          
  1.15                  0.00015918            3.4072e-08            -2.28e-11             -0.00015888          
  1.2                   0.0001595             3.4002e-08            -2.316e-11            -0.0001592           
  1.25                  0.00015978            3.3942e-08            -2.2e-11              -0.0001595           
  1.3                   0.00016006            3.3886e-08            -2.328e-11            -0.00015976          
  1.35                  0.0001603             3.383e-08             -2.408e-11            -0.00016002          
END_DB

