! VERSION = 6.00
BEGIN_HEADER
 ICCAP_INPUTS
  vd         V  D GROUND SMU1 0.1 LIN        1    0          1.35       28   0.05      
  vg         V  G GROUND SMU2 0.001 LIN        2    0.426      1.35       5    0.231     
  vb         V  B GROUND SMU4 0.1 CON        -1.2
  vs         V  S GROUND SMU3 0.1 CON        0
 ICCAP_OUTPUTS
  id         I  D GROUND SMU1 B
  ig         I  G GROUND SMU2 B
  ib         I  B GROUND SMU4 B
  is         I  S GROUND SMU3 B
 ICCAP_VALUES
  MASTER_SETUP_TYPE "~dc_idvd~"
  LINVT_VALUE "|idvg|100.0n|100.0m|1.000m|5|1.350|"
  LISTVT_VALUE ""
  TYPE "1"
  TEMP "-40.0000 "
  IS_TNOM " 0.00000 "
  MAIN.W "150.0n"
  MAIN.L "10.00u"
  MAIN.AD "100.5f"
  MAIN.AS "100.5f"
  MAIN.PD "1.340u"
  MAIN.PS "1.340u"
  MAIN.NF "1.000"
  MAIN.M "1"
  MAIN.NRD "0.000"
  MAIN.NRS "0.000"
  MAIN.LDRIFT1 "1E-06"
  MAIN.LDRIFT2 "1E-06"
  MAIN.SA "0.000"
  MAIN.SB "0.000"
  MAIN.SD "0.000"
  MAIN.SCA "0.000"
  MAIN.SCB "0.000"
  MAIN.SCC "0.000"
  MAIN.SC "0.000"
  MODULE "S547"
  PIN_D "16"
  PIN_G "5"
  PIN_S "6"
  PIN_B "15"
  PIN_E ""
  PIN_6 ""
  XY_ID ""
  FUNC "Narrow"
  STI "SA ref"
  WPE "WPE ref"
  COMMENT ""
  DIS_MEAS ""
  TypeTCI "10"
END_HEADER

BEGIN_DB
 ICCAP_VAR vg         0.426          
 ICCAP_VAR vb         -1.2           
 ICCAP_VAR vs         0              

 #vd                    id                    ig                    ib                    is                   
  0                     3.796e-11             7.32e-12              -7.28e-12             -3.392e-11           
  0.05                  2.187e-08             5.38e-12              -7.28e-12             -2.1874e-08          
  0.1                   3.092e-08             4.64e-12              -6.16e-12             -3.0908e-08          
  0.15                  3.3496e-08            4.66e-12              -6.2e-12              -3.3488e-08          
  0.2                   3.4488e-08            4.76e-12              -6.64e-12             -3.4486e-08          
  0.25                  3.5268e-08            4.56e-12              -6.62e-12             -3.5298e-08          
  0.3                   3.5944e-08            4.54e-12              -6.1e-12              -3.5928e-08          
  0.35                  3.6574e-08            4.16e-12              -5.22e-12             -3.6572e-08          
  0.4                   3.7146e-08            3.68e-12              -6.12e-12             -3.7124e-08          
  0.45                  3.765e-08             4.2e-12               -5.32e-12             -3.7634e-08          
  0.5                   3.8122e-08            3.9e-12               -5.52e-12             -3.8096e-08          
  0.55                  3.855e-08             3.94e-12              -4.64e-12             -3.8542e-08          
  0.6                   3.8996e-08            4.36e-12              -4.36e-12             -3.8982e-08          
  0.65                  3.938e-08             4.32e-12              -5.22e-12             -3.9364e-08          
  0.7                   3.9734e-08            3.9e-12               -4.92e-12             -3.9714e-08          
  0.75                  4.0056e-08            3.62e-12              -4.4e-12              -4.0044e-08          
  0.8                   4.0364e-08            3.72e-12              -4.16e-12             -4.035e-08           
  0.85                  4.0628e-08            3.84e-12              -5.06e-12             -4.0612e-08          
  0.9                   4.089e-08             3.78e-12              -5.1e-12              -4.087e-08           
  0.95                  4.1126e-08            3.46e-12              -4.06e-12             -4.1136e-08          
  1                     4.1374e-08            4.04e-12              -2.9e-12              -4.1362e-08          
  1.05                  4.1554e-08            3.54e-12              -4.5e-12              -4.1548e-08          
  1.1                   4.1732e-08            3.5e-12               -4.2e-12              -4.1712e-08          
  1.15                  4.191e-08             3.96e-12              -4.2e-12              -4.1892e-08          
  1.2                   4.2074e-08            3.06e-12              -3.6e-12              -4.2088e-08          
  1.25                  4.225e-08             3.24e-12              -3.62e-12             -4.2234e-08          
  1.3                   4.24e-08              4e-12                 -4.04e-12             -4.2388e-08          
  1.35                  4.2532e-08            3.04e-12              -4e-12                -4.2502e-08          
END_DB

BEGIN_DB
 ICCAP_VAR vg         0.657          
 ICCAP_VAR vb         -1.2           
 ICCAP_VAR vs         0              

 #vd                    id                    ig                    ib                    is                   
  0                     9.914e-11             4.91e-11              -2.82e-12             -1.5876e-10          
  0.05                  1.0212e-07            4.156e-11             -2e-12                -1.0202e-07          
  0.1                   1.8538e-07            3.586e-11             -1.76e-12             -1.8528e-07          
  0.15                  2.4932e-07            3.11e-11              -3.7e-12              -2.4924e-07          
  0.2                   2.9352e-07            2.846e-11             -1.7e-12              -2.933e-07           
  0.25                  3.1882e-07            2.676e-11             -2.12e-12             -3.1864e-07          
  0.3                   3.3084e-07            2.626e-11             -3.12e-12             -3.3056e-07          
  0.35                  3.3584e-07            2.592e-11             -2.7e-12              -3.3622e-07          
  0.4                   3.3962e-07            2.542e-11             -2.02e-12             -3.3954e-07          
  0.45                  3.422e-07             2.532e-11             -1.44e-12             -3.4166e-07          
  0.5                   3.4428e-07            2.54e-11              -2e-12                -3.4436e-07          
  0.55                  3.4646e-07            2.506e-11             -2.92e-12             -3.464e-07           
  0.6                   3.4832e-07            2.484e-11             -1.18e-12             -3.4822e-07          
  0.65                  3.5004e-07            2.514e-11             -1.82e-12             -3.5002e-07          
  0.7                   3.5174e-07            2.532e-11             -3.02e-12             -3.5164e-07          
  0.75                  3.5314e-07            2.492e-11             -2.42e-12             -3.5288e-07          
  0.8                   3.5478e-07            2.504e-11             -1.66e-12             -3.5472e-07          
  0.85                  3.5622e-07            2.42e-11              -2.94e-12             -3.5584e-07          
  0.9                   3.5722e-07            2.438e-11             -1.86e-12             -3.5726e-07          
  0.95                  3.5874e-07            2.42e-11              -2.68e-12             -3.5866e-07          
  1                     3.599e-07             2.46e-11              -3.4e-13              -3.5984e-07          
  1.05                  3.6098e-07            2.432e-11             -5.1e-12              -3.6094e-07          
  1.1                   3.6206e-07            2.44e-11              -2.64e-12             -3.6194e-07          
  1.15                  3.6286e-07            2.418e-11             -1.72e-12             -3.6278e-07          
  1.2                   3.64e-07              2.406e-11             -1.42e-12             -3.6376e-07          
  1.25                  3.6478e-07            2.438e-11             -2.44e-12             -3.6484e-07          
  1.3                   3.6588e-07            2.41e-11              -2.84e-12             -3.6564e-07          
  1.35                  3.6666e-07            2.346e-11             -2.8e-12              -3.6654e-07          
END_DB

BEGIN_DB
 ICCAP_VAR vg         0.888          
 ICCAP_VAR vb         -1.2           
 ICCAP_VAR vs         0              

 #vd                    id                    ig                    ib                    is                   
  0                     1.1568e-10            1.9574e-10            6.4e-13               -3.1048e-10          
  0.05                  1.7608e-07            1.7188e-10            -2.08e-12             -1.7612e-07          
  0.1                   3.356e-07             1.5126e-10            -2.02e-12             -3.3566e-07          
  0.15                  4.778e-07             1.3476e-10            -1.04e-12             -4.7786e-07          
  0.2                   6.0198e-07            1.2174e-10            -1.92e-12             -6.0206e-07          
  0.25                  7.0774e-07            1.1102e-10            -2.24e-12             -7.0772e-07          
  0.3                   7.9412e-07            1.0254e-10            -7.8e-13              -7.942e-07           
  0.35                  8.6058e-07            9.67e-11              -1.28e-12             -8.6072e-07          
  0.4                   9.0684e-07            9.242e-11             -2.22e-12             -9.0678e-07          
  0.45                  9.342e-07             9.036e-11             -1.42e-12             -9.3424e-07          
  0.5                   9.4908e-07            8.91e-11              -1.46e-12             -9.4926e-07          
  0.55                  9.5714e-07            8.764e-11             -1.68e-12             -9.5722e-07          
  0.6                   9.6302e-07            8.772e-11             -1.62e-12             -9.6308e-07          
  0.65                  9.6696e-07            8.716e-11             -2.68e-12             -9.665e-07           
  0.7                   9.699e-07             8.74e-11              -1.04e-12             -9.7e-07             
  0.75                  9.7324e-07            8.652e-11             -1.18e-12             -9.7366e-07          
  0.8                   9.7648e-07            8.712e-11             -2.76e-12             -9.7652e-07          
  0.85                  9.7912e-07            8.66e-11              -1.62e-12             -9.7916e-07          
  0.9                   9.8174e-07            8.562e-11             -1.38e-12             -9.8186e-07          
  0.95                  9.8418e-07            8.602e-11             -1.76e-12             -9.8424e-07          
  1                     9.8638e-07            8.618e-11             -2.04e-12             -9.8648e-07          
  1.05                  9.8834e-07            8.534e-11             -1.68e-12             -9.882e-07           
  1.1                   9.907e-07             8.544e-11             -8.2e-13              -9.904e-07           
  1.15                  9.9232e-07            8.566e-11             -1.46e-12             -9.9228e-07          
  1.2                   9.9416e-07            8.492e-11             -2.88e-12             -9.9422e-07          
  1.25                  9.9616e-07            8.484e-11             -1.46e-12             -9.962e-07           
  1.3                   9.9768e-07            8.494e-11             -1.06e-12             -9.9804e-07          
  1.35                  9.9948e-07            8.462e-11             -3.38e-12             -9.9948e-07          
END_DB

BEGIN_DB
 ICCAP_VAR vg         1.119          
 ICCAP_VAR vb         -1.2           
 ICCAP_VAR vs         0              

 #vd                    id                    ig                    ib                    is                   
  0                     -2.168e-11            5.8826e-10            2e-13                 -5.7148e-10          
  0.05                  2.351e-07             5.2936e-10            -7.6e-13              -2.3552e-07          
  0.1                   4.575e-07             4.7654e-10            -6.4e-13              -4.5788e-07          
  0.15                  6.6604e-07            4.32e-10              -9.4e-13              -6.6642e-07          
  0.2                   8.5982e-07            3.9326e-10            -1.98e-12             -8.6028e-07          
  0.25                  1.03834e-06           3.5982e-10            -2.18e-12             -1.03868e-06         
  0.3                   1.202e-06             3.3184e-10            -1.34e-12             -1.1984e-06          
  0.35                  1.3472e-06            3.084e-10             -1.04e-12             -1.3436e-06          
  0.4                   1.4746e-06            2.8904e-10            -1.02e-12             -1.471e-06           
  0.45                  1.5834e-06            2.7312e-10            -1.78e-12             -1.58e-06            
  0.5                   1.6732e-06            2.6044e-10            -1.24e-12             -1.6698e-06          
  0.55                  1.7436e-06            2.5162e-10            -1.4e-12              -1.74e-06            
  0.6                   1.7932e-06            2.4482e-10            -1.48e-12             -1.7894e-06          
  0.65                  1.8242e-06            2.412e-10             -1.18e-12             -1.8208e-06          
  0.7                   1.843e-06             2.3906e-10            -8.4e-13              -1.8396e-06          
  0.75                  1.8536e-06            2.3678e-10            -1.96e-12             -1.8504e-06          
  0.8                   1.8614e-06            2.3634e-10            -1.68e-12             -1.8576e-06          
  0.85                  1.867e-06             2.3586e-10            -7.6e-13              -1.8632e-06          
  0.9                   1.8714e-06            2.3506e-10            -1.7e-12              -1.8678e-06          
  0.95                  1.8756e-06            2.3438e-10            -2.02e-12             -1.872e-06           
  1                     1.8792e-06            2.3436e-10            -6.6e-13              -1.876e-06           
  1.05                  1.8832e-06            2.339e-10             -1.64e-12             -1.8792e-06          
  1.1                   1.8864e-06            2.3328e-10            -1.74e-12             -1.8826e-06          
  1.15                  1.8894e-06            2.3354e-10            -5.8e-13              -1.8862e-06          
  1.2                   1.8926e-06            2.3226e-10            -1.2e-12              -1.889e-06           
  1.25                  1.895e-06             2.3256e-10            -1.76e-12             -1.892e-06           
  1.3                   1.8984e-06            2.3208e-10            3.22e-12              -1.895e-06           
  1.35                  1.9004e-06            2.3168e-10            -1.28e-12             -1.897e-06           
END_DB

BEGIN_DB
 ICCAP_VAR vg         1.35           
 ICCAP_VAR vb         -1.2           
 ICCAP_VAR vs         0              

 #vd                    id                    ig                    ib                    is                   
  0                     -4.1236e-10           1.4534e-09            -1.98e-12             -1.036e-09           
  0.05                  2.7702e-07            1.3284e-09            -1.64e-12             -2.782e-07           
  0.1                   5.4538e-07            1.217e-09             -1.46e-12             -5.4654e-07          
  0.15                  8.0364e-07            1.117e-09             -1.1e-12              -8.0474e-07          
  0.2                   1.05092e-06           1.0284e-09            -6.6e-13              -1.05188e-06         
  0.25                  1.288e-06             9.489e-10             -1.96e-12             -1.2852e-06          
  0.3                   1.511e-06             8.7896e-10            -9.2e-13              -1.5082e-06          
  0.35                  1.7208e-06            8.1798e-10            -1.04e-12             -1.718e-06           
  0.4                   1.9166e-06            7.6562e-10            -1.54e-12             -1.9136e-06          
  0.45                  2.0968e-06            7.1968e-10            -4e-13                -2.094e-06           
  0.5                   2.2618e-06            6.8036e-10            -1.14e-12             -2.2586e-06          
  0.55                  2.4098e-06            6.464e-10             -1.42e-12             -2.407e-06           
  0.6                   2.5408e-06            6.1822e-10            -7.8e-13              -2.5378e-06          
  0.65                  2.6538e-06            5.9486e-10            -1.22e-12             -2.6508e-06          
  0.7                   2.7476e-06            5.7632e-10            -1.68e-12             -2.7446e-06          
  0.75                  2.822e-06             5.618e-10             -1.4e-12              -2.8186e-06          
  0.8                   2.8764e-06            5.5168e-10            -4.6e-13              -2.8732e-06          
  0.85                  2.9128e-06            5.4498e-10            -2.22e-12             -2.9096e-06          
  0.9                   2.9354e-06            5.4102e-10            -6.4e-13              -2.9324e-06          
  0.95                  2.9494e-06            5.385e-10             -4.4e-13              -2.9462e-06          
  1                     2.9586e-06            5.369e-10             -1.86e-12             -2.9556e-06          
  1.05                  2.9652e-06            5.3568e-10            -8e-14                -2.9618e-06          
  1.1                   2.9708e-06            5.3456e-10            -7.2e-13              -2.9678e-06          
  1.15                  2.9768e-06            5.3362e-10            -2.1e-12              -2.9736e-06          
  1.2                   2.9812e-06            5.325e-10             -1.04e-12             -2.978e-06           
  1.25                  2.9852e-06            5.324e-10             -9e-13                -2.982e-06           
  1.3                   2.9892e-06            5.3122e-10            -1.72e-12             -2.986e-06           
  1.35                  2.9926e-06            5.307e-10             -6.6e-13              -2.9896e-06          
END_DB

