! VERSION = 6.00
BEGIN_HEADER
 ICCAP_INPUTS
  vg         V  G GROUND SMU2 0.001 LIN        1    -0.5       1.35       38   0.05      
  vb         V  B GROUND SMU4 0.1 LIN        2    0          -1.2       5    -0.3      
  vd         V  D GROUND SMU1 0.1 LIST       3 3 0.05 0.6 1.2
  vs         V  S GROUND SMU3 0.1 CON        0
 ICCAP_OUTPUTS
  id         I  D GROUND SMU1 B
  ig         I  G GROUND SMU2 B
  ib         I  B GROUND SMU4 B
  is         I  S GROUND SMU3 B
 ICCAP_VALUES
  MASTER_SETUP_TYPE "~dc_idvg~"
  LINVT_VALUE ""
  LISTVT_VALUE ""
  TYPE "1"
  TEMP " 27.0000 "
  IS_TNOM " 1.00000 "
  MAIN.W "300.0n"
  MAIN.L "10.00u"
  MAIN.AD "102.0f"
  MAIN.AS "102.0f"
  MAIN.PD "1.280u"
  MAIN.PS "1.280u"
  MAIN.NF "1.000"
  MAIN.M "1"
  MAIN.NRD "0.000"
  MAIN.NRS "0.000"
  MAIN.LDRIFT1 "1E-06"
  MAIN.LDRIFT2 "1E-06"
  MAIN.SA "0.000"
  MAIN.SB "0.000"
  MAIN.SD "0.000"
  MAIN.SCA "0.000"
  MAIN.SCB "0.000"
  MAIN.SCC "0.000"
  MAIN.SC "0.000"
  MODULE "S545"
  PIN_D "18"
  PIN_G "3"
  PIN_S "4"
  PIN_B "17"
  PIN_E ""
  PIN_6 ""
  XY_ID ""
  FUNC "W Scale"
  STI "SA ref"
  WPE "WPE ref"
  COMMENT ""
  DIS_MEAS ""
  TypeTCI "10"
END_HEADER

BEGIN_DB
 ICCAP_VAR vb         0              
 ICCAP_VAR vd         0.05           
 ICCAP_VAR vs         0              

 #vg                    id                    ig                    ib                    is                   
  -0.5                  8e-14                 -4.486e-11            4.684e-11             1.4e-13              
  -0.45                 2e-14                 -6.96e-12             8.98e-12              2e-14                
  -0.4                  0                     -1.2e-12              2.6e-12               1e-13                
  -0.35                 0                     -1.8e-13              1.88e-12              8e-14                
  -0.3                  1e-13                 0                     1.76e-12              2e-14                
  -0.25                 1.2e-13               -6e-14                1.16e-12              1.8e-13              
  -0.2                  -2e-14                6e-14                 2.18e-12              -8e-14               
  -0.15                 1.2e-13               2.2e-13               1.54e-12              0                    
  -0.1                  3.4e-13               1.2e-13               4.4e-13               -1.8e-13             
  -0.05                 1.68e-12              2.8e-13               1.16e-12              -1.68e-12            
  0                     8.18e-12              2.4e-13               1.74e-12              -7.98e-12            
  0.05                  3.92e-11              3e-13                 1.32e-12              -3.932e-11           
  0.1                   1.8544e-10            4.6e-13               1.06e-12              -1.8554e-10          
  0.15                  8.4006e-10            6.4e-13               7.2e-13               -8.4008e-10          
  0.2                   3.4326e-09            1.24e-12              1.24e-12              -3.4314e-09          
  0.25                  1.1568e-08            2.66e-12              8.8e-13               -1.155e-08           
  0.3                   2.9442e-08            4.72e-12              5.8e-13               -2.9426e-08          
  0.35                  5.7238e-08            7.98e-12              1.96e-12              -5.7228e-08          
  0.4                   8.9738e-08            1.318e-11             1.38e-12              -8.9744e-08          
  0.45                  1.2246e-07            2.114e-11             9.8e-13               -1.2234e-07          
  0.5                   1.539e-07             3.274e-11             9.6e-13               -1.538e-07           
  0.55                  1.8404e-07            4.932e-11             1.58e-12              -1.8396e-07          
  0.6                   2.1308e-07            7.224e-11             9.8e-13               -2.1302e-07          
  0.65                  2.4108e-07            1.0322e-10            8e-13                 -2.4106e-07          
  0.7                   2.6802e-07            1.4444e-10            7.8e-13               -2.6802e-07          
  0.75                  2.9394e-07            1.9816e-10            1.94e-12              -2.9404e-07          
  0.8                   3.1886e-07            2.6742e-10            2.02e-12              -3.19e-07            
  0.85                  3.4274e-07            3.551e-10             2.4e-13               -3.4298e-07          
  0.9                   3.655e-07             4.6502e-10            3.2e-13               -3.6584e-07          
  0.95                  3.8718e-07            6.017e-10             1.88e-12              -3.8768e-07          
  1                     4.077e-07             7.6884e-10            2.6e-13               -4.0838e-07          
  1.05                  4.271e-07             9.7162e-10            1.48e-12              -4.2796e-07          
  1.1                   4.4528e-07            1.216e-09             7.2e-13               -4.464e-07           
  1.15                  4.6236e-07            1.507e-09             1.3e-12               -4.6378e-07          
  1.2                   4.7834e-07            1.851e-09             7.6e-13               -4.801e-07           
  1.25                  4.9316e-07            2.2558e-09            2.8e-13               -4.9534e-07          
  1.3                   5.0688e-07            2.7288e-09            -9e-13                -5.0952e-07          
  1.35                  5.1954e-07            3.28e-09              -1.14e-12             -5.2274e-07          
END_DB

BEGIN_DB
 ICCAP_VAR vb         -0.3           
 ICCAP_VAR vd         0.05           
 ICCAP_VAR vs         0              

 #vg                    id                    ig                    ib                    is                   
  -0.5                  1.6e-13               -4.4e-13              -3.18e-12             2.4e-13              
  -0.45                 1.4e-13               -1.2e-13              -3.02e-12             1.4e-13              
  -0.4                  1.2e-13               -6e-14                -2.12e-12             1.4e-13              
  -0.35                 6e-14                 4e-14                 -2.94e-12             2.2e-13              
  -0.3                  2e-14                 1.8e-13               -2.6e-12              6e-14                
  -0.25                 1.4e-13               1.2e-13               -1.86e-12             -2e-14               
  -0.2                  0                     1.2e-13               -2.2e-12              6e-14                
  -0.15                 1.2e-13               2e-13                 -1.32e-12             2e-13                
  -0.1                  6e-14                 2.4e-13               -1.2e-12              -1.2e-13             
  -0.05                 4.6e-13               1.8e-13               -2.14e-12             -3.4e-13             
  0                     1.88e-12              3e-13                 -1.54e-12             -1.84e-12            
  0.05                  9.8e-12               2.4e-13               -7.2e-13              -9.84e-12            
  0.1                   4.944e-11             4.2e-13               -3.2e-13              -4.93e-11            
  0.15                  2.4182e-10            5.8e-13               -1.6e-12              -2.4198e-10          
  0.2                   1.11546e-09           1.12e-12              -1.88e-12             -1.11636e-09         
  0.25                  4.5488e-09            2.28e-12              -1.22e-12             -4.5478e-09          
  0.3                   1.4668e-08            4.32e-12              -4.4e-13              -1.465e-08           
  0.35                  3.5292e-08            7.66e-12              -8.2e-13              -3.5276e-08          
  0.4                   6.47e-08              1.276e-11             -1.6e-12              -6.4696e-08          
  0.45                  9.7114e-08            2.056e-11             -8e-13                -9.7122e-08          
  0.5                   1.289e-07             3.202e-11             -4.4e-13              -1.288e-07           
  0.55                  1.593e-07             4.81e-11              -1.18e-12             -1.5922e-07          
  0.6                   1.8852e-07            7.09e-11              -1.18e-12             -1.8846e-07          
  0.65                  2.166e-07             1.0168e-10            -9.6e-13              -2.1658e-07          
  0.7                   2.4368e-07            1.425e-10             -1.4e-13              -2.4368e-07          
  0.75                  2.6972e-07            1.9606e-10            -1.02e-12             -2.6978e-07          
  0.8                   2.9474e-07            2.6494e-10            -9.6e-13              -2.949e-07           
  0.85                  3.1874e-07            3.5274e-10            -7.8e-13              -3.19e-07            
  0.9                   3.4168e-07            4.6248e-10            -7.2e-13              -3.4202e-07          
  0.95                  3.6352e-07            5.9856e-10            -3.2e-13              -3.64e-07            
  1                     3.8422e-07            7.6518e-10            -9.8e-13              -3.8486e-07          
  1.05                  4.0376e-07            9.6798e-10            -5.4e-13              -4.0464e-07          
  1.1                   4.2216e-07            1.2116e-09            2.2e-13               -4.2328e-07          
  1.15                  4.3948e-07            1.5024e-09            -1.8e-13              -4.4086e-07          
  1.2                   4.5562e-07            1.8462e-09            -7.4e-13              -4.5736e-07          
  1.25                  4.7064e-07            2.2502e-09            -1.02e-12             -4.728e-07           
  1.3                   4.8456e-07            2.7234e-09            -1.04e-12             -4.8718e-07          
  1.35                  4.9742e-07            3.2734e-09            -2.22e-12             -5.006e-07           
END_DB

BEGIN_DB
 ICCAP_VAR vb         -0.6           
 ICCAP_VAR vd         0.05           
 ICCAP_VAR vs         0              

 #vg                    id                    ig                    ib                    is                   
  -0.5                  2.8e-13               -4.6e-13              -4.48e-12             2.4e-13              
  -0.45                 6e-14                 -4e-14                -3.96e-12             1.2e-13              
  -0.4                  1e-13                 -1.8e-13              -3.28e-12             4e-14                
  -0.35                 2e-14                 4e-14                 -3.62e-12             6e-14                
  -0.3                  2e-14                 2e-14                 -3.74e-12             6e-14                
  -0.25                 1.8e-13               8e-14                 -3.08e-12             6e-14                
  -0.2                  0                     2e-13                 -3.18e-12             8e-14                
  -0.15                 0                     2.8e-13               -2.32e-12             8e-14                
  -0.1                  4e-14                 2.4e-13               -2.66e-12             8e-14                
  -0.05                 2.2e-13               8e-14                 -4.44e-12             4e-14                
  0                     7.6e-13               2.4e-13               -3.04e-12             -4.4e-13             
  0.05                  3.3e-12               2.8e-13               -2.02e-12             -3.12e-12            
  0.1                   1.68e-11              2.6e-13               -1.4e-12              -1.688e-11           
  0.15                  8.656e-11             4.6e-13               -2.72e-12             -8.648e-11           
  0.2                   4.2556e-10            1.04e-12              -3.38e-12             -4.2558e-10          
  0.25                  1.9352e-09            1.94e-12              -2.12e-12             -1.9356e-09          
  0.3                   7.3728e-09            3.94e-12              -2.02e-12             -7.374e-09           
  0.35                  2.1362e-08            7.3e-12               -8e-13                -2.1352e-08          
  0.4                   4.5806e-08            1.21e-11              -2.46e-12             -4.5798e-08          
  0.45                  7.6464e-08            1.992e-11             -2.08e-12             -7.6472e-08          
  0.5                   1.07986e-07           3.102e-11             -2.36e-12             -1.07996e-07         
  0.55                  1.3844e-07            4.706e-11             -1.96e-12             -1.3834e-07          
  0.6                   1.6766e-07            6.964e-11             -1.86e-12             -1.676e-07           
  0.65                  1.958e-07             9.998e-11             -1.82e-12             -1.9576e-07          
  0.7                   2.2284e-07            1.4072e-10            -1.94e-12             -2.2282e-07          
  0.75                  2.4894e-07            1.9406e-10            -6.2e-13              -2.49e-07            
  0.8                   2.7398e-07            2.6258e-10            -4.26e-12             -2.7412e-07          
  0.85                  2.9806e-07            3.5008e-10            -1.7e-12              -2.9828e-07          
  0.9                   3.2106e-07            4.595e-10             -1.28e-12             -3.2142e-07          
  0.95                  3.4304e-07            5.9518e-10            -7e-13                -3.435e-07           
  1                     3.639e-07             7.6196e-10            -1.22e-12             -3.645e-07           
  1.05                  3.8358e-07            9.6438e-10            -1.84e-12             -3.8446e-07          
  1.1                   4.0216e-07            1.2086e-09            -1.5e-12              -4.0326e-07          
  1.15                  4.1958e-07            1.499e-09             -4.8e-13              -4.2098e-07          
  1.2                   4.3592e-07            1.8428e-09            -2.16e-12             -4.3766e-07          
  1.25                  4.5112e-07            2.2472e-09            -1.94e-12             -4.5326e-07          
  1.3                   4.6522e-07            2.72e-09              -2.5e-12              -4.6786e-07          
  1.35                  4.7828e-07            3.271e-09             -2.64e-12             -4.8148e-07          
END_DB

BEGIN_DB
 ICCAP_VAR vb         -0.9           
 ICCAP_VAR vd         0.05           
 ICCAP_VAR vs         0              

 #vg                    id                    ig                    ib                    is                   
  -0.5                  1.6e-13               -4e-13                -5.36e-12             1e-13                
  -0.45                 4e-14                 -1.4e-13              -5.02e-12             6e-14                
  -0.4                  1.2e-13               -2e-13                -3.88e-12             2e-14                
  -0.35                 2e-14                 0                     -4.66e-12             1.4e-13              
  -0.3                  -1.2e-13              1e-13                 -4.3e-12              -2e-14               
  -0.25                 2.6e-13               1.2e-13               -4.12e-12             0                    
  -0.2                  2e-14                 1.4e-13               -4.06e-12             2.2e-13              
  -0.15                 -6e-14                4e-14                 -2.34e-12             -1.2e-13             
  -0.1                  6e-14                 2.2e-13               -3.9e-12              2e-14                
  -0.05                 2e-14                 2.6e-13               -2.92e-12             1.6e-13              
  0                     3e-13                 2e-13                 -3.58e-12             -2.6e-13             
  0.05                  1.48e-12              2.6e-13               -2.72e-12             -1.16e-12            
  0.1                   6.98e-12              3.6e-13               -2.26e-12             -6.88e-12            
  0.15                  3.682e-11             4.6e-13               -3.18e-12             -3.67e-11            
  0.2                   1.8912e-10            7.4e-13               -3e-12                -1.894e-10           
  0.25                  9.1788e-10            1.7e-12               -3.3e-12              -9.1914e-10          
  0.3                   3.9072e-09            3.44e-12              -2.28e-12             -3.906e-09           
  0.35                  1.3078e-08            6.68e-12              -1.68e-12             -1.3066e-08          
  0.4                   3.2288e-08            1.16e-11              -3.28e-12             -3.2276e-08          
  0.45                  5.9958e-08            1.904e-11             -3.3e-12              -5.9958e-08          
  0.5                   9.0518e-08            3.008e-11             -2.14e-12             -9.0532e-08          
  0.55                  1.2062e-07            4.582e-11             -2.7e-12              -1.2054e-07          
  0.6                   1.4966e-07            6.796e-11             -2.28e-12             -1.4958e-07          
  0.65                  1.7766e-07            9.82e-11              -2.18e-12             -1.7764e-07          
  0.7                   2.0462e-07            1.386e-10             -1.42e-12             -2.046e-07           
  0.75                  2.3064e-07            1.9168e-10            -1.62e-12             -2.3072e-07          
  0.8                   2.5574e-07            2.6002e-10            -3.04e-12             -2.5586e-07          
  0.85                  2.7988e-07            3.471e-10             -2.82e-12             -2.8008e-07          
  0.9                   3.0294e-07            4.5604e-10            -1.4e-12              -3.0326e-07          
  0.95                  3.2496e-07            5.9168e-10            -1.56e-12             -3.2544e-07          
  1                     3.4592e-07            7.5792e-10            -1.82e-12             -3.4654e-07          
  1.05                  3.6576e-07            9.6044e-10            -2.02e-12             -3.6662e-07          
  1.1                   3.8446e-07            1.204e-09             -1.44e-12             -3.8556e-07          
  1.15                  4.0206e-07            1.4942e-09            -9.6e-13              -4.0342e-07          
  1.2                   4.1852e-07            1.8378e-09            -2.44e-12             -4.2022e-07          
  1.25                  4.3386e-07            2.2424e-09            -2.86e-12             -4.36e-07            
  1.3                   4.4814e-07            2.7146e-09            -2.58e-12             -4.5076e-07          
  1.35                  4.6136e-07            3.2658e-09            -3.4e-12              -4.645e-07           
END_DB

BEGIN_DB
 ICCAP_VAR vb         -1.2           
 ICCAP_VAR vd         0.05           
 ICCAP_VAR vs         0              

 #vg                    id                    ig                    ib                    is                   
  -0.5                  1.4e-13               -4.8e-13              -5.76e-12             1.4e-13              
  -0.45                 2e-13                 -1.2e-13              -5.06e-12             0                    
  -0.4                  1e-13                 -2e-14                -4.44e-12             0                    
  -0.35                 1.2e-13               -8e-14                -5.38e-12             2.2e-13              
  -0.3                  -4e-14                6e-14                 -4.88e-12             2e-14                
