! VERSION = 6.00
BEGIN_HEADER
 ICCAP_INPUTS
  vg         V  G GROUND SMU2 0.001 LIN        1    -0.5       1.35       38   0.05      
  vb         V  B GROUND SMU4 0.1 LIN        2    0          -1.2       5    -0.3      
  vd         V  D GROUND SMU1 0.1 LIST       3 3 0.05 0.6 1.2
  vs         V  S GROUND SMU3 0.1 CON        0
 ICCAP_OUTPUTS
  id         I  D GROUND SMU1 B
  ig         I  G GROUND SMU2 B
  ib         I  B GROUND SMU4 B
  is         I  S GROUND SMU3 B
 ICCAP_VALUES
  MASTER_SETUP_TYPE "~dc_idvg~"
  LINVT_VALUE ""
  LISTVT_VALUE ""
  TYPE "1"
  TEMP " 27.0000 "
  IS_TNOM " 1.00000 "
  MAIN.W "150.0n"
  MAIN.L "500.0n"
  MAIN.AD "100.5f"
  MAIN.AS "100.5f"
  MAIN.PD "1.340u"
  MAIN.PS "1.340u"
  MAIN.NF "1.000"
  MAIN.M "1"
  MAIN.NRD "0.000"
  MAIN.NRS "0.000"
  MAIN.LDRIFT1 "1E-06"
  MAIN.LDRIFT2 "1E-06"
  MAIN.SA "0.000"
  MAIN.SB "0.000"
  MAIN.SD "0.000"
  MAIN.SCA "0.000"
  MAIN.SCB "0.000"
  MAIN.SCC "0.000"
  MAIN.SC "0.000"
  MODULE "S547"
  PIN_D "18"
  PIN_G "3"
  PIN_S "4"
  PIN_B "17"
  PIN_E ""
  PIN_6 ""
  XY_ID ""
  FUNC "LW Scale"
  STI "SA ref"
  WPE "WPE ref"
  COMMENT ""
  DIS_MEAS ""
  TypeTCI "10"
END_HEADER

BEGIN_DB
 ICCAP_VAR vb         0              
 ICCAP_VAR vd         0.05           
 ICCAP_VAR vs         0              

 #vg                    id                    ig                    ib                    is                   
  -0.5                  8e-14                 -4.356e-11            4.508e-11             1.4e-13              
  -0.45                 6e-14                 -6.64e-12             6.88e-12              1e-13                
  -0.4                  -4e-14                -1.04e-12             2.24e-12              4e-14                
  -0.35                 -2e-14                -2e-14                1.7e-12               8e-14                
  -0.3                  -6e-14                2e-14                 2.24e-12              6e-14                
  -0.25                 -2.2e-13              1.6e-13               1.44e-12              0                    
  -0.2                  2e-14                 1.6e-13               6.8e-13               8e-14                
  -0.15                 -2e-14                2.6e-13               1.3e-12               -1.8e-13             
  -0.1                  3.2e-13               2.6e-13               1.74e-12              -4e-13               
  -0.05                 1.84e-12              2e-13                 2.34e-12              -1.64e-12            
  0                     8.24e-12              1.2e-13               9.2e-13               -8.36e-12            
  0.05                  4.028e-11             3.6e-13               1.28e-12              -4.02e-11            
  0.1                   1.9238e-10            3e-13                 9e-13                 -1.924e-10           
  0.15                  8.9376e-10            2.8e-13               1.4e-12               -8.9274e-10          
  0.2                   3.934e-09             1.8e-13               2.44e-12              -3.9304e-09          
  0.25                  1.5864e-08            2.2e-13               1.44e-12              -1.585e-08           
  0.3                   5.4262e-08            4.4e-13               6.2e-13               -5.4248e-08          
  0.35                  1.4814e-07            4.6e-13               2.08e-12              -1.479e-07           
  0.4                   3.1522e-07            5.8e-13               1.56e-12              -3.1508e-07          
  0.45                  5.4474e-07            8.6e-13               7e-13                 -5.4458e-07          
  0.5                   8.1126e-07            9.6e-13               4e-13                 -8.113e-07           
  0.55                  1.0945e-06            1.5e-12               1.38e-12              -1.09436e-06         
  0.6                   1.3848e-06            1.92e-12              1.76e-12              -1.3808e-06          
  0.65                  1.6716e-06            2.84e-12              6.2e-13               -1.6678e-06          
  0.7                   1.9526e-06            3.66e-12              8.8e-13               -1.949e-06           
  0.75                  2.227e-06             5.02e-12              1.76e-12              -2.2232e-06          
  0.8                   2.492e-06             6.62e-12              1.22e-12              -2.4882e-06          
  0.85                  2.7478e-06            8.44e-12              8.6e-13               -2.7444e-06          
  0.9                   2.9924e-06            1.1e-11               4.2e-13               -2.9884e-06          
  0.95                  3.2252e-06            1.424e-11             8e-13                 -3.221e-06           
  1                     3.446e-06             1.786e-11             3.2e-13               -3.442e-06           
  1.05                  3.655e-06             2.23e-11              9.2e-13               -3.6514e-06          
  1.1                   3.8522e-06            2.78e-11              6.6e-13               -3.8484e-06          
  1.15                  4.0376e-06            3.418e-11             1.72e-12              -4.0336e-06          
  1.2                   4.2124e-06            4.158e-11             1.26e-12              -4.2088e-06          
  1.25                  4.376e-06             5.05e-11              8e-14                 -4.3722e-06          
  1.3                   4.5288e-06            6.07e-11              5e-13                 -4.5252e-06          
  1.35                  4.6712e-06            7.254e-11             1.26e-12              -4.6672e-06          
END_DB

BEGIN_DB
 ICCAP_VAR vb         -0.3           
 ICCAP_VAR vd         0.05           
 ICCAP_VAR vs         0              

 #vg                    id                    ig                    ib                    is                   
  -0.5                  2.2e-13               -3.2e-13              -3.38e-12             1.2e-13              
  -0.45                 0                     -8e-14                -2.8e-12              1e-13                
  -0.4                  1.6e-13               -4e-14                -2.64e-12             4e-14                
  -0.35                 0                     8e-14                 -3.08e-12             8e-14                
  -0.3                  6e-14                 1.6e-13               -2.58e-12             0                    
  -0.25                 1e-13                 1.6e-13               -1.92e-12             8e-14                
  -0.2                  -8e-14                2.2e-13               -1.34e-12             -4e-14               
  -0.15                 0                     1.4e-13               -1.52e-12             -2e-14               
  -0.1                  1.4e-13               3e-13                 -2.1e-12              -2e-14               
  -0.05                 3.6e-13               2.6e-13               -1.68e-12             -3e-13               
  0                     2.08e-12              2.8e-13               -1.46e-12             -2.12e-12            
  0.05                  1.058e-11             3.8e-13               -5.6e-13              -1.048e-11           
  0.1                   5.326e-11             3.4e-13               -1.68e-12             -5.32e-11            
  0.15                  2.6556e-10            3.6e-13               -1.34e-12             -2.6564e-10          
  0.2                   1.2692e-09            2.2e-13               -1.02e-12             -1.2672e-09          
  0.25                  5.7036e-09            3.4e-13               1e-13                 -5.697e-09           
  0.3                   2.2686e-08            4e-13                 -8.8e-13              -2.2662e-08          
  0.35                  7.425e-08             5.2e-13               -1.34e-12             -7.4238e-08          
  0.4                   1.8904e-07            6.4e-13               -5.4e-13              -1.8892e-07          
  0.45                  3.7586e-07            8.4e-13               -2.4e-13              -3.7578e-07          
  0.5                   6.1586e-07            1.16e-12              -7e-13                -6.1576e-07          
  0.55                  8.8412e-07            1.52e-12              -8e-13                -8.8408e-07          
  0.6                   1.166e-06             1.8e-12               -2.2e-13              -1.163e-06           
  0.65                  1.4478e-06            2.7e-12               -7.4e-13              -1.444e-06           
  0.7                   1.7262e-06            3.76e-12              -9.2e-13              -1.7224e-06          
  0.75                  1.999e-06             4.96e-12              -4e-13                -1.995e-06           
  0.8                   2.2626e-06            6.6e-12               2.2e-13               -2.2588e-06          
  0.85                  2.5178e-06            8.54e-12              -6.8e-13              -2.5144e-06          
  0.9                   2.7626e-06            1.088e-11             -3.2e-13              -2.759e-06           
  0.95                  2.9964e-06            1.418e-11             1.54e-12              -2.9922e-06          
  1                     3.2178e-06            1.77e-11              4e-14                 -3.2138e-06          
  1.05                  3.4286e-06            2.22e-11              -9e-13                -3.4246e-06          
  1.1                   3.627e-06             2.76e-11              -1.08e-12             -3.6234e-06          
  1.15                  3.8146e-06            3.406e-11             -4e-13                -3.8108e-06          
  1.2                   3.9908e-06            4.134e-11             -7.4e-13              -3.9872e-06          
  1.25                  4.1572e-06            5.016e-11             -2.2e-13              -4.1532e-06          
  1.3                   4.3118e-06            6.06e-11              -9.8e-13              -4.308e-06           
  1.35                  4.4556e-06            7.234e-11             -1.12e-12             -4.4514e-06          
END_DB

BEGIN_DB
 ICCAP_VAR vb         -0.6           
 ICCAP_VAR vd         0.05           
 ICCAP_VAR vs         0              

 #vg                    id                    ig                    ib                    is                   
  -0.5                  1.8e-13               -3e-13                -3.12e-12             1.2e-13              
  -0.45                 1e-13                 -4e-14                -4.38e-12             2e-13                
  -0.4                  -4e-14                -2e-14                -4.32e-12             2e-14                
  -0.35                 0                     4e-14                 -3.98e-12             6e-14                
  -0.3                  6e-14                 1.2e-13               -3.34e-12             0                    
  -0.25                 8e-14                 1.2e-13               -2.04e-12             -2e-14               
  -0.2                  8e-14                 1.4e-13               -3.64e-12             1.4e-13              
  -0.15                 -6e-14                2.6e-13               -3.26e-12             0                    
  -0.1                  1.4e-13               1e-13                 -2.76e-12             0                    
  -0.05                 1.2e-13               2.4e-13               -3.08e-12             8e-14                
  0                     6.6e-13               2.2e-13               -1.56e-12             -6.8e-13             
  0.05                  3.76e-12              3.8e-13               -2.82e-12             -3.54e-12            
  0.1                   1.9e-11               3.4e-13               -2.76e-12             -1.888e-11           
  0.15                  9.89e-11              3.2e-13               -2.74e-12             -9.886e-11           
  0.2                   5.0152e-10            4.8e-13               -2.92e-12             -5.0144e-10          
  0.25                  2.4204e-09            2.6e-13               -1.4e-12              -2.4176e-09          
  0.3                   1.06536e-08           2.6e-13               -2.4e-12              -1.06538e-08         
  0.35                  3.9788e-08            5e-13                 -2.06e-12             -3.9816e-08          
  0.4                   1.1748e-07            5.6e-13               -1.98e-12             -1.1724e-07          
  0.45                  2.659e-07             7.4e-13               -8.2e-13              -2.6598e-07          
  0.5                   4.7818e-07            9.6e-13               -1.82e-12             -4.7794e-07          
  0.55                  7.2934e-07            1.32e-12              -2.5e-12              -7.2904e-07          
  0.6                   9.9922e-07            2e-12                 -2.2e-12              -9.9924e-07          
  0.65                  1.2768e-06            2.54e-12              -2.14e-12             -1.2728e-06          
  0.7                   1.5508e-06            3.6e-12               -1.8e-12              -1.5468e-06          
  0.75                  1.8204e-06            4.88e-12              -1.26e-12             -1.8172e-06          
  0.8                   2.0826e-06            6.4e-12               -1.5e-12              -2.079e-06           
  0.85                  2.3366e-06            8.46e-12              -1.18e-12             -2.3326e-06          
  0.9                   2.5806e-06            1.084e-11             -1.88e-12             -2.5768e-06          
  0.95                  2.8144e-06            1.396e-11             -1.04e-12             -2.8106e-06          
  1                     3.0366e-06            1.772e-11             -6.8e-13              -3.0328e-06          
  1.05                  3.2472e-06            2.216e-11             -1.12e-12             -3.2434e-06          
  1.1                   3.4466e-06            2.742e-11             -1.88e-12             -3.444e-06           
  1.15                  3.6354e-06            3.386e-11             -1.44e-12             -3.6318e-06          
  1.2                   3.8126e-06            4.146e-11             -6.8e-13              -3.8096e-06          
  1.25                  3.98e-06              4.996e-11             -1.02e-12             -3.9764e-06          
  1.3                   4.1356e-06            6.034e-11             -1.7e-12              -4.1322e-06          
  1.35                  4.28e-06              7.21e-11              -2.16e-12             -4.2762e-06          
END_DB

BEGIN_DB
 ICCAP_VAR vb         -0.9           
 ICCAP_VAR vd         0.05           
 ICCAP_VAR vs         0              

 #vg                    id                    ig                    ib                    is                   
  -0.5                  1.4e-13               -3e-13                -4.68e-12             1.4e-13              
  -0.45                 1e-13                 4e-14                 -4.44e-12             4e-14                
  -0.4                  0                     -6e-14                -5.44e-12             2e-14                
  -0.35                 6e-14                 -2e-14                -4.72e-12             6e-14                
  -0.3                  -2e-14                1.2e-13               -3.78e-12             -2e-14               
  -0.25                 -4e-14                2.6e-13               -3.08e-12             -4e-14               
  -0.2                  1e-13                 4e-14                 -4.04e-12             4e-14                
  -0.15                 1.4e-13               2.4e-13               -4.32e-12             8e-14                
  -0.1                  -6e-14                1e-13                 -3.46e-12             4e-14                
  -0.05                 1.2e-13               2.4e-13               -3.08e-12             -2e-14               
  0                     2.2e-13               2.6e-13               -2.88e-12             -1.4e-13             
  0.05                  1.64e-12              2.6e-13               -2.58e-12             -1.52e-12            
  0.1                   8.86e-12              4.2e-13               -3.48e-12             -8.62e-12            
  0.15                  4.68e-11              3.6e-13               -3.84e-12             -4.676e-11           
  0.2                   2.4704e-10            4.2e-13               -2.14e-12             -2.4722e-10          
  0.25                  1.2512e-09            3.2e-13               -3.4e-12              -1.2484e-09          
  0.3                   5.8688e-09            3.6e-13               -3.16e-12             -5.8676e-09          
  0.35                  2.397e-08             5.2e-13               -3.18e-12             -2.3938e-08          
  0.4                   7.8478e-08            6.8e-13               -2.18e-12             -7.845e-08           
  0.45                  1.9698e-07            7.4e-13               -1.92e-12             -1.9682e-07          
  0.5                   3.839e-07             9.4e-13               -3.5e-12              -3.8346e-07          
  0.55                  6.1742e-07            1.32e-12              -3.1e-12              -6.1754e-07          
  0.6                   8.7652e-07            2.04e-12              -1.1e-12              -8.7658e-07          
  0.65                  1.14518e-06           2.72e-12              -2.3e-12              -1.1452e-06          
  0.7                   1.4158e-06            3.46e-12              -1.74e-12             -1.4118e-06          
  0.75                  1.6816e-06            4.82e-12              -2.14e-12             -1.6776e-06          
  0.8                   1.9412e-06            6.32e-12              -1.74e-12             -1.9372e-06          
  0.85                  2.1932e-06            8.32e-12              -2.7e-12              -2.1892e-06          
  0.9                   2.4358e-06            1.068e-11             -2.64e-12             -2.4322e-06          
  0.95                  2.6688e-06            1.378e-11             -1e-12                -2.665e-06           
  1                     2.8914e-06            1.766e-11             -1.5e-12              -2.8876e-06          
  1.05                  3.1022e-06            2.192e-11             -2.52e-12             -3.0988e-06          
  1.1                   3.3022e-06            2.736e-11             -2.24e-12             -3.298e-06           
  1.15                  3.4906e-06            3.368e-11             -1.04e-12             -3.4868e-06          
  1.2                   3.6686e-06            4.112e-11             -1.18e-12             -3.6654e-06          
  1.25                  3.836e-06             4.986e-11             -1.86e-12             -3.8326e-06          
  1.3                   3.9926e-06            6.016e-11             -2.2e-12              -3.989e-06           
  1.35                  4.1388e-06            7.19e-11              -1.66e-12             -4.1352e-06          
END_DB

BEGIN_DB
 ICCAP_VAR vb         -1.2           
 ICCAP_VAR vd         0.05           
 ICCAP_VAR vs         0              

 #vg                    id                    ig                    ib                    is                   
  -0.5                  6e-14                 -3e-13                -5.68e-12             1.4e-13              
  -0.45                 2e-14                 -1.6e-13              -4.76e-12             6e-14                
  -0.4                  2.2e-13               -1.4e-13              -4.62e-12             2e-13                
  -0.35                 0                     8e-14                 -4.86e-12             2e-14                
  -0.3                  8e-14                 2e-14                 -5.48e-12             1e-13                
