! VERSION = 6.00
BEGIN_HEADER
 ICCAP_INPUTS
  vd         V  D GROUND SMU1 0.1 LIN        1    0          1.35       28   0.05      
  vg         V  G GROUND SMU2 0.001 LIN        2    0.542      1.35       5    0.202     
  vb         V  B GROUND SMU4 0.1 CON        -1.2
  vs         V  S GROUND SMU3 0.1 CON        0
 ICCAP_OUTPUTS
  id         I  D GROUND SMU1 B
  ig         I  G GROUND SMU2 B
  ib         I  B GROUND SMU4 B
  is         I  S GROUND SMU3 B
 ICCAP_VALUES
  MASTER_SETUP_TYPE "~dc_idvd~"
  LINVT_VALUE "|idvg|100.0n|100.0m|1.000m|5|1.350|"
  LISTVT_VALUE ""
  TYPE "1"
  TEMP " 70.0000 "
  IS_TNOM " 0.00000 "
  MAIN.W "10.00u"
  MAIN.L "130.0n"
  MAIN.AD "3.400p"
  MAIN.AS "3.400p"
  MAIN.PD "20.68u"
  MAIN.PS "20.68u"
  MAIN.NF "1.000"
  MAIN.M "1"
  MAIN.NRD "0.000"
  MAIN.NRS "0.000"
  MAIN.LDRIFT1 "1E-06"
  MAIN.LDRIFT2 "1E-06"
  MAIN.SA "0.000"
  MAIN.SB "0.000"
  MAIN.SD "0.000"
  MAIN.SCA "0.000"
  MAIN.SCB "0.000"
  MAIN.SCC "0.000"
  MAIN.SC "0.000"
  MODULE "S540"
  PIN_D "18"
  PIN_G "3"
  PIN_S "4"
  PIN_B "17"
  PIN_E ""
  PIN_6 ""
  XY_ID ""
  FUNC "Short"
  STI "SA ref"
  WPE "WPE ref"
  COMMENT ""
  DIS_MEAS ""
  TypeTCI "10"
END_HEADER

BEGIN_DB
 ICCAP_VAR vg         0.542          
 ICCAP_VAR vb         -1.2           
 ICCAP_VAR vs         0              

 #vd                    id                    ig                    ib                    is                   
  0                     3.2798e-08            1.44e-11              -2.536e-11            -2.5488e-08          
  0.05                  1.71e-05              1.2e-11               -2.304e-11            -1.7092e-05          
  0.1                   2.547e-05             1.054e-11             -2.078e-11            -2.5472e-05          
  0.15                  3.0432e-05            9.56e-12              -2.156e-11            -3.0434e-05          
  0.2                   3.4214e-05            8.98e-12              -2.034e-11            -3.417e-05           
  0.25                  3.7578e-05            8.56e-12              -1.828e-11            -3.7556e-05          
  0.3                   4.0858e-05            8.36e-12              -1.904e-11            -4.0848e-05          
  0.35                  4.4158e-05            8.34e-12              -1.806e-11            -4.4146e-05          
  0.4                   4.7564e-05            8.3e-12               -1.66e-11             -4.7548e-05          
  0.45                  5.1062e-05            8.2e-12               -1.714e-11            -5.107e-05           
  0.5                   5.4678e-05            8.24e-12              -1.65e-11             -5.458e-05           
  0.55                  5.8354e-05            8.22e-12              -1.522e-11            -5.837e-05           
  0.6                   6.2282e-05            8.16e-12              -1.606e-11            -6.2284e-05          
  0.65                  6.6272e-05            8.18e-12              -1.518e-11            -6.6292e-05          
  0.7                   7.0454e-05            8.22e-12              -1.456e-11            -7.0424e-05          
  0.75                  7.4758e-05            8.14e-12              -1.522e-11            -7.4748e-05          
  0.8                   7.9184e-05            8.02e-12              -1.358e-11            -7.92e-05            
  0.85                  8.3778e-05            7.86e-12              -1.634e-11            -8.3844e-05          
  0.9                   8.853e-05             7.74e-12              -2.13e-11             -8.8566e-05          
  0.95                  9.349e-05             7.52e-12              -3.214e-11            -9.3468e-05          
  1                     9.8552e-05            7.18e-12              -6.5e-11              -9.8522e-05          
  1.05                  0.000103696           6.64e-12              -1.3996e-10           -0.000103742         
  1.1                   0.000109092           5.96e-12              -3.0176e-10           -0.000109062         
  1.15                  0.00011462            5.4e-12               -6.396e-10            -0.00011461          
  1.2                   0.00012046            4.56e-12              -1.2804e-09           -0.00012004          
  1.25                  0.00012624            3.56e-12              -2.437e-09            -0.00012588          
  1.3                   0.00013216            2.34e-12              -4.4146e-09           -0.00013186          
  1.35                  0.00013838            8.4e-13               -7.6378e-09           -0.00013802          
END_DB

BEGIN_DB
 ICCAP_VAR vg         0.744          
 ICCAP_VAR vb         -1.2           
 ICCAP_VAR vs         0              

 #vd                    id                    ig                    ib                    is                   
  0                     3.3012e-07            6.676e-11             -6.56e-12             -1.3982e-07          
  0.05                  0.00014376            5.756e-11             -7.56e-12             -0.0001434           
  0.1                   0.00024492            5.062e-11             -7.48e-12             -0.00024458          
  0.15                  0.00031442            4.568e-11             -8.72e-12             -0.00031404          
  0.2                   0.0003631             4.23e-11              -7.74e-12             -0.00036274          
  0.25                  0.00039914            4e-11                 -8.12e-12             -0.00039876          
  0.3                   0.00042784            3.83e-11              -7.24e-12             -0.00042754          
  0.35                  0.00045258            3.74e-11              -7.94e-12             -0.00045204          
  0.4                   0.00047454            3.658e-11             -8.42e-12             -0.00047414          
  0.45                  0.0004953             3.622e-11             -7e-12                -0.00049492          
  0.5                   0.00051526            3.586e-11             -8.16e-12             -0.00051508          
  0.55                  0.00053492            3.568e-11             -7.44e-12             -0.00053464          
  0.6                   0.00055412            3.534e-11             -7.08e-12             -0.00055378          
  0.65                  0.00057302            3.524e-11             -7.64e-12             -0.00057286          
  0.7                   0.00059216            3.52e-11              -8e-12                -0.00059182          
  0.75                  0.0006111             3.502e-11             -8.04e-12             -0.00061072          
  0.8                   0.00062988            3.508e-11             -9.5e-12              -0.00062946          
  0.85                  0.00064878            3.494e-11             -1.252e-11            -0.00064854          
  0.9                   0.00066772            3.48e-11              -2.426e-11            -0.00066736          
  0.95                  0.0006868             3.458e-11             -5.186e-11            -0.00068626          
  1                     0.00070562            3.452e-11             -1.2118e-10           -0.00070542          
  1.05                  0.00072462            3.434e-11             -2.8562e-10           -0.00072436          
  1.1                   0.00074376            3.402e-11             -6.5042e-10           -0.00074342          
  1.15                  0.00076282            3.372e-11             -1.4204e-09           -0.00076272          
  1.2                   0.00078234            3.338e-11             -2.9556e-09           -0.00078194          
  1.25                  0.00080188            3.29e-11              -5.8344e-09           -0.00080154          
  1.3                   0.00082132            3.232e-11             -1.09786e-08          -0.00082088          
  1.35                  0.0008407             3.154e-11             -1.9698e-08           -0.00084018          
END_DB

BEGIN_DB
 ICCAP_VAR vg         0.946          
 ICCAP_VAR vb         -1.2           
 ICCAP_VAR vs         0              

 #vd                    id                    ig                    ib                    is                   
  0                     8.3136e-07            2.103e-10             -5.62e-12             -2.6762e-07          
  0.05                  0.00034378            1.8684e-10            -6.7e-12              -0.0003434           
  0.1                   0.00062884            1.6752e-10            -4.14e-12             -0.00062844          
  0.15                  0.0008544             1.5202e-10            -5.72e-12             -0.000854            
  0.2                   0.00102754            1.4022e-10            -5.62e-12             -0.00102726          
  0.25                  0.0011592             1.31e-10              -5.94e-12             -0.00115846          
  0.3                   0.0012592             1.2408e-10            -4.74e-12             -0.0012582           
  0.35                  0.001337              1.1894e-10            -6.34e-12             -0.0013362           
  0.4                   0.0014002             1.1538e-10            -5.56e-12             -0.0013994           
  0.45                  0.0014528             1.1266e-10            -4.64e-12             -0.001452            
  0.5                   0.0014992             1.105e-10             -6.72e-12             -0.0014984           
  0.55                  0.0015408             1.0908e-10            -4.96e-12             -0.0015402           
  0.6                   0.0015796             1.0792e-10            -5.6e-12              -0.001579            
  0.65                  0.001616              1.0692e-10            -6.32e-12             -0.0016154           
  0.7                   0.0016508             1.0618e-10            -4.88e-12             -0.0016502           
  0.75                  0.001685              1.0566e-10            -7.24e-12             -0.0016838           
  0.8                   0.0017166             1.0522e-10            -9.9e-12              -0.0017164           
  0.85                  0.001749              1.0462e-10            -1.656e-11            -0.0017486           
  0.9                   0.0017806             1.0422e-10            -3.806e-11            -0.00178             
  0.95                  0.0018118             1.037e-10             -8.524e-11            -0.001811            
  1                     0.0018424             1.035e-10             -1.9544e-10           -0.0018418           
  1.05                  0.0018728             1.0302e-10            -4.4392e-10           -0.001872            
  1.1                   0.0019026             1.0278e-10            -9.707e-10            -0.0019022           
  1.15                  0.001933              1.0224e-10            -2.0458e-09           -0.0019324           
  1.2                   0.0019626             1.0192e-10            -4.144e-09            -0.0019624           
  1.25                  0.001992              1.0158e-10            -8.0466e-09           -0.0019908           
  1.3                   0.002021              1.01e-10              -1.5036e-08           -0.0020208           
  1.35                  0.0020504             1.0048e-10            -2.6974e-08           -0.0020498           
END_DB

BEGIN_DB
 ICCAP_VAR vg         1.148          
 ICCAP_VAR vb         -1.2           
 ICCAP_VAR vs         0              

 #vd                    id                    ig                    ib                    is                   
  0                     9.9252e-07            5.1198e-10            -3.64e-12             -3.6544e-07          
  0.05                  0.0005238             4.659e-10             -3.46e-12             -0.00052338          
  0.1                   0.0009896             4.2626e-10            -4.98e-12             -0.00098918          
  0.15                  0.001387              3.9214e-10            -4.52e-12             -0.0013864           
  0.2                   0.0017144             3.6354e-10            -5.14e-12             -0.001714            
  0.25                  0.0019784             3.3964e-10            -4e-12                -0.001978            
  0.3                   0.0021884             3.2024e-10            -4.8e-12              -0.0021882           
  0.35                  0.0023554             3.049e-10             -4.84e-12             -0.0023546           
  0.4                   0.0024884             2.9252e-10            -5.62e-12             -0.0024876           
  0.45                  0.0025956             2.83e-10              -4.92e-12             -0.0025946           
  0.5                   0.002684              2.7538e-10            -3.66e-12             -0.0026836           
  0.55                  0.0027592             2.6946e-10            -4e-12                -0.002758            
  0.6                   0.0028238             2.6488e-10            -4.76e-12             -0.0028232           
  0.65                  0.0028816             2.6146e-10            -3.54e-12             -0.0028814           
  0.7                   0.0029346             2.5858e-10            -6.02e-12             -0.0029338           
  0.75                  0.002983              2.5582e-10            -7.48e-12             -0.0029824           
  0.8                   0.0030286             2.54e-10              -1.016e-11            -0.003028            
  0.85                  0.0030726             2.5226e-10            -2.384e-11            -0.0030722           
  0.9                   0.0031146             2.5072e-10            -5.07e-11             -0.0031138           
  0.95                  0.003155              2.495e-10             -1.149e-10            -0.0031546           
  1                     0.003194              2.4836e-10            -2.6196e-10           -0.0031934           
  1.05                  0.0032324             2.4714e-10            -5.712e-10            -0.003232            
  1.1                   0.00327               2.4598e-10            -1.2074e-09           -0.0032694           
  1.15                  0.0033072             2.4504e-10            -2.463e-09            -0.0033066           
  1.2                   0.003343              2.4414e-10            -4.8464e-09           -0.0033424           
  1.25                  0.0033784             2.4328e-10            -9.191e-09            -0.0033778           
  1.3                   0.0034142             2.4232e-10            -1.6868e-08           -0.0034142           
  1.35                  0.0034488             2.414e-10             -2.9882e-08           -0.0034486           
END_DB

BEGIN_DB
 ICCAP_VAR vg         1.35           
 ICCAP_VAR vb         -1.2           
 ICCAP_VAR vs         0              

 #vd                    id                    ig                    ib                    is                   
  0                     1.11988e-06           1.0704e-09            -4.3e-12              -4.727e-07           
  0.05                  0.00066396            9.8786e-10            -5.52e-12             -0.00066362          
  0.1                   0.0012762             9.156e-10             -5.02e-12             -0.0012756           
  0.15                  0.0018202             8.5174e-10            -4.32e-12             -0.0018198           
  0.2                   0.0022894             7.9622e-10            -5.2e-12              -0.002289            
  0.25                  0.0026858             7.478e-10             -4.78e-12             -0.002685            
  0.3                   0.003015              7.0654e-10            -3e-12                -0.0030142           
  0.35                  0.0032856             6.7148e-10            -4.46e-12             -0.003285            
  0.4                   0.0035072             6.4192e-10            -4.48e-12             -0.0035062           
  0.45                  0.0036886             6.174e-10             -3.68e-12             -0.003688            
  0.5                   0.003839              5.9738e-10            -5.16e-12             -0.0038386           
  0.55                  0.0039634             5.8082e-10            -4.82e-12             -0.003963            
  0.6                   0.0040684             5.6752e-10            -3.72e-12             -0.0040678           
  0.65                  0.0041582             5.5644e-10            -5.56e-12             -0.0041576           
  0.7                   0.0042368             5.4756e-10            -4.94e-12             -0.0042362           
  0.75                  0.004306              5.4028e-10            -6.92e-12             -0.004306            
  0.8                   0.0043696             5.3408e-10            -1.384e-11            -0.0043686           
  0.85                  0.004427              5.2906e-10            -2.578e-11            -0.0044268           
  0.9                   0.0044806             5.2452e-10            -5.982e-11            -0.0044796           
  0.95                  0.0045314             5.2068e-10            -1.3462e-10           -0.0045314           
  1                     0.0045808             5.1734e-10            -2.9786e-10           -0.0045794           
  1.05                  0.0046264             5.1472e-10            -6.397e-10            -0.0046256           
  1.1                   0.0046718             5.1184e-10            -1.3242e-09           -0.0046708           
  1.15                  0.0047144             5.0932e-10            -2.6428e-09           -0.0047138           
  1.2                   0.0047558             5.0708e-10            -5.1008e-09           -0.0047548           
  1.25                  0.0047968             5.0504e-10            -9.5046e-09           -0.0047976           
  1.3                   0.0048386             5.0312e-10            -1.7186e-08           -0.0048372           
  1.35                  0.0048776             5.0122e-10            -3.0096e-08           -0.0048772           
END_DB

