! VERSION = 6.00
BEGIN_HEADER
 ICCAP_INPUTS
  vg         V  G GROUND SMU2 0.001 LIN        1    -0.5       1.35       38   0.05      
  vb         V  B GROUND SMU4 0.1 LIN        2    0          -1.2       5    -0.3      
  vd         V  D GROUND SMU1 0.1 LIST       3 3 0.05 0.6 1.2
  vs         V  S GROUND SMU3 0.1 CON        0
 ICCAP_OUTPUTS
  id         I  D GROUND SMU1 B
  ig         I  G GROUND SMU2 B
  ib         I  B GROUND SMU4 B
  is         I  S GROUND SMU3 B
 ICCAP_VALUES
  MASTER_SETUP_TYPE "~dc_idvg~"
  LINVT_VALUE ""
  LISTVT_VALUE ""
  TYPE "1"
  TEMP " 27.0000 "
  IS_TNOM " 1.00000 "
  MAIN.W "2.000u"
  MAIN.L "130.0n"
  MAIN.AD "680.0f"
  MAIN.AS "680.0f"
  MAIN.PD "4.680u"
  MAIN.PS "4.680u"
  MAIN.NF "1.000"
  MAIN.M "1"
  MAIN.NRD "0.000"
  MAIN.NRS "0.000"
  MAIN.LDRIFT1 "1E-06"
  MAIN.LDRIFT2 "1E-06"
  MAIN.SA "0.000"
  MAIN.SB "0.000"
  MAIN.SD "0.000"
  MAIN.SCA "0.000"
  MAIN.SCB "0.000"
  MAIN.SCC "0.000"
  MAIN.SC "0.000"
  MODULE "S542"
  PIN_D "14"
  PIN_G "7"
  PIN_S "8"
  PIN_B "13"
  PIN_E ""
  PIN_6 ""
  XY_ID ""
  FUNC "LW Scale"
  STI "SA ref"
  WPE "WPE ref"
  COMMENT ""
  DIS_MEAS ""
  TypeTCI "10"
END_HEADER

BEGIN_DB
 ICCAP_VAR vb         0              
 ICCAP_VAR vd         0.05           
 ICCAP_VAR vs         0              

 #vg                    id                    ig                    ib                    is                   
  -0.5                  5.6e-13               -4.428e-11            4.516e-11             3.4e-13              
  -0.45                 2.8e-13               -7.28e-12             8.04e-12              2.6e-13              
  -0.4                  2.6e-13               -1.54e-12             2.68e-12              2.6e-13              
  -0.35                 2.4e-13               -1.6e-13              1.86e-12              2.2e-13              
  -0.3                  2e-13                 -5e-13                2.36e-12              1.8e-13              
  -0.25                 1e-13                 6e-14                 2.28e-12              -2e-14               
  -0.2                  2e-14                 2.2e-13               6.4e-13               8e-14                
  -0.15                 1e-13                 3.2e-13               1.4e-12               -1.6e-13             
  -0.1                  5e-13                 4.6e-13               1.36e-12              -3.8e-13             
  -0.05                 2.36e-12              4.2e-13               2.26e-12              -2.28e-12            
  0                     9.68e-12              5.2e-13               1.72e-12              -9.64e-12            
  0.05                  4.124e-11             4.2e-13               1.76e-12              -4.124e-11           
  0.1                   1.7764e-10            6e-13                 9e-13                 -1.775e-10           
  0.15                  7.6852e-10            6.4e-13               2.08e-12              -7.6862e-10          
  0.2                   3.2926e-09            4.8e-13               2.18e-12              -3.2924e-09          
  0.25                  1.4014e-08            6.4e-13               1.16e-12              -1.3994e-08          
  0.3                   5.7594e-08            7.8e-13               1.32e-12              -5.7578e-08          
  0.35                  2.187e-07             8.4e-13               2.1e-12               -2.1864e-07          
  0.4                   7.214e-07             1.24e-12              1.2e-12               -7.2152e-07          
  0.45                  2.0232e-06            1.38e-12              7.8e-13               -2.0176e-06          
  0.5                   4.7516e-06            2.44e-12              1.48e-12              -4.748e-06           
  0.55                  9.413e-06             3.56e-12              1.9e-12               -9.3928e-06          
  0.6                   1.609e-05             5.16e-12              1.26e-12              -1.603e-05           
  0.65                  2.4522e-05            7.66e-12              5.6e-13               -2.4482e-05          
  0.7                   3.4328e-05            1.028e-11             1.02e-12              -3.4264e-05          
  0.75                  4.495e-05             1.442e-11             1.54e-12              -4.4892e-05          
  0.8                   5.591e-05             1.908e-11             9.8e-13               -5.59e-05            
  0.85                  6.6984e-05            2.53e-11              7.4e-13               -6.6974e-05          
  0.9                   7.7884e-05            3.29e-11              1.02e-12              -7.7952e-05          
  0.95                  8.8446e-05            4.18e-11              1.72e-12              -8.8434e-05          
  1                     9.865e-05             5.27e-11              5.8e-13               -9.8632e-05          
  1.05                  0.000108256           6.566e-11             3e-13                 -0.00010824          
  1.1                   0.00011754            8.078e-11             7.6e-13               -0.00011716          
  1.15                  0.00012616            9.89e-11              1.48e-12              -0.00012574          
  1.2                   0.0001342             1.1982e-10            4.8e-13               -0.00013382          
  1.25                  0.00014176            1.4408e-10            6e-14                 -0.00014142          
  1.3                   0.00014884            1.7192e-10            1.38e-12              -0.00014846          
  1.35                  0.00015544            2.043e-10             1.44e-12              -0.00015506          
END_DB

BEGIN_DB
 ICCAP_VAR vb         -0.3           
 ICCAP_VAR vd         0.05           
 ICCAP_VAR vs         0              

 #vg                    id                    ig                    ib                    is                   
  -0.5                  4.6e-13               -1.28e-12             -2.58e-12             3.6e-13              
  -0.45                 3e-13                 -8.2e-13              -3.34e-12             2.6e-13              
  -0.4                  2.6e-13               -2.4e-13              -3.34e-12             2.4e-13              
  -0.35                 1.2e-13               -2.2e-13              -2.34e-12             2.4e-13              
  -0.3                  1e-13                 -4e-14                -1.36e-12             4e-14                
  -0.25                 1.8e-13               2e-13                 -1.76e-12             2e-13                
  -0.2                  2e-14                 1.6e-13               -2.16e-12             1.4e-13              
  -0.15                 1e-13                 3.8e-13               -1.84e-12             2e-14                
  -0.1                  1e-13                 4.6e-13               -1.54e-12             -4e-14               
  -0.05                 3.8e-13               1.2e-13               -8.2e-13              -3.2e-13             
  0                     1.5e-12               5e-13                 -1.78e-12             -1.4e-12             
  0.05                  6.72e-12              4.4e-13               -1.22e-12             -6.62e-12            
  0.1                   3.054e-11             5.4e-13               -2.02e-12             -3.024e-11           
  0.15                  1.3942e-10            5.4e-13               -1.14e-12             -1.3938e-10          
  0.2                   6.3418e-10            4.6e-13               -2.2e-13              -6.3388e-10          
  0.25                  2.8558e-09            5.4e-13               -4.6e-13              -2.8524e-09          
  0.3                   1.2674e-08            5.8e-13               -1.24e-12             -1.265e-08           
  0.35                  5.4092e-08            8e-13                 -1.2e-12              -5.407e-08           
  0.4                   2.1158e-07            9.4e-13               -8.4e-13              -2.115e-07           
  0.45                  7.146e-07             1.66e-12              -1.44e-12             -7.146e-07           
  0.5                   2.0282e-06            2.18e-12              2e-14                 -2.0236e-06          
  0.55                  4.7928e-06            3.44e-12              -7.2e-13              -4.759e-06           
  0.6                   9.487e-06             4.72e-12              -1.22e-12             -9.4672e-06          
  0.65                  1.6222e-05            7e-12                 -1.06e-12             -1.622e-05           
  0.7                   2.4748e-05            9.84e-12              -1e-13                -2.4764e-05          
  0.75                  3.455e-05             1.368e-11             -6.6e-13              -3.4528e-05          
  0.8                   4.5128e-05            1.844e-11             -1.02e-12             -4.511e-05           
  0.85                  5.6086e-05            2.428e-11             -7.2e-13              -5.6074e-05          
  0.9                   6.7046e-05            3.16e-11              -7.6e-13              -6.704e-05           
  0.95                  7.785e-05             4.05e-11              5e-13                 -7.7834e-05          
  1                     8.8386e-05            5.13e-11              1.06e-12              -8.83e-05            
  1.05                  9.8306e-05            6.412e-11             -1.22e-12             -9.8258e-05          
  1.1                   0.000107734           7.926e-11             -2.4e-13              -0.000107722         
  1.15                  0.00011682            9.712e-11             -2e-14                -0.00011644          
  1.2                   0.00012526            1.1778e-10            -8.2e-13              -0.00012486          
  1.25                  0.0001331             1.4162e-10            -8e-13                -0.00013272          
  1.3                   0.00014046            1.6932e-10            -6.8e-13              -0.00014008          
  1.35                  0.00014732            2.0132e-10            2.2e-13               -0.00014694          
END_DB

BEGIN_DB
 ICCAP_VAR vb         -0.6           
 ICCAP_VAR vd         0.05           
 ICCAP_VAR vs         0              

 #vg                    id                    ig                    ib                    is                   
  -0.5                  4.8e-13               -1.42e-12             -3.94e-12             4.4e-13              
  -0.45                 3.2e-13               -6.8e-13              -4.84e-12             3.2e-13              
  -0.4                  3.4e-13               -3.2e-13              -4.02e-12             2e-13                
  -0.35                 8e-14                 -1.4e-13              -3.7e-12              2.2e-13              
  -0.3                  2e-13                 -1e-13                -2.34e-12             1.4e-13              
  -0.25                 8e-14                 1e-13                 -2.68e-12             1.4e-13              
  -0.2                  6e-14                 3.2e-13               -3.06e-12             6e-14                
  -0.15                 6e-14                 1.4e-13               -3.34e-12             1.8e-13              
  -0.1                  -6e-14                5e-13                 -2.78e-12             8e-14                
  -0.05                 1e-13                 3e-13                 -1.44e-12             0                    
  0                     3.4e-13               2.6e-13               -2.34e-12             -2.6e-13             
  0.05                  1.62e-12              5.4e-13               -3e-12                -1.36e-12            
  0.1                   7.68e-12              4.4e-13               -2.68e-12             -7.64e-12            
  0.15                  3.664e-11             4.8e-13               -2.22e-12             -3.65e-11            
  0.2                   1.7326e-10            6.4e-13               -8.2e-13              -1.7308e-10          
  0.25                  8.1278e-10            5.4e-13               -3.1e-12              -8.1234e-10          
  0.3                   3.7484e-09            6.2e-13               -1.84e-12             -3.7466e-09          
  0.35                  1.7024e-08            6.2e-13               -2.34e-12             -1.7006e-08          
  0.4                   7.3362e-08            9.6e-13               -1.9e-12              -7.3346e-08          
  0.45                  2.835e-07             1.44e-12              -1.76e-12             -2.8332e-07          
  0.5                   9.3012e-07            2.1e-12               -2.64e-12             -9.3004e-07          
  0.55                  2.5408e-06            2.92e-12              -1.14e-12             -2.5388e-06          
  0.6                   5.769e-06             4.52e-12              -1.4e-12              -5.7634e-06          
  0.65                  1.10032e-05           6.48e-12              -2.64e-12             -1.09672e-05         
  0.7                   1.8208e-05            9.22e-12              -1.56e-12             -1.8204e-05          
  0.75                  2.7168e-05            1.312e-11             -1.04e-12             -2.7132e-05          
  0.8                   3.7186e-05            1.76e-11              -6.4e-13              -3.7132e-05          
  0.85                  4.787e-05             2.362e-11             -1.92e-12             -4.7802e-05          
  0.9                   5.872e-05             3.07e-11              -1.88e-12             -5.87e-05            
  0.95                  6.959e-05             3.948e-11             -9.2e-13              -6.9576e-05          
  1                     8.0216e-05            5.036e-11             -1.68e-12             -8.0234e-05          
  1.05                  9.0442e-05            6.276e-11             -1.24e-12             -9.041e-05           
  1.1                   0.000100144           7.792e-11             -1.2e-12              -0.000100124         
  1.15                  0.00010936            9.552e-11             -1.98e-12             -0.000109336         
  1.2                   0.00011816            1.1596e-10            -5.6e-13              -0.0001178           
  1.25                  0.0001263             1.4022e-10            -1.16e-12             -0.00012592          
  1.3                   0.00013396            1.6774e-10            -1.62e-12             -0.00013354          
  1.35                  0.00014098            1.998e-10             -1.68e-12             -0.00014056          
END_DB

BEGIN_DB
 ICCAP_VAR vb         -0.9           
 ICCAP_VAR vd         0.05           
 ICCAP_VAR vs         0              

 #vg                    id                    ig                    ib                    is                   
  -0.5                  4.4e-13               -1.12e-12             -3.76e-12             2.6e-13              
  -0.45                 3.6e-13               -6.8e-13              -5.42e-12             4e-13                
  -0.4                  3e-13                 -4.2e-13              -5.38e-12             3.6e-13              
  -0.35                 1.6e-13               -1.6e-13              -4.44e-12             3e-13                
  -0.3                  1.2e-13               -2e-14                -4.34e-12             1.6e-13              
  -0.25                 1.4e-13               0                     -3.56e-12             2.2e-13              
  -0.2                  2e-14                 2.6e-13               -3.22e-12             1.2e-13              
  -0.15                 0                     3.2e-13               -4.58e-12             8e-14                
  -0.1                  6e-14                 1.8e-13               -3.34e-12             -2e-14               
  -0.05                 -2e-14                5e-13                 -3.56e-12             0                    
  0                     1.4e-13               3.8e-13               -2.14e-12             2e-14                
  0.05                  6e-13                 4.2e-13               -3.02e-12             -5.2e-13             
  0.1                   2.76e-12              6.6e-13               -3.6e-12              -2.58e-12            
  0.15                  1.326e-11             5e-13                 -2.5e-12              -1.324e-11           
  0.2                   6.432e-11             8.6e-13               -2.84e-12             -6.41e-11            
  0.25                  3.1186e-10            4.6e-13               -2.34e-12             -3.1168e-10          
  0.3                   1.483e-09             3.8e-13               -2.66e-12             -1.4814e-09          
  0.35                  6.9504e-09            6.4e-13               -3.22e-12             -6.9484e-09          
  0.4                   3.156e-08             1.14e-12              -2.68e-12             -3.1548e-08          
  0.45                  1.3322e-07            1.48e-12              -1.58e-12             -1.3264e-07          
  0.5                   4.854e-07             2.1e-12               -2.82e-12             -4.852e-07           
  0.55                  1.4808e-06            2.92e-12              -1.52e-12             -1.4758e-06          
  0.6                   3.7414e-06            4.22e-12              -1.56e-12             -3.7356e-06          
  0.65                  7.8276e-06            6.5e-12               -2.52e-12             -7.8138e-06          
  0.7                   1.3986e-05            8.96e-12              -2.76e-12             -1.3936e-05          
  0.75                  2.202e-05             1.23e-11              -1.92e-12             -2.2022e-05          
  0.8                   3.1402e-05            1.7e-11               -1.68e-12             -3.1386e-05          
  0.85                  4.1734e-05            2.28e-11              -2.14e-12             -4.1772e-05          
  0.9                   5.2552e-05            2.98e-11              -2.7e-12              -5.2484e-05          
  0.95                  6.3348e-05            3.886e-11             -2.04e-12             -6.3358e-05          
  1                     7.4098e-05            4.922e-11             -1.5e-12              -7.4032e-05          
  1.05                  8.4424e-05            6.16e-11              -1.62e-12             -8.441e-05           
  1.1                   9.433e-05             7.692e-11             -2.52e-12             -9.4318e-05          
  1.15                  0.000103728           9.416e-11             -2.08e-12             -0.000103742         
  1.2                   0.000112598           1.1528e-10            -2.6e-12              -0.000112592         
  1.25                  0.00012108            1.3842e-10            -5.6e-13              -0.00012068          
  1.3                   0.00012886            1.6588e-10            -2.22e-12             -0.00012846          
  1.35                  0.00013612            1.9786e-10            -2.84e-12             -0.00013578          
END_DB

BEGIN_DB
 ICCAP_VAR vb         -1.2           
 ICCAP_VAR vd         0.05           
 ICCAP_VAR vs         0              

 #vg                    id                    ig                    ib                    is                   
  -0.5                  4.4e-13               -1.46e-12             -5.16e-12             4.2e-13              
  -0.45                 4.4e-13               -5.2e-13              -5.02e-12             3.8e-13              
  -0.4                  2.6e-13               -4e-13                -4.82e-12             3.4e-13              
  -0.35                 1.6e-13               -2.6e-13              -4.4e-12              2e-13                
  -0.3                  6e-14                 4e-14                 -5.42e-12             2.2e-13              
