! VERSION = 6.00
BEGIN_HEADER
 ICCAP_INPUTS
  vd         V  D GROUND SMU1 0.1 LIN        1    0          1.35       28   0.05      
  vg         V  G GROUND SMU2 0.001 LIN        2    0.682      1.35       5    0.167     
  vb         V  B GROUND SMU4 0.1 CON        -1.2
  vs         V  S GROUND SMU3 0.1 CON        0
 ICCAP_OUTPUTS
  id         I  D GROUND SMU1 B
  ig         I  G GROUND SMU2 B
  ib         I  B GROUND SMU4 B
  is         I  S GROUND SMU3 B
 ICCAP_VALUES
  MASTER_SETUP_TYPE "~dc_idvd~"
  LINVT_VALUE "|idvg|100.0n|100.0m|1.000m|5|1.350|"
  LISTVT_VALUE ""
  TYPE "1"
  TEMP " 27.0000 "
  IS_TNOM " 1.00000 "
  MAIN.W "300.0n"
  MAIN.L "130.0n"
  MAIN.AD "102.0f"
  MAIN.AS "102.0f"
  MAIN.PD "1.280u"
  MAIN.PS "1.280u"
  MAIN.NF "1.000"
  MAIN.M "1"
  MAIN.NRD "0.000"
  MAIN.NRS "0.000"
  MAIN.LDRIFT1 "1E-06"
  MAIN.LDRIFT2 "1E-06"
  MAIN.SA "0.000"
  MAIN.SB "0.000"
  MAIN.SD "0.000"
  MAIN.SCA "0.000"
  MAIN.SCB "0.000"
  MAIN.SCC "0.000"
  MAIN.SC "0.000"
  MODULE "S544"
  PIN_D "18"
  PIN_G "3"
  PIN_S "4"
  PIN_B "17"
  PIN_E ""
  PIN_6 ""
  XY_ID ""
  FUNC "LW Scale"
  STI "SA ref"
  WPE "WPE ref"
  COMMENT ""
  DIS_MEAS ""
  TypeTCI "10"
END_HEADER

BEGIN_DB
 ICCAP_VAR vg         0.682          
 ICCAP_VAR vb         -1.2           
 ICCAP_VAR vs         0              

 #vd                    id                    ig                    ib                    is                   
  0                     1.3904e-09            1.14e-12              -1.368e-11            -9.8866e-10          
  0.05                  6.6338e-07            8e-13                 -1.294e-11            -6.7712e-07          
  0.1                   9.6678e-07            8.8e-13               -1.306e-11            -9.6072e-07          
  0.15                  1.12478e-06           7.8e-13               -1.248e-11            -1.12494e-06         
  0.2                   1.2474e-06            5.6e-13               -1.078e-11            -1.2432e-06          
  0.25                  1.3524e-06            7e-13                 -1.044e-11            -1.3488e-06          
  0.3                   1.4534e-06            4.8e-13               -9.32e-12             -1.4494e-06          
  0.35                  1.552e-06             4.4e-13               -9.36e-12             -1.5484e-06          
  0.4                   1.6702e-06            4.2e-13               -9.22e-12             -1.674e-06           
  0.45                  1.7798e-06            5.8e-13               -8.64e-12             -1.776e-06           
  0.5                   1.8838e-06            6.4e-13               -8.06e-12             -1.8804e-06          
  0.55                  2.0046e-06            5.2e-13               -8.64e-12             -1.987e-06           
  0.6                   2.1006e-06            5e-13                 -7.24e-12             -2.0972e-06          
  0.65                  2.2142e-06            4.8e-13               -9.1e-12              -2.2106e-06          
  0.7                   2.3322e-06            6e-13                 -7.62e-12             -2.329e-06           
  0.75                  2.453e-06             6.2e-13               -7.24e-12             -2.451e-06           
  0.8                   2.5808e-06            4.6e-13               -6.76e-12             -2.5776e-06          
  0.85                  2.715e-06             5.4e-13               -7.36e-12             -2.7336e-06          
  0.9                   2.8864e-06            5e-13                 -6.22e-12             -2.8494e-06          
  0.95                  2.9448e-06            5.2e-13               -6.38e-12             -2.9952e-06          
  1                     3.0964e-06            5.4e-13               -7.32e-12             -3.0898e-06          
  1.05                  3.3364e-06            6e-13                 -7.52e-12             -3.332e-06           
  1.1                   3.541e-06             5.2e-13               -1.03e-11             -3.5024e-06          
  1.15                  3.7326e-06            4.4e-13               -1.61e-11             -3.6702e-06          
  1.2                   3.852e-06             5.2e-13               -2.7e-11              -3.8444e-06          
  1.25                  4.052e-06             4e-13                 -5.036e-11            -4.0306e-06          
  1.3                   4.1426e-06            5.8e-13               -9.152e-11            -4.138e-06           
  1.35                  4.3356e-06            4.4e-13               -1.6202e-10           -4.3314e-06          
END_DB

BEGIN_DB
 ICCAP_VAR vg         0.849          
 ICCAP_VAR vb         -1.2           
 ICCAP_VAR vs         0              

 #vd                    id                    ig                    ib                    is                   
  0                     2.9026e-09            2.88e-12              -3.74e-12             -3.3384e-09          
  0.05                  3.9304e-06            2.5e-12               -4.62e-12             -3.9338e-06          
  0.1                   6.6182e-06            2.16e-12              -3.16e-12             -6.5946e-06          
  0.15                  8.3916e-06            1.92e-12              -4.62e-12             -8.387e-06           
  0.2                   9.5926e-06            1.8e-12               -4.3e-12              -9.5706e-06          
  0.25                  1.04086e-05           1.56e-12              -3.56e-12             -1.04364e-05         
  0.3                   1.112e-05             1.52e-12              -4.4e-12              -1.11178e-05         
  0.35                  1.171e-05             1.52e-12              -3.8e-12              -1.16996e-05         
  0.4                   1.2242e-05            1.46e-12              -4.48e-12             -1.2224e-05          
  0.45                  1.2736e-05            1.44e-12              -3.9e-12              -1.272e-05           
  0.5                   1.3214e-05            1.28e-12              -3.1e-12              -1.3198e-05          
  0.55                  1.3676e-05            1.36e-12              -3.58e-12             -1.366e-05           
  0.6                   1.414e-05             1.48e-12              -2.88e-12             -1.4156e-05          
  0.65                  1.4614e-05            1.3e-12               -3.24e-12             -1.458e-05           
  0.7                   1.5056e-05            1.34e-12              -3.74e-12             -1.5038e-05          
  0.75                  1.5418e-05            1.3e-12               -3.16e-12             -1.55e-05            
  0.8                   1.5986e-05            1.28e-12              -4e-12                -1.5888e-05          
  0.85                  1.6458e-05            1.36e-12              -3.46e-12             -1.6442e-05          
  0.9                   1.6944e-05            1.24e-12              -3e-12                -1.6924e-05          
  0.95                  1.743e-05             1.38e-12              -3.52e-12             -1.741e-05           
  1                     1.7924e-05            1.34e-12              -4.54e-12             -1.7906e-05          
  1.05                  1.8424e-05            1.36e-12              -5.46e-12             -1.8398e-05          
  1.1                   1.8926e-05            1.3e-12               -1.056e-11            -1.891e-05           
  1.15                  1.944e-05             1.42e-12              -2.202e-11            -1.9418e-05          
  1.2                   2.0036e-05            1.22e-12              -4.472e-11            -1.9852e-05          
  1.25                  2.0476e-05            1.24e-12              -9.322e-11            -2.046e-05           
  1.3                   2.1006e-05            1.24e-12              -1.8426e-10           -2.0992e-05          
  1.35                  2.1582e-05            1.3e-12               -3.452e-10            -2.1526e-05          
END_DB

BEGIN_DB
 ICCAP_VAR vg         1.016          
 ICCAP_VAR vb         -1.2           
 ICCAP_VAR vs         0              

 #vd                    id                    ig                    ib                    is                   
  0                     1.1522e-08            6.64e-12              -1.06e-12             -1.0774e-08          
  0.05                  8.88e-06              5.8e-12               -2e-12                -8.8732e-06          
  0.1                   1.6066e-05            5.14e-12              -1.78e-12             -1.6084e-05          
  0.15                  2.1632e-05            4.68e-12              -2.54e-12             -2.1624e-05          
  0.2                   2.5894e-05            4.36e-12              -2.68e-12             -2.5842e-05          
  0.25                  2.8946e-05            4.04e-12              -1.84e-12             -2.8888e-05          
  0.3                   3.125e-05             3.78e-12              -3.16e-12             -3.1188e-05          
  0.35                  3.3008e-05            3.6e-12               -3.26e-12             -3.2972e-05          
  0.4                   3.4436e-05            3.42e-12              -1.8e-12              -3.4426e-05          
  0.45                  3.562e-05             3.48e-12              -3.14e-12             -3.5606e-05          
  0.5                   3.6706e-05            3.32e-12              -2.54e-12             -3.6692e-05          
  0.55                  3.766e-05             3.42e-12              -1.84e-12             -3.7678e-05          
  0.6                   3.867e-05             3.32e-12              -3.1e-12              -3.8626e-05          
  0.65                  3.9496e-05            3.04e-12              -3.1e-12              -3.9482e-05          
  0.7                   4.0426e-05            3.22e-12              -1.52e-12             -4.0376e-05          
  0.75                  4.1202e-05            3e-12                 -3.5e-12              -4.111e-05           
  0.8                   4.202e-05             3.1e-12               -3.12e-12             -4.2014e-05          
  0.85                  4.288e-05             3.12e-12              -1.62e-12             -4.2848e-05          
  0.9                   4.367e-05             3.14e-12              -3.48e-12             -4.3672e-05          
  0.95                  4.452e-05             3.02e-12              -4.5e-12              -4.4494e-05          
  1                     4.5252e-05            2.96e-12              -3.8e-12              -4.5318e-05          
  1.05                  4.6194e-05            3.06e-12              -8e-12                -4.614e-05           
  1.1                   4.6878e-05            3.04e-12              -1.576e-11            -4.689e-05           
  1.15                  4.7756e-05            3.14e-12              -3.018e-11            -4.777e-05           
  1.2                   4.8614e-05            2.98e-12              -6.59e-11             -4.8658e-05          
  1.25                  4.9418e-05            2.92e-12              -1.3144e-10           -4.94e-05            
  1.3                   5.0234e-05            2.94e-12              -2.5594e-10           -5.0222e-05          
  1.35                  5.1058e-05            3e-12                 -4.84e-10             -5.104e-05           
END_DB

BEGIN_DB
 ICCAP_VAR vg         1.183          
 ICCAP_VAR vb         -1.2           
 ICCAP_VAR vs         0              

 #vd                    id                    ig                    ib                    is                   
  0                     1.7078e-08            1.366e-11             -1.46e-12             -1.6322e-08          
  0.05                  1.3716e-05            1.24e-11              -1.56e-12             -1.3682e-05          
  0.1                   2.5648e-05            1.126e-11             -2.22e-12             -2.5626e-05          
  0.15                  3.5656e-05            1.034e-11             -2.76e-12             -3.5646e-05          
  0.2                   4.3778e-05            9.44e-12              -1.22e-12             -4.3784e-05          
  0.25                  5.0202e-05            8.84e-12              -1.66e-12             -5.0206e-05          
  0.3                   5.529e-05             8.24e-12              -2.86e-12             -5.5262e-05          
  0.35                  5.9122e-05            7.84e-12              -1e-12                -5.9056e-05          
  0.4                   6.2094e-05            7.52e-12              -2.04e-12             -6.209e-05           
  0.45                  6.4524e-05            7.34e-12              -2.86e-12             -6.4478e-05          
  0.5                   6.6568e-05            7.08e-12              -1.04e-12             -6.6536e-05          
  0.55                  6.822e-05             7.04e-12              -2.3e-12              -6.8226e-05          
  0.6                   6.9686e-05            6.82e-12              -2.86e-12             -6.9668e-05          
  0.65                  7.1104e-05            6.84e-12              -1.2e-12              -7.115e-05           
  0.7                   7.2396e-05            6.66e-12              -2e-12                -7.232e-05           
  0.75                  7.3588e-05            6.64e-12              -2.26e-12             -7.3644e-05          
  0.8                   7.489e-05             6.52e-12              -1e-12                -7.472e-05           
  0.85                  7.5968e-05            6.42e-12              -2.12e-12             -7.5924e-05          
  0.9                   7.6988e-05            6.48e-12              -2.22e-12             -7.7058e-05          
  0.95                  7.8154e-05            6.42e-12              -2.86e-12             -7.7856e-05          
  1                     7.9198e-05            6.46e-12              -5.54e-12             -7.9216e-05          
  1.05                  8.041e-05             6.32e-12              -9.96e-12             -8.0246e-05          
  1.1                   8.1336e-05            6.28e-12              -1.93e-11             -8.1274e-05          
  1.15                  8.234e-05             6.28e-12              -4.246e-11            -8.2416e-05          
  1.2                   8.348e-05             6.32e-12              -8.422e-11            -8.3406e-05          
  1.25                  8.4486e-05            6.3e-12               -1.6456e-10           -8.4394e-05          
  1.3                   8.5534e-05            6.12e-12              -3.164e-10            -8.549e-05           
  1.35                  8.6636e-05            6.12e-12              -5.8126e-10           -8.651e-05           
END_DB

BEGIN_DB
 ICCAP_VAR vg         1.35           
 ICCAP_VAR vb         -1.2           
 ICCAP_VAR vs         0              

 #vd                    id                    ig                    ib                    is                   
  0                     2.265e-08             2.618e-11             -4.4e-13              -2.1432e-08          
  0.05                  1.7756e-05            2.396e-11             -7.2e-13              -1.773e-05           
  0.1                   3.3854e-05            2.192e-11             -1.84e-12             -3.3836e-05          
  0.15                  4.797e-05             2.022e-11             -1.8e-12              -4.7956e-05          
  0.2                   5.9984e-05            1.878e-11             -8e-13                -5.9966e-05          
  0.25                  6.9956e-05            1.76e-11              -2.36e-12             -6.9936e-05          
  0.3                   7.8076e-05            1.646e-11             -1.5e-12              -7.8058e-05          
  0.35                  8.466e-05             1.56e-11              -1.42e-12             -8.4576e-05          
  0.4                   8.9892e-05            1.478e-11             -2.4e-12              -8.9912e-05          
  0.45                  9.404e-05             1.436e-11             -1.9e-12              -9.402e-05           
  0.5                   9.742e-05             1.382e-11             -1.12e-12             -9.7404e-05          
  0.55                  0.000100278           1.352e-11             -1.62e-12             -0.000100228         
  0.6                   0.0001026             1.326e-11             -1.44e-12             -0.000102562         
  0.65                  0.000104516           1.288e-11             -1.12e-12             -0.000104636         
  0.7                   0.000106496           1.274e-11             -2.1e-12              -0.000106344         
  0.75                  0.00010823            1.256e-11             -2e-12                -0.000107996         
  0.8                   0.000109772           1.248e-11             -1.5e-12              -0.000109766         
  0.85                  0.000111202           1.226e-11             -2.62e-12             -0.00011125          
  0.9                   0.000112718           1.206e-11             -2.78e-12             -0.000112606         
  0.95                  0.000114024           1.212e-11             -2.86e-12             -0.000114018         
  1                     0.00011552            1.208e-11             -7.88e-12             -0.000115378         
  1.05                  0.0001168             1.196e-11             -1.346e-11            -0.000116676         
  1.1                   0.000118              1.19e-11              -2.482e-11            -0.00011774          
  1.15                  0.00011934            1.192e-11             -5.232e-11            -0.00011894          
  1.2                   0.00012052            1.186e-11             -9.946e-11            -0.00012014          
  1.25                  0.00012184            1.178e-11             -1.91e-10             -0.00012132          
  1.3                   0.00012306            1.166e-11             -3.5756e-10           -0.0001226           
  1.35                  0.00012428            1.152e-11             -6.4658e-10           -0.00012384          
END_DB

