! VERSION = 6.00
BEGIN_HEADER
 ICCAP_INPUTS
  vg         V  G GROUND SMU2 0.001 LIN        1    -0.5       1.35       38   0.05      
  vb         V  B GROUND SMU4 0.1 LIN        2    0          -1.2       5    -0.3      
  vd         V  D GROUND SMU1 0.1 LIST       3 3 0.05 0.6 1.2
  vs         V  S GROUND SMU3 0.1 CON        0
 ICCAP_OUTPUTS
  id         I  D GROUND SMU1 B
  ig         I  G GROUND SMU2 B
  ib         I  B GROUND SMU4 B
  is         I  S GROUND SMU3 B
 ICCAP_VALUES
  MASTER_SETUP_TYPE "~dc_idvg~"
  LINVT_VALUE ""
  LISTVT_VALUE ""
  TYPE "1"
  TEMP " 27.0000 "
  IS_TNOM " 1.00000 "
  MAIN.W "600.0n"
  MAIN.L "130.0n"
  MAIN.AD "204.0f"
  MAIN.AS "204.0f"
  MAIN.PD "1.880u"
  MAIN.PS "1.880u"
  MAIN.NF "1.000"
  MAIN.M "1"
  MAIN.NRD "0.000"
  MAIN.NRS "0.000"
  MAIN.LDRIFT1 "1E-06"
  MAIN.LDRIFT2 "1E-06"
  MAIN.SA "0.000"
  MAIN.SB "0.000"
  MAIN.SD "0.000"
  MAIN.SCA "0.000"
  MAIN.SCB "0.000"
  MAIN.SCC "0.000"
  MAIN.SC "0.000"
  MODULE "S543"
  PIN_D "18"
  PIN_G "3"
  PIN_S "4"
  PIN_B "17"
  PIN_E ""
  PIN_6 ""
  XY_ID ""
  FUNC "LW Scale"
  STI "SA ref"
  WPE "WPE ref"
  COMMENT ""
  DIS_MEAS ""
  TypeTCI "10"
END_HEADER

BEGIN_DB
 ICCAP_VAR vb         0              
 ICCAP_VAR vd         0.05           
 ICCAP_VAR vs         0              

 #vg                    id                    ig                    ib                    is                   
  -0.5                  8e-14                 -4.586e-11            4.822e-11             1.8e-13              
  -0.45                 1.8e-13               -7.22e-12             9.6e-12               2e-13                
  -0.4                  8e-14                 -1.32e-12             3.18e-12              4e-14                
  -0.35                 1.2e-13               -3.8e-13              2.18e-12              4e-14                
  -0.3                  -8e-14                -6e-14                1.14e-12              2e-14                
  -0.25                 4e-14                 8e-14                 1.78e-12              -1.4e-13             
  -0.2                  -2e-14                1.4e-13               2.7e-12               8e-14                
  -0.15                 -4e-14                2e-14                 1.68e-12              4e-14                
  -0.1                  1.2e-13               1.6e-13               1.62e-12              -1e-13               
  -0.05                 3.4e-13               4e-14                 1.22e-12              -3e-13               
  0                     1.66e-12              1.6e-13               1.44e-12              -1.66e-12            
  0.05                  7.62e-12              3.6e-13               2.3e-12               -7.7e-12             
  0.1                   3.316e-11             2.2e-13               1.28e-12              -3.314e-11           
  0.15                  1.4484e-10            2.8e-13               9e-13                 -1.4492e-10          
  0.2                   6.3052e-10            4e-13                 1.44e-12              -6.307e-10           
  0.25                  2.723e-09             2.8e-13               1.44e-12              -2.7166e-09          
  0.3                   1.14312e-08           4.2e-13               2.28e-12              -1.14296e-08         
  0.35                  4.5256e-08            4.8e-13               1.84e-12              -4.53e-08            
  0.4                   1.5762e-07            6e-13                 8.2e-13               -1.5768e-07          
  0.45                  4.6302e-07            7.8e-13               1.4e-12               -4.6326e-07          
  0.5                   1.14734e-06           1.04e-12              1.78e-12              -1.14758e-06         
  0.55                  2.3874e-06            1.4e-12               7.2e-13               -2.3824e-06          
  0.6                   4.216e-06             1.7e-12               1.3e-12               -4.2118e-06          
  0.65                  6.5356e-06            2.54e-12              1.9e-12               -6.531e-06           
  0.7                   9.209e-06             3.38e-12              7.8e-13               -9.2052e-06          
  0.75                  1.2124e-05            4.44e-12              1.26e-12              -1.2104e-05          
  0.8                   1.514e-05             6.14e-12              1.2e-12               -1.5124e-05          
  0.85                  1.819e-05             7.82e-12              2.18e-12              -1.816e-05           
  0.9                   2.1194e-05            1.026e-11             -9.4e-13              -2.1176e-05          
  0.95                  2.4126e-05            1.306e-11             1.4e-12               -2.4118e-05          
  1                     2.6974e-05            1.62e-11              1.44e-12              -2.697e-05           
  1.05                  2.9714e-05            2.018e-11             1.62e-12              -2.9704e-05          
  1.1                   3.2252e-05            2.49e-11              1.64e-12              -3.2234e-05          
  1.15                  3.4732e-05            3.026e-11             5.4e-13               -3.4716e-05          
  1.2                   3.7064e-05            3.656e-11             3e-13                 -3.7048e-05          
  1.25                  3.93e-05              4.398e-11             1.8e-12               -3.928e-05           
  1.3                   4.1408e-05            5.228e-11             1.26e-12              -4.1394e-05          
  1.35                  4.339e-05             6.182e-11             1.08e-12              -4.3374e-05          
END_DB

BEGIN_DB
 ICCAP_VAR vb         -0.3           
 ICCAP_VAR vd         0.05           
 ICCAP_VAR vs         0              

 #vg                    id                    ig                    ib                    is                   
  -0.5                  3.6e-13               -6.8e-13              -4e-12                2.2e-13              
  -0.45                 1.4e-13               -3.2e-13              -3.02e-12             1.4e-13              
  -0.4                  1e-13                 -2e-13                -2.1e-12              1e-13                
  -0.35                 6e-14                 -2e-14                -1.3e-12              4e-14                
  -0.3                  1.2e-13               4e-14                 -2e-12                1e-13                
  -0.25                 8e-14                 4e-14                 -2.52e-12             6e-14                
  -0.2                  6e-14                 8e-14                 -1.56e-12             1.6e-13              
  -0.15                 2e-14                 1.2e-13               -2.24e-12             2.4e-13              
  -0.1                  -1e-13                1.8e-13               -3.8e-13              -4e-14               
  -0.05                 1.4e-13               2.4e-13               -1.42e-12             0                    
  0                     3.2e-13               2.2e-13               -2.1e-12              -3e-13               
  0.05                  1.46e-12              3.6e-13               -1.2e-12              -1.28e-12            
  0.1                   6.06e-12              1.6e-13               -1.72e-12             -6.02e-12            
  0.15                  2.814e-11             3e-13                 -4.6e-13              -2.802e-11           
  0.2                   1.2894e-10            4.2e-13               -6.6e-13              -1.2874e-10          
  0.25                  5.8746e-10            4.2e-13               -1.12e-12             -5.904e-10           
  0.3                   2.6312e-09            2.6e-13               -1.26e-12             -2.6308e-09          
  0.35                  1.14538e-08           4.4e-13               -1.1e-12              -1.14406e-08         
  0.4                   4.6112e-08            4e-13                 -9.2e-13              -4.6084e-08          
  0.45                  1.6136e-07            6.8e-13               -1.44e-12             -1.61e-07            
  0.5                   4.731e-07             9.4e-13               -1.12e-12             -4.7244e-07          
  0.55                  1.1672e-06            1.06e-12              1.6e-13               -1.1632e-06          
  0.6                   2.4128e-06            1.74e-12              -1.16e-12             -2.409e-06           
  0.65                  4.2386e-06            2.36e-12              -1.2e-12              -4.2346e-06          
  0.7                   6.5444e-06            3.2e-12               -8.6e-13              -6.5384e-06          
  0.75                  9.2148e-06            4.4e-12               3.6e-13               -9.2102e-06          
  0.8                   1.2118e-05            5.66e-12              -2.4e-13              -1.2098e-05          
  0.85                  1.5118e-05            7.58e-12              -3.52e-12             -1.5102e-05          
  0.9                   1.813e-05             9.84e-12              -9.2e-13              -1.8116e-05          
  0.95                  2.1108e-05            1.258e-11             4.8e-13               -2.1094e-05          
  1                     2.4022e-05            1.578e-11             -2e-14                -2.4008e-05          
  1.05                  2.6814e-05            1.986e-11             -6e-13                -2.6806e-05          
  1.1                   2.9488e-05            2.42e-11              -9.2e-13              -2.9474e-05          
  1.15                  3.2056e-05            2.97e-11              -5e-13                -3.2036e-05          
  1.2                   3.4484e-05            3.596e-11             -4.8e-13              -3.4438e-05          
  1.25                  3.6684e-05            4.316e-11             -2.8e-13              -3.6668e-05          
  1.3                   3.8864e-05            5.154e-11             -9.2e-13              -3.8846e-05          
  1.35                  4.0924e-05            6.12e-11              -4e-14                -4.0908e-05          
END_DB

BEGIN_DB
 ICCAP_VAR vb         -0.6           
 ICCAP_VAR vd         0.05           
 ICCAP_VAR vs         0              

 #vg                    id                    ig                    ib                    is                   
  -0.5                  3.4e-13               -5.6e-13              -3.2e-12              2e-13                
  -0.45                 2.8e-13               -4e-13                -3.98e-12             4e-14                
  -0.4                  2.4e-13               -2.6e-13              -3.42e-12             1e-13                
  -0.35                 2.6e-13               -4e-14                -3.84e-12             1.4e-13              
  -0.3                  8e-14                 6e-14                 -3.54e-12             0                    
  -0.25                 0                     1.6e-13               -1.56e-12             6e-14                
  -0.2                  1.2e-13               0                     -3e-12                1.8e-13              
  -0.15                 2e-14                 1.6e-13               -4.34e-12             4e-14                
  -0.1                  0                     2.6e-13               -2.52e-12             8e-14                
  -0.05                 0                     2e-13                 -2.16e-12             1e-13                
  0                     4e-14                 3.2e-13               -1.56e-12             0                    
  0.05                  3.6e-13               3e-13                 -1.86e-12             -2.6e-13             
  0.1                   1.66e-12              2.6e-13               -2.86e-12             -1.5e-12             
  0.15                  7.48e-12              4e-13                 -2.66e-12             -7.5e-12             
  0.2                   3.602e-11             2.8e-13               -2.3e-12              -3.576e-11           
  0.25                  1.6874e-10            5.4e-13               9.8e-13               -1.689e-10           
  0.3                   7.8898e-10            4.8e-13               -1.74e-12             -7.8724e-10          
  0.35                  3.594e-09             4.4e-13               -2.44e-12             -3.6122e-09          
  0.4                   1.5714e-08            6e-13                 -2.28e-12             -1.569e-08           
  0.45                  6.2244e-08            6.4e-13               -1.7e-12              -6.2252e-08          
  0.5                   2.087e-07             9e-13                 -1.92e-12             -2.09e-07            
  0.55                  5.8604e-07            1.14e-12              -2.32e-12             -5.8756e-07          
  0.6                   1.3886e-06            1.42e-12              -1.7e-12              -1.3852e-06          
  0.65                  2.7552e-06            2.16e-12              -1.64e-12             -2.7498e-06          
  0.7                   4.6762e-06            3.06e-12              -1.7e-12              -4.671e-06           
  0.75                  7.0588e-06            4.06e-12              -1.9e-12              -7.0538e-06          
  0.8                   9.7784e-06            5.58e-12              -5.4e-13              -9.7732e-06          
  0.85                  1.2696e-05            7.36e-12              -8.8e-13              -1.2676e-05          
  0.9                   1.568e-05             9.46e-12              -2.04e-12             -1.5662e-05          
  0.95                  1.8662e-05            1.228e-11             -2.04e-12             -1.8648e-05          
  1                     2.1606e-05            1.548e-11             -9e-13                -2.1584e-05          
  1.05                  2.4448e-05            1.932e-11             -9.2e-13              -2.4426e-05          
  1.1                   2.7146e-05            2.39e-11              -2.28e-12             -2.7136e-05          
  1.15                  2.9776e-05            2.92e-11              -2.1e-12              -2.9694e-05          
  1.2                   3.22e-05              3.536e-11             -1.66e-12             -3.2184e-05          
  1.25                  3.4552e-05            4.256e-11             -1.24e-12             -3.4536e-05          
  1.3                   3.6794e-05            5.102e-11             -1.46e-12             -3.6778e-05          
  1.35                  3.8918e-05            6.064e-11             -2.36e-12             -3.8896e-05          
END_DB

BEGIN_DB
 ICCAP_VAR vb         -0.9           
 ICCAP_VAR vd         0.05           
 ICCAP_VAR vs         0              

 #vg                    id                    ig                    ib                    is                   
  -0.5                  2.8e-13               -6.6e-13              -5.32e-12             2.2e-13              
  -0.45                 3e-13                 -2.6e-13              -4.7e-12              1.4e-13              
  -0.4                  1.2e-13               -2e-13                -4.14e-12             2.6e-13              
  -0.35                 -6e-14                -1.8e-13              -3.8e-12              -1e-13               
  -0.3                  2.2e-13               -1e-13                -4.82e-12             1e-13                
  -0.25                 4e-14                 2e-13                 -4e-12                4e-14                
  -0.2                  -2e-14                1.6e-13               -3.72e-12             -2e-14               
  -0.15                 1e-13                 1.4e-13               -3.04e-12             1.2e-13              
  -0.1                  0                     1.8e-13               -2.92e-12             0                    
  -0.05                 2e-14                 1e-13                 -4.04e-12             1e-13                
  0                     4e-14                 3e-13                 -3.8e-12              0                    
  0.05                  1.8e-13               2.4e-13               -3.1e-12              -8e-14               
  0.1                   4.8e-13               3.2e-13               -1.74e-12             -5.6e-13             
  0.15                  2.7e-12               3.4e-13               -2.56e-12             -2.64e-12            
  0.2                   1.276e-11             4.6e-13               -3.8e-12              -1.254e-11           
  0.25                  6.118e-11             3.8e-13               -2.9e-12              -6.146e-11           
  0.3                   2.9394e-10            4.2e-13               -1.98e-12             -2.9408e-10          
  0.35                  1.3856e-09            4e-13                 -2.06e-12             -1.3844e-09          
  0.4                   6.3454e-09            6e-13                 -2.96e-12             -6.3304e-09          
  0.45                  2.7072e-08            7.8e-13               -2.26e-12             -2.708e-08           
  0.5                   1.0107e-07            9e-13                 -2.96e-12             -1.0099e-07          
  0.55                  3.147e-07             1.24e-12              -1.9e-12              -3.1422e-07          
  0.6                   8.2486e-07            1.54e-12              -2.64e-12             -8.2468e-07          
  0.65                  1.8226e-06            1.98e-12              -1.78e-12             -1.8174e-06          
  0.7                   3.3868e-06            2.94e-12              -1.68e-12             -3.3842e-06          
  0.75                  5.4774e-06            3.94e-12              -2.52e-12             -5.471e-06           
  0.8                   7.9784e-06            5.46e-12              -2.54e-12             -7.9766e-06          
  0.85                  1.0769e-05            7.18e-12              -1.98e-12             -1.0769e-05          
  0.9                   1.3702e-05            9.24e-12              -1.32e-12             -1.368e-05           
  0.95                  1.6668e-05            1.188e-11             -2.42e-12             -1.6654e-05          
  1                     1.9618e-05            1.514e-11             -1.98e-12             -1.9552e-05          
  1.05                  2.244e-05             1.896e-11             -2.06e-12             -2.2404e-05          
  1.1                   2.5188e-05            2.348e-11             -4.06e-12             -2.5176e-05          
  1.15                  2.7862e-05            2.876e-11             -1.72e-12             -2.784e-05           
  1.2                   3.0402e-05            3.49e-11              -2.46e-12             -3.0388e-05          
  1.25                  3.2828e-05            4.226e-11             -1.44e-12             -3.281e-05           
  1.3                   3.5108e-05            5.03e-11              -1.92e-12             -3.5094e-05          
  1.35                  3.7282e-05            6.002e-11             -1.84e-12             -3.726e-05           
END_DB

BEGIN_DB
 ICCAP_VAR vb         -1.2           
 ICCAP_VAR vd         0.05           
 ICCAP_VAR vs         0              

 #vg                    id                    ig                    ib                    is                   
  -0.5                  3e-13                 -5e-13                -5.86e-12             2.6e-13              
  -0.45                 1.2e-13               -3.4e-13              -5.14e-12             1e-13                
  -0.4                  2e-13                 -1.4e-13              -4.24e-12             1.8e-13              
  -0.35                 8e-14                 -1.2e-13              -4.4e-12              1e-13                
  -0.3                  1.6e-13               6e-14                 -4.72e-12             0                    
