! VERSION = 6.00
BEGIN_HEADER
 ICCAP_INPUTS
  vg         V  G GROUND SMU2 0.001 LIN        1    -0.5       1.35       38   0.05      
  vb         V  B GROUND SMU4 0.1 LIN        2    0          -1.2       5    -0.3      
  vd         V  D GROUND SMU1 0.1 LIST       3 3 0.05 0.6 1.2
  vs         V  S GROUND SMU3 0.1 CON        0
 ICCAP_OUTPUTS
  id         I  D GROUND SMU1 B
  ig         I  G GROUND SMU2 B
  ib         I  B GROUND SMU4 B
  is         I  S GROUND SMU3 B
 ICCAP_VALUES
  MASTER_SETUP_TYPE "~dc_idvg~"
  LINVT_VALUE ""
  LISTVT_VALUE ""
  TYPE "1"
  TEMP " 27.0000 "
  IS_TNOM " 1.00000 "
  MAIN.W "600.0n"
  MAIN.L "180.0n"
  MAIN.AD "204.0f"
  MAIN.AS "204.0f"
  MAIN.PD "1.880u"
  MAIN.PS "1.880u"
  MAIN.NF "1.000"
  MAIN.M "1"
  MAIN.NRD "0.000"
  MAIN.NRS "0.000"
  MAIN.LDRIFT1 "1E-06"
  MAIN.LDRIFT2 "1E-06"
  MAIN.SA "0.000"
  MAIN.SB "0.000"
  MAIN.SD "0.000"
  MAIN.SCA "0.000"
  MAIN.SCB "0.000"
  MAIN.SCC "0.000"
  MAIN.SC "0.000"
  MODULE "S543"
  PIN_D "16"
  PIN_G "5"
  PIN_S "6"
  PIN_B "15"
  PIN_E ""
  PIN_6 ""
  XY_ID ""
  FUNC "LW Scale"
  STI "SA ref"
  WPE "WPE ref"
  COMMENT ""
  DIS_MEAS ""
  TypeTCI "10"
END_HEADER

BEGIN_DB
 ICCAP_VAR vb         0              
 ICCAP_VAR vd         0.05           
 ICCAP_VAR vs         0              

 #vg                    id                    ig                    ib                    is                   
  -0.5                  1.8e-13               -4.502e-11            4.614e-11             3e-13                
  -0.45                 0                     -6.92e-12             8.22e-12              1.6e-13              
  -0.4                  1.2e-13               -1.14e-12             3.34e-12              2e-14                
  -0.35                 -4e-14                -1e-13                2.06e-12              1.2e-13              
  -0.3                  4e-14                 4e-14                 2.08e-12              1.4e-13              
  -0.25                 1.2e-13               6e-14                 5.4e-13               8e-14                
  -0.2                  4e-14                 1.8e-13               1.32e-12              0                    
  -0.15                 2e-13                 2.4e-13               1.82e-12              0                    
  -0.1                  9.6e-13               2e-13                 2.4e-12               -8.6e-13             
  -0.05                 4.38e-12              3e-13                 1.24e-12              -4.42e-12            
  0                     2.086e-11             3e-13                 9.8e-13               -2.066e-11           
  0.05                  9.774e-11             3.2e-13               1.22e-12              -9.776e-11           
  0.1                   4.5802e-10            4.2e-13               1.26e-12              -4.5798e-10          
  0.15                  2.134e-09             2.8e-13               2.38e-12              -2.1322e-09          
  0.2                   9.5306e-09            3.4e-13               9.2e-13               -9.5284e-09          
  0.25                  3.8242e-08            4e-13                 1.04e-12              -3.8224e-08          
  0.3                   1.274e-07             3.8e-13               1.9e-12               -1.2764e-07          
  0.35                  3.5452e-07            5.4e-13               1.5e-12               -3.53e-07            
  0.4                   8.3096e-07            7e-13                 5.8e-13               -8.3282e-07          
  0.45                  1.6862e-06            8.2e-13               1.56e-12              -1.6814e-06          
  0.5                   2.973e-06             1.32e-12              1.68e-12              -2.9662e-06          
  0.55                  4.653e-06             2.12e-12              7.4e-13               -4.6498e-06          
  0.6                   6.6514e-06            3.28e-12              4.8e-13               -6.6472e-06          
  0.65                  8.8614e-06            5.12e-12              1.46e-12              -8.8584e-06          
  0.7                   1.11878e-05           7.32e-12              1.78e-12              -1.11778e-05         
  0.75                  1.3568e-05            1.012e-11             1.22e-12              -1.3562e-05          
  0.8                   1.5958e-05            1.306e-11             6.2e-13               -1.5938e-05          
  0.85                  1.8298e-05            1.662e-11             1.16e-12              -1.828e-05           
  0.9                   2.0592e-05            2.052e-11             1.9e-12               -2.057e-05           
  0.95                  2.28e-05              2.516e-11             1.44e-12              -2.278e-05           
  1                     2.4918e-05            3.034e-11             1.18e-12              -2.4904e-05          
  1.05                  2.6942e-05            3.676e-11             1.2e-13               -2.69e-05            
  1.1                   2.8844e-05            4.414e-11             1.44e-12              -2.884e-05           
  1.15                  3.0676e-05            5.262e-11             1.26e-12              -3.0658e-05          
  1.2                   3.2384e-05            6.276e-11             9.4e-13               -3.2354e-05          
  1.25                  3.3986e-05            7.45e-11              9.4e-13               -3.3962e-05          
  1.3                   3.5484e-05            8.788e-11             3.8e-13               -3.5466e-05          
  1.35                  3.6882e-05            1.0352e-10            1.92e-12              -3.6864e-05          
END_DB

BEGIN_DB
 ICCAP_VAR vb         -0.3           
 ICCAP_VAR vd         0.05           
 ICCAP_VAR vs         0              

 #vg                    id                    ig                    ib                    is                   
  -0.5                  1.6e-13               -4e-13                -2.34e-12             2.8e-13              
  -0.45                 1.6e-13               -2.4e-13              -3.6e-12              1.4e-13              
  -0.4                  1e-13                 -1.8e-13              -3.1e-12              2.6e-13              
  -0.35                 0                     2e-14                 -2.6e-12              1.4e-13              
  -0.3                  1.4e-13               1e-13                 -1.8e-12              1.4e-13              
  -0.25                 0                     2e-14                 -2.06e-12             1e-13                
  -0.2                  6e-14                 1.4e-13               -1.98e-12             8e-14                
  -0.15                 8e-14                 2.6e-13               -2.6e-12              1.4e-13              
  -0.1                  2e-13                 2.8e-13               -1.82e-12             -2e-14               
  -0.05                 7.8e-13               3e-13                 -1.48e-12             -5.8e-13             
  0                     3.76e-12              3.2e-13               -1.06e-12             -3.72e-12            
  0.05                  1.858e-11             3.4e-13               -1.2e-12              -1.86e-11            
  0.1                   9.206e-11             3.2e-13               -2.14e-12             -9.194e-11           
  0.15                  4.5374e-10            3e-13                 -1.24e-12             -4.5334e-10          
  0.2                   2.1992e-09            2.8e-13               -1e-13                -2.1974e-09          
  0.25                  1.0189e-08            3.6e-13               -1.42e-12             -1.01866e-08         
  0.3                   4.166e-08             4.4e-13               -7.8e-13              -4.1638e-08          
  0.35                  1.406e-07             5.8e-13               -1.2e-12              -1.4048e-07          
  0.4                   3.8934e-07            5.8e-13               1.2e-13               -3.885e-07           
  0.45                  9.0916e-07            8.4e-13               -8.8e-13              -9.104e-07           
  0.5                   1.8244e-06            1.08e-12              -1.52e-12             -1.8168e-06          
  0.55                  3.167e-06             1.88e-12              -3.6e-13              -3.163e-06           
  0.6                   4.906e-06             2.92e-12              1.8e-13               -4.9032e-06          
  0.65                  6.9444e-06            4.52e-12              -4.4e-13              -6.9422e-06          
  0.7                   9.1576e-06            6.86e-12              -1.02e-12             -9.1536e-06          
  0.75                  1.14938e-05           9.5e-12               -3.8e-13              -1.148e-05           
  0.8                   1.3858e-05            1.268e-11             6e-14                 -1.3832e-05          
  0.85                  1.6206e-05            1.616e-11             -9.6e-13              -1.6172e-05          
  0.9                   1.8494e-05            2.002e-11             -1.12e-12             -1.8486e-05          
  0.95                  2.0732e-05            2.458e-11             -6e-13                -2.0716e-05          
  1                     2.288e-05             2.982e-11             2.4e-13               -2.2868e-05          
  1.05                  2.4944e-05            3.618e-11             -1.02e-12             -2.4926e-05          
  1.1                   2.688e-05             4.346e-11             -1e-12                -2.6866e-05          
  1.15                  2.8754e-05            5.206e-11             -6e-13                -2.8738e-05          
  1.2                   3.0504e-05            6.208e-11             2.4e-13               -3.0484e-05          
  1.25                  3.2136e-05            7.358e-11             -9.2e-13              -3.2118e-05          
  1.3                   3.3684e-05            8.732e-11             -4.2e-13              -3.3656e-05          
  1.35                  3.5118e-05            1.0284e-10            -7.8e-13              -3.5098e-05          
END_DB

BEGIN_DB
 ICCAP_VAR vb         -0.6           
 ICCAP_VAR vd         0.05           
 ICCAP_VAR vs         0              

 #vg                    id                    ig                    ib                    is                   
  -0.5                  2.2e-13               -4.6e-13              -4.1e-12              3.2e-13              
  -0.45                 4e-14                 -3e-13                -5.12e-12             1.4e-13              
  -0.4                  8e-14                 -1.2e-13              -4.1e-12              1.2e-13              
  -0.35                 1e-13                 -4e-14                -3.08e-12             6e-14                
  -0.3                  -2e-14                1.4e-13               -2.84e-12             8e-14                
  -0.25                 8e-14                 1.6e-13               -3.36e-12             1.8e-13              
  -0.2                  1.2e-13               1.8e-13               -3.52e-12             1.4e-13              
  -0.15                 8e-14                 2.2e-13               -3.4e-12              1e-13                
  -0.1                  8e-14                 1.4e-13               -2.82e-12             1.2e-13              
  -0.05                 1.4e-13               4.2e-13               -1.9e-12              -4e-14               
  0                     9.8e-13               3.2e-13               -3.52e-12             -6.2e-13             
  0.05                  4.88e-12              3.8e-13               -2.98e-12             -4.8e-12             
  0.1                   2.462e-11             4.2e-13               -2e-12                -2.448e-11           
  0.15                  1.256e-10             3e-13                 -1.94e-12             -1.2554e-10          
  0.2                   6.3678e-10            4.6e-13               -1.62e-12             -6.3662e-10          
  0.25                  3.1688e-09            1.8e-13               -1.9e-12              -3.1666e-09          
  0.3                   1.4706e-08            4.4e-13               -2.64e-12             -1.4706e-08          
  0.35                  5.8758e-08            3.6e-13               -1.8e-12              -5.8552e-08          
  0.4                   1.9012e-07            5.8e-13               -1.1e-12              -1.8994e-07          
  0.45                  5.0676e-07            7e-13                 -2.74e-12             -5.0562e-07          
  0.5                   1.13766e-06           1.06e-12              -2.38e-12             -1.13784e-06         
  0.55                  2.1912e-06            1.62e-12              -1.2e-12              -2.1892e-06          
  0.6                   3.6754e-06            2.46e-12              -1.94e-12             -3.6734e-06          
  0.65                  5.5264e-06            4.1e-12               -2.16e-12             -5.5192e-06          
  0.7                   7.625e-06             6.3e-12               -1.5e-12              -7.6214e-06          
  0.75                  9.8804e-06            8.92e-12              -1.2e-12              -9.8846e-06          
  0.8                   1.2214e-05            1.204e-11             -1.7e-12              -1.2204e-05          
  0.85                  1.456e-05             1.582e-11             -1.08e-12             -1.4542e-05          
  0.9                   1.6854e-05            1.96e-11              -8e-13                -1.6842e-05          
  0.95                  1.9108e-05            2.408e-11             -3.6e-12              -1.9094e-05          
  1                     2.128e-05             2.954e-11             -1.84e-12             -2.1268e-05          
  1.05                  2.3372e-05            3.576e-11             -2.2e-12              -2.3354e-05          
  1.1                   2.5356e-05            4.294e-11             -8.2e-13              -2.5338e-05          
  1.15                  2.7228e-05            5.13e-11              -7.4e-13              -2.7224e-05          
  1.2                   2.9026e-05            6.14e-11              -1.84e-12             -2.9008e-05          
  1.25                  3.0704e-05            7.312e-11             -1.46e-12             -3.0688e-05          
  1.3                   3.2276e-05            8.638e-11             -1.46e-12             -3.2262e-05          
  1.35                  3.3742e-05            1.0192e-10            -3.6e-13              -3.3726e-05          
END_DB

BEGIN_DB
 ICCAP_VAR vb         -0.9           
 ICCAP_VAR vd         0.05           
 ICCAP_VAR vs         0              

 #vg                    id                    ig                    ib                    is                   
  -0.5                  1.6e-13               -3.6e-13              -5.58e-12             1e-13                
  -0.45                 1e-13                 -1.2e-13              -4.72e-12             -2e-14               
  -0.4                  4e-14                 -1.4e-13              -4.88e-12             8e-14                
  -0.35                 0                     6e-14                 -4.04e-12             6e-14                
  -0.3                  1.4e-13               1.4e-13               -3.32e-12             2.2e-13              
  -0.25                 -4e-14                1.2e-13               -4.32e-12             2.2e-13              
  -0.2                  0                     8e-14                 -3.92e-12             2e-14                
  -0.15                 1e-13                 1.8e-13               -4.06e-12             6e-14                
  -0.1                  -2e-14                3.2e-13               -3.16e-12             1.8e-13              
  -0.05                 4e-14                 4.2e-13               -2.62e-12             4e-14                
  0                     3e-13                 2.6e-13               -3.24e-12             -1.4e-13             
  0.05                  1.64e-12              3e-13                 -3.74e-12             -1.44e-12            
  0.1                   8.32e-12              4e-13                 -4.76e-12             -8.2e-12             
  0.15                  4.398e-11             3.2e-13               -2.78e-12             -4.392e-11           
  0.2                   2.3072e-10            4e-13                 -1.9e-12              -2.3018e-10          
  0.25                  1.1918e-09            2.4e-13               -2.64e-12             -1.1898e-09          
  0.3                   5.9398e-09            3.6e-13               -1.44e-12             -5.933e-09           
  0.35                  2.6706e-08            4.8e-13               -1.82e-12             -2.6732e-08          
  0.4                   9.8974e-08            6.2e-13               -2.72e-12             -9.9348e-08          
  0.45                  2.9776e-07            5.6e-13               -3.06e-12             -2.977e-07           
  0.5                   7.3892e-07            1.02e-12              -1.7e-12              -7.405e-07           
  0.55                  1.554e-06             1.44e-12              -2.74e-12             -1.549e-06           
  0.6                   2.8076e-06            2.42e-12              -2e-12                -2.8032e-06          
  0.65                  4.4752e-06            3.76e-12              -1.94e-12             -4.4682e-06          
  0.7                   6.4526e-06            5.82e-12              -2.68e-12             -6.446e-06           
  0.75                  8.6364e-06            8.68e-12              -2.92e-12             -8.6294e-06          
  0.8                   1.09146e-05           1.18e-11              -2.36e-12             -1.0912e-05          
  0.85                  1.3252e-05            1.522e-11             -9.4e-13              -1.3238e-05          
  0.9                   1.5564e-05            1.938e-11             -2.26e-12             -1.5544e-05          
  0.95                  1.782e-05             2.39e-11              -1.78e-12             -1.7804e-05          
  1                     1.999e-05             2.908e-11             -2.16e-12             -1.9994e-05          
  1.05                  2.212e-05             3.528e-11             -7.4e-13              -2.2076e-05          
  1.1                   2.4126e-05            4.24e-11              -2.1e-12              -2.411e-05           
  1.15                  2.6032e-05            5.096e-11             -2.66e-12             -2.6014e-05          
  1.2                   2.785e-05             6.084e-11             -2.44e-12             -2.7824e-05          
  1.25                  2.9552e-05            7.238e-11             -1.72e-12             -2.9534e-05          
  1.3                   3.1142e-05            8.568e-11             -2.06e-12             -3.1128e-05          
  1.35                  3.265e-05             1.0136e-10            -1.6e-12              -3.263e-05           
END_DB

BEGIN_DB
 ICCAP_VAR vb         -1.2           
 ICCAP_VAR vd         0.05           
 ICCAP_VAR vs         0              

 #vg                    id                    ig                    ib                    is                   
  -0.5                  1.6e-13               -4.6e-13              -4.3e-12              2.6e-13              
  -0.45                 1.2e-13               -3e-13                -5.96e-12             1.8e-13              
  -0.4                  1e-13                 8e-14                 -5.18e-12             2e-14                
  -0.35                 2e-14                 4e-14                 -4.96e-12             2.4e-13              
  -0.3                  -6e-14                1.2e-13               -3.92e-12             1.2e-13              
