! VERSION = 6.00
BEGIN_HEADER
 ICCAP_INPUTS
  vd         V  D GROUND SMU1 0.1 LIN        1    0          1.35       28   0.05      
  vg         V  G GROUND SMU2 0.001 LIST       2 3 0.198 0.398 0.598
  vb         V  B GROUND SMU4 0.1 CON        0
  vs         V  S GROUND SMU3 0.1 CON        0
 ICCAP_OUTPUTS
  id         I  D GROUND SMU1 B
  ig         I  G GROUND SMU2 B
  ib         I  B GROUND SMU4 B
  is         I  S GROUND SMU3 B
 ICCAP_VALUES
  MASTER_SETUP_TYPE "~dc_idvd~"
  LINVT_VALUE ""
  LISTVT_VALUE "|idvg|100.0n|-200.0m|1.000m|3|200.0m|200.0m|"
  TYPE "1"
  TEMP " 27.0000 "
  IS_TNOM " 1.00000 "
  MAIN.W "300.0n"
  MAIN.L "140.0n"
  MAIN.AD "102.0f"
  MAIN.AS "102.0f"
  MAIN.PD "1.280u"
  MAIN.PS "1.280u"
  MAIN.NF "1.000"
  MAIN.M "1"
  MAIN.NRD "0.000"
  MAIN.NRS "0.000"
  MAIN.LDRIFT1 "1E-06"
  MAIN.LDRIFT2 "1E-06"
  MAIN.SA "0.000"
  MAIN.SB "0.000"
  MAIN.SD "0.000"
  MAIN.SCA "0.000"
  MAIN.SCB "0.000"
  MAIN.SCC "0.000"
  MAIN.SC "0.000"
  MODULE "S544"
  PIN_D "16"
  PIN_G "5"
  PIN_S "6"
  PIN_B "15"
  PIN_E ""
  PIN_6 ""
  XY_ID ""
  FUNC "LW Scale"
  STI "SA ref"
  WPE "WPE ref"
  COMMENT ""
  DIS_MEAS ""
  TypeTCI "10"
END_HEADER

BEGIN_DB
 ICCAP_VAR vg         0.198          
 ICCAP_VAR vb         0              
 ICCAP_VAR vs         0              

 #vd                    id                    ig                    ib                    is                   
  0                     1.76e-12              -6e-14                1.94e-12              -7.6e-13             
  0.05                  4.8754e-10            -1e-13                -1.6e-13              -4.8718e-10          
  0.1                   5.8428e-10            -1e-13                2.6e-13               -5.8402e-10          
  0.15                  6.2032e-10            0                     4e-13                 -6.199e-10           
  0.2                   6.476e-10             -6e-14                7.2e-13               -6.4724e-10          
  0.25                  6.737e-10             -1.8e-13              1.8e-13               -6.731e-10           
  0.3                   6.9964e-10            -6e-14                8.2e-13               -6.9942e-10          
  0.35                  7.2538e-10            -8e-14                -2.8e-13              -7.2504e-10          
  0.4                   7.5198e-10            0                     1.12e-12              -7.5144e-10          
  0.45                  7.7842e-10            -6e-14                7.6e-13               -7.7804e-10          
  0.5                   8.0634e-10            -1.2e-13              1e-13                 -8.0572e-10          
  0.55                  8.3436e-10            -2e-13                7.8e-13               -8.3386e-10          
  0.6                   8.6308e-10            0                     9.4e-13               -8.6266e-10          
  0.65                  8.9202e-10            -8e-14                1.36e-12              -8.9178e-10          
  0.7                   9.2222e-10            -8e-14                1e-13                 -9.217e-10           
  0.75                  9.5296e-10            -2e-13                6.2e-13               -9.5186e-10          
  0.8                   9.8398e-10            -2.8e-13              2e-14                 -9.831e-10           
  0.85                  1.017e-09             -2e-13                2e-14                 -1.01538e-09         
  0.9                   1.0508e-09            -2e-13                -4e-13                -1.04942e-09         
  0.95                  1.0856e-09            -1.2e-13              3.4e-13               -1.08284e-09         
  1                     1.1206e-09            -2.4e-13              5.8e-13               -1.11922e-09         
  1.05                  1.156e-09             -3.8e-13              3e-13                 -1.1552e-09          
  1.1                   1.1952e-09            -3.2e-13              6.8e-13               -1.1932e-09          
  1.15                  1.235e-09             -4.6e-13              5.4e-13               -1.2326e-09          
  1.2                   1.277e-09             -4.6e-13              5e-13                 -1.273e-09           
  1.25                  1.3192e-09            -5.8e-13              1.8e-13               -1.3158e-09          
  1.3                   1.3628e-09            -6.2e-13              -2e-13                -1.3598e-09          
  1.35                  1.4092e-09            -9.2e-13              -5.4e-13              -1.4056e-09          
END_DB

BEGIN_DB
 ICCAP_VAR vg         0.398          
 ICCAP_VAR vb         0              
 ICCAP_VAR vs         0              

 #vd                    id                    ig                    ib                    is                   
  0                     2.5438e-10            2.4e-13               1.64e-12              -2.553e-10           
  0.05                  1.2974e-07            1e-13                 0                     -1.2964e-07          
  0.1                   1.6422e-07            8e-14                 1.32e-12              -1.6412e-07          
  0.15                  1.776e-07             2.6e-13               -1.4e-13              -1.7746e-07          
  0.2                   1.8634e-07            8e-14                 -5e-13                -1.8628e-07          
  0.25                  1.9406e-07            4e-14                 5.6e-13               -1.9378e-07          
  0.3                   2.0108e-07            0                     7.2e-13               -2.01e-07            
  0.35                  2.0818e-07            6e-14                 -5e-13                -2.0804e-07          
  0.4                   2.1514e-07            1.2e-13               3e-13                 -2.1492e-07          
  0.45                  2.2212e-07            -4e-14                5.8e-13               -2.219e-07           
  0.5                   2.2902e-07            2e-14                 9.6e-13               -2.291e-07           
  0.55                  2.3602e-07            2e-13                 4.8e-13               -2.3594e-07          
  0.6                   2.4308e-07            0                     -3e-13                -2.4292e-07          
  0.65                  2.5024e-07            4e-14                 8.2e-13               -2.501e-07           
  0.7                   2.5744e-07            1.4e-13               8.2e-13               -2.5732e-07          
  0.75                  2.649e-07             4e-14                 -1e-13                -2.6464e-07          
  0.8                   2.7238e-07            2e-14                 8e-14                 -2.7208e-07          
  0.85                  2.7968e-07            0                     7.6e-13               -2.7966e-07          
  0.9                   2.8724e-07            0                     3.6e-13               -2.875e-07           
  0.95                  2.9508e-07            2e-14                 5e-13                 -2.9496e-07          
  1                     3.0306e-07            8e-14                 -1.2e-13              -3.0294e-07          
  1.05                  3.1094e-07            -8e-14                -8e-14                -3.1088e-07          
  1.1                   3.1962e-07            -1e-13                -1.4e-12              -3.1924e-07          
  1.15                  3.2764e-07            0                     -3.1e-12              -3.2768e-07          
  1.2                   3.3642e-07            -1.4e-13              -6.38e-12             -3.3616e-07          
  1.25                  3.4502e-07            -1.6e-13              -1.352e-11            -3.4486e-07          
  1.3                   3.541e-07             -2.6e-13              -2.028e-11            -3.5372e-07          
  1.35                  3.6332e-07            -3.2e-13              -3.356e-11            -3.6286e-07          
END_DB

BEGIN_DB
 ICCAP_VAR vg         0.598          
 ICCAP_VAR vb         0              
 ICCAP_VAR vs         0              

 #vd                    id                    ig                    ib                    is                   
  0                     2.558e-09             9.2e-13               1.2e-12               -2.578e-09           
  0.05                  2.5566e-06            7e-13                 7.4e-13               -2.552e-06           
  0.1                   4.0798e-06            6.8e-13               3.8e-13               -4.076e-06           
  0.15                  4.9306e-06            4.8e-13               3.2e-13               -4.9276e-06          
  0.2                   5.4096e-06            5e-13                 3.4e-13               -5.4058e-06          
  0.25                  5.706e-06             5.8e-13               1.2e-13               -5.7028e-06          
  0.3                   5.92e-06              6e-13                 8.4e-13               -5.9166e-06          
  0.35                  6.0952e-06            5e-13                 2.6e-13               -6.0914e-06          
  0.4                   6.2492e-06            5.6e-13               -1.8e-13              -6.2458e-06          
  0.45                  6.3918e-06            3.6e-13               1.12e-12              -6.3884e-06          
  0.5                   6.5276e-06            4.2e-13               2.2e-13               -6.523e-06           
  0.55                  6.6592e-06            4e-13                 -3.4e-13              -6.6552e-06          
  0.6                   6.7878e-06            4.6e-13               1.2e-12               -6.7836e-06          
  0.65                  6.9144e-06            4.6e-13               -6e-14                -6.9106e-06          
  0.7                   7.0392e-06            4.6e-13               -2.4e-13              -7.0342e-06          
  0.75                  7.1626e-06            5e-13                 1.1e-12               -7.1582e-06          
  0.8                   7.2844e-06            4e-13                 1.34e-12              -7.2818e-06          
  0.85                  7.4082e-06            4.8e-13               3.2e-13               -7.404e-06           
  0.9                   7.5296e-06            4.4e-13               3.2e-13               -7.5256e-06          
  0.95                  7.6518e-06            5e-13                 -2e-14                -7.6478e-06          
  1                     7.7726e-06            3.4e-13               -7.4e-13              -7.7694e-06          
  1.05                  7.8938e-06            3.4e-13               -1.48e-12             -7.8896e-06          
  1.1                   8.015e-06             2.6e-13               -5.52e-12             -8.0108e-06          
  1.15                  8.136e-06             3.8e-13               -1.328e-11            -8.1326e-06          
  1.2                   8.2586e-06            3.8e-13               -2.858e-11            -8.2548e-06          
  1.25                  8.3808e-06            2.2e-13               -6.156e-11            -8.3772e-06          
  1.3                   8.504e-06             3.4e-13               -1.2032e-10           -8.4994e-06          
  1.35                  8.6276e-06            3.4e-13               -2.2004e-10           -8.6232e-06          
END_DB

