! VERSION = 6.00
BEGIN_HEADER
 ICCAP_INPUTS
  vd         V  D GROUND SMU1 0.1 LIN        1    0          1.35       28   0.05      
  vg         V  G GROUND SMU2 0.001 LIST       2 3 -0.017 0.183 0.383
  vb         V  B GROUND SMU4 0.1 CON        -1.2
  vs         V  S GROUND SMU3 0.1 CON        0
 ICCAP_OUTPUTS
  id         I  D GROUND SMU1 B
  ig         I  G GROUND SMU2 B
  ib         I  B GROUND SMU4 B
  is         I  S GROUND SMU3 B
 ICCAP_VALUES
  MASTER_SETUP_TYPE "~dc_idvd~"
  LINVT_VALUE ""
  LISTVT_VALUE "|idvg|100.0n|-200.0m|1.000m|3|200.0m|200.0m|"
  TYPE "1"
  TEMP " 125.000 "
  IS_TNOM " 0.00000 "
  MAIN.W "10.00u"
  MAIN.L "10.00u"
  MAIN.AD "3.400p"
  MAIN.AS "3.400p"
  MAIN.PD "20.68u"
  MAIN.PS "20.68u"
  MAIN.NF "1.000"
  MAIN.M "1"
  MAIN.NRD "0.000"
  MAIN.NRS "0.000"
  MAIN.LDRIFT1 "1E-06"
  MAIN.LDRIFT2 "1E-06"
  MAIN.SA "0.000"
  MAIN.SB "0.000"
  MAIN.SD "0.000"
  MAIN.SCA "0.000"
  MAIN.SCB "0.000"
  MAIN.SCC "0.000"
  MAIN.SC "0.000"
  MODULE "S541"
  PIN_D "12"
  PIN_G "9"
  PIN_S "10"
  PIN_B "11"
  PIN_E ""
  PIN_6 ""
  XY_ID ""
  FUNC "Large"
  STI "SA ref"
  WPE "WPE ref"
  COMMENT ""
  DIS_MEAS ""
  TypeTCI "10"
END_HEADER

BEGIN_DB
 ICCAP_VAR vg         -0.017         
 ICCAP_VAR vb         -1.2           
 ICCAP_VAR vs         0              

 #vd                    id                    ig                    ib                    is                   
  0                     4.98e-12              -5.2e-13              -3.634e-11            1.94e-12             
  0.05                  4.9688e-10            -6.8e-13              -3.674e-11            -4.9012e-10          
  0.1                   6.2692e-10            -6.2e-13              -3.518e-11            -6.1946e-10          
  0.15                  6.6794e-10            -6.6e-13              -3.214e-11            -6.6062e-10          
  0.2                   6.8756e-10            -8.4e-13              -3.194e-11            -6.801e-10           
  0.25                  7.0126e-10            -9.8e-13              -3.008e-11            -6.9312e-10          
  0.3                   7.125e-10             -1.12e-12             -2.984e-11            -7.046e-10           
  0.35                  7.2308e-10            -1.26e-12             -2.838e-11            -7.1468e-10          
  0.4                   7.325e-10             -1.48e-12             -2.846e-11            -7.2378e-10          
  0.45                  7.4122e-10            -1.98e-12             -2.834e-11            -7.3192e-10          
  0.5                   7.4972e-10            -2.44e-12             -2.778e-11            -7.397e-10           
  0.55                  7.5708e-10            -3e-12                -2.728e-11            -7.4696e-10          
  0.6                   7.6452e-10            -3.58e-12             -2.692e-11            -7.5326e-10          
  0.65                  7.716e-10             -4.5e-12              -2.672e-11            -7.5952e-10          
  0.7                   7.78e-10              -5.78e-12             -2.698e-11            -7.6456e-10          
  0.75                  7.842e-10             -6.68e-12             -2.702e-11            -7.6992e-10          
  0.8                   7.9048e-10            -8.06e-12             -2.572e-11            -7.7458e-10          
  0.85                  7.9652e-10            -9.58e-12             -2.71e-11             -7.7876e-10          
  0.9                   8.0248e-10            -1.142e-11            -2.568e-11            -7.8296e-10          
  0.95                  8.0844e-10            -1.358e-11            -2.66e-11             -7.8652e-10          
  1                     8.1432e-10            -1.598e-11            -2.448e-11            -7.9008e-10          
  1.05                  8.2062e-10            -1.856e-11            -2.68e-11             -7.9292e-10          
  1.1                   8.2662e-10            -2.16e-11             -2.488e-11            -7.9622e-10          
  1.15                  8.333e-10             -2.528e-11            -2.686e-11            -7.9894e-10          
  1.2                   8.4018e-10            -2.924e-11            -2.58e-11             -8.013e-10           
  1.25                  8.4764e-10            -3.374e-11            -2.738e-11            -8.038e-10           
  1.3                   8.5568e-10            -3.886e-11            -2.764e-11            -8.059e-10           
  1.35                  8.6436e-10            -4.438e-11            -2.9e-11              -8.0794e-10          
END_DB

BEGIN_DB
 ICCAP_VAR vg         0.183          
 ICCAP_VAR vb         -1.2           
 ICCAP_VAR vs         0              

 #vd                    id                    ig                    ib                    is                   
  0                     1.4598e-10            2.8e-11               -2.118e-11            -1.6474e-10          
  0.05                  7.2304e-08            1.924e-11             -2.36e-11             -7.2312e-08          
  0.1                   9.4252e-08            1.63e-11              -2.368e-11            -9.4248e-08          
  0.15                  1.01728e-07           1.526e-11             -2.264e-11            -1.0174e-07          
  0.2                   1.05392e-07           1.49e-11              -2.312e-11            -1.054e-07           
  0.25                  1.0795e-07            1.432e-11             -2.376e-11            -1.07956e-07         
  0.3                   1.1014e-07            1.396e-11             -2.352e-11            -1.10096e-07         
  0.35                  1.1204e-07            1.352e-11             -2.32e-11             -1.1202e-07          
  0.4                   1.138e-07             1.332e-11             -2.366e-11            -1.1379e-07          
  0.45                  1.1542e-07            1.306e-11             -2.428e-11            -1.15358e-07         
  0.5                   1.1686e-07            1.258e-11             -2.306e-11            -1.16848e-07         
  0.55                  1.182e-07             1.212e-11             -2.366e-11            -1.1818e-07          
  0.6                   1.1946e-07            1.178e-11             -2.33e-11             -1.194e-07           
  0.65                  1.206e-07             1.118e-11             -2.244e-11            -1.2056e-07          
  0.7                   1.2166e-07            1.052e-11             -2.316e-11            -1.2162e-07          
  0.75                  1.226e-07             9.66e-12              -2.406e-11            -1.2258e-07          
  0.8                   1.2352e-07            8.9e-12               -2.374e-11            -1.2346e-07          
  0.85                  1.2428e-07            7.96e-12              -2.316e-11            -1.2426e-07          
  0.9                   1.251e-07             6.92e-12              -2.398e-11            -1.2504e-07          
  0.95                  1.258e-07             5.66e-12              -2.504e-11            -1.2572e-07          
  1                     1.2644e-07            4.14e-12              -2.606e-11            -1.264e-07           
  1.05                  1.2702e-07            2.52e-12              -2.656e-11            -1.27e-07            
  1.1                   1.276e-07             5.8e-13               -2.986e-11            -1.275e-07           
  1.15                  1.281e-07             -1.66e-12             -3.446e-11            -1.2802e-07          
  1.2                   1.2858e-07            -4.02e-12             -3.94e-11             -1.2852e-07          
  1.25                  1.29e-07              -6.68e-12             -4.656e-11            -1.2892e-07          
  1.3                   1.2946e-07            -9.98e-12             -5.738e-11            -1.2936e-07          
  1.35                  1.2986e-07            -1.344e-11            -7.142e-11            -1.2972e-07          
END_DB

BEGIN_DB
 ICCAP_VAR vg         0.383          
 ICCAP_VAR vb         -1.2           
 ICCAP_VAR vs         0              

 #vd                    id                    ig                    ib                    is                   
  0                     1.761e-09             4.23e-10              -2.116e-11            -2.001e-09           
  0.05                  1.4152e-06            3.3522e-10            -2.262e-11            -1.412e-06           
  0.1                   2.232e-06             2.8542e-10            -2.156e-11            -2.2288e-06          
  0.15                  2.6102e-06            2.6216e-10            -2.22e-11             -2.6072e-06          
  0.2                   2.7678e-06            2.525e-10             -2.246e-11            -2.7648e-06          
  0.25                  2.8452e-06            2.4786e-10            -2.196e-11            -2.842e-06           
  0.3                   2.8968e-06            2.447e-10             -2.246e-11            -2.8938e-06          
  0.35                  2.939e-06             2.42e-10              -2.252e-11            -2.9362e-06          
  0.4                   2.9768e-06            2.3982e-10            -2.17e-11             -2.974e-06           
  0.45                  3.0114e-06            2.377e-10             -2.202e-11            -3.0084e-06          
  0.5                   3.043e-06             2.3562e-10            -2.294e-11            -3.0402e-06          
  0.55                  3.0732e-06            2.338e-10             -2.234e-11            -3.07e-06            
  0.6                   3.101e-06             2.3208e-10            -2.286e-11            -3.0978e-06          
  0.65                  3.1268e-06            2.3022e-10            -2.324e-11            -3.1236e-06          
  0.7                   3.151e-06             2.2864e-10            -2.244e-11            -3.1482e-06          
  0.75                  3.174e-06             2.2692e-10            -2.326e-11            -3.1708e-06          
  0.8                   3.1952e-06            2.2536e-10            -2.28e-11             -3.1922e-06          
  0.85                  3.2152e-06            2.2388e-10            -2.248e-11            -3.212e-06           
  0.9                   3.2338e-06            2.2228e-10            -2.422e-11            -3.2308e-06          
  0.95                  3.2514e-06            2.204e-10             -2.568e-11            -3.2484e-06          
  1                     3.268e-06             2.1888e-10            -2.722e-11            -3.265e-06           
  1.05                  3.2836e-06            2.1708e-10            -3.318e-11            -3.2804e-06          
  1.1                   3.2982e-06            2.151e-10             -4.262e-11            -3.295e-06           
  1.15                  3.3118e-06            2.1316e-10            -5.96e-11             -3.3086e-06          
  1.2                   3.3246e-06            2.1092e-10            -8.98e-11             -3.3216e-06          
  1.25                  3.3366e-06            2.085e-10             -1.3582e-10           -3.3334e-06          
  1.3                   3.348e-06             2.0606e-10            -2.0734e-10           -3.345e-06           
  1.35                  3.359e-06             2.0344e-10            -3.1358e-10           -3.3556e-06          
END_DB

