! VERSION = 6.00
BEGIN_HEADER
 ICCAP_INPUTS
  vg         V  G GROUND SMU2 0.001 LIN        1    -0.5       1.35       38   0.05      
  vb         V  B GROUND SMU4 0.1 LIN        2    0          -1.2       5    -0.3      
  vd         V  D GROUND SMU1 0.1 LIST       3 3 0.05 0.6 1.2
  vs         V  S GROUND SMU3 0.1 CON        0
 ICCAP_OUTPUTS
  id         I  D GROUND SMU1 B
  ig         I  G GROUND SMU2 B
  ib         I  B GROUND SMU4 B
  is         I  S GROUND SMU3 B
 ICCAP_VALUES
  MASTER_SETUP_TYPE "~dc_idvg~"
  LINVT_VALUE ""
  LISTVT_VALUE ""
  TYPE "1"
  TEMP "-40.0000 "
  IS_TNOM " 0.00000 "
  MAIN.W "10.00u"
  MAIN.L "10.00u"
  MAIN.AD "3.400p"
  MAIN.AS "3.400p"
  MAIN.PD "20.68u"
  MAIN.PS "20.68u"
  MAIN.NF "1.000"
  MAIN.M "1"
  MAIN.NRD "0.000"
  MAIN.NRS "0.000"
  MAIN.LDRIFT1 "1E-06"
  MAIN.LDRIFT2 "1E-06"
  MAIN.SA "0.000"
  MAIN.SB "0.000"
  MAIN.SD "0.000"
  MAIN.SCA "0.000"
  MAIN.SCB "0.000"
  MAIN.SCC "0.000"
  MAIN.SC "0.000"
  MODULE "S541"
  PIN_D "12"
  PIN_G "9"
  PIN_S "10"
  PIN_B "11"
  PIN_E ""
  PIN_6 ""
  XY_ID ""
  FUNC "Large"
  STI "SA ref"
  WPE "WPE ref"
  COMMENT ""
  DIS_MEAS ""
  TypeTCI "10"
END_HEADER

BEGIN_DB
 ICCAP_VAR vb         0              
 ICCAP_VAR vd         0.05           
 ICCAP_VAR vs         0              

 #vg                    id                    ig                    ib                    is                   
  -0.5                  1.72e-12              -3.68e-12             1.92e-12              1.64e-12             
  -0.45                 1.36e-12              -2.5e-12              4.6e-13               1.12e-12             
  -0.4                  9.4e-13               -1.82e-12             1.08e-12              8.4e-13              
  -0.35                 6.4e-13               -1.16e-12             8.2e-13               6e-13                
  -0.3                  4.8e-13               -7.4e-13              1.52e-12              5e-13                
  -0.25                 2.4e-13               -4.6e-13              1.3e-12               2.6e-13              
  -0.2                  2e-13                 -1.2e-13              4.2e-13               1.4e-13              
  -0.15                 1.6e-13               -8e-14                -1.6e-13              2.4e-13              
  -0.1                  6e-13                 1e-13                 1.8e-13               -1e-13               
  -0.05                 2.88e-12              1.2e-13               1.36e-12              -2.76e-12            
  0                     2.226e-11             2e-13                 -5.4e-13              -2.224e-11           
  0.05                  1.7388e-10            4.2e-13               6.6e-13               -1.7368e-10          
  0.1                   1.3332e-09            1.38e-12              8.4e-13               -1.3326e-09          
  0.15                  9.8302e-09            5.14e-12              1.54e-12              -9.8246e-09          
  0.2                   6.406e-08             1.53e-11              1.54e-12              -6.4044e-08          
  0.25                  3.203e-07             3.684e-11             -3.2e-13              -3.2012e-07          
  0.3                   1.06122e-06           7.48e-11              -1.24e-12             -1.06112e-06         
  0.35                  2.3674e-06            1.3696e-10            5e-13                 -2.363e-06           
  0.4                   3.9826e-06            2.363e-10             3.2e-13               -3.9786e-06          
  0.45                  5.683e-06             3.8914e-10            -1.6e-13              -5.6794e-06          
  0.5                   7.382e-06             6.164e-10             5.4e-13               -7.3792e-06          
  0.55                  9.0596e-06            9.4286e-10            1.8e-13               -9.0568e-06          
  0.6                   1.07136e-05           1.4012e-09            1.12e-12              -1.07112e-05         
  0.65                  1.2342e-05            2.0284e-09            8e-13                 -1.2326e-05          
  0.7                   1.3912e-05            2.8676e-09            -3.4e-13              -1.3898e-05          
  0.75                  1.543e-05             3.9744e-09            -2.2e-13              -1.5418e-05          
  0.8                   1.6886e-05            5.4058e-09            2.22e-12              -1.6872e-05          
  0.85                  1.8268e-05            7.2376e-09            5.8e-13               -1.8258e-05          
  0.9                   1.9574e-05            9.5412e-09            1.8e-13               -1.9566e-05          
  0.95                  2.0798e-05            1.2414e-08            7e-13                 -2.0794e-05          
  1                     2.1938e-05            1.5946e-08            2e-13                 -2.1938e-05          
  1.05                  2.2994e-05            2.025e-08             1.4e-13               -2.2996e-05          
  1.1                   2.396e-05             2.5434e-08            -2.2e-13              -2.3968e-05          
  1.15                  2.484e-05             3.1644e-08            5.2e-13               -2.4854e-05          
  1.2                   2.5636e-05            3.9018e-08            -2.34e-12             -2.5658e-05          
  1.25                  2.6348e-05            4.7706e-08            -7.04e-12             -2.638e-05           
  1.3                   2.6982e-05            5.7898e-08            -1.632e-11            -2.7022e-05          
  1.35                  2.754e-05             6.9808e-08            -3.664e-11            -2.7592e-05          
END_DB

BEGIN_DB
 ICCAP_VAR vb         -0.3           
 ICCAP_VAR vd         0.05           
 ICCAP_VAR vs         0              

 #vg                    id                    ig                    ib                    is                   
  -0.5                  1.66e-12              -3.24e-12             -1.18e-12             1.38e-12             
  -0.45                 1.12e-12              -2.24e-12             -1.92e-12             1.04e-12             
  -0.4                  8.6e-13               -1.64e-12             -2.14e-12             8.4e-13              
  -0.35                 6.2e-13               -1.06e-12             -1.76e-12             6e-13                
  -0.3                  3.2e-13               -6e-13                -1.1e-12              4.4e-13              
  -0.25                 4e-13                 -3.6e-13              -5.8e-13              3.2e-13              
  -0.2                  1.8e-13               -1.8e-13              -6.2e-13              2.4e-13              
  -0.15                 1.8e-13               -4e-14                -1.96e-12             3.2e-13              
  -0.1                  1.8e-13               1e-13                 -2.28e-12             8e-14                
  -0.05                 5.2e-13               1.4e-13               -5e-13                -3.6e-13             
  0                     4.5e-12               2.6e-13               -4.4e-13              -4.36e-12            
  0.05                  3.684e-11             4e-13                 -9.4e-13              -3.694e-11           
  0.1                   3.0028e-10            9.6e-13               -1.42e-12             -3.0112e-10          
  0.15                  2.4e-09               3.36e-12              -1.2e-12              -2.4016e-09          
  0.2                   1.791e-08             1.17e-11              -9.8e-13              -1.7908e-08          
  0.25                  1.12996e-07           3.122e-11             -8e-13                -1.12998e-07         
  0.3                   5.0492e-07            6.774e-11             -1.26e-12             -5.0468e-07          
  0.35                  1.462e-06             1.2856e-10            -2.6e-13              -1.4566e-06          
  0.4                   2.9146e-06            2.248e-10             -1.8e-13              -2.9114e-06          
  0.45                  4.585e-06             3.7354e-10            -1.34e-12             -4.5812e-06          
  0.5                   6.288e-06             5.9652e-10            -1.6e-12              -6.2844e-06          
  0.55                  7.973e-06             9.1778e-10            -2.6e-13              -7.97e-06            
  0.6                   9.635e-06             1.3706e-09            -9.6e-13              -9.6324e-06          
  0.65                  1.12638e-05           1.9916e-09            6e-14                 -1.12616e-05         
  0.7                   1.2854e-05            2.8234e-09            2.8e-13               -1.284e-05           
  0.75                  1.4386e-05            3.9232e-09            -1.04e-12             -1.4372e-05          
  0.8                   1.5856e-05            5.3474e-09            -5.8e-13              -1.5842e-05          
  0.85                  1.7254e-05            7.1696e-09            -6.6e-13              -1.7244e-05          
  0.9                   1.8576e-05            9.4652e-09            1.06e-12              -1.8568e-05          
  0.95                  1.982e-05             1.2328e-08            -1.14e-12             -1.9814e-05          
  1                     2.0978e-05            1.5852e-08            -5.6e-13              -2.0976e-05          
  1.05                  2.205e-05             2.0144e-08            6.4e-13               -2.2054e-05          
  1.1                   2.3034e-05            2.5318e-08            -1.14e-12             -2.3042e-05          
  1.15                  2.3936e-05            3.1516e-08            -1.78e-12             -2.3948e-05          
  1.2                   2.475e-05             3.8878e-08            -4.44e-12             -2.4772e-05          
  1.25                  2.548e-05             4.756e-08             -7.04e-12             -2.5512e-05          
  1.3                   2.6132e-05            5.7738e-08            -1.616e-11            -2.6172e-05          
  1.35                  2.6706e-05            6.9634e-08            -3.792e-11            -2.6758e-05          
END_DB

BEGIN_DB
 ICCAP_VAR vb         -0.6           
 ICCAP_VAR vd         0.05           
 ICCAP_VAR vs         0              

 #vg                    id                    ig                    ib                    is                   
  -0.5                  1.64e-12              -3.08e-12             -2.26e-12             1.58e-12             
  -0.45                 1.16e-12              -2.04e-12             -3e-12                1e-12                
  -0.4                  8e-13                 -1.5e-12              -2.86e-12             8e-13                
  -0.35                 5.6e-13               -9.6e-13              -1.88e-12             6e-13                
  -0.3                  4.4e-13               -5.6e-13              -1.28e-12             4.4e-13              
  -0.25                 2e-13                 -3.2e-13              -2.52e-12             2.6e-13              
  -0.2                  3.2e-13               -1.2e-13              -1.32e-12             3e-13                
  -0.15                 4e-14                 4e-14                 -2.44e-12             2.4e-13              
  -0.1                  1e-13                 1.6e-13               -1.46e-12             1.4e-13              
  -0.05                 2.8e-13               2e-14                 -1.48e-12             1e-13                
  0                     1.32e-12              1.8e-13               -2.18e-12             -8.4e-13             
  0.05                  1.084e-11             4e-13                 -2.74e-12             -1.07e-11            
  0.1                   9.116e-11             6.4e-13               -2e-12                -9.142e-11           
  0.15                  7.6438e-10            2.16e-12              -1.06e-12             -7.6702e-10          
  0.2                   6.1404e-09            8.4e-12               -1.2e-12              -6.1444e-09          
  0.25                  4.4254e-08            2.554e-11             -1.08e-12             -4.4246e-08          
  0.3                   2.4422e-07            5.972e-11             -2.64e-12             -2.4404e-07          
  0.35                  8.851e-07             1.1868e-10            -1.28e-12             -8.8532e-07          
  0.4                   2.0994e-06            2.121e-10             -1.04e-12             -2.0952e-06          
  0.45                  3.6688e-06            3.5718e-10            -2.06e-12             -3.6648e-06          
  0.5                   5.3432e-06            5.7482e-10            -1.84e-12             -5.34e-06            
  0.55                  7.0192e-06            8.906e-10             -1.8e-12              -7.0156e-06          
  0.6                   8.6782e-06            1.3376e-09            -1.06e-12             -8.6754e-06          
  0.65                  1.03088e-05           1.9518e-09            -4e-13                -1.0307e-05          
  0.7                   1.1906e-05            2.7764e-09            -1.22e-12             -1.189e-05           
  0.75                  1.3448e-05            3.8676e-09            -2.04e-12             -1.3434e-05          
  0.8                   1.4928e-05            5.2832e-09            -1.4e-12              -1.4916e-05          
  0.85                  1.6342e-05            7.0956e-09            -4e-13                -1.6332e-05          
  0.9                   1.768e-05             9.3798e-09            -8e-13                -1.7672e-05          
  0.95                  1.8938e-05            1.2232e-08            -3.18e-12             -1.8932e-05          
  1                     2.0114e-05            1.5744e-08            -1.62e-12             -2.0112e-05          
  1.05                  2.1204e-05            2.0024e-08            -1.68e-12             -2.1206e-05          
  1.1                   2.2204e-05            2.5184e-08            -4.6e-13              -2.2212e-05          
  1.15                  2.3122e-05            3.1372e-08            -8.4e-13              -2.3136e-05          
  1.2                   2.3954e-05            3.872e-08             -3.8e-12              -2.3976e-05          
  1.25                  2.4702e-05            4.7388e-08            -8.28e-12             -2.4732e-05          
  1.3                   2.537e-05             5.7556e-08            -1.738e-11            -2.541e-05           
  1.35                  2.596e-05             6.9442e-08            -3.768e-11            -2.6014e-05          
END_DB

BEGIN_DB
 ICCAP_VAR vb         -0.9           
 ICCAP_VAR vd         0.05           
 ICCAP_VAR vs         0              

 #vg                    id                    ig                    ib                    is                   
  -0.5                  1.6e-12               -3e-12                -3.58e-12             1.48e-12             
  -0.45                 1.08e-12              -2.06e-12             -3.88e-12             9.8e-13              
  -0.4                  8e-13                 -1.48e-12             -1.96e-12             6.4e-13              
  -0.35                 5e-13                 -1.1e-12              -1.3e-12              6.2e-13              
  -0.3                  3.4e-13               -6.2e-13              -2.02e-12             3.4e-13              
  -0.25                 3.4e-13               -2.8e-13              -3.42e-12             3.8e-13              
  -0.2                  8e-14                 -2e-13                -2.54e-12             2.2e-13              
  -0.15                 1.4e-13               6e-14                 -2.34e-12             1.4e-13              
  -0.1                  2e-13                 2e-14                 -1.98e-12             2.8e-13              
  -0.05                 1.2e-13               4e-14                 -1.68e-12             1.8e-13              
  0                     5.4e-13               1.6e-13               -2.42e-12             -3.2e-13             
  0.05                  3.96e-12              3.2e-13               -2.38e-12             -3.8e-12             
  0.1                   3.442e-11             4.6e-13               -2.46e-12             -3.44e-11            
  0.15                  2.9818e-10            1.56e-12              -5.8e-13              -2.9926e-10          
  0.2                   2.5122e-09            5.7e-12               -1.8e-12              -2.5152e-09          
  0.25                  1.9674e-08            1.974e-11             -2.52e-12             -1.9668e-08          
  0.3                   1.2508e-07            5.118e-11             -2.42e-12             -1.2508e-07          
  0.35                  5.427e-07             1.077e-10             -8e-13                -5.427e-07           
  0.4                   1.5048e-06            1.9842e-10            -2.28e-12             -1.5008e-06          
  0.45                  2.9206e-06            3.3916e-10            -1.72e-12             -2.9172e-06          
  0.5                   4.5286e-06            5.52e-10              -1.84e-12             -4.5252e-06          
  0.55                  6.1748e-06            8.6218e-10            -1.78e-12             -6.1722e-06          
  0.6                   7.82e-06              1.3026e-09            -2.2e-13              -7.8174e-06          
  0.65                  9.445e-06             1.9096e-09            -1.88e-12             -9.443e-06           
  0.7                   1.10334e-05           2.7266e-09            -2.32e-12             -1.10328e-05         
  0.75                  1.2588e-05            3.8088e-09            -1.76e-12             -1.2574e-05          
  0.8                   1.4076e-05            5.2144e-09            -6.6e-13              -1.4064e-05          
  0.85                  1.5502e-05            7.017e-09             -1.7e-12              -1.5492e-05          
  0.9                   1.6852e-05            9.2898e-09            -1.5e-12              -1.6844e-05          
  0.95                  1.8126e-05            1.213e-08             -1.74e-12             -1.812e-05           
  1                     1.9316e-05            1.563e-08             -1.54e-12             -1.9314e-05          
  1.05                  2.0422e-05            1.9898e-08            -1.66e-12             -2.0426e-05          
  1.1                   2.1442e-05            2.5046e-08            -2.3e-12              -2.1448e-05          
  1.15                  2.2374e-05            3.1216e-08            -1e-12                -2.2388e-05          
  1.2                   2.3224e-05            3.8552e-08            -2.54e-12             -2.3244e-05          
  1.25                  2.3988e-05            4.7204e-08            -8.34e-12             -2.4018e-05          
  1.3                   2.4672e-05            5.7358e-08            -1.854e-11            -2.4712e-05          
  1.35                  2.5282e-05            6.9228e-08            -3.89e-11             -2.5332e-05          
END_DB

BEGIN_DB
 ICCAP_VAR vb         -1.2           
 ICCAP_VAR vd         0.05           
 ICCAP_VAR vs         0              

 #vg                    id                    ig                    ib                    is                   
  -0.5                  1.38e-12              -2.88e-12             -3.22e-12             1.46e-12             
  -0.45                 1e-12                 -2.16e-12             -2.92e-12             1.12e-12             
  -0.4                  6.8e-13               -1.36e-12             -7.66e-12             8.6e-13              
  -0.35                 6e-13                 -1e-12                -3.72e-12             5.8e-13              
  -0.3                  2.8e-13               -5e-13                -2.34e-12             4e-13                
