! VERSION = 6.00
BEGIN_HEADER
 ICCAP_INPUTS
  vd         V  D GROUND SMU1 0.1 LIN        1    0          1.35       28   0.05      
  vg         V  G GROUND SMU2 0.001 LIN        2    0.482      1.35       5    0.217     
  vb         V  B GROUND SMU4 0.1 CON        -1.2
  vs         V  S GROUND SMU3 0.1 CON        0
 ICCAP_OUTPUTS
  id         I  D GROUND SMU1 B
  ig         I  G GROUND SMU2 B
  ib         I  B GROUND SMU4 B
  is         I  S GROUND SMU3 B
 ICCAP_VALUES
  MASTER_SETUP_TYPE "~dc_idvd~"
  LINVT_VALUE "|idvg|100.0n|100.0m|1.000m|5|1.350|"
  LISTVT_VALUE ""
  TYPE "1"
  TEMP " 27.0000 "
  IS_TNOM " 1.00000 "
  MAIN.W "300.0n"
  MAIN.L "500.0n"
  MAIN.AD "102.0f"
  MAIN.AS "102.0f"
  MAIN.PD "1.280u"
  MAIN.PS "1.280u"
  MAIN.NF "1.000"
  MAIN.M "1"
  MAIN.NRD "0.000"
  MAIN.NRS "0.000"
  MAIN.LDRIFT1 "1E-06"
  MAIN.LDRIFT2 "1E-06"
  MAIN.SA "0.000"
  MAIN.SB "0.000"
  MAIN.SD "0.000"
  MAIN.SCA "0.000"
  MAIN.SCB "0.000"
  MAIN.SCC "0.000"
  MAIN.SC "0.000"
  MODULE "S545"
  PIN_D "20"
  PIN_G "1"
  PIN_S "2"
  PIN_B "19"
  PIN_E ""
  PIN_6 ""
  XY_ID ""
  FUNC "LW Scale"
  STI "SA ref"
  WPE "WPE ref"
  COMMENT ""
  DIS_MEAS ""
  TypeTCI "10"
END_HEADER

BEGIN_DB
 ICCAP_VAR vg         0.482          
 ICCAP_VAR vb         -1.2           
 ICCAP_VAR vs         0              

 #vd                    id                    ig                    ib                    is                   
  0                     7.5478e-10            1.34e-12              -1.276e-11            -5.849e-10           
  0.05                  3.5216e-07            1.08e-12              -1.304e-11            -3.5182e-07          
  0.1                   5.0656e-07            9.2e-13               -1.216e-11            -5.0672e-07          
  0.15                  5.6952e-07            9.2e-13               -1.072e-11            -5.7054e-07          
  0.2                   6.0446e-07            8.6e-13               -1.1e-11              -6.0404e-07          
  0.25                  6.2734e-07            8.2e-13               -1.116e-11            -6.273e-07           
  0.3                   6.4816e-07            6.6e-13               -1e-11                -6.4838e-07          
  0.35                  6.6714e-07            7e-13                 -9.56e-12             -6.6682e-07          
  0.4                   6.8424e-07            6e-13                 -9.84e-12             -6.8394e-07          
  0.45                  7.0126e-07            7.2e-13               -8.92e-12             -7.0104e-07          
  0.5                   7.1522e-07            6.4e-13               -7.94e-12             -7.1634e-07          
  0.55                  7.3064e-07            5.8e-13               -8.64e-12             -7.3138e-07          
  0.6                   7.4596e-07            5.4e-13               -8.58e-12             -7.4636e-07          
  0.65                  7.5886e-07            6e-13                 -8.24e-12             -7.5908e-07          
  0.7                   7.7124e-07            6e-13                 -7e-12                -7.6988e-07          
  0.75                  7.8202e-07            6.2e-13               -6.64e-12             -7.8122e-07          
  0.8                   7.9234e-07            6.4e-13               -7.26e-12             -7.9236e-07          
  0.85                  8.0336e-07            6.4e-13               -6.78e-12             -8.0266e-07          
  0.9                   8.1238e-07            5e-13                 -5.72e-12             -8.1164e-07          
  0.95                  8.213e-07             5.4e-13               -6.82e-12             -8.2106e-07          
  1                     8.3062e-07            4.8e-13               -6.72e-12             -8.3014e-07          
  1.05                  8.3804e-07            4.4e-13               -6.38e-12             -8.4024e-07          
  1.1                   8.4592e-07            3e-13                 -6.44e-12             -8.4564e-07          
  1.15                  8.5286e-07            4.2e-13               -6.8e-12              -8.5312e-07          
  1.2                   8.6024e-07            4.4e-13               -8.72e-12             -8.5894e-07          
  1.25                  8.6498e-07            4e-13                 -1.118e-11            -8.6452e-07          
  1.3                   8.709e-07             2.2e-13               -1.536e-11            -8.7038e-07          
  1.35                  8.7594e-07            2.2e-13               -2.472e-11            -8.765e-07           
END_DB

BEGIN_DB
 ICCAP_VAR vg         0.699          
 ICCAP_VAR vb         -1.2           
 ICCAP_VAR vs         0              

 #vd                    id                    ig                    ib                    is                   
  0                     2.3684e-09            7.54e-12              -2.5e-12              -2.1736e-09          
  0.05                  2.2532e-06            6.24e-12              -4.28e-12             -2.2496e-06          
  0.1                   3.9694e-06            5.5e-12               -3.36e-12             -3.9652e-06          
  0.15                  5.1914e-06            4.76e-12              -3.66e-12             -5.1874e-06          
  0.2                   6.0008e-06            4.38e-12              -4.24e-12             -5.9978e-06          
  0.25                  6.5126e-06            4.14e-12              -3.6e-12              -6.5084e-06          
  0.3                   6.844e-06             3.98e-12              -3.54e-12             -6.8372e-06          
  0.35                  7.0772e-06            3.74e-12              -4.22e-12             -7.0726e-06          
  0.4                   7.2612e-06            3.78e-12              -2.76e-12             -7.2528e-06          
  0.45                  7.4186e-06            3.74e-12              -3.66e-12             -7.4114e-06          
  0.5                   7.5622e-06            3.7e-12               -4.02e-12             -7.5602e-06          
  0.55                  7.7028e-06            3.68e-12              -3.32e-12             -7.6984e-06          
  0.6                   7.8336e-06            3.46e-12              -3.3e-12              -7.8268e-06          
  0.65                  7.9592e-06            3.44e-12              -4e-12                -7.953e-06           
  0.7                   8.0818e-06            3.4e-12               -2.72e-12             -8.0748e-06          
  0.75                  8.1988e-06            3.38e-12              -2.98e-12             -8.193e-06           
  0.8                   8.3094e-06            3.28e-12              -3.66e-12             -8.3082e-06          
  0.85                  8.4204e-06            3.34e-12              -3.26e-12             -8.4188e-06          
  0.9                   8.5262e-06            3.3e-12               -3.64e-12             -8.5274e-06          
  0.95                  8.6336e-06            3.24e-12              -3.64e-12             -8.6334e-06          
  1                     8.7364e-06            3.1e-12               -2.9e-12              -8.7334e-06          
  1.05                  8.8378e-06            3.14e-12              -3.44e-12             -8.8356e-06          
  1.1                   8.9292e-06            3.08e-12              -4.4e-12              -8.928e-06           
  1.15                  9.0262e-06            3.02e-12              -3.8e-12              -9.0202e-06          
  1.2                   9.1192e-06            2.9e-12               -5.68e-12             -9.1162e-06          
  1.25                  9.2054e-06            2.88e-12              -1.012e-11            -9.2048e-06          
  1.3                   9.291e-06             2.8e-12               -1.726e-11            -9.2872e-06          
  1.35                  9.3806e-06            2.72e-12              -3.518e-11            -9.3762e-06          
END_DB

BEGIN_DB
 ICCAP_VAR vg         0.916          
 ICCAP_VAR vb         -1.2           
 ICCAP_VAR vs         0              

 #vd                    id                    ig                    ib                    is                   
  0                     3.0844e-09            2.574e-11             -1.8e-12              -3.555e-09           
  0.05                  4.4766e-06            2.248e-11             -1.98e-12             -4.4722e-06          
  0.1                   8.4184e-06            1.998e-11             -2.62e-12             -8.415e-06           
  0.15                  1.1806e-05            1.766e-11             -1.32e-12             -1.1788e-05          
  0.2                   1.4604e-05            1.596e-11             -2.36e-12             -1.4586e-05          
  0.25                  1.6836e-05            1.468e-11             -2.4e-12              -1.682e-05           
  0.3                   1.854e-05             1.378e-11             -2.08e-12             -1.8522e-05          
  0.35                  1.9792e-05            1.3e-11               -1.06e-12             -1.9776e-05          
  0.4                   2.0692e-05            1.26e-11              -2.76e-12             -2.0676e-05          
  0.45                  2.135e-05             1.206e-11             -2.82e-12             -2.1334e-05          
  0.5                   2.1858e-05            1.184e-11             -2.38e-12             -2.1846e-05          
  0.55                  2.2254e-05            1.174e-11             -1.56e-12             -2.2248e-05          
  0.6                   2.2616e-05            1.146e-11             -1.66e-12             -2.2602e-05          
  0.65                  2.2932e-05            1.13e-11              -2.7e-12              -2.2912e-05          
  0.7                   2.322e-05             1.124e-11             -1.68e-12             -2.3204e-05          
  0.75                  2.3504e-05            1.11e-11              -2.12e-12             -2.3482e-05          
  0.8                   2.3764e-05            1.09e-11              -2.5e-12              -2.3746e-05          
  0.85                  2.4018e-05            1.078e-11             -1.98e-12             -2.4012e-05          
  0.9                   2.4266e-05            1.076e-11             -1.7e-12              -2.4248e-05          
  0.95                  2.4506e-05            1.06e-11              -2.02e-12             -2.4492e-05          
  1                     2.4736e-05            1.052e-11             -1.66e-12             -2.4718e-05          
  1.05                  2.4966e-05            1.044e-11             -2.76e-12             -2.4944e-05          
  1.1                   2.5184e-05            1.016e-11             -2.76e-12             -2.5162e-05          
  1.15                  2.5396e-05            1.018e-11             -1.56e-12             -2.5374e-05          
  1.2                   2.56e-05              1.016e-11             -3.08e-12             -2.5584e-05          
  1.25                  2.58e-05              9.98e-12              -4.54e-12             -2.579e-05           
  1.3                   2.6004e-05            9.96e-12              -6.6e-12              -2.599e-05           
  1.35                  2.62e-05              9.74e-12              -1.51e-11             -2.6184e-05          
END_DB

BEGIN_DB
 ICCAP_VAR vg         1.133          
 ICCAP_VAR vb         -1.2           
 ICCAP_VAR vs         0              

 #vd                    id                    ig                    ib                    is                   
  0                     2.9372e-09            6.93e-11              -6.2e-13              -4.4644e-09          
  0.05                  6.3058e-06            6.224e-11             -2.02e-12             -6.3034e-06          
  0.1                   1.2182e-05            5.604e-11             -2.38e-12             -1.2164e-05          
  0.15                  1.7566e-05            5.08e-11              -3.16e-12             -1.755e-05           
  0.2                   2.2426e-05            4.628e-11             -9.4e-13              -2.2404e-05          
  0.25                  2.6746e-05            4.252e-11             -2.1e-12              -2.6732e-05          
  0.3                   3.0486e-05            3.928e-11             -2.52e-12             -3.0466e-05          
  0.35                  3.364e-05             3.672e-11             -7.8e-13              -3.362e-05           
  0.4                   3.6226e-05            3.446e-11             -2.94e-12             -3.6214e-05          
  0.45                  3.8282e-05            3.284e-11             -2.6e-12              -3.8262e-05          
  0.5                   3.988e-05             3.16e-11              -1.38e-12             -3.9858e-05          
  0.55                  4.1096e-05            3.07e-11              -1.48e-12             -4.107e-05           
  0.6                   4.2022e-05            3.002e-11             -1.88e-12             -4.2002e-05          
  0.65                  4.2752e-05            2.942e-11             -1.12e-12             -4.2736e-05          
  0.7                   4.3352e-05            2.9e-11               -2.18e-12             -4.3334e-05          
  0.75                  4.387e-05             2.868e-11             -1.68e-12             -4.3846e-05          
  0.8                   4.4318e-05            2.834e-11             -1.6e-12              -4.4306e-05          
  0.85                  4.4746e-05            2.804e-11             -2.38e-12             -4.4724e-05          
  0.9                   4.5138e-05            2.778e-11             -1.34e-12             -4.5124e-05          
  0.95                  4.5512e-05            2.75e-11              -1.52e-12             -4.5496e-05          
  1                     4.5868e-05            2.724e-11             -2.18e-12             -4.5848e-05          
  1.05                  4.6206e-05            2.708e-11             -1.68e-12             -4.6196e-05          
  1.1                   4.6542e-05            2.674e-11             -1.86e-12             -4.6528e-05          
  1.15                  4.684e-05             2.672e-11             -2.3e-12              -4.6822e-05          
  1.2                   4.7154e-05            2.642e-11             -1.6e-12              -4.7132e-05          
  1.25                  4.7464e-05            2.628e-11             -2.2e-12              -4.7454e-05          
  1.3                   4.7756e-05            2.608e-11             -3.92e-12             -4.7744e-05          
  1.35                  4.8056e-05            2.584e-11             -5.16e-12             -4.8036e-05          
END_DB

BEGIN_DB
 ICCAP_VAR vg         1.35           
 ICCAP_VAR vb         -1.2           
 ICCAP_VAR vs         0              

 #vd                    id                    ig                    ib                    is                   
  0                     1.0134e-08            1.5946e-10            -1e-12                -9.636e-09           
  0.05                  7.6956e-06            1.4562e-10            -1.6e-12              -7.6874e-06          
  0.1                   1.5058e-05            1.3328e-10            -1.9e-12              -1.504e-05           
  0.15                  2.2022e-05            1.2212e-10            -1.24e-12             -2.2004e-05          
  0.2                   2.8546e-05            1.1238e-10            -1.36e-12             -2.853e-05           
  0.25                  3.457e-05             1.0374e-10            -1.88e-12             -3.4578e-05          
  0.3                   4.0128e-05            9.602e-11             -8e-13                -4.0118e-05          
  0.35                  4.515e-05             8.944e-11             -1.64e-12             -4.5134e-05          
  0.4                   4.9604e-05            8.39e-11              -1.86e-12             -4.9588e-05          
  0.45                  5.3482e-05            7.9e-11               -1.04e-12             -5.3464e-05          
  0.5                   5.6798e-05            7.508e-11             -1.98e-12             -5.6778e-05          
  0.55                  5.9562e-05            7.174e-11             -2.32e-12             -5.956e-05           
  0.6                   6.1838e-05            6.914e-11             -1.04e-12             -6.182e-05           
  0.65                  6.3646e-05            6.704e-11             -2.04e-12             -6.3628e-05          
  0.7                   6.5076e-05            6.538e-11             -1.84e-12             -6.5034e-05          
  0.75                  6.6206e-05            6.414e-11             -9.2e-13              -6.6188e-05          
  0.8                   6.712e-05             6.31e-11              -1.64e-12             -6.7098e-05          
  0.85                  6.788e-05             6.234e-11             -2.3e-12              -6.7862e-05          
  0.9                   6.8522e-05            6.162e-11             -1.28e-12             -6.8506e-05          
  0.95                  6.9094e-05            6.098e-11             -2.08e-12             -6.905e-05           
  1                     6.9582e-05            6.054e-11             -1.8e-12              -6.9564e-05          
  1.05                  7.0062e-05            5.996e-11             -4.4e-13              -7.0048e-05          
  1.1                   7.0552e-05            5.95e-11              -1.7e-12              -7.0534e-05          
  1.15                  7.0992e-05            5.922e-11             -1.88e-12             -7.0966e-05          
  1.2                   7.1396e-05            5.87e-11              -9e-13                -7.1384e-05          
  1.25                  7.1798e-05            5.826e-11             -1.82e-12             -7.1778e-05          
  1.3                   7.2178e-05            5.79e-11              -2.4e-12              -7.2166e-05          
  1.35                  7.2556e-05            5.754e-11             -2.02e-12             -7.2536e-05          
END_DB

