! VERSION = 6.00
BEGIN_HEADER
 ICCAP_INPUTS
  vd         V  D GROUND SMU1 0.1 LIN        1    0          1.35       28   0.05      
  vg         V  G GROUND SMU2 0.001 LIN        2    0.482      1.35       5    0.217     
  vb         V  B GROUND SMU4 0.1 CON        0
  vs         V  S GROUND SMU3 0.1 CON        0
 ICCAP_OUTPUTS
  id         I  D GROUND SMU1 B
  ig         I  G GROUND SMU2 B
  ib         I  B GROUND SMU4 B
  is         I  S GROUND SMU3 B
 ICCAP_VALUES
  MASTER_SETUP_TYPE "~dc_idvd~"
  LINVT_VALUE "|idvg|100.0n|100.0m|1.000m|5|1.350|"
  LISTVT_VALUE ""
  TYPE "1"
  TEMP " 27.0000 "
  IS_TNOM " 1.00000 "
  MAIN.W "150.0n"
  MAIN.L "150.0n"
  MAIN.AD "100.5f"
  MAIN.AS "100.5f"
  MAIN.PD "1.340u"
  MAIN.PS "1.340u"
  MAIN.NF "1.000"
  MAIN.M "1"
  MAIN.NRD "0.000"
  MAIN.NRS "0.000"
  MAIN.LDRIFT1 "1E-06"
  MAIN.LDRIFT2 "1E-06"
  MAIN.SA "0.000"
  MAIN.SB "0.000"
  MAIN.SD "0.000"
  MAIN.SCA "0.000"
  MAIN.SCB "0.000"
  MAIN.SCC "0.000"
  MAIN.SC "0.000"
  MODULE "S546"
  PIN_D "12"
  PIN_G "9"
  PIN_S "10"
  PIN_B "11"
  PIN_E ""
  PIN_6 ""
  XY_ID ""
  FUNC "LW Scale"
  STI "SA ref"
  WPE "WPE ref"
  COMMENT ""
  DIS_MEAS ""
  TypeTCI "10"
END_HEADER

BEGIN_DB
 ICCAP_VAR vg         0.482          
 ICCAP_VAR vb         0              
 ICCAP_VAR vs         0              

 #vd                    id                    ig                    ib                    is                   
  0                     9.46e-10              4e-13                 8.12e-12              -7.1372e-10          
  0.05                  4.1756e-07            3.6e-13               7.36e-12              -4.177e-07           
  0.1                   5.974e-07             1e-13                 6.7e-12               -5.9756e-07          
  0.15                  6.723e-07             1.2e-13               7.36e-12              -6.7314e-07          
  0.2                   7.1112e-07            2e-13                 6.12e-12              -7.1152e-07          
  0.25                  7.3678e-07            1e-13                 5.4e-12               -7.3672e-07          
  0.3                   7.5902e-07            2e-14                 5.64e-12              -7.5948e-07          
  0.35                  7.792e-07             1.2e-13               5.8e-12               -7.7812e-07          
  0.4                   7.9768e-07            0                     4.9e-12               -7.9714e-07          
  0.45                  8.1514e-07            1.8e-13               4.44e-12              -8.1388e-07          
  0.5                   8.3162e-07            1e-13                 5.1e-12               -8.3142e-07          
  0.55                  8.4758e-07            1e-13                 5.32e-12              -8.4742e-07          
  0.6                   8.632e-07             1.6e-13               4.14e-12              -8.632e-07           
  0.65                  8.7954e-07            2.6e-13               3.84e-12              -8.7898e-07          
  0.7                   8.9434e-07            2e-14                 4.9e-12               -8.9466e-07          
  0.75                  9.0974e-07            2.2e-13               5.16e-12              -9.1036e-07          
  0.8                   9.2448e-07            3.4e-13               3.96e-12              -9.2578e-07          
  0.85                  9.3946e-07            1.2e-13               4.04e-12              -9.394e-07           
  0.9                   9.545e-07             1.4e-13               3.56e-12              -9.5398e-07          
  0.95                  9.69e-07              6e-14                 4.12e-12              -9.686e-07           
  1                     9.8354e-07            -2e-14                3.16e-12              -9.8422e-07          
  1.05                  9.9718e-07            1e-13                 2.36e-12              -9.985e-07           
  1.1                   1.01194e-06           1e-13                 2.96e-12              -1.0122e-06          
  1.15                  1.0271e-06            2e-14                 4e-13                 -1.02694e-06         
  1.2                   1.04108e-06           2e-14                 -4.04e-12             -1.04046e-06         
  1.25                  1.05642e-06           0                     -1.03e-11             -1.05562e-06         
  1.3                   1.0697e-06            -2e-14                -2.132e-11            -1.06984e-06         
  1.35                  1.08482e-06           1e-13                 -4.03e-11             -1.08428e-06         
END_DB

BEGIN_DB
 ICCAP_VAR vg         0.699          
 ICCAP_VAR vb         0              
 ICCAP_VAR vs         0              

 #vd                    id                    ig                    ib                    is                   
  0                     2.8118e-09            1.22e-12              3.2e-12               -3.0406e-09          
  0.05                  3.0248e-06            1.02e-12              2.6e-12               -3.02e-06            
  0.1                   5.1428e-06            8.4e-13               1.42e-12              -5.1366e-06          
  0.15                  6.522e-06             8e-13                 3.02e-12              -6.5162e-06          
  0.2                   7.3892e-06            8.2e-13               2.62e-12              -7.3876e-06          
  0.25                  7.9432e-06            8.4e-13               1.8e-12               -7.9374e-06          
  0.3                   8.3222e-06            9e-13                 2.9e-12               -8.3194e-06          
  0.35                  8.6118e-06            7.8e-13               1.8e-12               -8.6088e-06          
  0.4                   8.8494e-06            8e-13                 2.1e-12               -8.8462e-06          
  0.45                  9.0578e-06            7.6e-13               3.06e-12              -9.0518e-06          
  0.5                   9.2458e-06            5.8e-13               1.62e-12              -9.2368e-06          
  0.55                  9.427e-06             5e-13                 1.48e-12              -9.4182e-06          
  0.6                   9.59e-06              6.6e-13               2.02e-12              -9.5844e-06          
  0.65                  9.7552e-06            6.6e-13               1.58e-12              -9.7516e-06          
  0.7                   9.9048e-06            6.2e-13               1.42e-12              -9.905e-06           
  0.75                  1.0065e-05            6.6e-13               2.52e-12              -1.00572e-05         
  0.8                   1.02104e-05           7.8e-13               2.18e-12              -1.02046e-05         
  0.85                  1.03528e-05           6e-13                 1.72e-12              -1.03564e-05         
  0.9                   1.05008e-05           6.4e-13               2.72e-12              -1.04942e-05         
  0.95                  1.06404e-05           7.6e-13               1.54e-12              -1.06338e-05         
  1                     1.07732e-05           5.6e-13               -1.68e-12             -1.07726e-05         
  1.05                  1.09094e-05           5.8e-13               7e-13                 -1.0913e-05          
  1.1                   1.10492e-05           6.6e-13               -1.8e-12              -1.10398e-05         
  1.15                  1.1196e-05            5e-13                 -6.32e-12             -1.11796e-05         
  1.2                   1.1316e-05            4.6e-13               -1.702e-11            -1.13092e-05         
  1.25                  1.1456e-05            4.4e-13               -3.998e-11            -1.14432e-05         
  1.3                   1.1588e-05            4e-13                 -8.038e-11            -1.15782e-05         
  1.35                  1.1702e-05            5e-13                 -1.56e-10             -1.1698e-05          
END_DB

BEGIN_DB
 ICCAP_VAR vg         0.916          
 ICCAP_VAR vb         0              
 ICCAP_VAR vs         0              

 #vd                    id                    ig                    ib                    is                   
  0                     9.824e-09             3.82e-12              1.94e-12              -9.648e-09           
  0.05                  6.735e-06             3.3e-12               1.4e-12               -6.7298e-06          
  0.1                   1.2342e-05            2.9e-12               1.66e-12              -1.232e-05           
  0.15                  1.679e-05             2.8e-12               1.22e-12              -1.6766e-05          
  0.2                   2.0174e-05            2.64e-12              2.3e-12               -2.0158e-05          
  0.25                  2.2664e-05            2.34e-12              1.06e-12              -2.2648e-05          
  0.3                   2.4448e-05            2.28e-12              8.6e-13               -2.443e-05           
  0.35                  2.5734e-05            2.18e-12              2.34e-12              -2.5718e-05          
  0.4                   2.669e-05             2.22e-12              8.6e-13               -2.6676e-05          
  0.45                  2.7432e-05            2.12e-12              1.12e-12              -2.7418e-05          
  0.5                   2.8044e-05            2.2e-12               2.6e-12               -2.8026e-05          
  0.55                  2.8566e-05            2.12e-12              1.56e-12              -2.8552e-05          
  0.6                   2.9028e-05            2.14e-12              1.42e-12              -2.9018e-05          
  0.65                  2.9458e-05            2.16e-12              2.1e-12               -2.944e-05           
  0.7                   2.9852e-05            2.04e-12              1.16e-12              -2.9834e-05          
  0.75                  3.0234e-05            2e-12                 7.8e-13               -3.0218e-05          
  0.8                   3.0592e-05            2.04e-12              2.4e-12               -3.0576e-05          
  0.85                  3.0936e-05            1.98e-12              8.2e-13               -3.0922e-05          
  0.9                   3.127e-05             1.9e-12               7.4e-13               -3.1252e-05          
  0.95                  3.1596e-05            1.92e-12              1.42e-12              -3.159e-05           
  1                     3.1918e-05            1.92e-12              -1.4e-13              -3.1904e-05          
  1.05                  3.2226e-05            1.9e-12               -4e-13                -3.2216e-05          
  1.1                   3.254e-05             1.88e-12              -3.52e-12             -3.252e-05           
  1.15                  3.285e-05             1.84e-12              -1.172e-11            -3.2824e-05          
  1.2                   3.315e-05             1.98e-12              -2.55e-11             -3.313e-05           
  1.25                  3.3446e-05            2e-12                 -5.382e-11            -3.343e-05           
  1.3                   3.3746e-05            1.94e-12              -1.1158e-10           -3.372e-05           
  1.35                  3.403e-05             1.84e-12              -2.1536e-10           -3.4018e-05          
END_DB

BEGIN_DB
 ICCAP_VAR vg         1.133          
 ICCAP_VAR vb         0              
 ICCAP_VAR vs         0              

 #vd                    id                    ig                    ib                    is                   
  0                     1.5168e-08            9.76e-12              1.86e-12              -1.4432e-08          
  0.05                  1.0146e-05            8.82e-12              1.86e-12              -1.0128e-05          
  0.1                   1.9146e-05            8.1e-12               1.02e-12              -1.9128e-05          
  0.15                  2.6858e-05            7.5e-12               -1e-13                -2.6842e-05          
  0.2                   3.3256e-05            7e-12                 1.48e-12              -3.3242e-05          
  0.25                  3.8426e-05            6.68e-12              1.18e-12              -3.8412e-05          
  0.3                   4.2506e-05            6.24e-12              5.6e-13               -4.249e-05           
  0.35                  4.5656e-05            6.14e-12              1.88e-12              -4.5642e-05          
  0.4                   4.808e-05             5.94e-12              9.2e-13               -4.8066e-05          
  0.45                  4.9938e-05            5.72e-12              3e-13                 -4.992e-05           
  0.5                   5.139e-05             5.54e-12              1.72e-12              -5.137e-05           
  0.55                  5.2558e-05            5.46e-12              7.2e-13               -5.2544e-05          
  0.6                   5.3524e-05            5.42e-12              -1e-13                -5.3514e-05          
  0.65                  5.436e-05             5.34e-12              1.6e-12               -5.434e-05           
  0.7                   5.509e-05             5.28e-12              5.6e-13               -5.5074e-05          
  0.75                  5.575e-05             5.1e-12               8e-13                 -5.5734e-05          
  0.8                   5.6362e-05            5.3e-12               1.58e-12              -5.6342e-05          
  0.85                  5.693e-05             5.1e-12               -1e-13                -5.6916e-05          
  0.9                   5.7462e-05            5.1e-12               3.6e-13               -5.7464e-05          
  0.95                  5.7982e-05            5.08e-12              1.2e-12               -5.7968e-05          
  1                     5.8484e-05            5.04e-12              -7.6e-13              -5.847e-05           
  1.05                  5.8964e-05            5.02e-12              -2.36e-12             -5.8946e-05          
  1.1                   5.9436e-05            5.04e-12              -5.04e-12             -5.9428e-05          
  1.15                  5.9892e-05            4.94e-12              -1.386e-11            -5.9872e-05          
  1.2                   6.0338e-05            4.96e-12              -3.08e-11             -6.0318e-05          
  1.25                  6.0778e-05            5.02e-12              -6.22e-11             -6.0758e-05          
  1.3                   6.12e-05              4.92e-12              -1.242e-10            -6.1186e-05          
  1.35                  6.162e-05             4.8e-12               -2.339e-10            -6.1612e-05          
END_DB

BEGIN_DB
 ICCAP_VAR vg         1.35           
 ICCAP_VAR vb         0              
 ICCAP_VAR vs         0              

 #vd                    id                    ig                    ib                    is                   
  0                     1.8646e-08            2.136e-11             1.56e-12              -1.7624e-08          
  0.05                  1.2816e-05            1.978e-11             5.2e-13               -1.2798e-05          
  0.1                   2.4586e-05            1.828e-11             6.8e-13               -2.457e-05           
  0.15                  3.5082e-05            1.716e-11             -8e-13                -3.5064e-05          
  0.2                   4.4392e-05            1.616e-11             6.6e-13               -4.4376e-05          
  0.25                  5.2184e-05            1.52e-11              7e-13                 -5.2168e-05          
  0.3                   5.8678e-05            1.45e-11              1.62e-12              -5.8662e-05          
  0.35                  6.401e-05             1.384e-11             7e-13                 -6.3992e-05          
  0.4                   6.832e-05             1.328e-11             2.2e-13               -6.8306e-05          
  0.45                  7.1774e-05            1.298e-11             1.1e-12               -7.1756e-05          
  0.5                   7.4532e-05            1.264e-11             6.4e-13               -7.452e-05           
  0.55                  7.6748e-05            1.23e-11              7.6e-13               -7.6732e-05          
  0.6                   7.854e-05             1.22e-11              1.96e-12              -7.8524e-05          
  0.65                  8.002e-05             1.192e-11             -1.6e-13              -8.0004e-05          
  0.7                   8.1272e-05            1.186e-11             -1.2e-13              -8.1252e-05          
  0.75                  8.2356e-05            1.16e-11              1.5e-12               -8.2334e-05          
  0.8                   8.33e-05              1.158e-11             8e-14                 -8.3278e-05          
  0.85                  8.4158e-05            1.148e-11             6e-14                 -8.414e-05           
  0.9                   8.4956e-05            1.128e-11             1e-12                 -8.4936e-05          
  0.95                  8.568e-05             1.134e-11             -6.2e-13              -8.5666e-05          
  1                     8.637e-05             1.116e-11             -1.46e-12             -8.6358e-05          
  1.05                  8.7024e-05            1.114e-11             -1.76e-12             -8.7008e-05          
  1.1                   8.7648e-05            1.118e-11             -7.02e-12             -8.7638e-05          
  1.15                  8.8248e-05            1.096e-11             -1.57e-11             -8.8236e-05          
  1.2                   8.883e-05             1.102e-11             -3.1e-11              -8.8812e-05          
  1.25                  8.9388e-05            1.098e-11             -6.536e-11            -8.9376e-05          
  1.3                   8.994e-05             1.086e-11             -1.245e-10            -8.9926e-05          
  1.35                  9.0472e-05            1.09e-11              -2.2976e-10           -9.0454e-05          
END_DB

