! VERSION = 6.00
BEGIN_HEADER
 ICCAP_INPUTS
  vd         V  D GROUND SMU1 0.1 LIN        1    0          1.35       28   0.05      
  vg         V  G GROUND SMU2 0.001 LIST       2 3 0.199 0.399 0.599
  vb         V  B GROUND SMU4 0.1 CON        -1.2
  vs         V  S GROUND SMU3 0.1 CON        0
 ICCAP_OUTPUTS
  id         I  D GROUND SMU1 B
  ig         I  G GROUND SMU2 B
  ib         I  B GROUND SMU4 B
  is         I  S GROUND SMU3 B
 ICCAP_VALUES
  MASTER_SETUP_TYPE "~dc_idvd~"
  LINVT_VALUE ""
  LISTVT_VALUE "|idvg|100.0n|-200.0m|1.000m|3|200.0m|200.0m|"
  TYPE "1"
  TEMP " 125.000 "
  IS_TNOM " 0.00000 "
  MAIN.W "150.0n"
  MAIN.L "180.0n"
  MAIN.AD "100.5f"
  MAIN.AS "100.5f"
  MAIN.PD "1.340u"
  MAIN.PS "1.340u"
  MAIN.NF "1.000"
  MAIN.M "1"
  MAIN.NRD "0.000"
  MAIN.NRS "0.000"
  MAIN.LDRIFT1 "1E-06"
  MAIN.LDRIFT2 "1E-06"
  MAIN.SA "0.000"
  MAIN.SB "0.000"
  MAIN.SD "0.000"
  MAIN.SCA "0.000"
  MAIN.SCB "0.000"
  MAIN.SCC "0.000"
  MAIN.SC "0.000"
  MODULE "S547"
  PIN_D "20"
  PIN_G "1"
  PIN_S "2"
  PIN_B "19"
  PIN_E ""
  PIN_6 ""
  XY_ID ""
  FUNC "LW Scale"
  STI "SA ref"
  WPE "WPE ref"
  COMMENT ""
  DIS_MEAS ""
  TypeTCI "10"
END_HEADER

BEGIN_DB
 ICCAP_VAR vg         0.199          
 ICCAP_VAR vb         -1.2           
 ICCAP_VAR vs         0              

 #vd                    id                    ig                    ib                    is                   
  0                     8.6e-13               -2e-13                -2.182e-11            -5.4e-13             
  0.05                  3.4758e-10            -8e-14                -1.878e-11            -3.469e-10           
  0.1                   4.5076e-10            -2e-14                -1.758e-11            -4.4994e-10          
  0.15                  4.9442e-10            -1.2e-13              -1.702e-11            -4.9332e-10          
  0.2                   5.2348e-10            -2e-13                -1.64e-11             -5.2254e-10          
  0.25                  5.4996e-10            0                     -1.49e-11             -5.4882e-10          
  0.3                   5.761e-10             -8e-14                -1.316e-11            -5.7502e-10          
  0.35                  6.0272e-10            0                     -1.186e-11            -6.0158e-10          
  0.4                   6.3026e-10            -2e-14                -1.27e-11             -6.2884e-10          
  0.45                  6.5782e-10            0                     -1.158e-11            -6.5672e-10          
  0.5                   6.8652e-10            0                     -1.2e-11              -6.8532e-10          
  0.55                  7.1596e-10            -4e-14                -1.022e-11            -7.1486e-10          
  0.6                   7.4624e-10            -6e-14                -1.034e-11            -7.4514e-10          
  0.65                  7.7706e-10            -2e-14                -9.4e-12              -7.7606e-10          
  0.7                   8.0884e-10            -2e-14                -1.042e-11            -8.0806e-10          
  0.75                  8.4152e-10            -8e-14                -8.46e-12             -8.407e-10           
  0.8                   8.7468e-10            -6e-14                -1.034e-11            -8.7352e-10          
  0.85                  9.088e-10             -2e-14                -7.76e-12             -9.076e-10           
  0.9                   9.4396e-10            -4e-14                -8.72e-12             -9.4254e-10          
  0.95                  9.7956e-10            -8e-14                -7.8e-12              -9.785e-10           
  1                     1.0164e-09            -8e-14                -8.2e-12              -1.01458e-09         
  1.05                  1.054e-09             -1e-13                -7.8e-12              -1.0521e-09          
  1.1                   1.0924e-09            -1.2e-13              -6.8e-12              -1.09032e-09         
  1.15                  1.1314e-09            -3e-13                -7.66e-12             -1.12932e-09         
  1.2                   1.171e-09             -2.6e-13              -7.54e-12             -1.169e-09           
  1.25                  1.2126e-09            -1.4e-13              -7.94e-12             -1.2098e-09          
  1.3                   1.2546e-09            -3.8e-13              -6.86e-12             -1.2512e-09          
  1.35                  1.2976e-09            -3e-13                -7.78e-12             -1.2942e-09          
END_DB

BEGIN_DB
 ICCAP_VAR vg         0.399          
 ICCAP_VAR vb         -1.2           
 ICCAP_VAR vs         0              

 #vd                    id                    ig                    ib                    is                   
  0                     9.292e-11             3e-13                 -6.06e-12             -9.224e-11           
  0.05                  4.3458e-08            1.6e-13               -5.84e-12             -4.3446e-08          
  0.1                   5.8148e-08            2e-13                 -6.58e-12             -5.813e-08           
  0.15                  6.441e-08             1.2e-13               -6.62e-12             -6.44e-08            
  0.2                   6.846e-08             6e-14                 -6.4e-12              -6.8446e-08          
  0.25                  7.193e-08             2e-13                 -5.38e-12             -7.1912e-08          
  0.3                   7.5272e-08            6e-14                 -6.28e-12             -7.5258e-08          
  0.35                  7.8614e-08            2.4e-13               -7.02e-12             -7.861e-08           
  0.4                   8.1988e-08            2.2e-13               -6.32e-12             -8.1982e-08          
  0.45                  8.5424e-08            8e-14                 -5.4e-12              -8.5404e-08          
  0.5                   8.8914e-08            1.2e-13               -6.28e-12             -8.8884e-08          
  0.55                  9.2434e-08            1.2e-13               -6.86e-12             -9.2422e-08          
  0.6                   9.6032e-08            1.6e-13               -5.5e-12              -9.6032e-08          
  0.65                  9.9694e-08            1.6e-13               -5.4e-12              -9.9682e-08          
  0.7                   1.03432e-07           2.2e-13               -6.26e-12             -1.03426e-07         
  0.75                  1.07208e-07           2.2e-13               -6.28e-12             -1.07216e-07         
  0.8                   1.1108e-07            6e-14                 -5.94e-12             -1.11032e-07         
  0.85                  1.1498e-07            1.8e-13               -6.58e-12             -1.14954e-07         
  0.9                   1.1894e-07            1.2e-13               -6.74e-12             -1.189e-07           
  0.95                  1.2298e-07            2.2e-13               -6.36e-12             -1.2292e-07          
  1                     1.2704e-07            1.4e-13               -6.96e-12             -1.2702e-07          
  1.05                  1.312e-07             1.4e-13               -7.74e-12             -1.3118e-07          
  1.1                   1.3544e-07            4e-14                 -8.64e-12             -1.3542e-07          
  1.15                  1.397e-07             1.6e-13               -9.82e-12             -1.3966e-07          
  1.2                   1.4404e-07            1.2e-13               -1.318e-11            -1.4402e-07          
  1.25                  1.4846e-07            8e-14                 -1.964e-11            -1.484e-07           
  1.3                   1.5296e-07            4e-14                 -2.648e-11            -1.5292e-07          
  1.35                  1.5754e-07            0                     -3.612e-11            -1.575e-07           
END_DB

BEGIN_DB
 ICCAP_VAR vg         0.599          
 ICCAP_VAR vb         -1.2           
 ICCAP_VAR vs         0              

 #vd                    id                    ig                    ib                    is                   
  0                     1.3476e-09            8.4e-13               -5.06e-12             -1.2456e-09          
  0.05                  8.4244e-07            8.8e-13               -6.22e-12             -8.4208e-07          
  0.1                   1.3586e-06            6.6e-13               -4.84e-12             -1.354e-06           
  0.15                  1.6554e-06            7.8e-13               -6.18e-12             -1.6522e-06          
  0.2                   1.8272e-06            6.8e-13               -6e-12                -1.8242e-06          
  0.25                  1.9368e-06            6.8e-13               -4.58e-12             -1.9356e-06          
  0.3                   2.0218e-06            8e-13                 -6.02e-12             -2.0182e-06          
  0.35                  2.089e-06             6.6e-13               -5.68e-12             -2.0884e-06          
  0.4                   2.1506e-06            6.4e-13               -4.3e-12              -2.1454e-06          
  0.45                  2.218e-06             6e-13                 -5.92e-12             -2.2146e-06          
  0.5                   2.278e-06             5.6e-13               -5.22e-12             -2.2746e-06          
  0.55                  2.3356e-06            6e-13                 -4.68e-12             -2.332e-06           
  0.6                   2.3928e-06            6.6e-13               -5.88e-12             -2.3916e-06          
  0.65                  2.4526e-06            6e-13                 -4.96e-12             -2.4482e-06          
  0.7                   2.5098e-06            6e-13                 -5.68e-12             -2.5036e-06          
  0.75                  2.5656e-06            6e-13                 -5.62e-12             -2.5636e-06          
  0.8                   2.6236e-06            6.2e-13               -4.82e-12             -2.62e-06            
  0.85                  2.6802e-06            6.2e-13               -5.6e-12              -2.6726e-06          
  0.9                   2.7336e-06            7e-13                 -6.24e-12             -2.7336e-06          
  0.95                  2.793e-06             6.6e-13               -5.44e-12             -2.7898e-06          
  1                     2.8496e-06            5.2e-13               -6.72e-12             -2.846e-06           
  1.05                  2.9054e-06            5e-13                 -8.98e-12             -2.9022e-06          
  1.1                   2.9588e-06            4.6e-13               -1.286e-11            -2.9582e-06          
  1.15                  3.0148e-06            5.6e-13               -2.276e-11            -3.0142e-06          
  1.2                   3.0736e-06            4.2e-13               -3.608e-11            -3.0704e-06          
  1.25                  3.1298e-06            4.2e-13               -6.114e-11            -3.127e-06           
  1.3                   3.1832e-06            4.4e-13               -1.0468e-10           -3.1826e-06          
  1.35                  3.2424e-06            4.4e-13               -1.703e-10            -3.2372e-06          
END_DB

