! VERSION = 6.00
BEGIN_HEADER
 ICCAP_INPUTS
  vd         V  D GROUND SMU1 0.1 LIN        1    0          1.35       28   0.05      
  vg         V  G GROUND SMU2 0.001 LIN        2    0.406      1.35       5    0.236     
  vb         V  B GROUND SMU4 0.1 CON        0
  vs         V  S GROUND SMU3 0.1 CON        0
 ICCAP_OUTPUTS
  id         I  D GROUND SMU1 B
  ig         I  G GROUND SMU2 B
  ib         I  B GROUND SMU4 B
  is         I  S GROUND SMU3 B
 ICCAP_VALUES
  MASTER_SETUP_TYPE "~dc_idvd~"
  LINVT_VALUE "|idvg|100.0n|100.0m|1.000m|5|1.350|"
  LISTVT_VALUE ""
  TYPE "1"
  TEMP " 125.000 "
  IS_TNOM " 0.00000 "
  MAIN.W "10.00u"
  MAIN.L "130.0n"
  MAIN.AD "3.400p"
  MAIN.AS "3.400p"
  MAIN.PD "20.68u"
  MAIN.PS "20.68u"
  MAIN.NF "1.000"
  MAIN.M "1"
  MAIN.NRD "0.000"
  MAIN.NRS "0.000"
  MAIN.LDRIFT1 "1E-06"
  MAIN.LDRIFT2 "1E-06"
  MAIN.SA "0.000"
  MAIN.SB "0.000"
  MAIN.SD "0.000"
  MAIN.SCA "0.000"
  MAIN.SCB "0.000"
  MAIN.SCC "0.000"
  MAIN.SC "0.000"
  MODULE "S540"
  PIN_D "18"
  PIN_G "3"
  PIN_S "4"
  PIN_B "17"
  PIN_E ""
  PIN_6 ""
  XY_ID ""
  FUNC "Short"
  STI "SA ref"
  WPE "WPE ref"
  COMMENT ""
  DIS_MEAS ""
  TypeTCI "10"
END_HEADER

BEGIN_DB
 ICCAP_VAR vg         0.406          
 ICCAP_VAR vb         0              
 ICCAP_VAR vs         0              

 #vd                    id                    ig                    ib                    is                   
  0                     3.7526e-08            7.14e-12              3.626e-11             -2.7642e-08          
  0.05                  2.047e-05             5.58e-12              3.078e-11             -2.0458e-05          
  0.1                   2.9566e-05            4.86e-12              3.042e-11             -2.9556e-05          
  0.15                  3.3894e-05            4.36e-12              2.7e-11               -3.3868e-05          
  0.2                   3.641e-05             4.12e-12              2.656e-11             -3.6406e-05          
  0.25                  3.8286e-05            4e-12                 2.596e-11             -3.8284e-05          
  0.3                   3.992e-05             3.88e-12              2.394e-11             -3.9924e-05          
  0.35                  4.1434e-05            3.8e-12               2.34e-11              -4.146e-05           
  0.4                   4.2916e-05            3.76e-12              2.182e-11             -4.2938e-05          
  0.45                  4.4414e-05            3.68e-12              2.018e-11             -4.4402e-05          
  0.5                   4.5854e-05            3.74e-12              2.078e-11             -4.583e-05           
  0.55                  4.7302e-05            3.72e-12              1.874e-11             -4.7292e-05          
  0.6                   4.8738e-05            3.52e-12              1.788e-11             -4.8746e-05          
  0.65                  5.0202e-05            3.5e-12               1.784e-11             -5.0204e-05          
  0.7                   5.1684e-05            3.26e-12              1.512e-11             -5.1704e-05          
  0.75                  5.3204e-05            2.94e-12              1.302e-11             -5.3208e-05          
  0.8                   5.4684e-05            2.68e-12              1.09e-11              -5.47e-05            
  0.85                  5.6226e-05            2.12e-12              -8.4e-13              -5.6218e-05          
  0.9                   5.7774e-05            1.64e-12              -2.172e-11            -5.776e-05           
  0.95                  5.9324e-05            1.16e-12              -6.554e-11            -5.9316e-05          
  1                     6.0904e-05            2.6e-13               -1.6004e-10           -6.09e-05            
  1.05                  6.2508e-05            -6.6e-13              -3.4056e-10           -6.2526e-05          
  1.1                   6.414e-05             -1.78e-12             -6.7478e-10           -6.414e-05           
  1.15                  6.5826e-05            -3.1e-12              -1.2598e-09           -6.579e-05           
  1.2                   6.7488e-05            -4.6e-12              -2.2328e-09           -6.7488e-05          
  1.25                  6.9206e-05            -6.54e-12             -3.7856e-09           -6.9194e-05          
  1.3                   7.097e-05             -8.68e-12             -6.163e-09            -7.0978e-05          
  1.35                  7.2724e-05            -1.116e-11            -9.6766e-09           -7.2714e-05          
END_DB

BEGIN_DB
 ICCAP_VAR vg         0.642          
 ICCAP_VAR vb         0              
 ICCAP_VAR vs         0              

 #vd                    id                    ig                    ib                    is                   
  0                     3.4416e-07            4.686e-11             1.34e-11              -1.1719e-07          
  0.05                  0.00016128            4.006e-11             1.05e-11              -0.00016092          
  0.1                   0.00027578            3.462e-11             1.106e-11             -0.00027556          
  0.15                  0.0003528             3.104e-11             9.48e-12              -0.00035252          
  0.2                   0.00040312            2.852e-11             9.14e-12              -0.00040284          
  0.25                  0.00043634            2.668e-11             9.3e-12               -0.0004361           
  0.3                   0.00045978            2.566e-11             8.3e-12               -0.0004594           
  0.35                  0.0004773             2.49e-11              8.66e-12              -0.00047694          
  0.4                   0.00049192            2.442e-11             8.08e-12              -0.00049144          
  0.45                  0.0005046             2.402e-11             7.52e-12              -0.00050434          
  0.5                   0.00051626            2.382e-11             8.3e-12               -0.00051586          
  0.55                  0.00052722            2.358e-11             6.34e-12              -0.00052678          
  0.6                   0.00053766            2.336e-11             5.94e-12              -0.00053724          
  0.65                  0.00054788            2.322e-11             6.8e-12               -0.00054752          
  0.7                   0.000558              2.312e-11             4.26e-12              -0.00055766          
  0.75                  0.00056776            2.298e-11             1.88e-12              -0.00056742          
  0.8                   0.00057724            2.274e-11             -4.9e-12              -0.00057696          
  0.85                  0.00058682            2.264e-11             -2.124e-11            -0.00058658          
  0.9                   0.00059632            2.232e-11             -5.928e-11            -0.00059596          
  0.95                  0.00060576            2.212e-11             -1.4878e-10           -0.00060576          
  1                     0.00061532            2.184e-11             -3.4488e-10           -0.00061494          
  1.05                  0.00062454            2.148e-11             -7.5662e-10           -0.00062424          
  1.1                   0.00063382            2.09e-11              -1.5796e-09           -0.00063374          
  1.15                  0.00064326            2.02e-11              -3.1384e-09           -0.00064288          
  1.2                   0.00065256            1.974e-11             -5.96e-09             -0.00065212          
  1.25                  0.00066166            1.878e-11             -1.08136e-08          -0.00066136          
  1.3                   0.00067108            1.776e-11             -1.8836e-08           -0.00067066          
  1.35                  0.00068036            1.646e-11             -3.1494e-08           -0.00067996          
END_DB

BEGIN_DB
 ICCAP_VAR vg         0.878          
 ICCAP_VAR vb         0              
 ICCAP_VAR vs         0              

 #vd                    id                    ig                    ib                    is                   
  0                     8.5076e-07            1.8242e-10            6.48e-12              -2.378e-07           
  0.05                  0.00035916            1.6148e-10            5.66e-12              -0.00035888          
  0.1                   0.00066268            1.4434e-10            5.64e-12              -0.00066234          
  0.15                  0.00090756            1.3034e-10            4.36e-12              -0.00090724          
  0.2                   0.0010973             1.1946e-10            5.02e-12              -0.00109686          
  0.25                  0.0012402             1.1084e-10            4.68e-12              -0.0012402           
  0.3                   0.0013468             1.0426e-10            4.74e-12              -0.0013458           
  0.35                  0.0014252             9.942e-11             3.56e-12              -0.0014246           
  0.4                   0.0014842             9.6e-11               4.42e-12              -0.0014836           
  0.45                  0.0015298             9.346e-11             3.8e-12               -0.0015288           
  0.5                   0.0015672             9.144e-11             2.74e-12              -0.0015666           
  0.55                  0.001598              9.004e-11             4.04e-12              -0.0015972           
  0.6                   0.0016256             8.888e-11             2.5e-12               -0.0016256           
  0.65                  0.0016508             8.796e-11             1.42e-12              -0.0016502           
  0.7                   0.0016742             8.71e-11              2.6e-13               -0.0016736           
  0.75                  0.0016962             8.664e-11             -4e-12                -0.0016956           
  0.8                   0.001717              8.602e-11             -1.266e-11            -0.0017162           
  0.85                  0.0017364             8.552e-11             -3.6e-11              -0.0017362           
  0.9                   0.0017562             8.502e-11             -8.962e-11            -0.0017556           
  0.95                  0.0017748             8.472e-11             -2.0678e-10           -0.0017748           
  1                     0.001794              8.418e-11             -4.628e-10            -0.0017928           
  1.05                  0.0018118             8.376e-11             -9.8816e-10           -0.0018112           
  1.1                   0.0018298             8.344e-11             -2.0294e-09           -0.0018294           
  1.15                  0.0018474             8.298e-11             -4.0166e-09           -0.0018464           
  1.2                   0.0018652             8.248e-11             -7.6522e-09           -0.0018642           
  1.25                  0.001882              8.192e-11             -1.4038e-08           -0.0018814           
  1.3                   0.0018994             8.124e-11             -2.482e-08            -0.0018984           
  1.35                  0.001916              8.06e-11              -4.238e-08            -0.0019152           
END_DB

BEGIN_DB
 ICCAP_VAR vg         1.114          
 ICCAP_VAR vb         0              
 ICCAP_VAR vs         0              

 #vd                    id                    ig                    ib                    is                   
  0                     9.7308e-07            5.1504e-10            3.92e-12              -3.3186e-07          
  0.05                  0.00052894            4.684e-10             2.54e-12              -0.0005286           
  0.1                   0.0010063             4.2738e-10            3.06e-12              -0.00100604          
  0.15                  0.0014224             3.9238e-10            2.32e-12              -0.0014216           
  0.2                   0.0017728             3.624e-10             3.02e-12              -0.0017718           
  0.25                  0.0020612             3.3756e-10            1.84e-12              -0.0020604           
  0.3                   0.0022932             3.1662e-10            2.14e-12              -0.0022924           
  0.35                  0.002477              2.995e-10             1.58e-12              -0.0024762           
  0.4                   0.0026208             2.8606e-10            1.88e-12              -0.0026206           
  0.45                  0.0027346             2.7532e-10            2.08e-12              -0.0027338           
  0.5                   0.002824              2.6688e-10            8.2e-13               -0.0028238           
  0.55                  0.0028968             2.6026e-10            9.6e-13               -0.0028956           
  0.6                   0.0029558             2.5512e-10            1.14e-12              -0.002955            
  0.65                  0.0030056             2.5096e-10            -4.6e-13              -0.0030056           
  0.7                   0.0030494             2.4792e-10            -1.76e-12             -0.0030484           
  0.75                  0.0030872             2.4516e-10            -6.74e-12             -0.0030866           
  0.8                   0.0031218             2.4288e-10            -1.912e-11            -0.0031212           
  0.85                  0.0031536             2.4064e-10            -4.544e-11            -0.0031532           
  0.9                   0.0031836             2.3896e-10            -1.0894e-10           -0.0031834           
  0.95                  0.0032128             2.3762e-10            -2.4568e-10           -0.0032126           
  1                     0.0032392             2.3628e-10            -5.294e-10            -0.003239            
  1.05                  0.0032662             2.351e-10             -1.10626e-09          -0.0032652           
  1.1                   0.0032916             2.341e-10             -2.223e-09            -0.003291            
  1.15                  0.003316              2.331e-10             -4.3194e-09           -0.0033152           
  1.2                   0.00334               2.321e-10             -8.1128e-09           -0.0033394           
  1.25                  0.0033636             2.3108e-10            -1.4738e-08           -0.0033626           
  1.3                   0.0033868             2.3016e-10            -2.5932e-08           -0.0033862           
  1.35                  0.0034092             2.2922e-10            -4.424e-08            -0.0034082           
END_DB

BEGIN_DB
 ICCAP_VAR vg         1.35           
 ICCAP_VAR vb         0              
 ICCAP_VAR vs         0              

 #vd                    id                    ig                    ib                    is                   
  0                     1.08044e-06           1.1986e-09            3.2e-13               -4.105e-07           
  0.05                  0.00065836            1.1076e-09            -2.2e-13              -0.00065802          
  0.1                   0.0012726             1.0258e-09            -3.8e-13              -0.001272            
  0.15                  0.001829              9.536e-10             8.6e-13               -0.0018284           
  0.2                   0.0023202             8.8984e-10            5.4e-13               -0.002319            
  0.25                  0.0027442             8.3354e-10            -6e-13                -0.0027434           
  0.3                   0.0031038             7.851e-10             7.2e-13               -0.0031032           
  0.35                  0.0034042             7.4314e-10            4.4e-13               -0.0034034           
  0.4                   0.0036524             7.0766e-10            -5.8e-13              -0.0036522           
  0.45                  0.0038562             6.7792e-10            3.8e-13               -0.0038554           
  0.5                   0.0040224             6.5272e-10            -5e-13                -0.004022            
  0.55                  0.0041582             6.3262e-10            -3e-13                -0.0041572           
  0.6                   0.0042688             6.156e-10             -7.6e-13              -0.0042686           
  0.65                  0.0043614             6.0142e-10            -2.18e-12             -0.0043614           
  0.7                   0.0044384             5.8994e-10            -3.28e-12             -0.0044382           
  0.75                  0.0045044             5.8154e-10            -9.28e-12             -0.0045044           
  0.8                   0.0045618             5.7312e-10            -2.176e-11            -0.0045614           
  0.85                  0.004612              5.6658e-10            -4.92e-11             -0.004612            
  0.9                   0.0046576             5.6116e-10            -1.1616e-10           -0.0046574           
  0.95                  0.0046986             5.5674e-10            -2.5566e-10           -0.0046986           
  1                     0.0047366             5.5262e-10            -5.4318e-10           -0.0047358           
  1.05                  0.0047726             5.488e-10             -1.1176e-09           -0.0047722           
  1.1                   0.0048062             5.4586e-10            -2.2156e-09           -0.004805            
  1.15                  0.0048384             5.4278e-10            -4.2486e-09           -0.0048376           
  1.2                   0.0048684             5.4036e-10            -7.8862e-09           -0.0048676           
  1.25                  0.004897              5.3766e-10            -1.4192e-08           -0.0048964           
  1.3                   0.004926              5.3554e-10            -2.4786e-08           -0.0049254           
  1.35                  0.004954              5.3354e-10            -4.2086e-08           -0.0049532           
END_DB

