! VERSION = 6.00
BEGIN_HEADER
 ICCAP_INPUTS
  vd         V  D GROUND SMU1 0.1 LIN        1    0          1.35       28   0.05      
  vg         V  G GROUND SMU2 0.001 LIN        2    0.446      1.35       5    0.226     
  vb         V  B GROUND SMU4 0.1 CON        0
  vs         V  S GROUND SMU3 0.1 CON        0
 ICCAP_OUTPUTS
  id         I  D GROUND SMU1 B
  ig         I  G GROUND SMU2 B
  ib         I  B GROUND SMU4 B
  is         I  S GROUND SMU3 B
 ICCAP_VALUES
  MASTER_SETUP_TYPE "~dc_idvd~"
  LINVT_VALUE "|idvg|100.0n|100.0m|1.000m|5|1.350|"
  LISTVT_VALUE ""
  TYPE "1"
  TEMP " 70.0000 "
  IS_TNOM " 0.00000 "
  MAIN.W "10.00u"
  MAIN.L "130.0n"
  MAIN.AD "3.400p"
  MAIN.AS "3.400p"
  MAIN.PD "20.68u"
  MAIN.PS "20.68u"
  MAIN.NF "1.000"
  MAIN.M "1"
  MAIN.NRD "0.000"
  MAIN.NRS "0.000"
  MAIN.LDRIFT1 "1E-06"
  MAIN.LDRIFT2 "1E-06"
  MAIN.SA "0.000"
  MAIN.SB "0.000"
  MAIN.SD "0.000"
  MAIN.SCA "0.000"
  MAIN.SCB "0.000"
  MAIN.SCC "0.000"
  MAIN.SC "0.000"
  MODULE "S540"
  PIN_D "18"
  PIN_G "3"
  PIN_S "4"
  PIN_B "17"
  PIN_E ""
  PIN_6 ""
  XY_ID ""
  FUNC "Short"
  STI "SA ref"
  WPE "WPE ref"
  COMMENT ""
  DIS_MEAS ""
  TypeTCI "10"
END_HEADER

BEGIN_DB
 ICCAP_VAR vg         0.446          
 ICCAP_VAR vb         0              
 ICCAP_VAR vs         0              

 #vd                    id                    ig                    ib                    is                   
  0                     4.6238e-08            8.1e-12               1.37e-11              -3.2226e-08          
  0.05                  2.4018e-05            6.56e-12              1.166e-11             -2.3976e-05          
  0.1                   3.445e-05             5.48e-12              1.158e-11             -3.4422e-05          
  0.15                  3.9446e-05            5.02e-12              9.78e-12              -3.9428e-05          
  0.2                   4.2468e-05            4.7e-12               9.1e-12               -4.2482e-05          
  0.25                  4.4836e-05            4.56e-12              9.72e-12              -4.4818e-05          
  0.3                   4.6908e-05            4.4e-12               8.36e-12              -4.6896e-05          
  0.35                  4.8874e-05            4.2e-12               9.36e-12              -4.8844e-05          
  0.4                   5.0748e-05            4.32e-12              8.6e-12               -5.0756e-05          
  0.45                  5.2638e-05            4.36e-12              7.8e-12               -5.2622e-05          
  0.5                   5.4514e-05            4.28e-12              8.22e-12              -5.4504e-05          
  0.55                  5.638e-05             4.22e-12              8.26e-12              -5.6394e-05          
  0.6                   5.8178e-05            4.22e-12              8.08e-12              -5.8238e-05          
  0.65                  6.0118e-05            4.06e-12              8.54e-12              -6.0122e-05          
  0.7                   6.2014e-05            3.96e-12              7.4e-12               -6.204e-05           
  0.75                  6.3966e-05            3.88e-12              7.24e-12              -6.3972e-05          
  0.8                   6.5906e-05            3.7e-12               6.24e-12              -6.5922e-05          
  0.85                  6.7888e-05            3.28e-12              3.44e-12              -6.785e-05           
  0.9                   6.9776e-05            2.96e-12              -1.52e-12             -6.9864e-05          
  0.95                  7.1908e-05            2.42e-12              -1.594e-11            -7.1894e-05          
  1                     7.3984e-05            1.8e-12               -5.03e-11             -7.396e-05           
  1.05                  7.609e-05             1.2e-12               -1.2782e-10           -7.6126e-05          
  1.1                   7.8304e-05            4e-13                 -2.8928e-10           -7.8212e-05          
  1.15                  8.036e-05             -7e-13                -6.0958e-10           -8.0372e-05          
  1.2                   8.2602e-05            -1.94e-12             -1.194e-09            -8.2568e-05          
  1.25                  8.4852e-05            -3.42e-12             -2.206e-09            -8.4912e-05          
  1.3                   8.7234e-05            -5.08e-12             -3.8644e-09           -8.7162e-05          
  1.35                  8.9516e-05            -7.24e-12             -6.4616e-09           -8.9516e-05          
END_DB

BEGIN_DB
 ICCAP_VAR vg         0.672          
 ICCAP_VAR vb         0              
 ICCAP_VAR vs         0              

 #vd                    id                    ig                    ib                    is                   
  0                     4.452e-07             4.894e-11             5.14e-12              -1.5436e-07          
  0.05                  0.00018956            4.17e-11              3.72e-12              -0.00018926          
  0.1                   0.00032312            3.628e-11             3.94e-12              -0.00032274          
  0.15                  0.00041186            3.25e-11              3.24e-12              -0.00041136          
  0.2                   0.00046942            2.982e-11             3.64e-12              -0.00046914          
  0.25                  0.00050754            2.796e-11             4e-12                 -0.00050718          
  0.3                   0.00053444            2.676e-11             3.6e-12               -0.00053422          
  0.35                  0.00055522            2.6e-11               3.44e-12              -0.00055476          
  0.4                   0.00057214            2.554e-11             3.44e-12              -0.00057172          
  0.45                  0.0005871             2.512e-11             2.62e-12              -0.00058678          
  0.5                   0.00060102            2.478e-11             3.92e-12              -0.00060066          
  0.55                  0.00061402            2.458e-11             2.82e-12              -0.00061364          
  0.6                   0.0006265             2.444e-11             2.66e-12              -0.00062606          
  0.65                  0.00063856            2.434e-11             4.52e-12              -0.00063826          
  0.7                   0.00065044            2.426e-11             1.74e-12              -0.00064992          
  0.75                  0.00066194            2.396e-11             1.22e-12              -0.0006617           
  0.8                   0.00067354            2.388e-11             1.84e-12              -0.00067316          
  0.85                  0.00068474            2.374e-11             -4.38e-12             -0.00068448          
  0.9                   0.00069608            2.348e-11             -1.656e-11            -0.0006956           
  0.95                  0.00070712            2.342e-11             -4.8e-11              -0.0007066           
  1                     0.00071798            2.304e-11             -1.28e-10             -0.00071776          
  1.05                  0.00072928            2.27e-11              -3.1154e-10           -0.0007291           
  1.1                   0.00074032            2.238e-11             -7.1972e-10           -0.00074016          
  1.15                  0.00075186            2.206e-11             -1.573e-09            -0.00075184          
  1.2                   0.00076336            2.144e-11             -3.253e-09            -0.00076304          
  1.25                  0.00077434            2.068e-11             -6.3736e-09           -0.00077396          
  1.3                   0.00078526            1.992e-11             -1.1874e-08           -0.0007852           
  1.35                  0.0007965             1.892e-11             -2.1052e-08           -0.00079622          
END_DB

BEGIN_DB
 ICCAP_VAR vg         0.898          
 ICCAP_VAR vb         0              
 ICCAP_VAR vs         0              

 #vd                    id                    ig                    ib                    is                   
  0                     9.3964e-07            1.8042e-10            3.26e-12              -2.924e-07           
  0.05                  0.00041682            1.5982e-10            1.52e-12              -0.00041644          
  0.1                   0.00076526            1.426e-10             2.38e-12              -0.00076504          
  0.15                  0.00104168            1.29e-10              2.56e-12              -0.00104142          
  0.2                   0.0012528             1.182e-10             2.36e-12              -0.001252            
  0.25                  0.001409              1.0988e-10            1.78e-12              -0.0014082           
  0.3                   0.0015234             1.037e-10             2.02e-12              -0.0015228           
  0.35                  0.0016074             9.894e-11             1.38e-12              -0.0016068           
  0.4                   0.0016706             9.548e-11             1.72e-12              -0.0016702           
  0.45                  0.0017206             9.294e-11             3.18e-12              -0.0017198           
  0.5                   0.0017606             9.1e-11               8.6e-13               -0.0017596           
  0.55                  0.0017948             8.966e-11             1.2e-12               -0.0017936           
  0.6                   0.001825              8.866e-11             2.9e-12               -0.0018242           
  0.65                  0.0018522             8.776e-11             8.8e-13               -0.0018516           
  0.7                   0.0018778             8.698e-11             1.56e-12              -0.0018774           
  0.75                  0.001902              8.636e-11             -2e-13                -0.0019016           
  0.8                   0.0019256             8.574e-11             -4.06e-12             -0.0019244           
  0.85                  0.0019472             8.53e-11              -1.222e-11            -0.0019464           
  0.9                   0.0019688             8.486e-11             -3.484e-11            -0.001968            
  0.95                  0.0019898             8.454e-11             -8.82e-11             -0.0019892           
  1                     0.0020104             8.39e-11              -2.1198e-10           -0.00201             
  1.05                  0.0020308             8.36e-11              -4.899e-10            -0.00203             
  1.1                   0.0020506             8.33e-11              -1.077e-09            -0.00205             
  1.15                  0.0020708             8.296e-11             -2.2684e-09           -0.0020704           
  1.2                   0.0020898             8.242e-11             -4.5808e-09           -0.0020888           
  1.25                  0.0021088             8.184e-11             -8.8646e-09           -0.002108            
  1.3                   0.0021284             8.148e-11             -1.6492e-08           -0.0021274           
  1.35                  0.0021472             8.074e-11             -2.9446e-08           -0.0021466           
END_DB

BEGIN_DB
 ICCAP_VAR vg         1.124          
 ICCAP_VAR vb         0              
 ICCAP_VAR vs         0              

 #vd                    id                    ig                    ib                    is                   
  0                     1.06728e-06           4.8892e-10            1.3e-12               -3.9498e-07          
  0.05                  0.00060736            4.4442e-10            1.12e-12              -0.00060696          
  0.1                   0.0011508             4.0626e-10            1.82e-12              -0.0011502           
  0.15                  0.0016166             3.7314e-10            2.4e-13               -0.0016162           
  0.2                   0.0020024             3.4534e-10            1.98e-12              -0.0020014           
  0.25                  0.0023126             3.2182e-10            1.42e-12              -0.0023122           
  0.3                   0.0025588             3.024e-10             1.2e-12               -0.0025586           
  0.35                  0.0027512             2.8664e-10            1.82e-12              -0.0027504           
  0.4                   0.0029002             2.7408e-10            9e-13                 -0.0029              
  0.45                  0.0030172             2.6418e-10            1.6e-12               -0.0030162           
  0.5                   0.003109              2.5636e-10            1.58e-12              -0.0031086           
  0.55                  0.0031838             2.5042e-10            8e-13                 -0.0031832           
  0.6                   0.003245              2.4546e-10            2.24e-12              -0.0032444           
  0.65                  0.0032962             2.4186e-10            1.16e-12              -0.003296            
  0.7                   0.0033418             2.3886e-10            7.2e-13               -0.0033408           
  0.75                  0.0033818             2.3622e-10            -7.4e-13              -0.0033814           
  0.8                   0.0034188             2.3418e-10            -6e-12                -0.0034178           
  0.85                  0.0034526             2.324e-10             -1.914e-11            -0.0034522           
  0.9                   0.0034848             2.3064e-10            -4.946e-11            -0.0034842           
  0.95                  0.003515              2.291e-10             -1.2154e-10           -0.003514            
  1                     0.003544              2.2806e-10            -2.8002e-10           -0.0035444           
  1.05                  0.003573              2.2712e-10            -6.2142e-10           -0.0035724           
  1.1                   0.0036                2.26e-10              -1.3148e-09           -0.0036              
  1.15                  0.0036268             2.2484e-10            -2.6776e-09           -0.0036258           
  1.2                   0.0036526             2.2386e-10            -5.2564e-09           -0.0036518           
  1.25                  0.0036772             2.2282e-10            -9.9442e-09           -0.003677            
  1.3                   0.0037018             2.2208e-10            -1.819e-08            -0.0037014           
  1.35                  0.0037262             2.21e-10              -3.213e-08            -0.0037254           
END_DB

BEGIN_DB
 ICCAP_VAR vg         1.35           
 ICCAP_VAR vb         0              
 ICCAP_VAR vs         0              

 #vd                    id                    ig                    ib                    is                   
  0                     1.14612e-06           1.1052e-09            -4.6e-13              -4.8898e-07          
  0.05                  0.00074972            1.0206e-09            -2.2e-13              -0.00074944          
  0.1                   0.0014438             9.4562e-10            5.4e-13               -0.0014432           
  0.15                  0.0020642             8.795e-10             9.6e-13               -0.0020634           
  0.2                   0.0026026             8.2178e-10            -3.8e-13              -0.0026024           
  0.25                  0.003059              7.7074e-10            1.46e-12              -0.0030586           
  0.3                   0.0034396             7.2704e-10            -1.2e-13              -0.0034394           
  0.35                  0.003753              6.8938e-10            -1e-13                -0.0037524           
  0.4                   0.0040076             6.5726e-10            1.54e-12              -0.0040068           
  0.45                  0.0042144             6.308e-10             2e-14                 -0.0042134           
  0.5                   0.0043812             6.0866e-10            8e-13                 -0.0043806           
  0.55                  0.0045166             5.8996e-10            1.06e-12              -0.0045158           
  0.6                   0.0046274             5.7512e-10            -6e-14                -0.0046274           
  0.65                  0.0047188             5.6266e-10            8.6e-13               -0.0047182           
  0.7                   0.004796              5.5272e-10            -4e-13                -0.0047958           
  0.75                  0.004863              5.4444e-10            -4.14e-12             -0.004862            
  0.8                   0.00492               5.3734e-10            -7.12e-12             -0.0049196           
  0.85                  0.004972              5.3176e-10            -2.24e-11             -0.0049708           
  0.9                   0.0050176             5.2708e-10            -5.832e-11            -0.0050176           
  0.95                  0.0050606             5.2288e-10            -1.371e-10            -0.0050592           
  1                     0.0051006             5.1938e-10            -3.1116e-10           -0.005099            
  1.05                  0.0051372             5.1596e-10            -6.7482e-10           -0.005137            
  1.1                   0.0051718             5.1314e-10            -1.3984e-09           -0.0051706           
  1.15                  0.0052056             5.1058e-10            -2.7966e-09           -0.0052054           
  1.2                   0.0052378             5.0816e-10            -5.388e-09            -0.0052372           
  1.25                  0.005269              5.0566e-10            -1.00296e-08          -0.0052684           
  1.3                   0.0052992             5.034e-10             -1.8106e-08           -0.0052988           
  1.35                  0.005328              5.0128e-10            -3.164e-08            -0.005327            
END_DB

