! VERSION = 6.00
BEGIN_HEADER
 ICCAP_INPUTS
  vd         V  D GROUND SMU1 0.1 LIN        1    0          1.35       28   0.05      
  vg         V  G GROUND SMU2 0.001 LIN        2    0.314      1.35       5    0.259     
  vb         V  B GROUND SMU4 0.1 CON        -1.2
  vs         V  S GROUND SMU3 0.1 CON        0
 ICCAP_OUTPUTS
  id         I  D GROUND SMU1 B
  ig         I  G GROUND SMU2 B
  ib         I  B GROUND SMU4 B
  is         I  S GROUND SMU3 B
 ICCAP_VALUES
  MASTER_SETUP_TYPE "~dc_idvd~"
  LINVT_VALUE "|idvg|100.0n|100.0m|1.000m|5|1.350|"
  LISTVT_VALUE ""
  TYPE "1"
  TEMP " 125.000 "
  IS_TNOM " 0.00000 "
  MAIN.W "300.0n"
  MAIN.L "10.00u"
  MAIN.AD "102.0f"
  MAIN.AS "102.0f"
  MAIN.PD "1.280u"
  MAIN.PS "1.280u"
  MAIN.NF "1.000"
  MAIN.M "1"
  MAIN.NRD "0.000"
  MAIN.NRS "0.000"
  MAIN.LDRIFT1 "1E-06"
  MAIN.LDRIFT2 "1E-06"
  MAIN.SA "0.000"
  MAIN.SB "0.000"
  MAIN.SD "0.000"
  MAIN.SCA "0.000"
  MAIN.SCB "0.000"
  MAIN.SCC "0.000"
  MAIN.SC "0.000"
  MODULE "S545"
  PIN_D "18"
  PIN_G "3"
  PIN_S "4"
  PIN_B "17"
  PIN_E ""
  PIN_6 ""
  XY_ID ""
  FUNC "W Scale"
  STI "SA ref"
  WPE "WPE ref"
  COMMENT ""
  DIS_MEAS ""
  TypeTCI "10"
END_HEADER

BEGIN_DB
 ICCAP_VAR vg         0.314          
 ICCAP_VAR vb         -1.2           
 ICCAP_VAR vs         0              

 #vd                    id                    ig                    ib                    is                   
  0                     2.074e-11             8.08e-12              -4.368e-11            -2.096e-11           
  0.05                  1.3068e-08            6.44e-12              -3.924e-11            -1.303e-08           
  0.1                   1.8076e-08            5.78e-12              -3.762e-11            -1.8038e-08          
  0.15                  2.0074e-08            5.5e-12               -3.602e-11            -2.0064e-08          
  0.2                   2.1164e-08            5.38e-12              -3.446e-11            -2.1154e-08          
  0.25                  2.1988e-08            5.24e-12              -3.24e-11             -2.1978e-08          
  0.3                   2.2718e-08            5.26e-12              -3.114e-11            -2.2706e-08          
  0.35                  2.34e-08              5.14e-12              -3.104e-11            -2.339e-08           
  0.4                   2.4046e-08            4.98e-12              -2.944e-11            -2.4036e-08          
  0.45                  2.4664e-08            4.94e-12              -2.724e-11            -2.465e-08           
  0.5                   2.5258e-08            4.76e-12              -2.706e-11            -2.5242e-08          
  0.55                  2.582e-08             4.7e-12               -2.736e-11            -2.5808e-08          
  0.6                   2.6362e-08            4.64e-12              -2.54e-11             -2.635e-08           
  0.65                  2.6878e-08            4.66e-12              -2.416e-11            -2.6866e-08          
  0.7                   2.7368e-08            4.56e-12              -2.372e-11            -2.7354e-08          
  0.75                  2.7836e-08            4.34e-12              -2.368e-11            -2.7822e-08          
  0.8                   2.828e-08             4.3e-12               -2.324e-11            -2.8244e-08          
  0.85                  2.8696e-08            4.32e-12              -2.172e-11            -2.869e-08           
  0.9                   2.91e-08              4.2e-12               -2.122e-11            -2.9086e-08          
  0.95                  2.947e-08             4.14e-12              -2.21e-11             -2.9462e-08          
  1                     2.983e-08             4.02e-12              -2.088e-11            -2.9818e-08          
  1.05                  3.0168e-08            3.94e-12              -2.074e-11            -3.0152e-08          
  1.1                   3.0482e-08            3.7e-12               -2.056e-11            -3.0466e-08          
  1.15                  3.0772e-08            3.74e-12              -2.142e-11            -3.0764e-08          
  1.2                   3.1054e-08            3.56e-12              -2.266e-11            -3.1038e-08          
  1.25                  3.1304e-08            3.38e-12              -2.14e-11             -3.129e-08           
  1.3                   3.1552e-08            3.42e-12              -2.3e-11              -3.153e-08           
  1.35                  3.1774e-08            3.2e-12               -2.654e-11            -3.175e-08           
END_DB

BEGIN_DB
 ICCAP_VAR vg         0.573          
 ICCAP_VAR vb         -1.2           
 ICCAP_VAR vs         0              

 #vd                    id                    ig                    ib                    is                   
  0                     6.118e-11             8.836e-11             -1.308e-11            -1.5264e-10          
  0.05                  1.0016e-07            7.382e-11             -1.386e-11            -1.002e-07           
  0.1                   1.7926e-07            6.346e-11             -1.362e-11            -1.793e-07           
  0.15                  2.357e-07             5.64e-11              -1.27e-11             -2.357e-07           
  0.2                   2.6974e-07            5.23e-11              -1.386e-11            -2.6978e-07          
  0.25                  2.8722e-07            5.022e-11             -1.326e-11            -2.8728e-07          
  0.3                   2.962e-07             4.91e-11              -1.282e-11            -2.965e-07           
  0.35                  3.018e-07             4.832e-11             -1.198e-11            -3.018e-07           
  0.4                   3.0594e-07            4.794e-11             -1.258e-11            -3.059e-07           
  0.45                  3.0956e-07            4.758e-11             -1.336e-11            -3.097e-07           
  0.5                   3.1314e-07            4.716e-11             -1.178e-11            -3.1304e-07          
  0.55                  3.1638e-07            4.676e-11             -1.168e-11            -3.1636e-07          
  0.6                   3.1918e-07            4.652e-11             -1.284e-11            -3.1924e-07          
  0.65                  3.221e-07             4.606e-11             -1.22e-11             -3.2226e-07          
  0.7                   3.2526e-07            4.572e-11             -1.136e-11            -3.252e-07           
  0.75                  3.2794e-07            4.552e-11             -1.22e-11             -3.2778e-07          
  0.8                   3.3026e-07            4.51e-11              -1.266e-11            -3.3046e-07          
  0.85                  3.3296e-07            4.488e-11             -1.174e-11            -3.328e-07           
  0.9                   3.3522e-07            4.464e-11             -1.134e-11            -3.3536e-07          
  0.95                  3.376e-07             4.44e-11              -1.186e-11            -3.3722e-07          
  1                     3.3944e-07            4.42e-11              -1.156e-11            -3.3984e-07          
  1.05                  3.4148e-07            4.382e-11             -1.094e-11            -3.415e-07           
  1.1                   3.4374e-07            4.35e-11              -1.176e-11            -3.4386e-07          
  1.15                  3.4542e-07            4.334e-11             -1.266e-11            -3.458e-07           
  1.2                   3.4732e-07            4.31e-11              -1.42e-11             -3.4758e-07          
  1.25                  3.4892e-07            4.28e-11              -1.48e-11             -3.4906e-07          
  1.3                   3.5096e-07            4.27e-11              -1.696e-11            -3.506e-07           
  1.35                  3.5236e-07            4.238e-11             -2.28e-11             -3.5252e-07          
END_DB

BEGIN_DB
 ICCAP_VAR vg         0.832          
 ICCAP_VAR vb         -1.2           
 ICCAP_VAR vs         0              

 #vd                    id                    ig                    ib                    is                   
  0                     -3.6e-11              4.4388e-10            -8.84e-12             -4.2174e-10          
  0.05                  1.8706e-07            3.8874e-10            -9e-12                -1.8742e-07          
  0.1                   3.5672e-07            3.4256e-10            -9.1e-12              -3.5704e-07          
  0.15                  5.0796e-07            3.0448e-10            -1.042e-11            -5.0828e-07          
  0.2                   6.3988e-07            2.7404e-10            -9.44e-12             -6.4018e-07          
  0.25                  7.5134e-07            2.5004e-10            -8.08e-12             -7.5164e-07          
  0.3                   8.4074e-07            2.3166e-10            -9.64e-12             -8.41e-07            
  0.35                  9.0644e-07            2.1886e-10            -1.006e-11            -9.0674e-07          
  0.4                   9.489e-07             2.1084e-10            -9.08e-12             -9.4914e-07          
  0.45                  9.731e-07             2.0644e-10            -8.98e-12             -9.733e-07           
  0.5                   9.8716e-07            2.0384e-10            -9.9e-12              -9.874e-07           
  0.55                  9.9642e-07            2.0218e-10            -9.9e-12              -9.9674e-07          
  0.6                   1.00366e-06           2.0082e-10            -8.18e-12             -1.00392e-06         
  0.65                  1.00982e-06           1.9986e-10            -8.34e-12             -1.01008e-06         
  0.7                   1.01554e-06           1.9856e-10            -9.48e-12             -1.01586e-06         
  0.75                  1.02084e-06           1.9786e-10            -9.14e-12             -1.02108e-06         
  0.8                   1.02586e-06           1.9694e-10            -8.14e-12             -1.02612e-06         
  0.85                  1.0305e-06            1.9614e-10            -9.06e-12             -1.03086e-06         
  0.9                   1.03588e-06           1.9526e-10            -8.8e-12              -1.03638e-06         
  0.95                  1.04008e-06           1.943e-10             -8.84e-12             -1.04042e-06         
  1                     1.04428e-06           1.9374e-10            -8.58e-12             -1.04462e-06         
  1.05                  1.04828e-06           1.9296e-10            -8.86e-12             -1.04868e-06         
  1.1                   1.0522e-06            1.9238e-10            -9.62e-12             -1.05228e-06         
  1.15                  1.05572e-06           1.9156e-10            -8.94e-12             -1.05598e-06         
  1.2                   1.05938e-06           1.9112e-10            -8.38e-12             -1.05958e-06         
  1.25                  1.0627e-06            1.906e-10             -9.32e-12             -1.06304e-06         
  1.3                   1.066e-06             1.9e-10               -9.66e-12             -1.06614e-06         
  1.35                  1.06932e-06           1.8928e-10            -9.64e-12             -1.0694e-06          
END_DB

BEGIN_DB
 ICCAP_VAR vg         1.091          
 ICCAP_VAR vb         -1.2           
 ICCAP_VAR vs         0              

 #vd                    id                    ig                    ib                    is                   
  0                     -5.0726e-10           1.516e-09             -7.4e-12              -1.013e-09           
  0.05                  2.5906e-07            1.3652e-09            -7.98e-12             -2.6042e-07          
  0.1                   5.0444e-07            1.2328e-09            -8.92e-12             -5.0568e-07          
  0.15                  7.3464e-07            1.1178e-09            -7.84e-12             -7.3578e-07          
  0.2                   9.488e-07             1.0184e-09            -7.22e-12             -9.4994e-07          
  0.25                  1.14666e-06           9.329e-10             -8.18e-12             -1.14768e-06         
  0.3                   1.3284e-06            8.5932e-10            -6.66e-12             -1.326e-06           
  0.35                  1.491e-06             7.982e-10             -7.24e-12             -1.4886e-06          
  0.4                   1.6346e-06            7.4732e-10            -7.42e-12             -1.632e-06           
  0.45                  1.758e-06             7.0596e-10            -6.8e-12              -1.7554e-06          
  0.5                   1.8598e-06            6.7334e-10            -7.46e-12             -1.8572e-06          
  0.55                  1.9384e-06            6.492e-10             -7.1e-12              -1.9358e-06          
  0.6                   1.9936e-06            6.3294e-10            -6.26e-12             -1.991e-06           
  0.65                  2.0282e-06            6.226e-10             -7.98e-12             -2.0256e-06          
  0.7                   2.0492e-06            6.1652e-10            -7.72e-12             -2.0468e-06          
  0.75                  2.0632e-06            6.1282e-10            -6.48e-12             -2.0604e-06          
  0.8                   2.0736e-06            6.099e-10             -7.6e-12              -2.0708e-06          
  0.85                  2.082e-06             6.0728e-10            -7.56e-12             -2.0794e-06          
  0.9                   2.0898e-06            6.0534e-10            -6.36e-12             -2.087e-06           
  0.95                  2.0968e-06            6.0312e-10            -7.88e-12             -2.094e-06           
  1                     2.1034e-06            6.0138e-10            -7.08e-12             -2.1006e-06          
  1.05                  2.1096e-06            5.9954e-10            -6.44e-12             -2.1068e-06          
  1.1                   2.1156e-06            5.9794e-10            -7.08e-12             -2.113e-06           
  1.15                  2.1214e-06            5.9652e-10            -6.54e-12             -2.1186e-06          
  1.2                   2.1266e-06            5.9532e-10            -6.64e-12             -2.124e-06           
  1.25                  2.1318e-06            5.9356e-10            -7.5e-12              -2.1292e-06          
  1.3                   2.1372e-06            5.9224e-10            -6.7e-12              -2.1344e-06          
  1.35                  2.142e-06             5.9078e-10            -7.36e-12             -2.1392e-06          
END_DB

BEGIN_DB
 ICCAP_VAR vg         1.35           
 ICCAP_VAR vb         -1.2           
 ICCAP_VAR vs         0              

 #vd                    id                    ig                    ib                    is                   
  0                     -1.7214e-09           4.071e-09             -9.88e-12             -2.3132e-09          
  0.05                  3.1502e-07            3.7338e-09            -1.018e-11            -3.1872e-07          
  0.1                   6.2066e-07            3.4298e-09            -9.86e-12             -6.2416e-07          
  0.15                  9.1428e-07            3.1582e-09            -9.58e-12             -9.1742e-07          
  0.2                   1.1962e-06            2.9148e-09            -7.1e-12              -1.1958e-06          
  0.25                  1.4638e-06            2.698e-09             -8.74e-12             -1.463e-06           
  0.3                   1.7172e-06            2.5056e-09            -8.48e-12             -1.7166e-06          
  0.35                  1.9564e-06            2.336e-09             -6.8e-12              -1.9554e-06          
  0.4                   2.18e-06              2.1866e-09            -7.92e-12             -2.1788e-06          
  0.45                  2.3878e-06            2.056e-09             -7.76e-12             -2.3866e-06          
  0.5                   2.579e-06             1.9424e-09            -6.34e-12             -2.5776e-06          
  0.55                  2.7528e-06            1.8446e-09            -7.86e-12             -2.7516e-06          
  0.6                   2.9086e-06            1.7616e-09            -7.36e-12             -2.9072e-06          
  0.65                  3.0448e-06            1.6924e-09            -6.18e-12             -3.0432e-06          
  0.7                   3.1602e-06            1.6358e-09            -7.18e-12             -3.1584e-06          
  0.75                  3.2534e-06            1.5918e-09            -8.3e-12              -3.2516e-06          
  0.8                   3.3232e-06            1.5596e-09            -5.82e-12             -3.3214e-06          
  0.85                  3.3714e-06            1.538e-09             -7.4e-12              -3.3698e-06          
  0.9                   3.4024e-06            1.5246e-09            -7.4e-12              -3.4006e-06          
  0.95                  3.4222e-06            1.5158e-09            -6.58e-12             -3.4206e-06          
  1                     3.4364e-06            1.5096e-09            -7.66e-12             -3.4348e-06          
  1.05                  3.4478e-06            1.5044e-09            -7.7e-12              -3.4464e-06          
  1.1                   3.458e-06             1.5002e-09            -5.78e-12             -3.456e-06           
  1.15                  3.4666e-06            1.4962e-09            -6.92e-12             -3.4648e-06          
  1.2                   3.4748e-06            1.4926e-09            -7.64e-12             -3.4728e-06          
  1.25                  3.482e-06             1.4894e-09            -6.3e-12              -3.4804e-06          
  1.3                   3.4894e-06            1.4866e-09            -7.5e-12              -3.4876e-06          
  1.35                  3.4964e-06            1.484e-09             -7.84e-12             -3.4946e-06          
END_DB

