! VERSION = 6.00
BEGIN_HEADER
 ICCAP_INPUTS
  vd         V  D GROUND SMU1 0.1 LIN        1    0          1.35       28   0.05      
  vg         V  G GROUND SMU2 0.001 LIN        2    0.278      1.35       5    0.268     
  vb         V  B GROUND SMU4 0.1 CON        0
  vs         V  S GROUND SMU3 0.1 CON        0
 ICCAP_OUTPUTS
  id         I  D GROUND SMU1 B
  ig         I  G GROUND SMU2 B
  ib         I  B GROUND SMU4 B
  is         I  S GROUND SMU3 B
 ICCAP_VALUES
  MASTER_SETUP_TYPE "~dc_idvd~"
  LINVT_VALUE "|idvg|100.0n|100.0m|1.000m|5|1.350|"
  LISTVT_VALUE ""
  TYPE "1"
  TEMP " 27.0000 "
  IS_TNOM " 1.00000 "
  MAIN.W "300.0n"
  MAIN.L "10.00u"
  MAIN.AD "102.0f"
  MAIN.AS "102.0f"
  MAIN.PD "1.280u"
  MAIN.PS "1.280u"
  MAIN.NF "1.000"
  MAIN.M "1"
  MAIN.NRD "0.000"
  MAIN.NRS "0.000"
  MAIN.LDRIFT1 "1E-06"
  MAIN.LDRIFT2 "1E-06"
  MAIN.SA "0.000"
  MAIN.SB "0.000"
  MAIN.SD "0.000"
  MAIN.SCA "0.000"
  MAIN.SCB "0.000"
  MAIN.SCC "0.000"
  MAIN.SC "0.000"
  MODULE "S545"
  PIN_D "18"
  PIN_G "3"
  PIN_S "4"
  PIN_B "17"
  PIN_E ""
  PIN_6 ""
  XY_ID ""
  FUNC "W Scale"
  STI "SA ref"
  WPE "WPE ref"
  COMMENT ""
  DIS_MEAS ""
  TypeTCI "10"
END_HEADER

BEGIN_DB
 ICCAP_VAR vg         0.278          
 ICCAP_VAR vb         0              
 ICCAP_VAR vs         0              

 #vd                    id                    ig                    ib                    is                   
  0                     3.92e-11              4.04e-12              7.68e-12              -3.062e-11           
  0.05                  2.0222e-08            3.26e-12              7.48e-12              -2.0208e-08          
  0.1                   2.6194e-08            3.16e-12              6.32e-12              -2.6174e-08          
  0.15                  2.8356e-08            3.02e-12              6.4e-12               -2.834e-08           
  0.2                   2.9758e-08            2.96e-12              6.7e-12               -2.975e-08           
  0.25                  3.0992e-08            2.82e-12              6.68e-12              -3.0972e-08          
  0.3                   3.2152e-08            2.78e-12              5.48e-12              -3.2134e-08          
  0.35                  3.3256e-08            2.8e-12               5.32e-12              -3.3242e-08          
  0.4                   3.4326e-08            2.74e-12              5.26e-12              -3.431e-08           
  0.45                  3.5368e-08            2.8e-12               6.06e-12              -3.5344e-08          
  0.5                   3.6364e-08            2.76e-12              4.84e-12              -3.6358e-08          
  0.55                  3.735e-08             2.54e-12              4.56e-12              -3.7334e-08          
  0.6                   3.8328e-08            2.52e-12              4.3e-12               -3.8306e-08          
  0.65                  3.9272e-08            2.5e-12               5.48e-12              -3.9244e-08          
  0.7                   4.0188e-08            2.58e-12              5.54e-12              -4.0182e-08          
  0.75                  4.1098e-08            2.52e-12              4.28e-12              -4.1082e-08          
  0.8                   4.1998e-08            2.34e-12              3.64e-12              -4.1986e-08          
  0.85                  4.2872e-08            2.34e-12              4.24e-12              -4.2864e-08          
  0.9                   4.373e-08             2.28e-12              4.72e-12              -4.372e-08           
  0.95                  4.4578e-08            2.22e-12              3.46e-12              -4.4562e-08          
  1                     4.5406e-08            2.1e-12               3.2e-12               -4.5384e-08          
  1.05                  4.6212e-08            1.98e-12              3.12e-12              -4.6196e-08          
  1.1                   4.6988e-08            1.94e-12              4.08e-12              -4.6978e-08          
  1.15                  4.7764e-08            1.9e-12               2.62e-12              -4.7744e-08          
  1.2                   4.851e-08             1.7e-12               1.12e-12              -4.8484e-08          
  1.25                  4.9224e-08            1.6e-12               0                     -4.919e-08           
  1.3                   4.9914e-08            1.4e-12               -3.8e-13              -4.9902e-08          
  1.35                  5.0594e-08            1.32e-12              -2.78e-12             -5.0576e-08          
END_DB

BEGIN_DB
 ICCAP_VAR vg         0.546          
 ICCAP_VAR vb         0              
 ICCAP_VAR vs         0              

 #vd                    id                    ig                    ib                    is                   
  0                     1.6396e-10            5.728e-11             3.32e-12              -2.3416e-10          
  0.05                  1.8164e-07            4.754e-11             1.9e-12               -1.816e-07           
  0.1                   3.2608e-07            4.038e-11             2.42e-12              -3.26e-07            
  0.15                  4.282e-07             3.568e-11             3.2e-12               -4.2816e-07          
  0.2                   4.8608e-07            3.316e-11             1.88e-12              -4.8602e-07          
  0.25                  5.1204e-07            3.214e-11             2.1e-12               -5.1206e-07          
  0.3                   5.2518e-07            3.156e-11             2e-12                 -5.2512e-07          
  0.35                  5.3408e-07            3.124e-11             3.2e-12               -5.336e-07           
  0.4                   5.4076e-07            3.096e-11             2.7e-12               -5.4066e-07          
  0.45                  5.4704e-07            3.06e-11              1.88e-12              -5.4692e-07          
  0.5                   5.5288e-07            3.032e-11             1.58e-12              -5.5284e-07          
  0.55                  5.584e-07             3.026e-11             2.84e-12              -5.5836e-07          
  0.6                   5.6368e-07            2.992e-11             1.62e-12              -5.6358e-07          
  0.65                  5.6876e-07            2.978e-11             1.64e-12              -5.687e-07           
  0.7                   5.7364e-07            2.96e-11              2.24e-12              -5.7358e-07          
  0.75                  5.7834e-07            2.918e-11             2.48e-12              -5.7834e-07          
  0.8                   5.8296e-07            2.912e-11             2e-12                 -5.8294e-07          
  0.85                  5.8746e-07            2.894e-11             1.22e-12              -5.874e-07           
  0.9                   5.919e-07             2.89e-11              1.44e-12              -5.9182e-07          
  0.95                  5.9618e-07            2.862e-11             2.3e-12               -5.961e-07           
  1                     6.0036e-07            2.86e-11              1.46e-12              -6.0032e-07          
  1.05                  6.0446e-07            2.834e-11             1.44e-12              -6.0438e-07          
  1.1                   6.0852e-07            2.806e-11             1.02e-12              -6.0846e-07          
  1.15                  6.125e-07             2.792e-11             1.88e-12              -6.1242e-07          
  1.2                   6.1628e-07            2.76e-11              6.8e-13               -6.1624e-07          
  1.25                  6.2006e-07            2.754e-11             6e-14                 -6.1998e-07          
  1.3                   6.2372e-07            2.736e-11             -1.24e-12             -6.236e-07           
  1.35                  6.2728e-07            2.708e-11             -3.56e-12             -6.2824e-07          
END_DB

BEGIN_DB
 ICCAP_VAR vg         0.814          
 ICCAP_VAR vb         0              
 ICCAP_VAR vs         0              

 #vd                    id                    ig                    ib                    is                   
  0                     1.917e-10             3.3294e-10            1.78e-12              -5.3868e-10          
  0.05                  3.2568e-07            2.8972e-10            2.86e-12              -3.2584e-07          
  0.1                   6.2226e-07            2.5386e-10            2.18e-12              -6.225e-07           
  0.15                  8.8822e-07            2.246e-10             9.8e-13               -8.8844e-07          
  0.2                   1.12148e-06           2.0096e-10            1.9e-12               -1.12168e-06         
  0.25                  1.3216e-06            1.8218e-10            8.4e-13               -1.3178e-06          
  0.3                   1.4808e-06            1.6844e-10            1.26e-12              -1.4774e-06          
  0.35                  1.597e-06             1.5892e-10            1.44e-12              -1.5934e-06          
  0.4                   1.6696e-06            1.5298e-10            9.2e-13               -1.6658e-06          
  0.45                  1.7086e-06            1.5014e-10            1.46e-12              -1.705e-06           
  0.5                   1.7304e-06            1.4826e-10            1.28e-12              -1.7268e-06          
  0.55                  1.7454e-06            1.4722e-10            7e-13                 -1.7418e-06          
  0.6                   1.7578e-06            1.4638e-10            1.3e-12               -1.7542e-06          
  0.65                  1.7686e-06            1.4554e-10            1.32e-12              -1.765e-06           
  0.7                   1.7782e-06            1.449e-10             5.2e-13               -1.7746e-06          
  0.75                  1.7874e-06            1.4426e-10            1.98e-12              -1.7838e-06          
  0.8                   1.796e-06             1.4354e-10            1.6e-12               -1.7924e-06          
  0.85                  1.8044e-06            1.43e-10              1.18e-12              -1.8008e-06          
  0.9                   1.8124e-06            1.4242e-10            1.24e-12              -1.8088e-06          
  0.95                  1.8202e-06            1.4176e-10            -2.8e-13              -1.8166e-06          
  1                     1.8278e-06            1.4126e-10            3.6e-13               -1.8242e-06          
  1.05                  1.8352e-06            1.4064e-10            1.52e-12              -1.8314e-06          
  1.1                   1.8424e-06            1.4008e-10            1.18e-12              -1.8372e-06          
  1.15                  1.8478e-06            1.3972e-10            7.6e-13               -1.8442e-06          
  1.2                   1.8544e-06            1.3942e-10            1.26e-12              -1.851e-06           
  1.25                  1.8612e-06            1.3876e-10            4.2e-13               -1.8576e-06          
  1.3                   1.8676e-06            1.383e-10             4e-13                 -1.864e-06           
  1.35                  1.874e-06             1.3774e-10            8e-13                 -1.8702e-06          
END_DB

BEGIN_DB
 ICCAP_VAR vg         1.082          
 ICCAP_VAR vb         0              
 ICCAP_VAR vs         0              

 #vd                    id                    ig                    ib                    is                   
  0                     -1.0992e-10           1.2516e-09            1.72e-12              -1.0862e-09          
  0.05                  4.3884e-07            1.1228e-09            7.4e-13               -4.3992e-07          
  0.1                   8.555e-07             1.0102e-09            1e-12                 -8.565e-07           
  0.15                  1.2496e-06            9.1174e-10            1.14e-12              -1.2466e-06          
  0.2                   1.6168e-06            8.277e-10             4.4e-13               -1.6138e-06          
  0.25                  1.9572e-06            7.5556e-10            1.24e-12              -1.9542e-06          
  0.3                   2.2696e-06            6.9416e-10            5.4e-13               -2.2666e-06          
  0.35                  2.5524e-06            6.4278e-10            -4e-14                -2.5492e-06          
  0.4                   2.8036e-06            6e-10                 1.12e-12              -2.8006e-06          
  0.45                  3.0206e-06            5.6538e-10            7.4e-13               -3.0172e-06          
  0.5                   3.1998e-06            5.3826e-10            1.22e-12              -3.1964e-06          
  0.55                  3.3376e-06            5.1822e-10            1.1e-12               -3.3342e-06          
  0.6                   3.4322e-06            5.0518e-10            3.4e-13               -3.4288e-06          
  0.65                  3.4904e-06            4.9722e-10            1.2e-12               -3.4868e-06          
  0.7                   3.5246e-06            4.9266e-10            1.72e-12              -3.5214e-06          
  0.75                  3.5472e-06            4.895e-10             6e-13                 -3.5438e-06          
  0.8                   3.5644e-06            4.8738e-10            6.2e-13               -3.5614e-06          
  0.85                  3.5794e-06            4.8544e-10            1.42e-12              -3.5762e-06          
  0.9                   3.593e-06             4.835e-10             -2e-13                -3.5898e-06          
  0.95                  3.6054e-06            4.8192e-10            1.08e-12              -3.602e-06           
  1                     3.6168e-06            4.8036e-10            -7e-13                -3.6138e-06          
  1.05                  3.6284e-06            4.7884e-10            3.4e-13               -3.6248e-06          
  1.1                   3.6388e-06            4.7756e-10            3.8e-13               -3.6356e-06          
  1.15                  3.6494e-06            4.7624e-10            1.36e-12              -3.6462e-06          
  1.2                   3.6594e-06            4.7518e-10            1e-13                 -3.6562e-06          
  1.25                  3.6692e-06            4.7362e-10            5.6e-13               -3.6658e-06          
  1.3                   3.6788e-06            4.7262e-10            1.9e-12               -3.6754e-06          
  1.35                  3.688e-06             4.7128e-10            3.4e-13               -3.6846e-06          
END_DB

BEGIN_DB
 ICCAP_VAR vg         1.35           
 ICCAP_VAR vb         0              
 ICCAP_VAR vs         0              

 #vd                    id                    ig                    ib                    is                   
  0                     -1.182e-09            3.5806e-09            -1.38e-12             -2.2776e-09          
  0.05                  5.1956e-07            3.2778e-09            -1.76e-12             -5.2274e-07          
  0.1                   1.02406e-06           3.005e-09             -1.32e-12             -1.0271e-06          
  0.15                  1.5124e-06            2.7596e-09            8.8e-13               -1.5112e-06          
  0.2                   1.9798e-06            2.5422e-09            -2.2e-13              -1.9786e-06          
  0.25                  2.4274e-06            2.3476e-09            2e-14                 -2.4258e-06          
  0.3                   2.8536e-06            2.175e-09             5.6e-13               -2.8518e-06          
  0.35                  3.257e-06             2.023e-09             -2.4e-13              -3.2552e-06          
  0.4                   3.637e-06             1.8888e-09            -4e-13                -3.6352e-06          
  0.45                  3.9914e-06            1.772e-09             8.4e-13               -3.9892e-06          
  0.5                   4.3196e-06            1.6706e-09            6.6e-13               -4.3174e-06          
  0.55                  4.6198e-06            1.583e-09             -1e-13                -4.6176e-06          
  0.6                   4.89e-06              1.5084e-09            7e-13                 -4.8878e-06          
  0.65                  5.128e-06             1.4466e-09            2e-13                 -5.1256e-06          
  0.7                   5.3302e-06            1.3958e-09            3.4e-13               -5.328e-06           
  0.75                  5.4938e-06            1.3564e-09            9.6e-13               -5.4916e-06          
  0.8                   5.616e-06             1.328e-09             2.6e-13               -5.6134e-06          
  0.85                  5.699e-06             1.3088e-09            -1.8e-13              -5.6964e-06          
  0.9                   5.7518e-06            1.2968e-09            4e-14                 -5.7492e-06          
  0.95                  5.786e-06             1.2894e-09            4.2e-13               -5.7834e-06          
  1                     5.8104e-06            1.284e-09             0                     -5.808e-06           
  1.05                  5.8302e-06            1.2798e-09            2.8e-13               -5.8276e-06          
  1.1                   5.8472e-06            1.2758e-09            5.6e-13               -5.845e-06           
  1.15                  5.863e-06             1.2722e-09            -3e-13                -5.8606e-06          
  1.2                   5.8776e-06            1.2694e-09            -1.22e-12             -5.875e-06           
  1.25                  5.8916e-06            1.2666e-09            2.8e-13               -5.889e-06           
  1.3                   5.9048e-06            1.2634e-09            2.34e-12              -5.902e-06           
  1.35                  5.9172e-06            1.2608e-09            -5.2e-13              -5.9146e-06          
END_DB

