! VERSION = 6.00
BEGIN_HEADER
 ICCAP_INPUTS
  vd         V  D GROUND SMU1 0.1 LIN        1    0          1.35       28   0.05      
  vg         V  G GROUND SMU2 0.001 LIN        2    0.414      1.35       5    0.234     
  vb         V  B GROUND SMU4 0.1 CON        0
  vs         V  S GROUND SMU3 0.1 CON        0
 ICCAP_OUTPUTS
  id         I  D GROUND SMU1 B
  ig         I  G GROUND SMU2 B
  ib         I  B GROUND SMU4 B
  is         I  S GROUND SMU3 B
 ICCAP_VALUES
  MASTER_SETUP_TYPE "~dc_idvd~"
  LINVT_VALUE "|idvg|100.0n|100.0m|1.000m|5|1.350|"
  LISTVT_VALUE ""
  TYPE "1"
  TEMP " 125.000 "
  IS_TNOM " 0.00000 "
  MAIN.W "150.0n"
  MAIN.L "130.0n"
  MAIN.AD "100.5f"
  MAIN.AS "100.5f"
  MAIN.PD "1.340u"
  MAIN.PS "1.340u"
  MAIN.NF "1.000"
  MAIN.M "1"
  MAIN.NRD "0.000"
  MAIN.NRS "0.000"
  MAIN.LDRIFT1 "1E-06"
  MAIN.LDRIFT2 "1E-06"
  MAIN.SA "0.000"
  MAIN.SB "0.000"
  MAIN.SD "0.000"
  MAIN.SCA "0.000"
  MAIN.SCB "0.000"
  MAIN.SCC "0.000"
  MAIN.SC "0.000"
  MODULE "S546"
  PIN_D "16"
  PIN_G "5"
  PIN_S "6"
  PIN_B "15"
  PIN_E ""
  PIN_6 ""
  XY_ID ""
  FUNC "Small"
  STI "SA ref"
  WPE "WPE ref"
  COMMENT ""
  DIS_MEAS ""
  TypeTCI "10"
END_HEADER

BEGIN_DB
 ICCAP_VAR vg         0.414          
 ICCAP_VAR vb         0              
 ICCAP_VAR vs         0              

 #vd                    id                    ig                    ib                    is                   
  0                     9.566e-10             6.4e-13               2.358e-11             -7.4386e-10          
  0.05                  4.2634e-07            5.6e-13               2.112e-11             -4.2636e-07          
  0.1                   6.0146e-07            4e-13                 2.146e-11             -6.0156e-07          
  0.15                  6.7264e-07            3.8e-13               2.066e-11             -6.7292e-07          
  0.2                   7.082e-07             4e-13                 1.882e-11             -7.0812e-07          
  0.25                  7.3162e-07            3.4e-13               1.84e-11              -7.316e-07           
  0.3                   7.511e-07             3.6e-13               1.854e-11             -7.5116e-07          
  0.35                  7.692e-07             6e-13                 1.73e-11              -7.6912e-07          
  0.4                   7.8648e-07            3.4e-13               1.64e-11              -7.8644e-07          
  0.45                  8.0316e-07            4.4e-13               1.598e-11             -8.0326e-07          
  0.5                   8.1968e-07            3.6e-13               1.63e-11              -8.1996e-07          
  0.55                  8.3628e-07            4e-13                 1.482e-11             -8.3642e-07          
  0.6                   8.526e-07             3.4e-13               1.44e-11              -8.5274e-07          
  0.65                  8.69e-07              3.4e-13               1.474e-11             -8.69e-07            
  0.7                   8.8524e-07            4e-13                 1.438e-11             -8.8512e-07          
  0.75                  9.0136e-07            2.4e-13               1.342e-11             -9.0138e-07          
  0.8                   9.1776e-07            2.8e-13               1.228e-11             -9.1778e-07          
  0.85                  9.3398e-07            4e-13                 1.28e-11              -9.342e-07           
  0.9                   9.5032e-07            3.4e-13               1.238e-11             -9.5048e-07          
  0.95                  9.671e-07             2.6e-13               1.03e-11              -9.672e-07           
  1                     9.8362e-07            4e-13                 8.16e-12              -9.8384e-07          
  1.05                  1.00052e-06           2.8e-13               5.9e-12               -1.00048e-06         
  1.1                   1.01726e-06           3.2e-13               -2.32e-12             -1.0175e-06          
  1.15                  1.03452e-06           4e-13                 -1.364e-11            -1.03472e-06         
  1.2                   1.05172e-06           1.8e-13               -3.156e-11            -1.05188e-06         
  1.25                  1.06914e-06           8e-14                 -5.844e-11            -1.06946e-06         
  1.3                   1.08698e-06           2.2e-13               -1.0072e-10           -1.0869e-06          
  1.35                  1.10492e-06           1.2e-13               -1.6118e-10           -1.10482e-06         
END_DB

BEGIN_DB
 ICCAP_VAR vg         0.648          
 ICCAP_VAR vb         0              
 ICCAP_VAR vs         0              

 #vd                    id                    ig                    ib                    is                   
  0                     2.7976e-09            2.82e-12              8.88e-12              -3.2158e-09          
  0.05                  3.2884e-06            2.48e-12              8.32e-12              -3.2852e-06          
  0.1                   5.6492e-06            2.36e-12              8.68e-12              -5.645e-06           
  0.15                  7.237e-06             2.3e-12               7.1e-12               -7.2336e-06          
  0.2                   8.2492e-06            2.14e-12              7.68e-12              -8.2436e-06          
  0.25                  8.8822e-06            2.24e-12              7.92e-12              -8.8826e-06          
  0.3                   9.2992e-06            2.28e-12              6.72e-12              -9.2952e-06          
  0.35                  9.5932e-06            2.24e-12              7.32e-12              -9.59e-06            
  0.4                   9.821e-06             2.06e-12              7.06e-12              -9.8178e-06          
  0.45                  1.00198e-05           2.16e-12              6.68e-12              -1.0017e-05          
  0.5                   1.02e-05              1.98e-12              7.12e-12              -1.01968e-05         
  0.55                  1.03672e-05           1.98e-12              6.14e-12              -1.03634e-05         
  0.6                   1.0526e-05            2.12e-12              5.76e-12              -1.05232e-05         
  0.65                  1.06798e-05           2.02e-12              7.16e-12              -1.06758e-05         
  0.7                   1.08264e-05           2.14e-12              6.42e-12              -1.08066e-05         
  0.75                  1.0973e-05            2.08e-12              6.02e-12              -1.097e-05           
  0.8                   1.1118e-05            2.12e-12              5.68e-12              -1.1111e-05          
  0.85                  1.1254e-05            1.98e-12              4.9e-12               -1.12496e-05         
  0.9                   1.1392e-05            1.98e-12              4.92e-12              -1.13878e-05         
  0.95                  1.1528e-05            2.02e-12              1.96e-12              -1.15226e-05         
  1                     1.1664e-05            2.02e-12              -1.42e-12             -1.1658e-05          
  1.05                  1.1798e-05            1.98e-12              -1.028e-11            -1.179e-05           
  1.1                   1.1926e-05            1.76e-12              -2.624e-11            -1.192e-05           
  1.15                  1.2056e-05            2.06e-12              -5.668e-11            -1.2052e-05          
  1.2                   1.2188e-05            1.96e-12              -1.1126e-10           -1.2184e-05          
  1.25                  1.2322e-05            1.84e-12              -2.0462e-10           -1.2312e-05          
  1.3                   1.2452e-05            1.8e-12               -3.5962e-10           -1.2444e-05          
  1.35                  1.2578e-05            1.88e-12              -6.0308e-10           -1.257e-05           
END_DB

BEGIN_DB
 ICCAP_VAR vg         0.882          
 ICCAP_VAR vb         0              
 ICCAP_VAR vs         0              

 #vd                    id                    ig                    ib                    is                   
  0                     1.0596e-08            9.16e-12              5.48e-12              -9.924e-09           
  0.05                  7.2714e-06            8.56e-12              4.3e-12               -7.2662e-06          
  0.1                   1.3432e-05            8.1e-12               4.46e-12              -1.3422e-05          
  0.15                  1.8438e-05            7.68e-12              4.16e-12              -1.8436e-05          
  0.2                   2.235e-05             7.48e-12              5.02e-12              -2.234e-05           
  0.25                  2.53e-05              7.1e-12               3.54e-12              -2.5294e-05          
  0.3                   2.7462e-05            6.98e-12              4.4e-12               -2.7448e-05          
  0.35                  2.9024e-05            6.98e-12              4.58e-12              -2.902e-05           
  0.4                   3.0172e-05            6.78e-12              4.04e-12              -3.0164e-05          
  0.45                  3.1028e-05            6.66e-12              4.94e-12              -3.102e-05           
  0.5                   3.1708e-05            6.64e-12              4.12e-12              -3.1702e-05          
  0.55                  3.2268e-05            6.7e-12               3.04e-12              -3.226e-05           
  0.6                   3.2756e-05            6.66e-12              5e-12                 -3.275e-05           
  0.65                  3.3186e-05            6.64e-12              3.64e-12              -3.3184e-05          
  0.7                   3.359e-05             6.52e-12              3.66e-12              -3.3586e-05          
  0.75                  3.3968e-05            6.44e-12              4.88e-12              -3.3958e-05          
  0.8                   3.418e-05             6.44e-12              3.04e-12              -3.4168e-05          
  0.85                  3.4594e-05            6.58e-12              2.18e-12              -3.4654e-05          
  0.9                   3.4992e-05            6.42e-12              2e-12                 -3.4988e-05          
  0.95                  3.5316e-05            6.34e-12              -1.52e-12             -3.5306e-05          
  1                     3.5624e-05            6.4e-12               -5.98e-12             -3.562e-05           
  1.05                  3.5928e-05            6.5e-12               -1.682e-11            -3.5926e-05          
  1.1                   3.6234e-05            6.4e-12               -3.844e-11            -3.6226e-05          
  1.15                  3.652e-05             6.38e-12              -7.746e-11            -3.6514e-05          
  1.2                   3.6816e-05            6.42e-12              -1.5072e-10           -3.6808e-05          
  1.25                  3.71e-05              6.34e-12              -2.793e-10            -3.7094e-05          
  1.3                   3.7388e-05            6.24e-12              -4.9246e-10           -3.7376e-05          
  1.35                  3.7656e-05            6.38e-12              -8.4164e-10           -3.7652e-05          
END_DB

BEGIN_DB
 ICCAP_VAR vg         1.116          
 ICCAP_VAR vb         0              
 ICCAP_VAR vs         0              

 #vd                    id                    ig                    ib                    is                   
  0                     1.4972e-08            2.226e-11             4.18e-12              -1.4096e-08          
  0.05                  1.0836e-05            2.104e-11             3.24e-12              -1.0828e-05          
  0.1                   2.0594e-05            2.002e-11             2.6e-12               -2.0588e-05          
  0.15                  2.9114e-05            1.92e-11              4.14e-12              -2.9106e-05          
  0.2                   3.6336e-05            1.838e-11             2.38e-12              -3.6334e-05          
  0.25                  4.2294e-05            1.772e-11             2.56e-12              -4.229e-05           
  0.3                   4.7098e-05            1.734e-11             3.14e-12              -4.709e-05           
  0.35                  5.0878e-05            1.678e-11             2.4e-12               -5.0876e-05          
  0.4                   5.3818e-05            1.648e-11             3.16e-12              -5.3814e-05          
  0.45                  5.6098e-05            1.622e-11             2.54e-12              -5.609e-05           
  0.5                   5.786e-05             1.596e-11             2e-12                 -5.7858e-05          
  0.55                  5.9254e-05            1.578e-11             3.14e-12              -5.9252e-05          
  0.6                   6.0374e-05            1.572e-11             2.58e-12              -6.0378e-05          
  0.65                  6.1326e-05            1.556e-11             2.46e-12              -6.1324e-05          
  0.7                   6.214e-05             1.554e-11             3.9e-12               -6.2126e-05          
  0.75                  6.2848e-05            1.54e-11              2.52e-12              -6.2854e-05          
  0.8                   6.35e-05              1.538e-11             1.34e-12              -6.35e-05            
  0.85                  6.4098e-05            1.53e-11              2.58e-12              -6.41e-05            
  0.9                   6.4664e-05            1.516e-11             -5.4e-13              -6.4656e-05          
  0.95                  6.52e-05              1.522e-11             -3.44e-12             -6.5192e-05          
  1                     6.5708e-05            1.52e-11              -8.12e-12             -6.5696e-05          
  1.05                  6.619e-05             1.514e-11             -2.226e-11            -6.6188e-05          
  1.1                   6.6668e-05            1.504e-11             -4.508e-11            -6.6656e-05          
  1.15                  6.7122e-05            1.5e-11               -8.808e-11            -6.7112e-05          
  1.2                   6.7568e-05            1.506e-11             -1.6858e-10           -6.7566e-05          
  1.25                  6.8006e-05            1.5e-11               -3.0568e-10           -6.799e-05           
  1.3                   6.8424e-05            1.5e-11               -5.3768e-10           -6.8422e-05          
  1.35                  6.885e-05             1.496e-11             -9.1656e-10           -6.8838e-05          
END_DB

BEGIN_DB
 ICCAP_VAR vg         1.35           
 ICCAP_VAR vb         0              
 ICCAP_VAR vs         0              

 #vd                    id                    ig                    ib                    is                   
  0                     1.8312e-08            4.442e-11             3.04e-12              -1.817e-08           
  0.05                  1.3682e-05            4.24e-11              2.8e-12               -1.3674e-05          
  0.1                   2.6396e-05            4.046e-11             1.98e-12              -2.6386e-05          
  0.15                  3.7918e-05            3.888e-11             2.88e-12              -3.7912e-05          
  0.2                   4.8102e-05            3.724e-11             2.26e-12              -4.81e-05            
  0.25                  5.6928e-05            3.61e-11              1.88e-12              -5.6916e-05          
  0.3                   6.4422e-05            3.472e-11             2.96e-12              -6.4416e-05          
  0.35                  7.0674e-05            3.376e-11             2.02e-12              -7.0676e-05          
  0.4                   7.584e-05             3.278e-11             1.8e-12               -7.5728e-05          
  0.45                  7.999e-05             3.216e-11             2.32e-12              -7.9998e-05          
  0.5                   8.338e-05             3.162e-11             2.38e-12              -8.339e-05           
  0.55                  8.6106e-05            3.1e-11               1.96e-12              -8.6112e-05          
  0.6                   8.8314e-05            3.07e-11              2.48e-12              -8.8288e-05          
  0.65                  9.011e-05             3.034e-11             1.84e-12              -9.007e-05           
  0.7                   9.162e-05             3.002e-11             1.92e-12              -9.1608e-05          
  0.75                  9.2876e-05            2.988e-11             1.52e-12              -9.2846e-05          
  0.8                   9.3984e-05            2.972e-11             6.8e-13               -9.3978e-05          
  0.85                  9.4962e-05            2.946e-11             4.4e-13               -9.4954e-05          
  0.9                   9.5846e-05            2.938e-11             -1.38e-12             -9.5708e-05          
  0.95                  9.666e-05             2.924e-11             -4.82e-12             -9.655e-05           
  1                     9.74e-05              2.916e-11             -1.026e-11            -9.7398e-05          
  1.05                  9.797e-05             2.9e-11               -2.364e-11            -9.796e-05           
  1.1                   9.8748e-05            2.9e-11               -4.85e-11             -9.8772e-05          
  1.15                  9.942e-05             2.894e-11             -9.298e-11            -9.941e-05           
  1.2                   0.000100018           2.888e-11             -1.733e-10            -0.000100018         
  1.25                  0.000100606           2.874e-11             -3.1172e-10           -0.000100596         
  1.3                   0.000101176           2.882e-11             -5.4142e-10           -0.000101176         
  1.35                  0.000101722           2.866e-11             -9.1668e-10           -0.000101714         
END_DB

