! VERSION = 6.00
BEGIN_HEADER
 ICCAP_INPUTS
  vd         V  D GROUND SMU1 0.1 LIN        1    0          1.35       28   0.05      
  vg         V  G GROUND SMU2 0.001 LIN        2    0.542      1.35       5    0.202     
  vb         V  B GROUND SMU4 0.1 CON        0
  vs         V  S GROUND SMU3 0.1 CON        0
 ICCAP_OUTPUTS
  id         I  D GROUND SMU1 B
  ig         I  G GROUND SMU2 B
  ib         I  B GROUND SMU4 B
  is         I  S GROUND SMU3 B
 ICCAP_VALUES
  MASTER_SETUP_TYPE "~dc_idvd~"
  LINVT_VALUE "|idvg|100.0n|100.0m|1.000m|5|1.350|"
  LISTVT_VALUE ""
  TYPE "1"
  TEMP " 27.0000 "
  IS_TNOM " 1.00000 "
  MAIN.W "300.0n"
  MAIN.L "130.0n"
  MAIN.AD "102.0f"
  MAIN.AS "102.0f"
  MAIN.PD "1.280u"
  MAIN.PS "1.280u"
  MAIN.NF "1.000"
  MAIN.M "1"
  MAIN.NRD "0.000"
  MAIN.NRS "0.000"
  MAIN.LDRIFT1 "1E-06"
  MAIN.LDRIFT2 "1E-06"
  MAIN.SA "0.000"
  MAIN.SB "0.000"
  MAIN.SD "0.000"
  MAIN.SCA "0.000"
  MAIN.SCB "0.000"
  MAIN.SCC "0.000"
  MAIN.SC "0.000"
  MODULE "S544"
  PIN_D "18"
  PIN_G "3"
  PIN_S "4"
  PIN_B "17"
  PIN_E ""
  PIN_6 ""
  XY_ID ""
  FUNC "LW Scale"
  STI "SA ref"
  WPE "WPE ref"
  COMMENT ""
  DIS_MEAS ""
  TypeTCI "10"
END_HEADER

BEGIN_DB
 ICCAP_VAR vg         0.542          
 ICCAP_VAR vb         0              
 ICCAP_VAR vs         0              

 #vd                    id                    ig                    ib                    is                   
  0                     1.5936e-09            5.4e-13               8.34e-12              -1.0854e-09          
  0.05                  8.0864e-07            3.8e-13               6.56e-12              -7.9524e-07          
  0.1                   1.12926e-06           2.6e-13               6.24e-12              -1.14914e-06         
  0.15                  1.3178e-06            4.2e-13               6.96e-12              -1.3132e-06          
  0.2                   1.432e-06             2.6e-13               5.32e-12              -1.421e-06           
  0.25                  1.5134e-06            2.4e-13               5.42e-12              -1.483e-06           
  0.3                   1.5788e-06            1.2e-13               5.5e-12               -1.5804e-06          
  0.35                  1.6602e-06            2.6e-13               4.14e-12              -1.6564e-06          
  0.4                   1.7612e-06            2.4e-13               5.1e-12               -1.7636e-06          
  0.45                  1.8402e-06            1.6e-13               4.76e-12              -1.8364e-06          
  0.5                   1.9114e-06            2.8e-13               4.22e-12              -1.908e-06           
  0.55                  1.9826e-06            2.8e-13               4.72e-12              -1.9786e-06          
  0.6                   2.0526e-06            2.2e-13               4.4e-12               -2.0482e-06          
  0.65                  2.0818e-06            2.8e-13               4.3e-12               -2.0788e-06          
  0.7                   2.1234e-06            3e-13                 5.62e-12              -2.1154e-06          
  0.75                  2.2216e-06            2.8e-13               5.08e-12              -2.2172e-06          
  0.8                   2.289e-06             2.4e-13               3.2e-12               -2.2856e-06          
  0.85                  2.358e-06             2.8e-13               4.2e-12               -2.3548e-06          
  0.9                   2.4278e-06            2e-13                 3.58e-12              -2.4238e-06          
  0.95                  2.4974e-06            1.4e-13               2.64e-12              -2.506e-06           
  1                     2.5446e-06            2e-13                 3.08e-12              -2.5256e-06          
  1.05                  2.639e-06             1.2e-13               2.4e-12               -2.5968e-06          
  1.1                   2.6898e-06            2e-13                 -1.26e-12             -2.7072e-06          
  1.15                  2.745e-06             1.8e-13               -7.06e-12             -2.7402e-06          
  1.2                   2.8452e-06            1.6e-13               -1.99e-11             -2.8536e-06          
  1.25                  2.9318e-06            1.6e-13               -4.298e-11            -2.928e-06           
  1.3                   2.9672e-06            8e-14                 -8.322e-11            -3.004e-06           
  1.35                  3.0852e-06            0                     -1.48e-10             -3.0812e-06          
END_DB

BEGIN_DB
 ICCAP_VAR vg         0.744          
 ICCAP_VAR vb         0              
 ICCAP_VAR vs         0              

 #vd                    id                    ig                    ib                    is                   
  0                     2.9316e-09            1.84e-12              3.94e-12              -3.9144e-09          
  0.05                  5.3584e-06            1.48e-12              2.74e-12              -5.3538e-06          
  0.1                   9.1044e-06            1.44e-12              2e-12                 -9.0874e-06          
  0.15                  1.1584e-05            1.32e-12              1.78e-12              -1.1582e-05          
  0.2                   1.321e-05             1.04e-12              2.86e-12              -1.3172e-05          
  0.25                  1.4284e-05            9.8e-13               1.86e-12              -1.4266e-05          
  0.3                   1.506e-05             8.2e-13               1.74e-12              -1.5044e-05          
  0.35                  1.567e-05             9.2e-13               3.04e-12              -1.5596e-05          
  0.4                   1.6204e-05            8.8e-13               1.84e-12              -1.6186e-05          
  0.45                  1.6678e-05            8.6e-13               1.38e-12              -1.6534e-05          
  0.5                   1.7116e-05            8.8e-13               1.5e-12               -1.7098e-05          
  0.55                  1.7526e-05            8.8e-13               1.92e-12              -1.7512e-05          
  0.6                   1.7922e-05            9.4e-13               1.76e-12              -1.7904e-05          
  0.65                  1.8302e-05            8.8e-13               2.8e-12               -1.8284e-05          
  0.7                   1.8602e-05            8.6e-13               1.74e-12              -1.8726e-05          
  0.75                  1.9108e-05            8e-13                 1.06e-12              -1.9092e-05          
  0.8                   1.9464e-05            7.4e-13               2.28e-12              -1.9446e-05          
  0.85                  1.9814e-05            8.2e-13               1.74e-12              -1.9798e-05          
  0.9                   2.0074e-05            8.6e-13               7e-13                 -2.0056e-05          
  0.95                  2.0412e-05            8.2e-13               1.82e-12              -2.0396e-05          
  1                     2.075e-05             8e-13                 3.8e-13               -2.0732e-05          
  1.05                  2.1082e-05            8e-13                 -2e-12                -2.1064e-05          
  1.1                   2.141e-05             7.8e-13               -7.72e-12             -2.1396e-05          
  1.15                  2.1764e-05            7.8e-13               -2.25e-11             -2.1748e-05          
  1.2                   2.2126e-05            7.4e-13               -5.242e-11            -2.2066e-05          
  1.25                  2.2416e-05            7.2e-13               -1.1274e-10           -2.233e-05           
  1.3                   2.2716e-05            6.8e-13               -2.2484e-10           -2.2698e-05          
  1.35                  2.3118e-05            7.2e-13               -4.2074e-10           -2.302e-05           
END_DB

BEGIN_DB
 ICCAP_VAR vg         0.946          
 ICCAP_VAR vb         0              
 ICCAP_VAR vs         0              

 #vd                    id                    ig                    ib                    is                   
  0                     1.4414e-08            5.26e-12              2.32e-12              -1.3746e-08          
  0.05                  1.1598e-05            4.66e-12              9.4e-13               -1.1582e-05          
  0.1                   2.1232e-05            4.24e-12              1.06e-12              -2.1202e-05          
  0.15                  2.887e-05             3.76e-12              1.82e-12              -2.8872e-05          
  0.2                   3.4736e-05            3.42e-12              1.4e-12               -3.472e-05           
  0.25                  3.9026e-05            3.12e-12              1.3e-12               -3.9008e-05          
  0.3                   4.22e-05              2.94e-12              1.8e-12               -4.2196e-05          
  0.35                  4.4448e-05            2.88e-12              7.2e-13               -4.4478e-05          
  0.4                   4.6232e-05            2.72e-12              1.26e-12              -4.6222e-05          
  0.45                  4.7582e-05            2.72e-12              1.46e-12              -4.7602e-05          
  0.5                   4.872e-05             2.56e-12              1.1e-12               -4.8702e-05          
  0.55                  4.9746e-05            2.42e-12              1.38e-12              -4.971e-05           
  0.6                   5.0518e-05            2.68e-12              1.92e-12              -5.0522e-05          
  0.65                  5.1394e-05            2.42e-12              4e-13                 -5.1304e-05          
  0.7                   5.2154e-05            2.42e-12              8.8e-13               -5.2138e-05          
  0.75                  5.2876e-05            2.42e-12              1.28e-12              -5.2888e-05          
  0.8                   5.3566e-05            2.34e-12              8.4e-13               -5.3572e-05          
  0.85                  5.4236e-05            2.34e-12              8.4e-13               -5.423e-05           
  0.9                   5.4882e-05            2.3e-12               1.1e-12               -5.4864e-05          
  0.95                  5.5514e-05            2.44e-12              0                     -5.5496e-05          
  1                     5.613e-05             2.3e-12               -2.06e-12             -5.6076e-05          
  1.05                  5.6748e-05            2.34e-12              -5.76e-12             -5.672e-05           
  1.1                   5.7332e-05            2.36e-12              -1.62e-11             -5.7316e-05          
  1.15                  5.7918e-05            2.18e-12              -3.652e-11            -5.7902e-05          
  1.2                   5.85e-05              2.24e-12              -7.968e-11            -5.8482e-05          
  1.25                  5.899e-05             2.2e-12               -1.6396e-10           -5.9052e-05          
  1.3                   5.9636e-05            2.24e-12              -3.2088e-10           -5.9618e-05          
  1.35                  6.0194e-05            2.26e-12              -5.9838e-10           -6.0198e-05          
END_DB

BEGIN_DB
 ICCAP_VAR vg         1.148          
 ICCAP_VAR vb         0              
 ICCAP_VAR vs         0              

 #vd                    id                    ig                    ib                    is                   
  0                     2.0764e-08            1.292e-11             2.02e-12              -1.963e-08           
  0.05                  1.7252e-05            1.174e-11             1.48e-12              -1.722e-05           
  0.1                   3.2544e-05            1.05e-11              8.8e-13               -3.255e-05           
  0.15                  4.5646e-05            9.52e-12              -3.4e-13              -4.5632e-05          
  0.2                   5.6508e-05            8.8e-12               1.52e-12              -5.653e-05           
  0.25                  6.5216e-05            8.2e-12               1.02e-12              -6.52e-05            
  0.3                   7.2098e-05            7.62e-12              6e-14                 -7.2056e-05          
  0.35                  7.7364e-05            7.18e-12              1.1e-12               -7.7364e-05          
  0.4                   8.1468e-05            7.04e-12              4.8e-13               -8.1438e-05          
  0.45                  8.4512e-05            6.66e-12              -3.6e-13              -8.449e-05           
  0.5                   8.701e-05             6.48e-12              1.76e-12              -8.695e-05           
  0.55                  8.8932e-05            6.28e-12              4.4e-13               -8.8926e-05          
  0.6                   9.0626e-05            6.16e-12              5.6e-13               -9.066e-05           
  0.65                  9.2082e-05            6.1e-12               9.8e-13               -9.2114e-05          
  0.7                   9.3314e-05            6.08e-12              6e-13                 -9.3276e-05          
  0.75                  9.4422e-05            5.94e-12              5.2e-13               -9.4496e-05          
  0.8                   9.565e-05             5.84e-12              1.2e-12               -9.5542e-05          
  0.85                  9.6576e-05            5.82e-12              3.8e-13               -9.658e-05           
  0.9                   9.744e-05             5.78e-12              -1.8e-13              -9.7424e-05          
  0.95                  9.84e-05              5.82e-12              -5.6e-13              -9.842e-05           
  1                     9.928e-05             5.74e-12              -4.28e-12             -9.936e-05           
  1.05                  0.000100156           5.66e-12              -1.01e-11             -0.000100164         
  1.1                   0.000100984           5.6e-12               -2.218e-11            -0.000100918         
  1.15                  0.0001018             5.58e-12              -5e-11                -0.000101762         
  1.2                   0.000102638           5.6e-12               -1.0206e-10           -0.000102662         
  1.25                  0.000103418           5.58e-12              -2.0256e-10           -0.00010335          
  1.3                   0.000104136           5.52e-12              -3.8658e-10           -0.000104122         
  1.35                  0.000104914           5.46e-12              -7.0652e-10           -0.000104842         
END_DB

BEGIN_DB
 ICCAP_VAR vg         1.35           
 ICCAP_VAR vb         0              
 ICCAP_VAR vs         0              

 #vd                    id                    ig                    ib                    is                   
  0                     2.7442e-08            2.742e-11             1.64e-12              -2.5476e-08          
  0.05                  2.1746e-05            2.516e-11             1.46e-12              -2.1726e-05          
  0.1                   4.1734e-05            2.31e-11              1.2e-12               -4.1718e-05          
  0.15                  5.954e-05             2.126e-11             8e-14                 -5.9548e-05          
  0.2                   7.4938e-05            1.976e-11             1.52e-12              -7.492e-05           
  0.25                  8.797e-05             1.844e-11             6.6e-13               -8.797e-05           
  0.3                   9.8748e-05            1.72e-11              0                     -9.8554e-05          
  0.35                  0.00010736            1.64e-11              1.08e-12              -0.000107562         
  0.4                   0.00011464            1.562e-11             6.6e-13               -0.00011459          
  0.45                  0.00012036            1.492e-11             1.84e-12              -0.00011994          
  0.5                   0.00012486            1.432e-11             2.8e-13               -0.00012446          
  0.55                  0.00012844            1.408e-11             6.8e-13               -0.00012814          
  0.6                   0.0001314             1.362e-11             1.6e-12               -0.000131            
  0.65                  0.0001338             1.324e-11             -3.2e-13              -0.00013342          
  0.7                   0.00013574            1.302e-11             1.08e-12              -0.00013546          
  0.75                  0.00013766            1.282e-11             1.4e-13               -0.0001373           
  0.8                   0.00013932            1.268e-11             -4e-13                -0.00013884          
  0.85                  0.00014066            1.262e-11             8.8e-13               -0.00014028          
  0.9                   0.00014204            1.238e-11             -8.6e-13              -0.00014168          
  0.95                  0.00014332            1.236e-11             -3.08e-12             -0.00014288          
  1                     0.00014448            1.216e-11             -4.4e-12              -0.00014414          
  1.05                  0.0001456             1.218e-11             -1.258e-11            -0.00014518          
  1.1                   0.00014662            1.214e-11             -2.892e-11            -0.00014624          
  1.15                  0.00014762            1.188e-11             -5.942e-11            -0.00014726          
  1.2                   0.0001486             1.192e-11             -1.1966e-10           -0.00014826          
  1.25                  0.00014964            1.184e-11             -2.2958e-10           -0.00014922          
  1.3                   0.00015042            1.19e-11              -4.2498e-10           -0.0001502           
  1.35                  0.0001515             1.192e-11             -7.6574e-10           -0.0001512           
END_DB

