! VERSION = 6.00
BEGIN_HEADER
 ICCAP_INPUTS
  vd         V  D GROUND SMU1 0.1 LIN        1    0          1.35       28   0.05      
  vg         V  G GROUND SMU2 0.001 LIN        2    0.498      1.35       5    0.213     
  vb         V  B GROUND SMU4 0.1 CON        0
  vs         V  S GROUND SMU3 0.1 CON        0
 ICCAP_OUTPUTS
  id         I  D GROUND SMU1 B
  ig         I  G GROUND SMU2 B
  ib         I  B GROUND SMU4 B
  is         I  S GROUND SMU3 B
 ICCAP_VALUES
  MASTER_SETUP_TYPE "~dc_idvd~"
  LINVT_VALUE "|idvg|100.0n|100.0m|1.000m|5|1.350|"
  LISTVT_VALUE ""
  TYPE "1"
  TEMP " 27.0000 "
  IS_TNOM " 1.00000 "
  MAIN.W "300.0n"
  MAIN.L "150.0n"
  MAIN.AD "102.0f"
  MAIN.AS "102.0f"
  MAIN.PD "1.280u"
  MAIN.PS "1.280u"
  MAIN.NF "1.000"
  MAIN.M "1"
  MAIN.NRD "0.000"
  MAIN.NRS "0.000"
  MAIN.LDRIFT1 "1E-06"
  MAIN.LDRIFT2 "1E-06"
  MAIN.SA "0.000"
  MAIN.SB "0.000"
  MAIN.SD "0.000"
  MAIN.SCA "0.000"
  MAIN.SCB "0.000"
  MAIN.SCC "0.000"
  MAIN.SC "0.000"
  MODULE "S544"
  PIN_D "14"
  PIN_G "7"
  PIN_S "8"
  PIN_B "13"
  PIN_E ""
  PIN_6 ""
  XY_ID ""
  FUNC "LW Scale"
  STI "SA ref"
  WPE "WPE ref"
  COMMENT ""
  DIS_MEAS ""
  TypeTCI "10"
END_HEADER

BEGIN_DB
 ICCAP_VAR vg         0.498          
 ICCAP_VAR vb         0              
 ICCAP_VAR vs         0              

 #vd                    id                    ig                    ib                    is                   
  0                     2.1248e-09            7.2e-13               8.04e-12              -1.5328e-09          
  0.05                  8.992e-07             5e-13                 6.5e-12               -9.0472e-07          
  0.1                   1.2882e-06            4.8e-13               6.5e-12               -1.2838e-06          
  0.15                  1.4526e-06            4e-13                 6.88e-12              -1.4486e-06          
  0.2                   1.5552e-06            4.6e-13               5.36e-12              -1.5366e-06          
  0.25                  1.5892e-06            3.2e-13               6.5e-12               -1.5768e-06          
  0.3                   1.6182e-06            1.6e-13               6.36e-12              -1.6136e-06          
  0.35                  1.6782e-06            2.6e-13               4.84e-12              -1.6478e-06          
  0.4                   1.6822e-06            2.6e-13               6e-12                 -1.7062e-06          
  0.45                  1.7104e-06            4.2e-13               5.64e-12              -1.735e-06           
  0.5                   1.7418e-06            2.2e-13               4.72e-12              -1.7634e-06          
  0.55                  1.765e-06             1e-13                 5.28e-12              -1.761e-06           
  0.6                   1.7904e-06            1.8e-13               4.92e-12              -1.7866e-06          
  0.65                  1.8154e-06            3.2e-13               3.96e-12              -1.8136e-06          
  0.7                   1.8412e-06            3.2e-13               5.04e-12              -1.8366e-06          
  0.75                  1.8644e-06            4e-13                 4.68e-12              -1.8706e-06          
  0.8                   1.888e-06             1.8e-13               4.14e-12              -1.8834e-06          
  0.85                  1.9142e-06            2.4e-13               4.18e-12              -1.918e-06           
  0.9                   1.9458e-06            1.4e-13               4.44e-12              -1.9486e-06          
  0.95                  1.9858e-06            0                     3.44e-12              -1.987e-06           
  1                     2.0144e-06            6e-14                 3.98e-12              -2.0112e-06          
  1.05                  2.0122e-06            1.6e-13               3.62e-12              -1.999e-06           
  1.1                   2.0246e-06            0                     2.04e-12              -2.0228e-06          
  1.15                  2.0482e-06            2e-14                 -1.1e-12              -2.0734e-06          
  1.2                   2.1054e-06            2e-13                 -6.4e-12              -2.065e-06           
  1.25                  2.103e-06             -2e-14                -1.636e-11            -2.1236e-06          
  1.3                   2.1478e-06            -1.6e-13              -3.378e-11            -2.116e-06           
  1.35                  2.1722e-06            -2e-13                -6.538e-11            -2.1596e-06          
END_DB

BEGIN_DB
 ICCAP_VAR vg         0.711          
 ICCAP_VAR vb         0              
 ICCAP_VAR vs         0              

 #vd                    id                    ig                    ib                    is                   
  0                     9.038e-09             2.08e-12              3.64e-12              -2.5642e-09          
  0.05                  5.3392e-06            1.92e-12              2.58e-12              -5.335e-06           
  0.1                   9.291e-06             1.68e-12              2.8e-12               -9.2868e-06          
  0.15                  1.207e-05             1.4e-12               3e-12                 -1.2052e-05          
  0.2                   1.3914e-05            1.4e-12               2.98e-12              -1.3896e-05          
  0.25                  1.511e-05             1.32e-12              2.38e-12              -1.5096e-05          
  0.3                   1.5898e-05            1.38e-12              3.08e-12              -1.5882e-05          
  0.35                  1.645e-05             1.36e-12              2.4e-12               -1.6432e-05          
  0.4                   1.686e-05             1.2e-12               -2.6e-13              -1.6842e-05          
  0.45                  1.7194e-05            1.04e-12              3.24e-12              -1.7176e-05          
  0.5                   1.7486e-05            1.12e-12              2.06e-12              -1.7466e-05          
  0.55                  1.774e-05             1.16e-12              2.14e-12              -1.7728e-05          
  0.6                   1.7982e-05            1.18e-12              2.88e-12              -1.7972e-05          
  0.65                  1.8208e-05            1.2e-12               2.24e-12              -1.8194e-05          
  0.7                   1.8422e-05            1.06e-12              1.66e-12              -1.8408e-05          
  0.75                  1.8624e-05            1.28e-12              2.88e-12              -1.8604e-05          
  0.8                   1.882e-05             1.04e-12              2.16e-12              -1.8802e-05          
  0.85                  1.9006e-05            1.1e-12               1.4e-12               -1.8992e-05          
  0.9                   1.9188e-05            1.04e-12              2.42e-12              -1.9174e-05          
  0.95                  1.937e-05             1.06e-12              1.9e-12               -1.9364e-05          
  1                     1.9554e-05            1.16e-12              1.04e-12              -1.9536e-05          
  1.05                  1.9724e-05            1.12e-12              1.86e-12              -1.9712e-05          
  1.1                   1.99e-05              9.6e-13               -1.16e-12             -1.9866e-05          
  1.15                  2.005e-05             9.8e-13               -7.32e-12             -2.003e-05           
  1.2                   2.021e-05             1.06e-12              -1.864e-11            -2.019e-05           
  1.25                  2.037e-05             1.08e-12              -4.51e-11             -2.0352e-05          
  1.3                   2.0532e-05            1.04e-12              -9.472e-11            -2.0518e-05          
  1.35                  2.0704e-05            7.4e-13               -1.8548e-10           -2.0684e-05          
END_DB

BEGIN_DB
 ICCAP_VAR vg         0.924          
 ICCAP_VAR vb         0              
 ICCAP_VAR vs         0              

 #vd                    id                    ig                    ib                    is                   
  0                     1.7384e-08            7.44e-12              1.9e-12               -1.7278e-08          
  0.05                  1.0924e-05            6.44e-12              2.1e-12               -1.0906e-05          
  0.1                   2.026e-05             5.86e-12              1.26e-12              -2.0244e-05          
  0.15                  2.7966e-05            5.32e-12              2.38e-12              -2.7948e-05          
  0.2                   3.4076e-05            4.82e-12              1.56e-12              -3.4058e-05          
  0.25                  3.876e-05             4.56e-12              1.32e-12              -3.8744e-05          
  0.3                   4.2238e-05            4.24e-12              2.26e-12              -4.222e-05           
  0.35                  4.477e-05             4.04e-12              1.16e-12              -4.4754e-05          
  0.4                   4.6618e-05            3.96e-12              1.28e-12              -4.66e-05            
  0.45                  4.797e-05             3.66e-12              2.3e-12               -4.7966e-05          
  0.5                   4.9034e-05            3.62e-12              1.16e-12              -4.9026e-05          
  0.55                  4.9892e-05            3.72e-12              -8e-13                -4.986e-05           
  0.6                   5.0594e-05            3.72e-12              1.48e-12              -5.0594e-05          
  0.65                  5.1244e-05            3.72e-12              8.6e-13               -5.1226e-05          
  0.7                   5.1816e-05            3.6e-12               1.74e-12              -5.18e-05            
  0.75                  5.2348e-05            3.52e-12              2.16e-12              -5.2328e-05          
  0.8                   5.2842e-05            3.4e-12               8e-13                 -5.2826e-05          
  0.85                  5.3294e-05            3.48e-12              1.04e-12              -5.328e-05           
  0.9                   5.3762e-05            3.66e-12              1.56e-12              -5.375e-05           
  0.95                  5.419e-05             3.52e-12              2e-13                 -5.418e-05           
  1                     5.4614e-05            3.28e-12              1e-12                 -5.4596e-05          
  1.05                  5.5018e-05            3.38e-12              -2e-13                -5.5e-05             
  1.1                   5.5402e-05            3.36e-12              -4.24e-12             -5.539e-05           
  1.15                  5.5778e-05            3.42e-12              -1.052e-11            -5.5758e-05          
  1.2                   5.6146e-05            3.46e-12              -2.646e-11            -5.613e-05           
  1.25                  5.6512e-05            3.38e-12              -5.932e-11            -5.6498e-05          
  1.3                   5.6872e-05            3.5e-12               -1.2248e-10           -5.6864e-05          
  1.35                  5.7224e-05            3.48e-12              -2.4154e-10           -5.7212e-05          
END_DB

BEGIN_DB
 ICCAP_VAR vg         1.137          
 ICCAP_VAR vb         0              
 ICCAP_VAR vs         0              

 #vd                    id                    ig                    ib                    is                   
  0                     2.4296e-08            1.898e-11             1.88e-12              -2.3592e-08          
  0.05                  1.5828e-05            1.736e-11             1.62e-12              -1.581e-05           
  0.1                   3.0128e-05            1.598e-11             2.2e-13               -3.0112e-05          
  0.15                  4.2686e-05            1.468e-11             8.6e-13               -4.2672e-05          
  0.2                   5.3406e-05            1.358e-11             1.7e-12               -5.3386e-05          
  0.25                  6.2322e-05            1.248e-11             7.6e-13               -6.2302e-05          
  0.3                   6.9554e-05            1.174e-11             9.8e-13               -6.953e-05           
  0.35                  7.5282e-05            1.142e-11             1.18e-12              -7.5264e-05          
  0.4                   7.975e-05             1.076e-11             5.4e-13               -7.9738e-05          
  0.45                  8.3184e-05            1.032e-11             1.28e-12              -8.317e-05           
  0.5                   8.5836e-05            1.016e-11             6.4e-13               -8.5822e-05          
  0.55                  8.7908e-05            1.004e-11             4e-13                 -8.7888e-05          
  0.6                   8.9552e-05            9.58e-12              1.56e-12              -8.9534e-05          
  0.65                  9.0896e-05            9.48e-12              1.68e-12              -9.088e-05           
  0.7                   9.2044e-05            9.44e-12              6.4e-13               -9.2026e-05          
  0.75                  9.3042e-05            9.22e-12              1.06e-12              -9.303e-05           
  0.8                   9.394e-05             9.18e-12              1.26e-12              -9.3924e-05          
  0.85                  9.4756e-05            9.1e-12               6e-13                 -9.4748e-05          
  0.9                   9.5526e-05            8.84e-12              9.4e-13               -9.5506e-05          
  0.95                  9.6242e-05            8.96e-12              2.8e-13               -9.6224e-05          
  1                     9.6908e-05            9.14e-12              -3e-13                -9.6892e-05          
  1.05                  9.7562e-05            8.68e-12              -1.6e-12              -9.7558e-05          
  1.1                   9.8194e-05            8.52e-12              -5.5e-12              -9.8186e-05          
  1.15                  9.8806e-05            8.68e-12              -1.394e-11            -9.879e-05           
  1.2                   9.9386e-05            8.62e-12              -3.068e-11            -9.9374e-05          
  1.25                  9.996e-05             8.7e-12               -6.584e-11            -9.994e-05           
  1.3                   0.00010051            8.78e-12              -1.3274e-10           -0.000100494         
  1.35                  0.00010105            8.6e-12               -2.5642e-10           -0.000101036         
END_DB

BEGIN_DB
 ICCAP_VAR vg         1.35           
 ICCAP_VAR vb         0              
 ICCAP_VAR vs         0              

 #vd                    id                    ig                    ib                    is                   
  0                     2.9498e-08            4.222e-11             9.4e-13               -2.878e-08           
  0.05                  1.9754e-05            3.88e-11              8.2e-13               -1.9736e-05          
  0.1                   3.8128e-05            3.624e-11             3.4e-13               -3.811e-05           
  0.15                  5.4804e-05            3.36e-11              8e-13                 -5.4788e-05          
  0.2                   6.959e-05             3.124e-11             1.58e-12              -6.9572e-05          
  0.25                  8.2432e-05            2.944e-11             1.14e-12              -8.2416e-05          
  0.3                   9.3368e-05            2.776e-11             6.2e-13               -9.3354e-05          
  0.35                  0.000102518           2.64e-11              1.18e-12              -0.000102502         
  0.4                   0.000110048           2.5e-11               6.6e-13               -0.000110032         
  0.45                  0.00011628            2.382e-11             7.8e-13               -0.000116138         
  0.5                   0.0001212             2.284e-11             -1.4e-13              -0.0001208           
  0.55                  0.00012512            2.258e-11             9e-13                 -0.00012474          
  0.6                   0.00012826            2.182e-11             9e-13                 -0.00012788          
  0.65                  0.0001308             2.128e-11             3e-13                 -0.00013042          
  0.7                   0.00013288            2.108e-11             1.18e-12              -0.0001325           
  0.75                  0.00013464            2.102e-11             5.4e-13               -0.00013424          
  0.8                   0.00013614            2.062e-11             1.6e-13               -0.00013574          
  0.85                  0.00013744            2.052e-11             1.62e-12              -0.00013702          
  0.9                   0.00013862            2.01e-11              4.2e-13               -0.00013824          
  0.95                  0.00013968            2.004e-11             3.4e-13               -0.0001393           
  1                     0.00014068            2.01e-11              1.8e-13               -0.0001403           
  1.05                  0.0001416             1.978e-11             -3.12e-12             -0.00014122          
  1.1                   0.00014248            1.96e-11              -6.38e-12             -0.00014208          
  1.15                  0.00014332            1.948e-11             -1.386e-11            -0.00014292          
  1.2                   0.0001441             1.942e-11             -3.156e-11            -0.00014372          
  1.25                  0.00014488            1.936e-11             -6.442e-11            -0.0001445           
  1.3                   0.0001456             1.962e-11             -1.2736e-10           -0.00014524          
  1.35                  0.00014634            1.93e-11              -2.4462e-10           -0.00014594          
END_DB

