! VERSION = 6.00
BEGIN_HEADER
 ICCAP_INPUTS
  vd         V  D GROUND SMU1 0.1 LIN        1    0          1.35       28   0.05      
  vg         V  G GROUND SMU2 0.001 LIST       2 3 0.201 0.401 0.601
  vb         V  B GROUND SMU4 0.1 CON        0
  vs         V  S GROUND SMU3 0.1 CON        0
 ICCAP_OUTPUTS
  id         I  D GROUND SMU1 B
  ig         I  G GROUND SMU2 B
  ib         I  B GROUND SMU4 B
  is         I  S GROUND SMU3 B
 ICCAP_VALUES
  MASTER_SETUP_TYPE "~dc_idvd~"
  LINVT_VALUE ""
  LISTVT_VALUE "|idvg|100.0n|-200.0m|1.000m|3|200.0m|200.0m|"
  TYPE "1"
  TEMP " 27.0000 "
  IS_TNOM " 1.00000 "
  MAIN.W "150.0n"
  MAIN.L "120.0n"
  MAIN.AD "100.5f"
  MAIN.AS "100.5f"
  MAIN.PD "1.340u"
  MAIN.PS "1.340u"
  MAIN.NF "1.000"
  MAIN.M "1"
  MAIN.NRD "0.000"
  MAIN.NRS "0.000"
  MAIN.LDRIFT1 "1E-06"
  MAIN.LDRIFT2 "1E-06"
  MAIN.SA "0.000"
  MAIN.SB "0.000"
  MAIN.SD "0.000"
  MAIN.SCA "0.000"
  MAIN.SCB "0.000"
  MAIN.SCC "0.000"
  MAIN.SC "0.000"
  MODULE "S546"
  PIN_D "18"
  PIN_G "3"
  PIN_S "4"
  PIN_B "17"
  PIN_E ""
  PIN_6 ""
  XY_ID ""
  FUNC "Additional"
  STI "SA ref"
  WPE "WPE ref"
  COMMENT ""
  DIS_MEAS ""
  TypeTCI "10"
END_HEADER

BEGIN_DB
 ICCAP_VAR vg         0.201          
 ICCAP_VAR vb         0              
 ICCAP_VAR vs         0              

 #vd                    id                    ig                    ib                    is                   
  0                     7e-13                 -4e-14                1.5e-12               -4.4e-13             
  0.05                  2.651e-10             -4e-14                2.4e-13               -2.6452e-10          
  0.1                   3.525e-10             0                     9e-13                 -3.526e-10           
  0.15                  4.155e-10             -2e-14                1.34e-12              -4.1506e-10          
  0.2                   4.7884e-10            0                     7.4e-13               -4.7854e-10          
  0.25                  5.4892e-10            -1e-13                -2e-13                -5.4848e-10          
  0.3                   6.2558e-10            2e-14                 -4e-13                -6.2512e-10          
  0.35                  7.0838e-10            4e-14                 4.4e-13               -7.0838e-10          
  0.4                   7.9904e-10            -1e-13                4e-14                 -7.9826e-10          
  0.45                  8.9498e-10            -1.6e-13              3.2e-13               -8.9442e-10          
  0.5                   9.968e-10             -1.4e-13              5.8e-13               -9.9572e-10          
  0.55                  1.1036e-09            -1e-13                3.4e-13               -1.10182e-09         
  0.6                   1.213e-09             -8e-14                4.4e-13               -1.2116e-09          
  0.65                  1.3278e-09            -2.4e-13              3.4e-13               -1.3256e-09          
  0.7                   1.4446e-09            -1e-13                5.4e-13               -1.4418e-09          
  0.75                  1.5626e-09            -1e-13                1.1e-12               -1.561e-09           
  0.8                   1.6846e-09            -1.6e-13              -2.8e-13              -1.682e-09           
  0.85                  1.8084e-09            -8e-14                -2e-13                -1.806e-09           
  0.9                   1.934e-09             -2.2e-13              7.4e-13               -1.932e-09           
  0.95                  2.0616e-09            -8e-14                1.18e-12              -2.059e-09           
  1                     2.1922e-09            -2.4e-13              1.12e-12              -2.1898e-09          
  1.05                  2.3262e-09            -1e-13                1e-13                 -2.3236e-09          
  1.1                   2.464e-09             -1.2e-13              0                     -2.4614e-09          
  1.15                  2.606e-09             -1.4e-13              3.8e-13               -2.6032e-09          
  1.2                   2.7514e-09            -3.4e-13              -6e-14                -2.7484e-09          
  1.25                  2.9026e-09            -3.6e-13              1e-13                 -2.8996e-09          
  1.3                   3.0588e-09            -5e-13                -1.42e-12             -3.0538e-09          
  1.35                  3.2208e-09            -4.6e-13              -3.8e-13              -3.2162e-09          
END_DB

BEGIN_DB
 ICCAP_VAR vg         0.401          
 ICCAP_VAR vb         0              
 ICCAP_VAR vs         0              

 #vd                    id                    ig                    ib                    is                   
  0                     9.332e-11             6e-14                 7.6e-13               -9.434e-11           
  0.05                  4.755e-08             1.2e-13               8.4e-13               -4.755e-08           
  0.1                   6.453e-08             6e-14                 -3.2e-13              -6.4488e-08          
  0.15                  7.4954e-08            4e-14                 -4.2e-13              -7.4942e-08          
  0.2                   8.4168e-08            1.2e-13               6.8e-13               -8.4198e-08          
  0.25                  9.3334e-08            -2e-14                4.2e-13               -9.331e-08           
  0.3                   1.0253e-07            6e-14                 6e-13                 -1.02528e-07         
  0.35                  1.1192e-07            6e-14                 4e-13                 -1.11798e-07         
  0.4                   1.2122e-07            1.4e-13               4e-14                 -1.211e-07           
  0.45                  1.3064e-07            4e-14                 0                     -1.3056e-07          
  0.5                   1.4368e-07            6e-14                 1.56e-12              -1.3992e-07          
  0.55                  1.4942e-07            1.2e-13               7e-13                 -1.511e-07           
  0.6                   1.588e-07             -2e-14                2e-13                 -1.5866e-07          
  0.65                  1.6812e-07            8e-14                 2.6e-13               -1.6802e-07          
  0.7                   1.7764e-07            2e-14                 8e-13                 -1.7736e-07          
  0.75                  1.8696e-07            1e-13                 6.8e-13               -1.8688e-07          
  0.8                   1.9656e-07            8e-14                 -4.6e-13              -1.9642e-07          
  0.85                  2.0628e-07            8e-14                 -4.4e-13              -2.0608e-07          
  0.9                   2.1614e-07            1e-13                 7.8e-13               -2.16e-07            
  0.95                  2.2636e-07            1.2e-13               4.6e-13               -2.2624e-07          
  1                     2.3672e-07            0                     -8e-13                -2.3656e-07          
  1.05                  2.4744e-07            -8e-14                -5.8e-13              -2.4728e-07          
  1.1                   2.5838e-07            -4e-14                -9.8e-13              -2.583e-07           
  1.15                  2.6976e-07            -1.4e-13              -3.08e-12             -2.6962e-07          
  1.2                   2.8514e-07            -6e-14                -6.18e-12             -2.8136e-07          
  1.25                  3.0396e-07            -1.2e-13              -1.442e-11            -2.9504e-07          
  1.3                   3.179e-07             -1.8e-13              -2.028e-11            -3.0614e-07          
  1.35                  3.2836e-07            -1.4e-13              -3.294e-11            -3.2112e-07          
END_DB

BEGIN_DB
 ICCAP_VAR vg         0.601          
 ICCAP_VAR vb         0              
 ICCAP_VAR vs         0              

 #vd                    id                    ig                    ib                    is                   
  0                     1.7422e-09            5.8e-13               1.3e-12               -1.5816e-09          
  0.05                  1.1558e-06            4.6e-13               6e-13                 -1.1512e-06          
  0.1                   1.823e-06             3.2e-13               1.1e-12               -1.8194e-06          
  0.15                  2.2256e-06            3.8e-13               4.4e-13               -2.2222e-06          
  0.2                   2.4952e-06            4e-13                 2.92e-12              -2.491e-06           
  0.25                  2.7018e-06            4.2e-13               1.04e-12              -2.6972e-06          
  0.3                   2.8782e-06            2.4e-13               4.8e-13               -2.876e-06           
  0.35                  3.0446e-06            4e-13                 3.4e-13               -3.0408e-06          
  0.4                   3.202e-06             2.4e-13               1.06e-12              -3.1988e-06          
  0.45                  3.356e-06             3e-13                 3.4e-13               -3.3524e-06          
  0.5                   3.5086e-06            3e-13                 -4.6e-13              -3.5066e-06          
  0.55                  3.6612e-06            2.8e-13               2e-13                 -3.6566e-06          
  0.6                   3.811e-06             3e-13                 8e-14                 -3.808e-06           
  0.65                  3.9622e-06            2.4e-13               -4e-14                -3.9598e-06          
  0.7                   4.1144e-06            2.6e-13               5.2e-13               -4.111e-06           
  0.75                  4.2652e-06            2.4e-13               3.4e-13               -4.262e-06           
  0.8                   4.417e-06             2.8e-13               -3.6e-13              -4.4132e-06          
  0.85                  4.569e-06             2.8e-13               3.8e-13               -4.566e-06           
  0.9                   4.722e-06             3.6e-13               -6e-13                -4.7174e-06          
  0.95                  4.8748e-06            3.4e-13               -3.4e-13              -4.871e-06           
  1                     5.0288e-06            1.4e-13               -3.2e-13              -5.0254e-06          
  1.05                  5.1844e-06            3e-13                 -2.4e-12              -5.1804e-06          
  1.1                   5.3408e-06            2.8e-13               -7.08e-12             -5.338e-06           
  1.15                  5.4976e-06            1.6e-13               -1.664e-11            -5.4942e-06          
  1.2                   5.6566e-06            2.2e-13               -3.72e-11             -5.6526e-06          
  1.25                  5.8172e-06            1.6e-13               -7.44e-11             -5.8148e-06          
  1.3                   5.9796e-06            1.8e-13               -1.393e-10            -5.9756e-06          
  1.35                  6.1428e-06            8e-14                 -2.5008e-10           -6.14e-06            
END_DB

