! VERSION = 6.00
BEGIN_HEADER
 ICCAP_INPUTS
  vd         V  D GROUND SMU1 0.1 LIN        1    0          1.35       28   0.05      
  vg         V  G GROUND SMU2 0.001 LIN        2    0.39       1.35       5    0.24      
  vb         V  B GROUND SMU4 0.1 CON        -1.2
  vs         V  S GROUND SMU3 0.1 CON        0
 ICCAP_OUTPUTS
  id         I  D GROUND SMU1 B
  ig         I  G GROUND SMU2 B
  ib         I  B GROUND SMU4 B
  is         I  S GROUND SMU3 B
 ICCAP_VALUES
  MASTER_SETUP_TYPE "~dc_idvd~"
  LINVT_VALUE "|idvg|100.0n|100.0m|1.000m|5|1.350|"
  LISTVT_VALUE ""
  TYPE "1"
  TEMP " 27.0000 "
  IS_TNOM " 1.00000 "
  MAIN.W "10.00u"
  MAIN.L "2.000u"
  MAIN.AD "3.400p"
  MAIN.AS "3.400p"
  MAIN.PD "20.68u"
  MAIN.PS "20.68u"
  MAIN.NF "1.000"
  MAIN.M "1"
  MAIN.NRD "0.000"
  MAIN.NRS "0.000"
  MAIN.LDRIFT1 "1E-06"
  MAIN.LDRIFT2 "1E-06"
  MAIN.SA "0.000"
  MAIN.SB "0.000"
  MAIN.SD "0.000"
  MAIN.SCA "0.000"
  MAIN.SCB "0.000"
  MAIN.SCC "0.000"
  MAIN.SC "0.000"
  MODULE "S541"
  PIN_D "16"
  PIN_G "5"
  PIN_S "6"
  PIN_B "15"
  PIN_E ""
  PIN_6 ""
  XY_ID ""
  FUNC "L Scale"
  STI "SA ref"
  WPE "WPE ref"
  COMMENT ""
  DIS_MEAS ""
  TypeTCI "10"
END_HEADER

BEGIN_DB
 ICCAP_VAR vg         0.39           
 ICCAP_VAR vb         -1.2           
 ICCAP_VAR vs         0              

 #vd                    id                    ig                    ib                    is                   
  0                     4.1812e-09            6.184e-11             -1.522e-11            -4.2484e-09          
  0.05                  3.3696e-06            4.864e-11             -1.21e-11             -3.365e-06           
  0.1                   4.5892e-06            4.338e-11             -1.354e-11            -4.586e-06           
  0.15                  5.0552e-06            4.12e-11              -1.206e-11            -5.0518e-06          
  0.2                   5.3242e-06            4.006e-11             -9.68e-12             -5.3106e-06          
  0.25                  5.528e-06             3.904e-11             -1.152e-11            -5.5218e-06          
  0.3                   5.7168e-06            3.814e-11             -1.086e-11            -5.7134e-06          
  0.35                  5.8916e-06            3.73e-11              -9.14e-12             -5.8886e-06          
  0.4                   6.0542e-06            3.66e-11              -9.72e-12             -6.0522e-06          
  0.45                  6.207e-06             3.584e-11             -9.4e-12              -6.2038e-06          
  0.5                   6.3536e-06            3.536e-11             -8.08e-12             -6.3478e-06          
  0.55                  6.4884e-06            3.45e-11              -9.06e-12             -6.4834e-06          
  0.6                   6.617e-06             3.386e-11             -8.5e-12              -6.6116e-06          
  0.65                  6.7392e-06            3.306e-11             -7.26e-12             -6.7344e-06          
  0.7                   6.8524e-06            3.246e-11             -8.38e-12             -6.8494e-06          
  0.75                  6.9612e-06            3.194e-11             -7.24e-12             -6.9572e-06          
  0.8                   7.0644e-06            3.126e-11             -6.48e-12             -7.06e-06            
  0.85                  7.1622e-06            3.058e-11             -7.88e-12             -7.1568e-06          
  0.9                   7.2514e-06            2.972e-11             -7.22e-12             -7.247e-06           
  0.95                  7.3336e-06            2.89e-11              -6.54e-12             -7.3326e-06          
  1                     7.4184e-06            2.802e-11             -8.14e-12             -7.4142e-06          
  1.05                  7.497e-06             2.724e-11             -1.062e-11            -7.4922e-06          
  1.1                   7.569e-06             2.618e-11             -1.512e-11            -7.5654e-06          
  1.15                  7.6392e-06            2.506e-11             -2.778e-11            -7.634e-06           
  1.2                   7.7052e-06            2.384e-11             -5.196e-11            -7.7014e-06          
  1.25                  7.7682e-06            2.248e-11             -9.628e-11            -7.7628e-06          
  1.3                   7.822e-06             2.104e-11             -1.7488e-10           -7.817e-06           
  1.35                  7.8776e-06            1.92e-11              -3.016e-10            -7.875e-06           
END_DB

BEGIN_DB
 ICCAP_VAR vg         0.63           
 ICCAP_VAR vb         -1.2           
 ICCAP_VAR vs         0              

 #vd                    id                    ig                    ib                    is                   
  0                     4.212e-08             5.426e-10             -3.16e-12             -4.04e-08            
  0.05                  2.6884e-05            4.5718e-10            -3.6e-12              -2.6862e-05          
  0.1                   4.766e-05             3.9492e-10            -4.68e-12             -4.764e-05           
  0.15                  6.2242e-05            3.5306e-10            -5.26e-12             -6.2218e-05          
  0.2                   7.1138e-05            3.279e-10             -4.1e-12              -7.1128e-05          
  0.25                  7.597e-05             3.1466e-10            -4.3e-12              -7.5942e-05          
  0.3                   7.8624e-05            3.0718e-10            -4.1e-12              -7.8612e-05          
  0.35                  8.0392e-05            3.0252e-10            -3.06e-12             -8.0366e-05          
  0.4                   8.1752e-05            2.9886e-10            -4.42e-12             -8.1736e-05          
  0.45                  8.2956e-05            2.9572e-10            -4.24e-12             -8.2944e-05          
  0.5                   8.4044e-05            2.928e-10             -3.52e-12             -8.403e-05           
  0.55                  8.5048e-05            2.9024e-10            -4.08e-12             -8.5038e-05          
  0.6                   8.5992e-05            2.8784e-10            -3.74e-12             -8.5982e-05          
  0.65                  8.688e-05             2.8576e-10            -2.8e-12              -8.6868e-05          
  0.7                   8.7728e-05            2.8352e-10            -4.16e-12             -8.7714e-05          
  0.75                  8.854e-05             2.8142e-10            -3.88e-12             -8.8522e-05          
  0.8                   8.9304e-05            2.7952e-10            -3.08e-12             -8.9282e-05          
  0.85                  9.0054e-05            2.7732e-10            -3.78e-12             -9.0026e-05          
  0.9                   9.0752e-05            2.7548e-10            -3.64e-12             -9.0742e-05          
  0.95                  9.144e-05             2.7372e-10            -3.14e-12             -9.142e-05           
  1                     9.2092e-05            2.7188e-10            -3.38e-12             -9.2076e-05          
  1.05                  9.2724e-05            2.7014e-10            -3.82e-12             -9.2706e-05          
  1.1                   9.3324e-05            2.6852e-10            -5.08e-12             -9.3304e-05          
  1.15                  9.39e-05              2.6672e-10            -9.32e-12             -9.3884e-05          
  1.2                   9.4454e-05            2.6506e-10            -2.02e-11             -9.444e-05           
  1.25                  9.499e-05             2.633e-10             -4.898e-11            -9.4986e-05          
  1.3                   9.5508e-05            2.6144e-10            -1.159e-10            -9.5502e-05          
  1.35                  9.6008e-05            2.5938e-10            -2.6078e-10           -9.6006e-05          
END_DB

BEGIN_DB
 ICCAP_VAR vg         0.87           
 ICCAP_VAR vb         -1.2           
 ICCAP_VAR vs         0              

 #vd                    id                    ig                    ib                    is                   
  0                     7.4388e-08            2.3974e-09            -2.38e-12             -7.0526e-08          
  0.05                  5.177e-05             2.1042e-09            -2.56e-12             -5.1752e-05          
  0.1                   9.8212e-05            1.861e-09             -2.36e-12             -9.8194e-05          
  0.15                  0.00013916            1.662e-09             -3.28e-12             -0.00013878          
  0.2                   0.00017402            1.5028e-09            -2.1e-12              -0.00017364          
  0.25                  0.00020266            1.3798e-09            -3.02e-12             -0.00020228          
  0.3                   0.00022492            1.2884e-09            -3.56e-12             -0.00022452          
  0.35                  0.00024092            1.2248e-09            -1.46e-12             -0.00024052          
  0.4                   0.00025146            1.184e-09             -2.24e-12             -0.00025108          
  0.45                  0.0002581             1.1588e-09            -3e-12                -0.0002577           
  0.5                   0.00026238            1.1426e-09            -1.5e-12              -0.000262            
  0.55                  0.00026546            1.131e-09             -2.42e-12             -0.0002651           
  0.6                   0.00026794            1.1218e-09            -3.88e-12             -0.00026754          
  0.65                  0.00027004            1.1142e-09            -1.28e-12             -0.00026968          
  0.7                   0.00027196            1.1074e-09            -2.12e-12             -0.00027158          
  0.75                  0.00027372            1.1012e-09            -2.72e-12             -0.00027334          
  0.8                   0.00027536            1.0954e-09            -1.82e-12             -0.00027498          
  0.85                  0.00027694            1.0898e-09            -2.32e-12             -0.00027654          
  0.9                   0.00027842            1.0846e-09            -3.3e-12              -0.00027802          
  0.95                  0.00027984            1.0794e-09            -2.18e-12             -0.00027946          
  1                     0.0002812             1.0746e-09            -2.16e-12             -0.0002808           
  1.05                  0.0002825             1.0702e-09            -3.2e-12              -0.00028212          
  1.1                   0.00028376            1.0658e-09            -2.32e-12             -0.00028338          
  1.15                  0.00028498            1.0616e-09            -2.8e-12              -0.0002846           
  1.2                   0.00028616            1.0574e-09            -4.2e-12              -0.00028576          
  1.25                  0.00028728            1.0536e-09            -5.28e-12             -0.0002869           
  1.3                   0.00028836            1.0496e-09            -1.14e-11             -0.00028798          
  1.35                  0.00028942            1.0456e-09            -2.658e-11            -0.00028904          
END_DB

BEGIN_DB
 ICCAP_VAR vg         1.11           
 ICCAP_VAR vb         -1.2           
 ICCAP_VAR vs         0              

 #vd                    id                    ig                    ib                    is                   
  0                     9.9768e-08            7.5404e-09            -2.6e-12              -9.7014e-08          
  0.05                  7.1808e-05            6.788e-09             -1.7e-12              -7.1794e-05          
  0.1                   0.0001396             6.1292e-09            -7.4e-13              -0.00013924          
  0.15                  0.00020282            5.5584e-09            -2.88e-12             -0.00020244          
  0.2                   0.00026122            5.0668e-09            -1.88e-12             -0.00026084          
  0.25                  0.00031456            4.6482e-09            -1.5e-12              -0.00031418          
  0.3                   0.0003625             4.295e-09             -2.06e-12             -0.00036212          
  0.35                  0.0004047             4.0016e-09            -2.32e-12             -0.00040432          
  0.4                   0.0004409             3.763e-09             -1.48e-12             -0.00044052          
  0.45                  0.00047082            3.5742e-09            -1.7e-12              -0.00047044          
  0.5                   0.00049448            3.4302e-09            -2.14e-12             -0.0004941           
  0.55                  0.00051216            3.3266e-09            -1.44e-12             -0.00051178          
  0.6                   0.0005246             3.2542e-09            -6.92e-12             -0.00052424          
  0.65                  0.00053308            3.2056e-09            -2.76e-12             -0.00053272          
  0.7                   0.00053898            3.1726e-09            -1.42e-12             -0.00053862          
  0.75                  0.00054334            3.1484e-09            -2.04e-12             -0.00054294          
  0.8                   0.00054678            3.1292e-09            -2.2e-12              -0.0005464           
  0.85                  0.00054972            3.113e-09             -1.92e-12             -0.00054936          
  0.9                   0.00055236            3.0988e-09            -2.28e-12             -0.00055198          
  0.95                  0.00055478            3.0856e-09            -2.82e-12             -0.00055444          
  1                     0.00055704            3.0738e-09            -2.02e-12             -0.0005567           
  1.05                  0.0005592             3.0624e-09            -2.12e-12             -0.0005588           
  1.1                   0.0005612             3.051e-09             -2.8e-12              -0.00056084          
  1.15                  0.00056312            3.0412e-09            -1.98e-12             -0.00056276          
  1.2                   0.00056502            3.0312e-09            -2.26e-12             -0.00056462          
  1.25                  0.00056678            3.0218e-09            -2.5e-12              -0.00056644          
  1.3                   0.00056854            3.0128e-09            -1.64e-12             -0.00056814          
  1.35                  0.00057016            3.004e-09             -3.9e-12              -0.0005698           
END_DB

BEGIN_DB
 ICCAP_VAR vg         1.35           
 ICCAP_VAR vb         -1.2           
 ICCAP_VAR vs         0              

 #vd                    id                    ig                    ib                    is                   
  0                     1.11884e-07           1.9204e-08            -1.938e-11            -1.14816e-07         
  0.05                  8.6258e-05            1.7582e-08            -1.69e-11             -8.6246e-05          
  0.1                   0.00016968            1.6122e-08            -1.228e-11            -0.00016932          
  0.15                  0.00024974            1.4818e-08            -9.64e-12             -0.00024936          
  0.2                   0.00032618            1.3654e-08            -8.14e-12             -0.0003258           
  0.25                  0.0003988             1.2626e-08            -7.44e-12             -0.00039844          
  0.3                   0.00046726            1.1714e-08            -6.2e-12              -0.0004669           
  0.35                  0.00053122            1.0916e-08            -5.98e-12             -0.00053086          
  0.4                   0.00059042            1.022e-08             -6e-12                -0.00059006          
  0.45                  0.00064444            9.6152e-09            -4.28e-12             -0.00064406          
  0.5                   0.00069312            9.1014e-09            -5e-12                -0.00069274          
  0.55                  0.00073618            8.667e-09             -2.58e-12             -0.0007358           
  0.6                   0.00077328            8.3094e-09            -3.24e-12             -0.0007729           
  0.65                  0.00080428            8.02e-09              -4.44e-12             -0.00080392          
  0.7                   0.00082924            7.7944e-09            -4.62e-12             -0.00082886          
  0.75                  0.00084842            7.6254e-09            -2.94e-12             -0.000848            
  0.8                   0.0008625             7.5026e-09            -4.3e-12              -0.00086212          
  0.85                  0.00087266            7.416e-09             -4.94e-12             -0.0008723           
  0.9                   0.00087998            7.3534e-09            -3.74e-12             -0.00087964          
  0.95                  0.00088552            7.3066e-09            -4.26e-12             -0.00088514          
  1                     0.00088988            7.2706e-09            -4.54e-12             -0.0008895           
  1.05                  0.0008936             7.2382e-09            -3.62e-12             -0.00089322          
  1.1                   0.0008969             7.2114e-09            -5.14e-12             -0.0008965           
  1.15                  0.0008999             7.1864e-09            -4.46e-12             -0.00089946          
  1.2                   0.0009026             7.1638e-09            -3.08e-12             -0.00090222          
  1.25                  0.00090522            7.1422e-09            -4.36e-12             -0.00090486          
  1.3                   0.0009077             7.1218e-09            -5.18e-12             -0.00090732          
  1.35                  0.00091006            7.1024e-09            -3.38e-12             -0.00090964          
END_DB

