! VERSION = 6.00
BEGIN_HEADER
 ICCAP_INPUTS
  vg         V  G GROUND SMU2 0.001 LIN        1    -0.5       1.35       38   0.05      
  vb         V  B GROUND SMU4 0.1 LIN        2    0          -1.2       5    -0.3      
  vd         V  D GROUND SMU1 0.1 LIST       3 3 0.05 0.6 1.2
  vs         V  S GROUND SMU3 0.1 CON        0
 ICCAP_OUTPUTS
  id         I  D GROUND SMU1 B
  ig         I  G GROUND SMU2 B
  ib         I  B GROUND SMU4 B
  is         I  S GROUND SMU3 B
 ICCAP_VALUES
  MASTER_SETUP_TYPE "~dc_idvg~"
  LINVT_VALUE ""
  LISTVT_VALUE ""
  TYPE "1"
  TEMP " 70.0000 "
  IS_TNOM " 0.00000 "
  MAIN.W "10.00u"
  MAIN.L "180.0n"
  MAIN.AD "3.400p"
  MAIN.AS "3.400p"
  MAIN.PD "20.68u"
  MAIN.PS "20.68u"
  MAIN.NF "1.000"
  MAIN.M "1"
  MAIN.NRD "0.000"
  MAIN.NRS "0.000"
  MAIN.LDRIFT1 "1E-06"
  MAIN.LDRIFT2 "1E-06"
  MAIN.SA "0.000"
  MAIN.SB "0.000"
  MAIN.SD "0.000"
  MAIN.SCA "0.000"
  MAIN.SCB "0.000"
  MAIN.SCC "0.000"
  MAIN.SC "0.000"
  MODULE "S540"
  PIN_D "12"
  PIN_G "9"
  PIN_S "10"
  PIN_B "11"
  PIN_E ""
  PIN_6 ""
  XY_ID ""
  FUNC "L Scale"
  STI "SA ref"
  WPE "WPE ref"
  COMMENT ""
  DIS_MEAS ""
  TypeTCI "10"
END_HEADER

BEGIN_DB
 ICCAP_VAR vb         0              
 ICCAP_VAR vd         0.05           
 ICCAP_VAR vs         0              

 #vg                    id                    ig                    ib                    is                   
  -0.5                  1.94e-12              -1.6344e-09           1.622e-09             2.34e-12             
  -0.45                 1.3e-12               -3.0828e-10           2.9908e-10            1.64e-12             
  -0.4                  1.16e-12              -5.974e-11            5.072e-11             1.12e-12             
  -0.35                 1.08e-12              -1.218e-11            4.88e-12              5.2e-13              
  -0.3                  1.52e-12              -2.86e-12             -3.68e-12             -3e-13               
  -0.25                 3.92e-12              -8.8e-13              -4.78e-12             -3.26e-12            
  -0.2                  1.312e-11             -1.8e-13              -4.98e-12             -1.272e-11           
  -0.15                 4.71e-11              2e-14                 -5.88e-12             -4.682e-11           
  -0.1                  1.7292e-10            4e-13                 -5.2e-12              -1.729e-10           
  -0.05                 6.4156e-10            2.6e-13               -5.44e-12             -6.4134e-10          
  0                     2.394e-09             3.6e-13               -4.62e-12             -2.393e-09           
  0.05                  9.0004e-09            4.2e-13               -4.7e-12              -8.9978e-09          
  0.1                   3.3784e-08            4.8e-13               -5.58e-12             -3.3768e-08          
  0.15                  1.2628e-07            6.2e-13               -4.78e-12             -1.2624e-07          
  0.2                   4.5878e-07            9e-13                 -3.22e-12             -4.5882e-07          
  0.25                  1.5748e-06            1.06e-12              -4.46e-12             -1.5698e-06          
  0.3                   4.7874e-06            1.86e-12              -4.94e-12             -4.7844e-06          
  0.35                  1.236e-05             3.18e-12              -5.02e-12             -1.2344e-05          
  0.4                   2.6502e-05            5.26e-12              -4e-12                -2.649e-05           
  0.45                  4.8136e-05            9.06e-12              -4.16e-12             -4.8138e-05          
  0.5                   7.6438e-05            1.418e-11             -5.18e-12             -7.6432e-05          
  0.55                  0.000109684           2.192e-11             -4.82e-12             -0.000109714         
  0.6                   0.00014626            3.238e-11             -4.16e-12             -0.00014594          
  0.65                  0.00018452            4.666e-11             -4.4e-12              -0.00018418          
  0.7                   0.00022326            6.554e-11             -3.34e-12             -0.0002229           
  0.75                  0.00026176            8.956e-11             -5.2e-12              -0.00026144          
  0.8                   0.00029944            1.2022e-10            -4.48e-12             -0.00029912          
  0.85                  0.00033592            1.589e-10             -2.76e-12             -0.0003356           
  0.9                   0.00037092            2.064e-10             -2.96e-12             -0.00037052          
  0.95                  0.00040418            2.6488e-10            -3.84e-12             -0.00040386          
  1                     0.0004358             3.3572e-10            -4.26e-12             -0.00043544          
  1.05                  0.00046572            4.201e-10             -3.86e-12             -0.00046538          
  1.1                   0.00049386            5.2066e-10            -2.1e-12              -0.00049352          
  1.15                  0.00052026            6.3874e-10            -4.02e-12             -0.00051994          
  1.2                   0.00054508            7.7796e-10            -4.22e-12             -0.00054468          
  1.25                  0.0005681             9.3944e-10            -4.58e-12             -0.00056772          
  1.3                   0.00058962            1.127e-09             -3.46e-12             -0.0005893           
  1.35                  0.00060974            1.3446e-09            -5.46e-12             -0.00060938          
END_DB

BEGIN_DB
 ICCAP_VAR vb         -0.3           
 ICCAP_VAR vd         0.05           
 ICCAP_VAR vs         0              

 #vg                    id                    ig                    ib                    is                   
  -0.5                  1.92e-12              -4.3e-12              -1.06e-11             2.4e-12              
  -0.45                 1.38e-12              -3.08e-12             -9.5e-12              1.74e-12             
  -0.4                  1e-12                 -2.06e-12             -9.04e-12             1.16e-12             
  -0.35                 8.2e-13               -1.5e-12              -8.88e-12             1.12e-12             
  -0.3                  6.4e-13               -8.2e-13              -7.5e-12              5e-13                
  -0.25                 8.6e-13               -5.2e-13              -8.8e-12              -1.8e-13             
  -0.2                  2.48e-12              -2.2e-13              -8.4e-12              -1.82e-12            
  -0.15                 8.96e-12              4e-14                 -7.44e-12             -8.66e-12            
  -0.1                  3.516e-11             1.8e-13               -6.4e-12              -3.488e-11           
  -0.05                 1.3876e-10            3.6e-13               -5.38e-12             -1.3866e-10          
  0                     5.488e-10             2.2e-13               -7.68e-12             -5.4864e-10          
  0.05                  2.1794e-09            3.4e-13               -6.44e-12             -2.179e-09           
  0.1                   8.6292e-09            3.6e-13               -6.44e-12             -8.6314e-09          
  0.15                  3.4116e-08            5.6e-13               -5.84e-12             -3.4096e-08          
  0.2                   1.3278e-07            7e-13                 -6.92e-12             -1.3278e-07          
  0.25                  5.0062e-07            1.02e-12              -6.12e-12             -5.006e-07           
  0.3                   1.7546e-06            1.44e-12              -5.76e-12             -1.7494e-06          
  0.35                  5.3756e-06            2.56e-12              -5.82e-12             -5.3704e-06          
  0.4                   1.376e-05             4.54e-12              -5.12e-12             -1.3746e-05          
  0.45                  2.9092e-05            7.7e-12               -5.8e-12              -2.9082e-05          
  0.5                   5.1984e-05            1.264e-11             -5.06e-12             -5.1972e-05          
  0.55                  8.1246e-05            2.006e-11             -4.56e-12             -8.117e-05           
  0.6                   0.0001153             3.002e-11             -5.56e-12             -0.00011494          
  0.65                  0.00015208            4.398e-11             -4.66e-12             -0.0001518           
  0.7                   0.00019026            6.224e-11             -5.48e-12             -0.0001899           
  0.75                  0.00022882            8.584e-11             -4.16e-12             -0.00022846          
  0.8                   0.00026688            1.163e-10             -4.44e-12             -0.00026654          
  0.85                  0.000304              1.5446e-10            -4.88e-12             -0.00030368          
  0.9                   0.00033972            2.0126e-10            -5.52e-12             -0.00033938          
  0.95                  0.00037394            2.5836e-10            -5.16e-12             -0.0003736           
  1                     0.00040646            3.289e-10             -4.34e-12             -0.00040616          
  1.05                  0.00043722            4.1214e-10            -4.16e-12             -0.00043686          
  1.1                   0.0004662             5.1204e-10            -4.68e-12             -0.00046584          
  1.15                  0.00049344            6.291e-10             -5.92e-12             -0.00049316          
  1.2                   0.00051904            7.6778e-10            -5.08e-12             -0.00051872          
  1.25                  0.000543              9.2906e-10            -4.38e-12             -0.00054274          
  1.3                   0.00056534            1.1158e-09            -5.74e-12             -0.000565            
  1.35                  0.00058606            1.3314e-09            -6.22e-12             -0.00058578          
END_DB

BEGIN_DB
 ICCAP_VAR vb         -0.6           
 ICCAP_VAR vd         0.05           
 ICCAP_VAR vs         0              

 #vg                    id                    ig                    ib                    is                   
  -0.5                  1.94e-12              -4.34e-12             -9.68e-12             2.24e-12             
  -0.45                 1.2e-12               -2.96e-12             -1.096e-11            1.62e-12             
  -0.4                  1.1e-12               -2.16e-12             -1.07e-11             1.22e-12             
  -0.35                 7.8e-13               -1.36e-12             -1.038e-11            9e-13                
  -0.3                  4.2e-13               -8.2e-13              -9.5e-12              6.6e-13              
  -0.25                 5.6e-13               -4.4e-13              -8.6e-12              3e-13                
  -0.2                  7.8e-13               -2.6e-13              -8.96e-12             -1.4e-13             
  -0.15                 2.62e-12              2e-14                 -7.68e-12             -2.2e-12             
  -0.1                  1.036e-11             3e-13                 -8.54e-12             -1.004e-11           
  -0.05                 4.23e-11              1.6e-13               -9.08e-12             -4.198e-11           
  0                     1.73e-10              3.8e-13               -7.9e-12              -1.7292e-10          
  0.05                  7.1082e-10            5.4e-13               -6.12e-12             -7.108e-10           
  0.1                   2.9092e-09            3.6e-13               -7.3e-12              -2.9074e-09          
  0.15                  1.1904e-08            3.2e-13               -7.94e-12             -1.189e-08           
  0.2                   4.821e-08             7.6e-13               -6.54e-12             -4.8196e-08          
  0.25                  1.9154e-07            9.6e-13               -6.42e-12             -1.9152e-07          
  0.3                   7.2538e-07            1.48e-12              -6.94e-12             -7.2548e-07          
  0.35                  2.5056e-06            2.18e-12              -5.52e-12             -2.4994e-06          
  0.4                   7.3678e-06            3.98e-12              -7.18e-12             -7.3648e-06          
  0.45                  1.7894e-05            6.72e-12              -6.12e-12             -1.788e-05           
  0.5                   3.5824e-05            1.14e-11              -6.58e-12             -3.5804e-05          
  0.55                  6.1036e-05            1.83e-11              -6.06e-12             -6.103e-05           
  0.6                   9.2196e-05            2.818e-11             -5.54e-12             -9.2174e-05          
  0.65                  0.00012744            4.15e-11              -6e-12                -0.0001271           
  0.7                   0.00016468            5.95e-11              -6.1e-12              -0.00016434          
  0.75                  0.00020294            8.258e-11             -5.64e-12             -0.0002026           
  0.8                   0.00024116            1.1264e-10            -4.92e-12             -0.00024082          
  0.85                  0.0002787             1.4976e-10            -4.94e-12             -0.00027838          
  0.9                   0.00031502            1.966e-10             -6.68e-12             -0.0003147           
  0.95                  0.00034988            2.5344e-10            -5.88e-12             -0.00034956          
  1                     0.00038314            3.2252e-10            -4.8e-12              -0.00038282          
  1.05                  0.00041464            4.0542e-10            -4.42e-12             -0.00041434          
  1.1                   0.00044436            5.0482e-10            -5.46e-12             -0.000444            
  1.15                  0.00047232            6.212e-10             -5.86e-12             -0.000472            
  1.2                   0.00049856            7.5856e-10            -4.66e-12             -0.00049818          
  1.25                  0.00052306            9.185e-10             -5.26e-12             -0.0005228           
  1.3                   0.00054592            1.1042e-09            -5.88e-12             -0.00054568          
  1.35                  0.00056734            1.3202e-09            -6.18e-12             -0.00056702          
END_DB

BEGIN_DB
 ICCAP_VAR vb         -0.9           
 ICCAP_VAR vd         0.05           
 ICCAP_VAR vs         0              

 #vg                    id                    ig                    ib                    is                   
  -0.5                  1.8e-12               -4.02e-12             -1.076e-11            2.16e-12             
  -0.45                 1.4e-12               -3e-12                -1.18e-11             1.68e-12             
  -0.4                  1.12e-12              -2.02e-12             -1.192e-11            1.24e-12             
  -0.35                 7.2e-13               -1.34e-12             -9.9e-12              8.4e-13              
  -0.3                  5.4e-13               -9.6e-13              -9.98e-12             7.2e-13              
  -0.25                 3.2e-13               -5.2e-13              -9.04e-12             3.6e-13              
  -0.2                  4e-13                 -2.4e-13              -9.68e-12             1.4e-13              
  -0.15                 1.14e-12              -6e-14                -9.26e-12             -6e-13               
  -0.1                  3.88e-12              2e-13                 -8.98e-12             -3.66e-12            
  -0.05                 1.646e-11             2.2e-13               -9.22e-12             -1.628e-11           
  0                     6.89e-11              2.8e-13               -8.02e-12             -6.856e-11           
  0.05                  2.8962e-10            4e-13                 -7.64e-12             -2.8934e-10          
  0.1                   1.2146e-09            3e-13                 -7.94e-12             -1.2154e-09          
  0.15                  5.0974e-09            5.4e-13               -7.88e-12             -5.097e-09           
  0.2                   2.1176e-08            7e-13                 -7.62e-12             -2.116e-08           
  0.25                  8.698e-08             8.8e-13               -5.96e-12             -8.6968e-08          
  0.3                   3.4514e-07            1.32e-12              -8.58e-12             -3.4516e-07          
  0.35                  1.284e-06             1.94e-12              -7.28e-12             -1.2798e-06          
  0.4                   4.1844e-06            3.42e-12              -6.8e-12              -4.1792e-06          
  0.45                  1.13804e-05           6.24e-12              -7.34e-12             -1.13768e-05         
  0.5                   2.5298e-05            1.036e-11             -6.52e-12             -2.5284e-05          
  0.55                  4.6822e-05            1.71e-11              -7.04e-12             -4.6824e-05          
  0.6                   7.5136e-05            2.654e-11             -5.72e-12             -7.5132e-05          
  0.65                  0.000108378           3.952e-11             -6.42e-12             -0.000108356         
  0.7                   0.00014474            5.7e-11               -7.56e-12             -0.00014442          
  0.75                  0.00018254            7.998e-11             -6.78e-12             -0.00018222          
  0.8                   0.00022072            1.0926e-10            -5.76e-12             -0.00022036          
  0.85                  0.0002584             1.463e-10             -5.38e-12             -0.00025808          
  0.9                   0.0002951             1.9232e-10            -6.74e-12             -0.00029476          
  0.95                  0.0003305             2.4834e-10            -6.26e-12             -0.00033012          
  1                     0.00036426            3.1704e-10            -7.18e-12             -0.00036396          
  1.05                  0.00039636            4.0008e-10            -5.62e-12             -0.00039602          
  1.1                   0.00042658            4.982e-10             -5.2e-12              -0.00042632          
  1.15                  0.00045518            6.148e-10             -6.88e-12             -0.00045484          
  1.2                   0.00048198            7.51e-10              -5.88e-12             -0.00048162          
  1.25                  0.00050706            9.0714e-10            -6.52e-12             -0.00050668          
  1.3                   0.0005304             1.0952e-09            -5.7e-12              -0.00053008          
  1.35                  0.0005523             1.31e-09              -6.96e-12             -0.000552            
END_DB

BEGIN_DB
 ICCAP_VAR vb         -1.2           
 ICCAP_VAR vd         0.05           
 ICCAP_VAR vs         0              

 #vg                    id                    ig                    ib                    is                   
  -0.5                  1.8e-12               -4.2e-12              -1.246e-11            2.28e-12             
  -0.45                 1.46e-12              -2.9e-12              -1.11e-11             1.58e-12             
  -0.4                  1.06e-12              -2.1e-12              -1.108e-11            1.26e-12             
  -0.35                 9.6e-13               -1.38e-12             -1.108e-11            9.6e-13              
  -0.3                  5.4e-13               -9.6e-13              -1.12e-11             6.6e-13              
