! VERSION = 6.00
BEGIN_HEADER
 ICCAP_INPUTS
  vg         V  G GROUND SMU2 0.001 LIN        1    -0.5       1.35       38   0.05      
  vb         V  B GROUND SMU4 0.1 LIN        2    0          -1.2       5    -0.3      
  vd         V  D GROUND SMU1 0.1 LIST       3 3 0.05 0.6 1.2
  vs         V  S GROUND SMU3 0.1 CON        0
 ICCAP_OUTPUTS
  id         I  D GROUND SMU1 B
  ig         I  G GROUND SMU2 B
  ib         I  B GROUND SMU4 B
  is         I  S GROUND SMU3 B
 ICCAP_VALUES
  MASTER_SETUP_TYPE "~dc_idvg~"
  LINVT_VALUE ""
  LISTVT_VALUE ""
  TYPE "1"
  TEMP "-40.0000 "
  IS_TNOM " 0.00000 "
  MAIN.W "300.0n"
  MAIN.L "10.00u"
  MAIN.AD "102.0f"
  MAIN.AS "102.0f"
  MAIN.PD "1.280u"
  MAIN.PS "1.280u"
  MAIN.NF "1.000"
  MAIN.M "1"
  MAIN.NRD "0.000"
  MAIN.NRS "0.000"
  MAIN.LDRIFT1 "1E-06"
  MAIN.LDRIFT2 "1E-06"
  MAIN.SA "0.000"
  MAIN.SB "0.000"
  MAIN.SD "0.000"
  MAIN.SCA "0.000"
  MAIN.SCB "0.000"
  MAIN.SCC "0.000"
  MAIN.SC "0.000"
  MODULE "S545"
  PIN_D "18"
  PIN_G "3"
  PIN_S "4"
  PIN_B "17"
  PIN_E ""
  PIN_6 ""
  XY_ID ""
  FUNC "W Scale"
  STI "SA ref"
  WPE "WPE ref"
  COMMENT ""
  DIS_MEAS ""
  TypeTCI "10"
END_HEADER

BEGIN_DB
 ICCAP_VAR vb         0              
 ICCAP_VAR vd         0.05           
 ICCAP_VAR vs         0              

 #vg                    id                    ig                    ib                    is                   
  -0.5                  1e-13                 -6.6e-13              1.14e-12              1.6e-13              
  -0.45                 8e-14                 -1.4e-13              6.04e-12              1.8e-13              
  -0.4                  1e-13                 0                     9e-13                 3.8e-13              
  -0.35                 -8e-14                4e-14                 1.44e-12              2.2e-13              
  -0.3                  0                     1.4e-13               1.58e-12              2e-13                
  -0.25                 -4e-14                1.2e-13               4.2e-13               4e-14                
  -0.2                  1e-13                 2.6e-13               6.4e-13               4e-14                
  -0.15                 0                     3e-13                 1.04e-12              -6e-14               
  -0.1                  8e-14                 1.2e-13               2.12e-12              2e-14                
  -0.05                 8e-14                 2.4e-13               7e-13                 6e-14                
  0                     0                     3e-13                 1.48e-12              6e-14                
  0.05                  6.2e-13               1.8e-13               3.6e-13               -7.4e-13             
  0.1                   5.78e-12              5.2e-13               1.3e-12               -5.76e-12            
  0.15                  4.454e-11             4.2e-13               1.34e-12              -4.46e-11            
  0.2                   3.245e-10             9.8e-13               1.56e-12              -3.2496e-10          
  0.25                  2.092e-09             1.78e-12              9e-13                 -2.0948e-09          
  0.3                   1.03102e-08           3.52e-12              2.2e-13               -1.03136e-08         
  0.35                  3.4056e-08            6.28e-12              4.4e-13               -3.4046e-08          
  0.4                   7.4692e-08            1.046e-11             5.32e-12              -7.4692e-08          
  0.45                  1.2164e-07            1.692e-11             9.2e-13               -1.2152e-07          
  0.5                   1.672e-07             2.662e-11             7e-13                 -1.6706e-07          
  0.55                  2.1072e-07            4.052e-11             1e-12                 -2.1062e-07          
  0.6                   2.5244e-07            6.026e-11             1.42e-12              -2.5238e-07          
  0.65                  2.9264e-07            8.702e-11             1.14e-12              -2.9258e-07          
  0.7                   3.3122e-07            1.2278e-10            1.04e-12              -3.3122e-07          
  0.75                  3.6842e-07            1.7024e-10            3e-13                 -3.6848e-07          
  0.8                   4.0408e-07            2.3172e-10            2.1e-12               -4.0422e-07          
  0.85                  4.3824e-07            3.1062e-10            9.2e-13               -4.3844e-07          
  0.9                   4.7066e-07            4.099e-10             3.4e-13               -4.7096e-07          
  0.95                  5.0134e-07            5.3376e-10            1e-13                 -5.018e-07           
  1                     5.3026e-07            6.8652e-10            1.76e-12              -5.3084e-07          
  1.05                  5.5732e-07            8.728e-10             5.4e-13               -5.581e-07           
  1.1                   5.8244e-07            1.0982e-09            1.54e-12              -5.8344e-07          
  1.15                  6.057e-07             1.367e-09             9.6e-13               -6.0704e-07          
  1.2                   6.2716e-07            1.687e-09             6.6e-13               -6.2874e-07          
  1.25                  6.4676e-07            2.0628e-09            6.6e-13               -6.4872e-07          
  1.3                   6.6456e-07            2.5038e-09            3.4e-13               -6.67e-07            
  1.35                  6.8062e-07            3.0186e-09            -2.8e-13              -6.836e-07           
END_DB

BEGIN_DB
 ICCAP_VAR vb         -0.3           
 ICCAP_VAR vd         0.05           
 ICCAP_VAR vs         0              

 #vg                    id                    ig                    ib                    is                   
  -0.5                  2.4e-13               -3e-13                -6.8e-13              3e-13                
  -0.45                 1.2e-13               -1.8e-13              -2.08e-12             2.4e-13              
  -0.4                  6e-14                 4e-14                 -1.2e-12              2e-13                
  -0.35                 2e-14                 -2e-14                -1.82e-12             1.6e-13              
  -0.3                  6e-14                 1.4e-13               -1.9e-12              2.6e-13              
  -0.25                 -6e-14                1.4e-13               -9.2e-13              -6e-14               
  -0.2                  6e-14                 1.8e-13               2.4e-13               1.2e-13              
  -0.15                 4e-14                 1.8e-13               -7.6e-13              -4e-14               
  -0.1                  -6e-14                1.6e-13               -2.06e-12             1.4e-13              
  -0.05                 6e-14                 2.8e-13               -1.04e-12             -2e-14               
  0                     8e-14                 1.6e-13               2e-14                 -6e-14               
  0.05                  1.2e-13               3e-13                 -3.8e-13              -2e-14               
  0.1                   1.2e-12               2.8e-13               -1.2e-13              -1.16e-12            
  0.15                  9.26e-12              3.8e-13               -3.8e-13              -9.32e-12            
  0.2                   7.256e-11             7.6e-13               -6.4e-13              -7.282e-11           
  0.25                  5.3622e-10            1.7e-12               -4.6e-13              -5.3774e-10          
  0.3                   3.3498e-09            3.18e-12              4.8e-13               -3.3508e-09          
  0.35                  1.5272e-08            5.94e-12              1e-13                 -1.5252e-08          
  0.4                   4.4656e-08            1.008e-11             -1e-12                -4.466e-08           
  0.45                  8.8172e-08            1.64e-11              -1.02e-12             -8.8182e-08          
  0.5                   1.3418e-07            2.596e-11             8.8e-13               -1.3408e-07          
  0.55                  1.7812e-07            3.97e-11              -4.4e-13              -1.7798e-07          
  0.6                   2.2014e-07            5.912e-11             -5.8e-13              -2.2006e-07          
  0.65                  2.6052e-07            8.58e-11              -9.4e-13              -2.6046e-07          
  0.7                   2.992e-07             1.215e-10             7.8e-13               -2.9918e-07          
  0.75                  3.365e-07             1.6878e-10            -4.4e-13              -3.3656e-07          
  0.8                   3.7228e-07            2.3008e-10            -8.8e-13              -3.7242e-07          
  0.85                  4.0656e-07            3.0874e-10            -2e-14                -4.0676e-07          
  0.9                   4.3916e-07            4.077e-10             7.2e-13               -4.3946e-07          
  0.95                  4.6998e-07            5.312e-10             -2e-14                -4.704e-07           
  1                     4.9912e-07            6.8396e-10            -1.02e-12             -4.9972e-07          
  1.05                  5.2642e-07            8.704e-10             7.4e-13               -5.2718e-07          
  1.1                   5.5182e-07            1.0956e-09            -7e-13                -5.5282e-07          
  1.15                  5.7538e-07            1.3648e-09            1.6e-13               -5.7668e-07          
  1.2                   5.9714e-07            1.6844e-09            8e-13                 -5.9874e-07          
  1.25                  6.1702e-07            2.0602e-09            2e-14                 -6.19e-07            
  1.3                   6.3514e-07            2.5012e-09            -1.04e-12             -6.3756e-07          
  1.35                  6.5152e-07            3.016e-09             -2.2e-12              -6.5448e-07          
END_DB

BEGIN_DB
 ICCAP_VAR vb         -0.6           
 ICCAP_VAR vd         0.05           
 ICCAP_VAR vs         0              

 #vg                    id                    ig                    ib                    is                   
  -0.5                  2.6e-13               -3.2e-13              -1.54e-12             1.8e-13              
  -0.45                 1.4e-13               -2.2e-13              -1.48e-12             1.4e-13              
  -0.4                  8e-14                 4e-14                 -2.12e-12             8e-14                
  -0.35                 2e-14                 -2e-14                -1.66e-12             2.4e-13              
  -0.3                  2e-14                 1e-13                 -2.6e-12              8e-14                
  -0.25                 1.6e-13               2.2e-13               -1.74e-12             1.6e-13              
  -0.2                  1.8e-13               4e-14                 9.4e-13               1.6e-13              
  -0.15                 4e-14                 2e-13                 -1.44e-12             1.6e-13              
  -0.1                  1.6e-13               2.2e-13               -1.68e-12             1.4e-13              
  -0.05                 1.2e-13               2.6e-13               -2.68e-12             2e-13                
  0                     2e-14                 2.8e-13               -1.48e-12             2e-13                
  0.05                  1.6e-13               3.2e-13               1.6e-13               -4e-14               
  0.1                   4e-13                 4e-13                 -1.52e-12             -1.4e-13             
  0.15                  2.44e-12              3.6e-13               -1.64e-12             -2.62e-12            
  0.2                   2.082e-11             6.2e-13               -1.08e-12             -2.116e-11           
  0.25                  1.6748e-10            1.32e-12              -1.26e-12             -1.685e-10           
  0.3                   1.1972e-09            2.8e-12               -4.2e-13              -1.1944e-09          
  0.35                  6.8008e-09            5.54e-12              -1.94e-12             -6.8048e-09          
  0.4                   2.5754e-08            9.78e-12              -9e-13                -2.5738e-08          
  0.45                  6.223e-08             1.596e-11             -1.12e-12             -6.2222e-08          
  0.5                   1.06824e-07           2.518e-11             -1.82e-12             -1.06824e-07         
  0.55                  1.5072e-07            3.876e-11             -1.62e-12             -1.5064e-07          
  0.6                   1.9274e-07            5.786e-11             -4e-13                -1.9268e-07          
  0.65                  2.3312e-07            8.434e-11             -5.6e-13              -2.3308e-07          
  0.7                   2.718e-07             1.1984e-10            -1.08e-12             -2.718e-07           
  0.75                  3.091e-07             1.6702e-10            -6.2e-13              -3.0912e-07          
  0.8                   3.4486e-07            2.2804e-10            -1.34e-12             -3.4498e-07          
  0.85                  3.7916e-07            3.0626e-10            4e-14                 -3.794e-07           
  0.9                   4.1188e-07            4.0538e-10            -9.2e-13              -4.122e-07           
  0.95                  4.4294e-07            5.2868e-10            -1.2e-12              -4.4336e-07          
  1                     4.7218e-07            6.812e-10             -3.2e-13              -4.7278e-07          
  1.05                  4.997e-07             8.6702e-10            -1.1e-12              -5.0046e-07          
  1.1                   5.253e-07             1.092e-09             -4.4e-13              -5.2628e-07          
  1.15                  5.4908e-07            1.361e-09             1.2e-13               -5.5038e-07          
  1.2                   5.7108e-07            1.6808e-09            -4.4e-13              -5.7268e-07          
  1.25                  5.9122e-07            2.058e-09             -1.9e-12              -5.9316e-07          
  1.3                   6.0956e-07            2.4996e-09            -1e-12                -6.12e-07            
  1.35                  6.2626e-07            3.0144e-09            -1.38e-12             -6.2918e-07          
END_DB

BEGIN_DB
 ICCAP_VAR vb         -0.9           
 ICCAP_VAR vd         0.05           
 ICCAP_VAR vs         0              

 #vg                    id                    ig                    ib                    is                   
  -0.5                  1.8e-13               -2.2e-13              -3.46e-12             8e-14                
  -0.45                 2.4e-13               -1.2e-13              -2.52e-12             1.2e-13              
  -0.4                  8e-14                 -6e-14                -1.9e-12              2.2e-13              
  -0.35                 1.2e-13               -2e-14                -2.6e-12              1.6e-13              
  -0.3                  2e-14                 1e-13                 -3.46e-12             1e-13                
  -0.25                 -4e-14                2e-14                 -2.48e-12             2e-14                
  -0.2                  2e-14                 2.6e-13               -2.3e-12              1.4e-13              
  -0.15                 6e-14                 1.6e-13               -1.32e-12             2e-13                
  -0.1                  -8e-14                2.6e-13               -3.6e-12              -2e-14               
  -0.05                 4e-14                 3.2e-13               -2.18e-12             1.2e-13              
  0                     -2e-14                3e-13                 -1.7e-12              6e-14                
  0.05                  0                     2.6e-13               -2.18e-12             0                    
  0.1                   8e-14                 2e-13                 -9e-13                6e-14                
  0.15                  8.8e-13               3.4e-13               -1.22e-12             -8.4e-13             
  0.2                   7.54e-12              4.6e-13               -1.6e-12              -7.6e-12             
  0.25                  6.238e-11             1.06e-12              -1.86e-12             -6.302e-11           
  0.3                   4.8536e-10            2.48e-12              -1.16e-12             -4.8612e-10          
  0.35                  3.168e-09             5.08e-12              -8.4e-13              -3.1692e-09          
  0.4                   1.4782e-08            9.16e-12              -1e-12                -1.4766e-08          
  0.45                  4.3214e-08            1.526e-11             -1.66e-12             -4.321e-08           
  0.5                   8.4406e-08            2.448e-11             -1.76e-12             -8.4422e-08          
  0.55                  1.2758e-07            3.758e-11             -1.08e-12             -1.2744e-07          
  0.6                   1.6926e-07            5.668e-11             -1.9e-12              -1.6916e-07          
  0.65                  2.0946e-07            8.274e-11             -1.32e-12             -2.094e-07           
  0.7                   2.48e-07              1.1796e-10            -1.02e-12             -2.4794e-07          
  0.75                  2.8506e-07            1.6476e-10            -6.62e-12             -2.8512e-07          
  0.8                   3.208e-07             2.2548e-10            -1.68e-12             -3.2092e-07          
  0.85                  3.5514e-07            3.0376e-10            -1.22e-12             -3.553e-07           
  0.9                   3.8788e-07            4.0214e-10            -1.58e-12             -3.8816e-07          
  0.95                  4.1902e-07            5.2536e-10            -8.8e-13              -4.1944e-07          
  1                     4.484e-07             6.7778e-10            -1.38e-12             -4.4898e-07          
  1.05                  4.7606e-07            8.6358e-10            -9.4e-13              -4.7678e-07          
  1.1                   5.0182e-07            1.0888e-09            -1.78e-12             -5.0282e-07          
  1.15                  5.2578e-07            1.3578e-09            -1.18e-12             -5.2706e-07          
  1.2                   5.4792e-07            1.6768e-09            -1.5e-12              -5.4952e-07          
  1.25                  5.6832e-07            2.0536e-09            -8e-13                -5.7028e-07          
  1.3                   5.869e-07             2.495e-09             -1.42e-12             -5.893e-07           
  1.35                  6.0382e-07            3.0098e-09            -2.42e-12             -6.0672e-07          
END_DB

BEGIN_DB
 ICCAP_VAR vb         -1.2           
 ICCAP_VAR vd         0.05           
 ICCAP_VAR vs         0              

 #vg                    id                    ig                    ib                    is                   
  -0.5                  1.2e-13               -3.2e-13              -2.3e-12              1.2e-13              
  -0.45                 8e-14                 -1.6e-13              -4.32e-12             3e-13                
  -0.4                  -2e-14                8e-14                 -2.88e-12             2.8e-13              
  -0.35                 -2e-13                8e-14                 -1.98e-12             -1.2e-13             
  -0.3                  2.2e-13               2e-14                 -1.96e-12             1.2e-13              
