! VERSION = 6.00
BEGIN_HEADER
 ICCAP_INPUTS
  vd         V  D GROUND SMU1 0.1 LIN        1    0          1.35       28   0.05      
  vg         V  G GROUND SMU2 0.001 LIST       2 3 0.359 0.559 0.759
  vb         V  B GROUND SMU4 0.1 CON        -1.2
  vs         V  S GROUND SMU3 0.1 CON        0
 ICCAP_OUTPUTS
  id         I  D GROUND SMU1 B
  ig         I  G GROUND SMU2 B
  ib         I  B GROUND SMU4 B
  is         I  S GROUND SMU3 B
 ICCAP_VALUES
  MASTER_SETUP_TYPE "~dc_idvd~"
  LINVT_VALUE ""
  LISTVT_VALUE "|idvg|100.0n|-200.0m|1.000m|3|200.0m|200.0m|"
  TYPE "1"
  TEMP "-40.0000 "
  IS_TNOM " 0.00000 "
  MAIN.W "150.0n"
  MAIN.L "130.0n"
  MAIN.AD "100.5f"
  MAIN.AS "100.5f"
  MAIN.PD "1.340u"
  MAIN.PS "1.340u"
  MAIN.NF "1.000"
  MAIN.M "1"
  MAIN.NRD "0.000"
  MAIN.NRS "0.000"
  MAIN.LDRIFT1 "1E-06"
  MAIN.LDRIFT2 "1E-06"
  MAIN.SA "0.000"
  MAIN.SB "0.000"
  MAIN.SD "0.000"
  MAIN.SCA "0.000"
  MAIN.SCB "0.000"
  MAIN.SCC "0.000"
  MAIN.SC "0.000"
  MODULE "S546"
  PIN_D "16"
  PIN_G "5"
  PIN_S "6"
  PIN_B "15"
  PIN_E ""
  PIN_6 ""
  XY_ID ""
  FUNC "Small"
  STI "SA ref"
  WPE "WPE ref"
  COMMENT ""
  DIS_MEAS ""
  TypeTCI "10"
END_HEADER

BEGIN_DB
 ICCAP_VAR vg         0.359          
 ICCAP_VAR vb         -1.2           
 ICCAP_VAR vs         0              

 #vd                    id                    ig                    ib                    is                   
  0                     4e-14                 -1e-13                -3.4e-12              -6e-14               
  0.05                  1.842e-11             1.2e-13               -3.44e-12             -1.816e-11           
  0.1                   2.25e-11              -3.2e-13              -3.44e-12             -2.212e-11           
  0.15                  2.518e-11             0                     -3.16e-12             -2.506e-11           
  0.2                   2.836e-11             1.8e-13               -1.66e-12             -2.808e-11           
  0.25                  3.172e-11             1.2e-13               -3.26e-12             -3.136e-11           
  0.3                   3.51e-11              0                     -2.96e-12             -3.468e-11           
  0.35                  3.894e-11             2.6e-13               -2.7e-12              -3.852e-11           
  0.4                   4.314e-11             -6e-14                -9.4e-13              -4.302e-11           
  0.45                  4.774e-11             -1.2e-13              -2.12e-12             -4.71e-11            
  0.5                   5.26e-11              -2.4e-13              -1.46e-12             -5.234e-11           
  0.55                  5.782e-11             8e-14                 -1.9e-12              -5.786e-11           
  0.6                   6.426e-11             -6e-14                -2.48e-12             -6.372e-11           
  0.65                  7.118e-11             -5.4e-13              -1.34e-12             -7.038e-11           
  0.7                   7.846e-11             -3.2e-13              -9.8e-13              -7.768e-11           
  0.75                  8.634e-11             0                     -1.16e-12             -8.614e-11           
  0.8                   9.6e-11               -2e-14                -2.4e-12              -9.542e-11           
  0.85                  1.0626e-10            -3.8e-13              -1.9e-12              -1.054e-10           
  0.9                   1.1778e-10            -8e-14                -1.98e-12             -1.1694e-10          
  0.95                  1.308e-10             -2e-14                -1e-12                -1.302e-10           
  1                     1.4486e-10            5.8e-13               -4.8e-13              -1.4462e-10          
  1.05                  1.614e-10             -1.4e-13              -1.82e-12             -1.5996e-10          
  1.1                   1.7838e-10            -6e-14                -1.52e-12             -1.7752e-10          
  1.15                  1.9822e-10            2.6e-13               -2.08e-12             -1.9746e-10          
  1.2                   2.2018e-10            -2e-13                -9.8e-13              -2.1806e-10          
  1.25                  2.4454e-10            -2.6e-13              -6.8e-13              -2.4398e-10          
  1.3                   2.726e-10             -4e-14                -1.18e-12             -2.7058e-10          
  1.35                  3.0268e-10            -2e-13                -1.24e-12             -3.0148e-10          
END_DB

BEGIN_DB
 ICCAP_VAR vg         0.559          
 ICCAP_VAR vb         -1.2           
 ICCAP_VAR vs         0              

 #vd                    id                    ig                    ib                    is                   
  0                     7.032e-11             3.8e-13               2.6e-13               -7.32e-11            
  0.05                  3.8904e-08            3.6e-13               -1.18e-12             -3.7918e-08          
  0.1                   4.8782e-08            4.2e-13               -1.3e-12              -4.907e-08           
  0.15                  5.449e-08             5e-13                 -4e-13                -5.5516e-08          
  0.2                   6.1854e-08            5.2e-13               -1.6e-12              -6.1498e-08          
  0.25                  6.7854e-08            4.6e-13               -1.76e-12             -6.7086e-08          
  0.3                   7.5074e-08            5e-13                 -1.62e-12             -7.401e-08           
  0.35                  8.0286e-08            4.2e-13               -6.4e-13              -8.0814e-08          
  0.4                   8.8386e-08            5.4e-13               -4e-13                -9.0426e-08          
  0.45                  9.812e-08             2.2e-13               -2.26e-12             -9.6156e-08          
  0.5                   1.0406e-07            4.4e-13               -9.4e-13              -1.05162e-07         
  0.55                  1.1314e-07            6.4e-13               -3e-13                -1.135e-07           
  0.6                   1.2352e-07            3.2e-13               -1.16e-12             -1.2358e-07          
  0.65                  1.3382e-07            3.4e-13               -3.4e-13              -1.3512e-07          
  0.7                   1.462e-07             4.6e-13               -8.8e-13              -1.44e-07            
  0.75                  1.5618e-07            1e-13                 -1.48e-12             -1.5708e-07          
  0.8                   1.7182e-07            4e-13                 -1.62e-12             -1.7244e-07          
  0.85                  1.8754e-07            4.6e-13               -6.2e-13              -1.8474e-07          
  0.9                   2.0092e-07            -6e-14                -7.2e-13              -2.0012e-07          
  0.95                  2.1598e-07            6e-13                 -1.6e-12              -2.1598e-07          
  1                     2.3362e-07            4.2e-13               -1.08e-12             -2.3768e-07          
  1.05                  2.5698e-07            4.4e-13               -5.2e-13              -2.5224e-07          
  1.1                   2.73e-07              7.8e-13               -1.68e-12             -2.761e-07           
  1.15                  2.9104e-07            4.8e-13               -1.4e-12              -2.9596e-07          
  1.2                   3.1402e-07            5.4e-13               -2.68e-12             -3.1786e-07          
  1.25                  3.4682e-07            4.6e-13               -3.46e-12             -3.4264e-07          
  1.3                   3.7026e-07            2.4e-13               -7.8e-12              -3.7036e-07          
  1.35                  3.9962e-07            5.4e-13               -1.44e-11             -3.962e-07           
END_DB

BEGIN_DB
 ICCAP_VAR vg         0.759          
 ICCAP_VAR vb         -1.2           
 ICCAP_VAR vs         0              

 #vd                    id                    ig                    ib                    is                   
  0                     2.2004e-09            3.56e-12              -3e-13                -2.1642e-09          
  0.05                  2.1674e-06            2.88e-12              8e-14                 -2.1636e-06          
  0.1                   3.45e-06              2.92e-12              -8e-13                -3.4466e-06          
  0.15                  4.2076e-06            2.82e-12              -1.2e-12              -4.2062e-06          
  0.2                   4.6912e-06            3.16e-12              1.8e-13               -4.6862e-06          
  0.25                  5.033e-06             2.66e-12              -1.28e-12             -5.0286e-06          
  0.3                   5.3126e-06            2.88e-12              -1.5e-12              -5.3088e-06          
  0.35                  5.5622e-06            3e-12                 -8e-13                -5.557e-06           
  0.4                   5.7862e-06            2.64e-12              -1.8e-12              -5.7914e-06          
  0.45                  6.025e-06             2.48e-12              2e-14                 -6.0212e-06          
  0.5                   6.2498e-06            2.78e-12              -5.8e-13              -6.2482e-06          
  0.55                  6.4776e-06            2.84e-12              -1.88e-12             -6.475e-06           
  0.6                   6.7096e-06            2.7e-12               -3.8e-13              -6.7048e-06          
  0.65                  6.9398e-06            2.92e-12              -2.8e-13              -6.9358e-06          
  0.7                   7.1768e-06            2.74e-12              -1.92e-12             -7.1768e-06          
  0.75                  7.4212e-06            2.82e-12              -6.4e-13              -7.4182e-06          
  0.8                   7.6692e-06            3.04e-12              -1.32e-12             -7.6668e-06          
  0.85                  7.9196e-06            2.68e-12              -2.02e-12             -7.908e-06           
  0.9                   8.1762e-06            2.78e-12              -6e-14                -8.1682e-06          
  0.95                  8.4344e-06            2.86e-12              -1.16e-12             -8.4332e-06          
  1                     8.7044e-06            3.26e-12              -6.8e-13              -8.6968e-06          
  1.05                  8.9776e-06            2.86e-12              -4.4e-13              -8.9736e-06          
  1.1                   9.2608e-06            2.62e-12              -2.46e-12             -9.249e-06           
  1.15                  9.5518e-06            2.76e-12              -4.78e-12             -9.551e-06           
  1.2                   9.85e-06              2.52e-12              -9.7e-12              -9.8408e-06          
  1.25                  1.01534e-05           2.54e-12              -2.372e-11            -1.0154e-05          
  1.3                   1.04714e-05           2.44e-12              -4.944e-11            -1.04712e-05         
  1.35                  1.07986e-05           2.76e-12              -1.007e-10            -1.07872e-05         
END_DB

