! VERSION = 6.00
BEGIN_HEADER
 ICCAP_INPUTS
  vd         V  D GROUND SMU1 0.1 LIN        1    0          1.35       28   0.05      
  vg         V  G GROUND SMU2 0.001 LIN        2    0.286      1.35       5    0.266     
  vb         V  B GROUND SMU4 0.1 CON        0
  vs         V  S GROUND SMU3 0.1 CON        0
 ICCAP_OUTPUTS
  id         I  D GROUND SMU1 B
  ig         I  G GROUND SMU2 B
  ib         I  B GROUND SMU4 B
  is         I  S GROUND SMU3 B
 ICCAP_VALUES
  MASTER_SETUP_TYPE "~dc_idvd~"
  LINVT_VALUE "|idvg|100.0n|100.0m|1.000m|5|1.350|"
  LISTVT_VALUE ""
  TYPE "1"
  TEMP " 27.0000 "
  IS_TNOM " 1.00000 "
  MAIN.W "10.00u"
  MAIN.L "2.000u"
  MAIN.AD "3.400p"
  MAIN.AS "3.400p"
  MAIN.PD "20.68u"
  MAIN.PS "20.68u"
  MAIN.NF "1.000"
  MAIN.M "1"
  MAIN.NRD "0.000"
  MAIN.NRS "0.000"
  MAIN.LDRIFT1 "1E-06"
  MAIN.LDRIFT2 "1E-06"
  MAIN.SA "0.000"
  MAIN.SB "0.000"
  MAIN.SD "0.000"
  MAIN.SCA "0.000"
  MAIN.SCB "0.000"
  MAIN.SCC "0.000"
  MAIN.SC "0.000"
  MODULE "S541"
  PIN_D "16"
  PIN_G "5"
  PIN_S "6"
  PIN_B "15"
  PIN_E ""
  PIN_6 ""
  XY_ID ""
  FUNC "L Scale"
  STI "SA ref"
  WPE "WPE ref"
  COMMENT ""
  DIS_MEAS ""
  TypeTCI "10"
END_HEADER

BEGIN_DB
 ICCAP_VAR vg         0.286          
 ICCAP_VAR vb         0              
 ICCAP_VAR vs         0              

 #vd                    id                    ig                    ib                    is                   
  0                     3.787e-09             2.498e-11             8.34e-12              -4.318e-09           
  0.05                  3.246e-06             1.968e-11             7.04e-12              -3.2408e-06          
  0.1                   4.3392e-06            1.728e-11             6.12e-12              -4.3348e-06          
  0.15                  4.7524e-06            1.654e-11             6.1e-12               -4.7526e-06          
  0.2                   4.9954e-06            1.608e-11             6.32e-12              -4.9892e-06          
  0.25                  5.1844e-06            1.57e-11              4.76e-12              -5.1818e-06          
  0.3                   5.3568e-06            1.53e-11              5.92e-12              -5.3514e-06          
  0.35                  5.514e-06             1.504e-11             5.68e-12              -5.511e-06           
  0.4                   5.661e-06             1.482e-11             4.72e-12              -5.6592e-06          
  0.45                  5.8034e-06            1.436e-11             4.68e-12              -5.7984e-06          
  0.5                   5.9346e-06            1.408e-11             5.46e-12              -5.9316e-06          
  0.55                  6.061e-06             1.378e-11             4.04e-12              -6.057e-06           
  0.6                   6.182e-06             1.336e-11             4.96e-12              -6.1796e-06          
  0.65                  6.2946e-06            1.308e-11             5.26e-12              -6.2942e-06          
  0.7                   6.4062e-06            1.27e-11              3.5e-12               -6.4024e-06          
  0.75                  6.5128e-06            1.212e-11             4.6e-12               -6.5082e-06          
  0.8                   6.6112e-06            1.162e-11             4.06e-12              -6.6102e-06          
  0.85                  6.709e-06             1.116e-11             3.22e-12              -6.6922e-06          
  0.9                   6.7776e-06            1.038e-11             2.96e-12              -6.7776e-06          
  0.95                  6.8704e-06            9.62e-12              3.16e-12              -6.8684e-06          
  1                     6.954e-06             8.76e-12              6.6e-13               -6.9522e-06          
  1.05                  7.038e-06             7.74e-12              -2.3e-12              -7.0332e-06          
  1.1                   7.1138e-06            6.72e-12              -1.234e-11            -7.1068e-06          
  1.15                  7.1902e-06            5.52e-12              -3.23e-11             -7.1878e-06          
  1.2                   7.2618e-06            4.26e-12              -6.966e-11            -7.26e-06            
  1.25                  7.332e-06             2.6e-12               -1.3658e-10           -7.3258e-06          
  1.3                   7.4e-06               7.4e-13               -2.4756e-10           -7.3952e-06          
  1.35                  7.4586e-06            -1.16e-12             -4.1734e-10           -7.453e-06           
END_DB

BEGIN_DB
 ICCAP_VAR vg         0.552          
 ICCAP_VAR vb         0              
 ICCAP_VAR vs         0              

 #vd                    id                    ig                    ib                    is                   
  0                     4.752e-08             3.3634e-10            3.02e-12              -4.5584e-08          
  0.05                  3.087e-05             2.8054e-10            3.12e-12              -3.0852e-05          
  0.1                   5.4966e-05            2.4016e-10            2.32e-12              -5.495e-05           
  0.15                  7.198e-05             2.1338e-10            2.1e-12               -7.1962e-05          
  0.2                   8.233e-05             1.977e-10             4.14e-12              -8.2326e-05          
  0.25                  8.787e-05             1.8962e-10            1.68e-12              -8.7848e-05          
  0.3                   9.0874e-05            1.8514e-10            1.92e-12              -9.0856e-05          
  0.35                  9.2858e-05            1.8216e-10            2.3e-12               -9.2836e-05          
  0.4                   9.44e-05              1.8e-10               9.4e-13               -9.4386e-05          
  0.45                  9.5732e-05            1.7818e-10            1.9e-12               -9.572e-05           
  0.5                   9.6954e-05            1.7666e-10            2.86e-12              -9.6932e-05          
  0.55                  9.8078e-05            1.7502e-10            1.42e-12              -9.8058e-05          
  0.6                   9.9132e-05            1.736e-10             1.88e-12              -9.9122e-05          
  0.65                  0.000100142           1.7232e-10            2.12e-12              -0.000100138         
  0.7                   0.000101114           1.7086e-10            1.72e-12              -0.000101088         
  0.75                  0.000102038           1.6966e-10            2.02e-12              -0.000102016         
  0.8                   0.000102908           1.6864e-10            2.64e-12              -0.000102886         
  0.85                  0.000103762           1.6728e-10            1.4e-12               -0.000103744         
  0.9                   0.000104586           1.66e-10              4.52e-12              -0.00010458          
  0.95                  0.000105392           1.6484e-10            1.72e-12              -0.00010537          
  1                     0.000106158           1.636e-10             1.36e-12              -0.000106144         
  1.05                  0.000106906           1.6246e-10            6.2e-13               -0.00010689          
  1.1                   0.000107634           1.6102e-10            -1.84e-12             -0.000107616         
  1.15                  0.000108342           1.5978e-10            -9.56e-12             -0.00010833          
  1.2                   0.000109038           1.5828e-10            -3.002e-11            -0.00010902          
  1.25                  0.000109702           1.568e-10             -8.05e-11             -0.000109688         
  1.3                   0.000110364           1.5526e-10            -1.9676e-10           -0.000110348         
  1.35                  0.000110986           1.536e-10             -4.3784e-10           -0.000110974         
END_DB

BEGIN_DB
 ICCAP_VAR vg         0.818          
 ICCAP_VAR vb         0              
 ICCAP_VAR vs         0              

 #vd                    id                    ig                    ib                    is                   
  0                     8.442e-08             1.8884e-09            2.18e-12              -7.9198e-08          
  0.05                  5.9198e-05            1.6508e-09            1.16e-12              -5.9176e-05          
  0.1                   0.000112722           1.4538e-09            8.4e-13               -0.00011271          
  0.15                  0.0001604             1.2932e-09            1.32e-12              -0.00016             
  0.2                   0.00020152            1.1644e-09            1.18e-12              -0.00020114          
  0.25                  0.0002359             1.0642e-09            1.48e-12              -0.00023552          
  0.3                   0.0002632             9.8848e-10            1.48e-12              -0.00026282          
  0.35                  0.00028332            9.3554e-10            2.46e-12              -0.00028294          
  0.4                   0.00029692            9.0124e-10            5.4e-13               -0.00029652          
  0.45                  0.00030548            8.799e-10             9.2e-13               -0.00030506          
  0.5                   0.00031092            8.6652e-10            1.96e-12              -0.00031052          
  0.55                  0.0003147             8.5732e-10            9e-13                 -0.0003143           
  0.6                   0.00031764            8.5016e-10            4.2e-13               -0.00031724          
  0.65                  0.00032012            8.444e-10             1.92e-12              -0.00031974          
  0.7                   0.00032236            8.3918e-10            7.4e-13               -0.00032198          
  0.75                  0.00032442            8.345e-10             7e-13                 -0.00032402          
  0.8                   0.00032632            8.3012e-10            1.96e-12              -0.00032596          
  0.85                  0.00032816            8.2582e-10            8.2e-13               -0.00032778          
  0.9                   0.0003299             8.2212e-10            1.44e-12              -0.0003295           
  0.95                  0.00033156            8.181e-10             6.4e-13               -0.00033116          
  1                     0.00033316            8.1442e-10            7.2e-13               -0.00033276          
  1.05                  0.0003347             8.1122e-10            1.02e-12              -0.0003343           
  1.1                   0.0003362             8.0738e-10            4e-14                 -0.00033582          
  1.15                  0.00033768            8.0412e-10            -1.86e-12             -0.0003373           
  1.2                   0.00033908            8.0076e-10            4.4e-13               -0.0003387           
  1.25                  0.00034046            7.9782e-10            -3.96e-12             -0.00034008          
  1.3                   0.0003418             7.9468e-10            -1.2e-11              -0.0003414           
  1.35                  0.00034308            7.9166e-10            -3.236e-11            -0.0003427           
END_DB

BEGIN_DB
 ICCAP_VAR vg         1.084          
 ICCAP_VAR vb         0              
 ICCAP_VAR vs         0              

 #vd                    id                    ig                    ib                    is                   
  0                     1.13264e-07           6.9024e-09            4.9e-12               -1.0735e-07          
  0.05                  8.1388e-05            6.2072e-09            1.08e-12              -8.1372e-05          
  0.1                   0.00015862            5.5996e-09            7.4e-13               -0.00015824          
  0.15                  0.00023106            5.0718e-09            1e-12                 -0.0002307           
  0.2                   0.00029852            4.6166e-09            1.56e-12              -0.00029816          
  0.25                  0.00036072            4.2272e-09            2.8e-13               -0.00036034          
  0.3                   0.00041728            3.897e-09             6.6e-13               -0.0004169           
  0.35                  0.00046782            3.621e-09             1.62e-12              -0.00046746          
  0.4                   0.00051204            3.393e-09             -2e-14                -0.00051168          
  0.45                  0.0005495             3.2104e-09            1.4e-13               -0.00054914          
  0.5                   0.0005801             3.0682e-09            1.26e-12              -0.00057972          
  0.55                  0.00060378            2.9618e-09            1.04e-12              -0.0006034           
  0.6                   0.00062104            2.8858e-09            8.4e-13               -0.0006207           
  0.65                  0.00063304            2.8348e-09            1.64e-12              -0.00063266          
  0.7                   0.00064124            2.8002e-09            1.6e-13               -0.00064094          
  0.75                  0.00064716            2.776e-09             7.8e-13               -0.00064678          
  0.8                   0.00065164            2.757e-09             1.44e-12              -0.00065128          
  0.85                  0.00065534            2.742e-09             3.8e-13               -0.00065494          
  0.9                   0.00065856            2.7286e-09            2.4e-13               -0.00065822          
  0.95                  0.00066154            2.7168e-09            1.72e-12              -0.00066118          
  1                     0.00066428            2.7056e-09            6.8e-13               -0.00066388          
  1.05                  0.00066684            2.6952e-09            -2.84e-12             -0.00066646          
  1.1                   0.00066924            2.6858e-09            1.8e-12               -0.0006689           
  1.15                  0.00067162            2.6766e-09            1.1e-12               -0.00067122          
  1.2                   0.00067384            2.6678e-09            3.8e-13               -0.00067346          
  1.25                  0.000676              2.659e-09             8.4e-13               -0.0006756           
  1.3                   0.00067806            2.6512e-09            3.4e-13               -0.00067768          
  1.35                  0.00068006            2.6424e-09            -1.26e-12             -0.0006797           
END_DB

BEGIN_DB
 ICCAP_VAR vg         1.35           
 ICCAP_VAR vb         0              
 ICCAP_VAR vs         0              

 #vd                    id                    ig                    ib                    is                   
  0                     1.15006e-07           1.9456e-08            -1.61e-11             -1.17056e-07         
  0.05                  9.6688e-05            1.7826e-08            -1.278e-11            -9.668e-05           
  0.1                   0.00019054            1.6356e-08            -1.032e-11            -0.00019018          
  0.15                  0.00028098            1.5038e-08            -7.08e-12             -0.00028062          
  0.2                   0.00036778            1.386e-08             -6.92e-12             -0.00036742          
  0.25                  0.00045072            1.2814e-08            -3.98e-12             -0.00045036          
  0.3                   0.00052948            1.1886e-08            -3.26e-12             -0.00052912          
  0.35                  0.00060372            1.1066e-08            -3.8e-12              -0.00060334          
  0.4                   0.00067312            1.0348e-08            -2.58e-12             -0.00067274          
  0.45                  0.00073724            9.719e-09             -1.38e-12             -0.00073686          
  0.5                   0.00079592            9.1786e-09            -2.6e-12              -0.00079556          
  0.55                  0.00084886            8.7164e-09            -1.98e-12             -0.0008485           
  0.6                   0.0008956             8.3266e-09            -1.48e-12             -0.00089524          
  0.65                  0.0009359             8.0046e-09            -2.9e-12              -0.00093552          
  0.7                   0.00096952            7.745e-09             -1.94e-12             -0.0009692           
  0.75                  0.0009966             7.5444e-09            -1.28e-12             -0.00099626          
  0.8                   0.00101736            7.3928e-09            -1.82e-12             -0.00101706          
  0.85                  0.00103274            7.282e-09             -1.9e-12              -0.00103236          
  0.9                   0.00104386            7.2038e-09            -1.5e-12              -0.00104352          
  0.95                  0.00105204            7.1466e-09            -2.24e-12             -0.00105166          
  1                     0.00105822            7.1034e-09            -1.18e-12             -0.00105784          
  1.05                  0.00106326            7.068e-09             -2.12e-12             -0.00106288          
  1.1                   0.0010675             7.0384e-09            -2.1e-12              -0.0010671           
  1.15                  0.00107124            7.013e-09             -2.6e-13              -0.00107088          
  1.2                   0.00107468            6.9898e-09            -1.68e-12             -0.00107434          
  1.25                  0.0010779             6.9692e-09            -2.4e-12              -0.00107752          
  1.3                   0.0010809             6.9474e-09            -8.2e-13              -0.00108048          
  1.35                  0.00108372            6.9284e-09            -2.1e-12              -0.00108338          
END_DB

