! VERSION = 6.00
BEGIN_HEADER
 ICCAP_INPUTS
  vd         V  D GROUND SMU1 0.1 LIN        1    0          1.35       28   0.05      
  vg         V  G GROUND SMU2 0.001 LIST       2 3 0.214 0.414 0.614
  vb         V  B GROUND SMU4 0.1 CON        0
  vs         V  S GROUND SMU3 0.1 CON        0
 ICCAP_OUTPUTS
  id         I  D GROUND SMU1 B
  ig         I  G GROUND SMU2 B
  ib         I  B GROUND SMU4 B
  is         I  S GROUND SMU3 B
 ICCAP_VALUES
  MASTER_SETUP_TYPE "~dc_idvd~"
  LINVT_VALUE ""
  LISTVT_VALUE "|idvg|100.0n|-200.0m|1.000m|3|200.0m|200.0m|"
  TYPE "1"
  TEMP " 27.0000 "
  IS_TNOM " 1.00000 "
  MAIN.W "600.0n"
  MAIN.L "130.0n"
  MAIN.AD "204.0f"
  MAIN.AS "204.0f"
  MAIN.PD "1.880u"
  MAIN.PS "1.880u"
  MAIN.NF "1.000"
  MAIN.M "1"
  MAIN.NRD "0.000"
  MAIN.NRS "0.000"
  MAIN.LDRIFT1 "1E-06"
  MAIN.LDRIFT2 "1E-06"
  MAIN.SA "0.000"
  MAIN.SB "0.000"
  MAIN.SD "0.000"
  MAIN.SCA "0.000"
  MAIN.SCB "0.000"
  MAIN.SCC "0.000"
  MAIN.SC "0.000"
  MODULE "S543"
  PIN_D "18"
  PIN_G "3"
  PIN_S "4"
  PIN_B "17"
  PIN_E ""
  PIN_6 ""
  XY_ID ""
  FUNC "LW Scale"
  STI "SA ref"
  WPE "WPE ref"
  COMMENT ""
  DIS_MEAS ""
  TypeTCI "10"
END_HEADER

BEGIN_DB
 ICCAP_VAR vg         0.214          
 ICCAP_VAR vb         0              
 ICCAP_VAR vs         0              

 #vd                    id                    ig                    ib                    is                   
  0                     3.98e-12              -4e-14                8e-13                 -2.6e-12             
  0.05                  9.507e-10             -1.4e-13              -3.8e-13              -9.5044e-10          
  0.1                   1.1986e-09            0                     9.4e-13               -1.1962e-09          
  0.15                  1.328e-09             -1.2e-13              1.82e-12              -1.3244e-09          
  0.2                   1.4388e-09            -1.6e-13              9.8e-13               -1.4364e-09          
  0.25                  1.5454e-09            -8e-14                1.4e-13               -1.5434e-09          
  0.3                   1.6516e-09            -6e-14                -4.4e-13              -1.6492e-09          
  0.35                  1.7608e-09            -6e-14                3e-13                 -1.761e-09           
  0.4                   1.8602e-09            -4e-14                2.28e-12              -1.8616e-09          
  0.45                  1.9708e-09            0                     3e-13                 -1.9674e-09          
  0.5                   2.0766e-09            -1.4e-13              -5e-13                -2.0774e-09          
  0.55                  2.187e-09             -1.6e-13              6e-14                 -2.1886e-09          
  0.6                   2.3002e-09            -2.6e-13              5e-13                 -2.2984e-09          
  0.65                  2.418e-09             -1.8e-13              8.8e-13               -2.4118e-09          
  0.7                   2.5424e-09            -1.4e-13              3.8e-13               -2.5288e-09          
  0.75                  2.6542e-09            -2.8e-13              -1.6e-13              -2.657e-09           
  0.8                   2.7848e-09            -3.8e-13              -5.6e-13              -2.782e-09           
  0.85                  2.9112e-09            -3.8e-13              5e-13                 -2.9108e-09          
  0.9                   3.0514e-09            -6e-13                8.6e-13               -3.044e-09           
  0.95                  3.1814e-09            -5.2e-13              3.4e-13               -3.1824e-09          
  1                     3.3228e-09            -7.8e-13              -2e-14                -3.3164e-09          
  1.05                  3.4686e-09            -9.6e-13              6.2e-13               -3.4646e-09          
  1.1                   3.624e-09             -1.2e-12              7.6e-13               -3.6268e-09          
  1.15                  3.7908e-09            -1.42e-12             2.4e-13               -3.7818e-09          
  1.2                   3.9562e-09            -1.7e-12              1.6e-13               -3.9524e-09          
  1.25                  4.1184e-09            -2.04e-12             -8e-13                -4.1124e-09          
  1.3                   4.2958e-09            -2.16e-12             -7.2e-13              -4.2962e-09          
  1.35                  4.4858e-09            -2.44e-12             2.6e-13               -4.4906e-09          
END_DB

BEGIN_DB
 ICCAP_VAR vg         0.414          
 ICCAP_VAR vb         0              
 ICCAP_VAR vs         0              

 #vd                    id                    ig                    ib                    is                   
  0                     4.8732e-10            3.4e-13               1.5e-12               -4.9404e-10          
  0.05                  2.1708e-07            4.2e-13               6e-14                 -2.168e-07           
  0.1                   2.902e-07             2.4e-13               4.6e-13               -2.8992e-07          
  0.15                  3.2772e-07            2e-13                 8.6e-13               -3.277e-07           
  0.2                   3.564e-07             2.8e-13               5.8e-13               -3.5572e-07          
  0.25                  3.8172e-07            1e-13                 1.6e-13               -3.822e-07           
  0.3                   4.0762e-07            2.8e-13               2.8e-13               -4.0726e-07          
  0.35                  4.319e-07             2.4e-13               7.6e-13               -4.3118e-07          
  0.4                   4.5636e-07            2.2e-13               4.2e-13               -4.5698e-07          
  0.45                  4.802e-07             3.2e-13               6e-14                 -4.7942e-07          
  0.5                   5.041e-07             2.2e-13               5.6e-13               -5.0544e-07          
  0.55                  5.2766e-07            3e-13                 7.6e-13               -5.2866e-07          
  0.6                   5.5336e-07            2e-13                 3.2e-13               -5.525e-07           
  0.65                  5.7644e-07            2.4e-13               -2e-14                -5.7654e-07          
  0.7                   6.014e-07             2e-13                 -4e-13                -6.0174e-07          
  0.75                  6.2648e-07            3.2e-13               5.2e-13               -6.2746e-07          
  0.8                   6.5336e-07            1.8e-13               5.6e-13               -6.522e-07           
  0.85                  6.8004e-07            4e-14                 0                     -6.797e-07           
  0.9                   7.0652e-07            -2e-14                1.6e-13               -7.0636e-07          
  0.95                  7.3262e-07            2e-14                 8.2e-13               -7.3122e-07          
  1                     7.6154e-07            0                     -2.8e-13              -7.6166e-07          
  1.05                  7.8806e-07            -1e-13                -1.26e-12             -7.9012e-07          
  1.1                   8.193e-07             -2.6e-13              -6.48e-12             -8.1916e-07          
  1.15                  8.4832e-07            -3.2e-13              -7.34e-12             -8.4624e-07          
  1.2                   8.7972e-07            -5.8e-13              -1.62e-11             -8.7774e-07          
  1.25                  9.0968e-07            -7.4e-13              -3.066e-11            -9.1064e-07          
  1.3                   9.431e-07             -8.6e-13              -5.324e-11            -9.4368e-07          
  1.35                  9.7648e-07            -1.22e-12             -8.848e-11            -9.7416e-07          
END_DB

BEGIN_DB
 ICCAP_VAR vg         0.614          
 ICCAP_VAR vb         0              
 ICCAP_VAR vs         0              

 #vd                    id                    ig                    ib                    is                   
  0                     3.338e-09             2e-12                 1.72e-12              -5.155e-09           
  0.05                  4.817e-06             1.62e-12              -1e-13                -4.814e-06           
  0.1                   7.5598e-06            1.5e-12               1.26e-12              -7.5548e-06          
  0.15                  9.1006e-06            1.36e-12              -4.2e-13              -9.0934e-06          
  0.2                   1.00466e-05           1.34e-12              3.6e-13               -1.00504e-05         
  0.25                  1.07306e-05           1.36e-12              1.34e-12              -1.07214e-05         
  0.3                   1.12842e-05           1.2e-12               1.4e-13               -1.12808e-05         
  0.35                  1.178e-05             1.38e-12              1.5e-12               -1.1764e-05          
  0.4                   1.2234e-05            1.24e-12              6e-14                 -1.221e-05           
  0.45                  1.2658e-05            1.14e-12              2.4e-13               -1.2642e-05          
  0.5                   1.3076e-05            1.26e-12              2e-14                 -1.3054e-05          
  0.55                  1.347e-05             1.22e-12              -2.8e-13              -1.3466e-05          
  0.6                   1.3874e-05            1.12e-12              6.2e-13               -1.3846e-05          
  0.65                  1.425e-05             1.3e-12               9.6e-13               -1.4236e-05          
  0.7                   1.4636e-05            1.22e-12              -4e-14                -1.4622e-05          
  0.75                  1.5018e-05            1.1e-12               1e-13                 -1.5e-05             
  0.8                   1.54e-05              1.3e-12               1.22e-12              -1.5378e-05          
  0.85                  1.5772e-05            1.12e-12              3.4e-13               -1.5754e-05          
  0.9                   1.6156e-05            1.12e-12              -2.6e-13              -1.6128e-05          
  0.95                  1.6518e-05            1.2e-12               6.2e-13               -1.6502e-05          
  1                     1.69e-05              1.02e-12              -2.48e-12             -1.6876e-05          
  1.05                  1.7274e-05            1.1e-12               -5.46e-12             -1.7246e-05          
  1.1                   1.7638e-05            1.04e-12              -1.414e-11            -1.762e-05           
  1.15                  1.8012e-05            1.1e-12               -3.592e-11            -1.7996e-05          
  1.2                   1.8384e-05            8.6e-13               -7.95e-11             -1.8368e-05          
  1.25                  1.8778e-05            7e-13                 -1.6588e-10           -1.8754e-05          
  1.3                   1.9124e-05            6.8e-13               -3.226e-10            -1.9134e-05          
  1.35                  1.9504e-05            4.4e-13               -5.8786e-10           -1.949e-05           
END_DB

