! VERSION = 6.00
BEGIN_HEADER
 ICCAP_INPUTS
  vg         V  G GROUND SMU2 0.001 LIN        1    -0.5       1.35       38   0.05      
  vb         V  B GROUND SMU4 0.1 LIN        2    0          -1.2       5    -0.3      
  vd         V  D GROUND SMU1 0.1 LIST       3 3 0.05 0.6 1.2
  vs         V  S GROUND SMU3 0.1 CON        0
 ICCAP_OUTPUTS
  id         I  D GROUND SMU1 B
  ig         I  G GROUND SMU2 B
  ib         I  B GROUND SMU4 B
  is         I  S GROUND SMU3 B
 ICCAP_VALUES
  MASTER_SETUP_TYPE "~dc_idvg~"
  LINVT_VALUE ""
  LISTVT_VALUE ""
  TYPE "1"
  TEMP " 27.0000 "
  IS_TNOM " 1.00000 "
  MAIN.W "600.0n"
  MAIN.L "1.200u"
  MAIN.AD "204.0f"
  MAIN.AS "204.0f"
  MAIN.PD "1.880u"
  MAIN.PS "1.880u"
  MAIN.NF "1.000"
  MAIN.M "1"
  MAIN.NRD "0.000"
  MAIN.NRS "0.000"
  MAIN.LDRIFT1 "1E-06"
  MAIN.LDRIFT2 "1E-06"
  MAIN.SA "0.000"
  MAIN.SB "0.000"
  MAIN.SD "0.000"
  MAIN.SCA "0.000"
  MAIN.SCB "0.000"
  MAIN.SCC "0.000"
  MAIN.SC "0.000"
  MODULE "S543"
  PIN_D "12"
  PIN_G "9"
  PIN_S "10"
  PIN_B "11"
  PIN_E ""
  PIN_6 ""
  XY_ID ""
  FUNC "LW Scale"
  STI "SA ref"
  WPE "WPE ref"
  COMMENT ""
  DIS_MEAS ""
  TypeTCI "10"
END_HEADER

BEGIN_DB
 ICCAP_VAR vb         0              
 ICCAP_VAR vd         0.05           
 ICCAP_VAR vs         0              

 #vg                    id                    ig                    ib                    is                   
  -0.5                  -2e-14                -4.55e-11             4.708e-11             6e-14                
  -0.45                 6e-14                 -7.22e-12             8.16e-12              1e-13                
  -0.4                  -6e-14                -1.32e-12             2.54e-12              4e-14                
  -0.35                 6e-14                 -3.2e-13              1.9e-12               1.8e-13              
  -0.3                  6e-14                 -6e-14                2.7e-12               6e-14                
  -0.25                 0                     6e-14                 1.88e-12              0                    
  -0.2                  6e-14                 2e-13                 1.56e-12              2e-14                
  -0.15                 3.4e-13               1.2e-13               1.68e-12              -3.4e-13             
  -0.1                  1.68e-12              2.4e-13               2.12e-12              -1.64e-12            
  -0.05                 7.72e-12              3e-13                 2.08e-12              -7.84e-12            
  0                     3.612e-11             2.8e-13               2.62e-12              -3.612e-11           
  0.05                  1.661e-10             2.4e-13               1.68e-12              -1.658e-10           
  0.1                   7.5894e-10            3.2e-13               1.54e-12              -7.588e-10           
  0.15                  3.433e-09             2.8e-13               1.42e-12              -3.4324e-09          
  0.2                   1.4684e-08            4.8e-13               2.16e-12              -1.466e-08           
  0.25                  5.5764e-08            7.8e-13               2.04e-12              -5.5738e-08          
  0.3                   1.7194e-07            1.26e-12              1e-12                 -1.7166e-07          
  0.35                  4.0754e-07            1.82e-12              2.18e-12              -4.0744e-07          
  0.4                   7.6142e-07            2.94e-12              1.8e-12               -7.6128e-07          
  0.45                  1.1994e-06            4.4e-12               1e-12                 -1.1956e-06          
  0.5                   1.6748e-06            6.86e-12              1.96e-12              -1.671e-06           
  0.55                  2.1628e-06            1.024e-11             2.24e-12              -2.1592e-06          
  0.6                   2.651e-06             1.504e-11             5.4e-13               -2.6476e-06          
  0.65                  3.1312e-06            2.164e-11             1.06e-12              -3.1274e-06          
  0.7                   3.5964e-06            3.016e-11             1.66e-12              -3.5928e-06          
  0.75                  4.048e-06             4.154e-11             2.14e-12              -4.0438e-06          
  0.8                   4.4822e-06            5.616e-11             5.4e-13               -4.4782e-06          
  0.85                  4.8986e-06            7.482e-11             3.4e-13               -4.895e-06           
  0.9                   5.2958e-06            9.828e-11             1.86e-12              -5.2916e-06          
  0.95                  5.6746e-06            1.2738e-10            1.8e-12               -5.6712e-06          
  1                     6.035e-06             1.6282e-10            6.8e-13               -6.0304e-06          
  1.05                  6.3746e-06            2.0586e-10            4.6e-13               -6.3706e-06          
  1.1                   6.6944e-06            2.5818e-10            8e-13                 -6.691e-06           
  1.15                  6.9956e-06            3.2016e-10            1.52e-12              -6.992e-06           
  1.2                   7.2784e-06            3.9404e-10            9.2e-13               -7.2738e-06          
  1.25                  7.5404e-06            4.808e-10             4.6e-13               -7.5372e-06          
  1.3                   7.7856e-06            5.8222e-10            1.6e-13               -7.7826e-06          
  1.35                  8.0146e-06            7.0084e-10            2e-14                 -8.0096e-06          
END_DB

BEGIN_DB
 ICCAP_VAR vb         -0.3           
 ICCAP_VAR vd         0.05           
 ICCAP_VAR vs         0              

 #vg                    id                    ig                    ib                    is                   
  -0.5                  8e-14                 -5.8e-13              -2.1e-12              1.8e-13              
  -0.45                 0                     -2.2e-13              -3.58e-12             1.2e-13              
  -0.4                  1e-13                 -1e-13                -3.18e-12             -2e-14               
  -0.35                 0                     0                     -2.56e-12             1.8e-13              
  -0.3                  0                     1e-13                 -2.32e-12             6e-14                
  -0.25                 8e-14                 1.4e-13               -1.44e-12             4e-14                
  -0.2                  0                     1.2e-13               -1.64e-12             0                    
  -0.15                 4e-14                 1.8e-13               -1.8e-12              2e-14                
  -0.1                  5.4e-13               1.6e-13               -2.18e-12             -1.6e-13             
  -0.05                 1.98e-12              2.2e-13               -1.66e-12             -1.94e-12            
  0                     9.54e-12              2.6e-13               -5e-13                -9.54e-12            
  0.05                  4.646e-11             3e-13                 -1.68e-12             -4.634e-11           
  0.1                   2.2062e-10            2.8e-13               -1.84e-12             -2.2036e-10          
  0.15                  1.04966e-09           3.4e-13               -1.82e-12             -1.04894e-09         
  0.2                   4.8348e-09            2.8e-13               -9e-13                -4.8346e-09          
  0.25                  2.0714e-08            5.8e-13               -1.8e-13              -2.0688e-08          
  0.3                   7.5888e-08            9e-13                 -1.36e-12             -7.5886e-08          
  0.35                  2.1942e-07            1.66e-12              -1.96e-12             -2.1928e-07          
  0.4                   4.8574e-07            2.62e-12              -1.06e-12             -4.8574e-07          
  0.45                  8.6402e-07            4.26e-12              -9.8e-13              -8.6386e-07          
  0.5                   1.3116e-06            6.58e-12              -1.56e-12             -1.3076e-06          
  0.55                  1.7866e-06            9.84e-12              -9e-13                -1.7826e-06          
  0.6                   2.2692e-06            1.458e-11             -4e-13                -2.2652e-06          
  0.65                  2.7478e-06            2.102e-11             -1.24e-12             -2.744e-06           
  0.7                   3.2148e-06            2.968e-11             -6.2e-13              -3.2108e-06          
  0.75                  3.6682e-06            4.09e-11              -1.12e-12             -3.6644e-06          
  0.8                   4.1048e-06            5.556e-11             -1e-13                -4.1008e-06          
  0.85                  4.5246e-06            7.416e-11             -7.8e-13              -4.5206e-06          
  0.9                   4.9258e-06            9.748e-11             -8.8e-13              -4.9216e-06          
  0.95                  5.3082e-06            1.2626e-10            -5.4e-13              -5.3046e-06          
  1                     5.672e-06             1.6168e-10            5.2e-13               -5.6682e-06          
  1.05                  6.0164e-06            2.0502e-10            -4e-13                -6.013e-06           
  1.1                   6.3406e-06            2.5678e-10            -7.6e-13              -6.337e-06           
  1.15                  6.6466e-06            3.189e-10             -9e-13                -6.6432e-06          
  1.2                   6.9328e-06            3.9236e-10            -1.6e-13              -6.929e-06           
  1.25                  7.1992e-06            4.7938e-10            -3.4e-13              -7.1958e-06          
  1.3                   7.4492e-06            5.8066e-10            -8.2e-13              -7.4454e-06          
  1.35                  7.6802e-06            6.991e-10             6e-14                 -7.6772e-06          
END_DB

BEGIN_DB
 ICCAP_VAR vb         -0.6           
 ICCAP_VAR vd         0.05           
 ICCAP_VAR vs         0              

 #vg                    id                    ig                    ib                    is                   
  -0.5                  1.6e-13               -4e-13                -5.2e-12              1.8e-13              
  -0.45                 1.4e-13               -2.4e-13              -4.76e-12             1.2e-13              
  -0.4                  1.4e-13               -1.8e-13              -4.82e-12             1.4e-13              
  -0.35                 -4e-14                -8e-14                -5.6e-13              1.2e-13              
  -0.3                  1.8e-13               2e-14                 -2.72e-12             1.8e-13              
  -0.25                 1e-13                 0                     -3.92e-12             0                    
  -0.2                  -2e-14                1.6e-13               -3.42e-12             2e-14                
  -0.15                 4e-14                 1.6e-13               -3.04e-12             2e-14                
  -0.1                  1.6e-13               2e-13                 -1.74e-12             -1e-13               
  -0.05                 7.8e-13               4e-13                 -2.38e-12             -5.2e-13             
  0                     3.18e-12              3e-13                 -3.3e-12              -3.26e-12            
  0.05                  1.674e-11             3e-13                 -2.4e-12              -1.672e-11           
  0.1                   8.198e-11             3.6e-13               -2.3e-12              -8.2e-11             
  0.15                  4.0162e-10            3e-13                 -1.64e-12             -4.0164e-10          
  0.2                   1.9402e-09            2.8e-13               -1.62e-12             -1.9394e-09          
  0.25                  8.9072e-09            6.4e-13               -3.02e-12             -8.8962e-09          
  0.3                   3.641e-08             8.8e-13               -2.74e-12             -3.6392e-08          
  0.35                  1.218e-07             1.54e-12              -9.2e-13              -1.2168e-07          
  0.4                   3.1242e-07            2.48e-12              -1.6e-12              -3.1232e-07          
  0.45                  6.2526e-07            3.96e-12              -2.68e-12             -6.2552e-07          
  0.5                   1.03202e-06           6.34e-12              -4.2e-13              -1.03222e-06         
  0.55                  1.4882e-06            9.56e-12              -1.5e-12              -1.484e-06           
  0.6                   1.9602e-06            1.42e-11              -1.78e-12             -1.9564e-06          
  0.65                  2.434e-06             2.052e-11             -2.02e-12             -2.4302e-06          
  0.7                   2.8992e-06            2.896e-11             -1.22e-12             -2.895e-06           
  0.75                  3.3522e-06            4.034e-11             -1.06e-12             -3.3484e-06          
  0.8                   3.7894e-06            5.456e-11             -1.74e-12             -3.7854e-06          
  0.85                  4.211e-06             7.32e-11              -2.82e-12             -4.207e-06           
  0.9                   4.614e-06             9.636e-11             -2.12e-12             -4.6102e-06          
  0.95                  4.9996e-06            1.2524e-10            -7.2e-13              -4.996e-06           
  1                     5.366e-06             1.6054e-10            -2.32e-12             -5.3622e-06          
  1.05                  5.713e-06             2.0344e-10            -1.94e-12             -5.7094e-06          
  1.1                   6.0404e-06            2.5534e-10            -1.38e-12             -6.0366e-06          
  1.15                  6.3492e-06            3.1722e-10            -8.4e-13              -6.3456e-06          
  1.2                   6.6396e-06            3.9088e-10            -1.24e-12             -6.635e-06           
  1.25                  6.9098e-06            4.774e-10             -1.6e-12              -6.9062e-06          
  1.3                   7.1618e-06            5.7874e-10            -2e-12                -7.1588e-06          
  1.35                  7.3974e-06            6.97e-10              5.6e-13               -7.3948e-06          
END_DB

BEGIN_DB
 ICCAP_VAR vb         -0.9           
 ICCAP_VAR vd         0.05           
 ICCAP_VAR vs         0              

 #vg                    id                    ig                    ib                    is                   
  -0.5                  1.2e-13               -5e-13                -5.06e-12             2.2e-13              
  -0.45                 -4e-14                -1.8e-13              -5.54e-12             8e-14                
  -0.4                  2e-14                 -6e-14                -5.22e-12             8e-14                
  -0.35                 -1e-13                -1.4e-13              -3.52e-12             2e-14                
  -0.3                  -2e-14                0                     -3.62e-12             -4e-14               
  -0.25                 4e-14                 8e-14                 -3.88e-12             8e-14                
  -0.2                  -6e-14                6e-14                 -4.48e-12             8e-14                
  -0.15                 0                     2.6e-13               -3.5e-12              -4e-14               
  -0.1                  -1.2e-13              1.2e-13               -3.5e-12              1.8e-13              
  -0.05                 1.6e-13               2.4e-13               -2.52e-12             -1.6e-13             
  0                     1.46e-12              1.6e-13               -2.82e-12             -1.3e-12             
  0.05                  7.24e-12              1.4e-13               -3.72e-12             -7e-12               
  0.1                   3.662e-11             3.4e-13               -3.32e-12             -3.66e-11            
  0.15                  1.8328e-10            3.2e-13               -2.5e-12              -1.8302e-10          
  0.2                   9.1166e-10            5.2e-13               -2.28e-12             -9.1224e-10          
  0.25                  4.3906e-09            5e-13                 -2.06e-12             -4.3938e-09          
  0.3                   1.9312e-08            8.2e-13               -3.02e-12             -1.927e-08           
  0.35                  7.1542e-08            1.4e-12               -2.64e-12             -7.1556e-08          
  0.4                   2.0674e-07            2.34e-12              -2.18e-12             -2.0678e-07          
  0.45                  4.5956e-07            3.82e-12              -3.16e-12             -4.5936e-07          
  0.5                   8.2138e-07            6.06e-12              -3.34e-12             -8.216e-07           
  0.55                  1.2516e-06            9.2e-12               -1.94e-12             -1.2476e-06          
  0.6                   1.7088e-06            1.38e-11              -2.4e-12              -1.705e-06           
  0.65                  2.1746e-06            2.008e-11             -2.82e-12             -2.1708e-06          
  0.7                   2.6346e-06            2.866e-11             -3.04e-12             -2.631e-06           
  0.75                  3.0858e-06            3.958e-11             -1.8e-12              -3.082e-06           
  0.8                   3.5224e-06            5.408e-11             -1.98e-12             -3.5182e-06          
  0.85                  3.9438e-06            7.23e-11              -3.24e-12             -3.9398e-06          
  0.9                   4.3478e-06            9.552e-11             -2.16e-12             -4.3438e-06          
  0.95                  4.7344e-06            1.2412e-10            -9.8e-13              -4.7302e-06          
  1                     5.1028e-06            1.5936e-10            -2.12e-12             -5.099e-06           
  1.05                  5.4526e-06            2.0226e-10            -2.68e-12             -5.4486e-06          
  1.1                   5.782e-06             2.5402e-10            -2.02e-12             -5.7786e-06          
  1.15                  6.0924e-06            3.158e-10             -1.34e-12             -6.0898e-06          
  1.2                   6.386e-06             3.894e-10             -2.28e-12             -6.3826e-06          
  1.25                  6.6592e-06            4.7566e-10            -2.34e-12             -6.6552e-06          
  1.3                   6.9128e-06            5.7688e-10            -2.22e-12             -6.9094e-06          
  1.35                  7.1508e-06            6.9528e-10            -2.24e-12             -7.1474e-06          
END_DB

BEGIN_DB
 ICCAP_VAR vb         -1.2           
 ICCAP_VAR vd         0.05           
 ICCAP_VAR vs         0              

 #vg                    id                    ig                    ib                    is                   
  -0.5                  8e-14                 -4.6e-13              -6.06e-12             1.8e-13              
  -0.45                 1.2e-13               -1.8e-13              -4.94e-12             0                    
  -0.4                  4e-14                 -3.2e-13              -5.1e-12              3e-13                
  -0.35                 1e-13                 -8e-14                -4.94e-12             1e-13                
  -0.3                  -1e-13                4e-14                 -4.98e-12             8e-14                
