! VERSION = 6.00
BEGIN_HEADER
 ICCAP_INPUTS
  vd         V  D GROUND SMU1 0.1 LIN        1    0          1.35       28   0.05      
  vg         V  G GROUND SMU2 0.001 LIST       2 3 0.255 0.455 0.655
  vb         V  B GROUND SMU4 0.1 CON        -1.2
  vs         V  S GROUND SMU3 0.1 CON        0
 ICCAP_OUTPUTS
  id         I  D GROUND SMU1 B
  ig         I  G GROUND SMU2 B
  ib         I  B GROUND SMU4 B
  is         I  S GROUND SMU3 B
 ICCAP_VALUES
  MASTER_SETUP_TYPE "~dc_idvd~"
  LINVT_VALUE ""
  LISTVT_VALUE "|idvg|100.0n|-200.0m|1.000m|3|200.0m|200.0m|"
  TYPE "1"
  TEMP " 125.000 "
  IS_TNOM " 0.00000 "
  MAIN.W "150.0n"
  MAIN.L "130.0n"
  MAIN.AD "100.5f"
  MAIN.AS "100.5f"
  MAIN.PD "1.340u"
  MAIN.PS "1.340u"
  MAIN.NF "1.000"
  MAIN.M "1"
  MAIN.NRD "0.000"
  MAIN.NRS "0.000"
  MAIN.LDRIFT1 "1E-06"
  MAIN.LDRIFT2 "1E-06"
  MAIN.SA "0.000"
  MAIN.SB "0.000"
  MAIN.SD "0.000"
  MAIN.SCA "0.000"
  MAIN.SCB "0.000"
  MAIN.SCC "0.000"
  MAIN.SC "0.000"
  MODULE "S546"
  PIN_D "16"
  PIN_G "5"
  PIN_S "6"
  PIN_B "15"
  PIN_E ""
  PIN_6 ""
  XY_ID ""
  FUNC "Small"
  STI "SA ref"
  WPE "WPE ref"
  COMMENT ""
  DIS_MEAS ""
  TypeTCI "10"
END_HEADER

BEGIN_DB
 ICCAP_VAR vg         0.255          
 ICCAP_VAR vb         -1.2           
 ICCAP_VAR vs         0              

 #vd                    id                    ig                    ib                    is                   
  0                     1.64e-12              -1e-13                -1.898e-11            -8.8e-13             
  0.05                  4.9982e-10            -1.8e-13              -1.83e-11             -4.994e-10           
  0.1                   6.5794e-10            -1e-13                -1.786e-11            -6.5746e-10          
  0.15                  7.3044e-10            -1e-13                -1.532e-11            -7.301e-10           
  0.2                   7.8346e-10            -1.6e-13              -1.402e-11            -7.827e-10           
  0.25                  8.3326e-10            -2e-14                -1.216e-11            -8.3268e-10          
  0.3                   8.8336e-10            -1e-13                -1.244e-11            -8.8244e-10          
  0.35                  9.3486e-10            -1.8e-13              -1.046e-11            -9.3416e-10          
  0.4                   9.89e-10              -1e-13                -1.01e-11             -9.88e-10            
  0.45                  1.0452e-09            -1e-13                -9.82e-12             -1.04382e-09         
  0.5                   1.104e-09             -8e-14                -9.26e-12             -1.10342e-09         
  0.55                  1.165e-09             -6e-14                -8.96e-12             -1.1648e-09          
  0.6                   1.231e-09             8e-14                 -9.16e-12             -1.229e-09           
  0.65                  1.299e-09             -1.2e-13              -7.46e-12             -1.2978e-09          
  0.7                   1.3708e-09            -1.4e-13              -8.7e-12              -1.369e-09           
  0.75                  1.4468e-09            -1.2e-13              -8.34e-12             -1.4448e-09          
  0.8                   1.526e-09             -1e-13                -8.9e-12              -1.5242e-09          
  0.85                  1.6098e-09            -8e-14                -7.62e-12             -1.6082e-09          
  0.9                   1.699e-09             -2.2e-13              -7.24e-12             -1.6968e-09          
  0.95                  1.7928e-09            -2.4e-13              -7.02e-12             -1.7908e-09          
  1                     1.8922e-09            -1.4e-13              -8.26e-12             -1.8902e-09          
  1.05                  1.9978e-09            -3e-13                -8.4e-12              -1.9956e-09          
  1.1                   2.1114e-09            -2.4e-13              -7.38e-12             -2.108e-09           
  1.15                  2.232e-09             -3.4e-13              -7.86e-12             -2.2294e-09          
  1.2                   2.3598e-09            -2.8e-13              -7.78e-12             -2.3568e-09          
  1.25                  2.4976e-09            -3e-13                -8.64e-12             -2.493e-09           
  1.3                   2.6452e-09            -3.8e-13              -9.28e-12             -2.64e-09            
  1.35                  2.8044e-09            -4e-13                -9.38e-12             -2.7992e-09          
END_DB

BEGIN_DB
 ICCAP_VAR vg         0.455          
 ICCAP_VAR vb         -1.2           
 ICCAP_VAR vs         0              

 #vd                    id                    ig                    ib                    is                   
  0                     9.258e-11             5.8e-13               -5.42e-12             -9.476e-11           
  0.05                  5.1358e-08            4.8e-13               -5.36e-12             -5.1368e-08          
  0.1                   6.945e-08             4.8e-13               -5.56e-12             -6.9432e-08          
  0.15                  7.7954e-08            5e-13                 -6.08e-12             -7.7956e-08          
  0.2                   8.3934e-08            4.2e-13               -5.4e-12              -8.3882e-08          
  0.25                  8.927e-08             4e-13                 -5.96e-12             -8.9294e-08          
  0.3                   9.4576e-08            3.6e-13               -6.34e-12             -9.4576e-08          
  0.35                  9.9948e-08            4e-13                 -5.96e-12             -9.9936e-08          
  0.4                   1.05418e-07           4.6e-13               -5.56e-12             -1.0543e-07          
  0.45                  1.1108e-07            4e-13                 -5.12e-12             -1.11058e-07         
  0.5                   1.1698e-07            4.8e-13               -5.08e-12             -1.16944e-07         
  0.55                  1.2304e-07            4e-13                 -6.52e-12             -1.23e-07            
  0.6                   1.2938e-07            3.6e-13               -5.12e-12             -1.2934e-07          
  0.65                  1.3598e-07            4.8e-13               -5.08e-12             -1.3594e-07          
  0.7                   1.4284e-07            5.2e-13               -6.04e-12             -1.428e-07           
  0.75                  1.5e-07               4e-13                 -6.4e-12              -1.4998e-07          
  0.8                   1.5754e-07            3.2e-13               -5.38e-12             -1.5748e-07          
  0.85                  1.654e-07             3.4e-13               -5.88e-12             -1.6536e-07          
  0.9                   1.7368e-07            3.2e-13               -6.58e-12             -1.7366e-07          
  0.95                  1.8236e-07            3.8e-13               -6.58e-12             -1.8234e-07          
  1                     1.9152e-07            4.2e-13               -6.5e-12              -1.9148e-07          
  1.05                  2.0114e-07            4.6e-13               -7.72e-12             -2.011e-07           
  1.1                   2.113e-07             3.4e-13               -1.026e-11            -2.1124e-07          
  1.15                  2.22e-07              3e-13                 -1.468e-11            -2.2196e-07          
  1.2                   2.3338e-07            2.8e-13               -1.926e-11            -2.3334e-07          
  1.25                  2.4532e-07            2.6e-13               -2.908e-11            -2.453e-07           
  1.3                   2.5798e-07            3e-13                 -4.38e-11             -2.5796e-07          
  1.35                  2.7128e-07            2.6e-13               -6.332e-11            -2.7122e-07          
END_DB

BEGIN_DB
 ICCAP_VAR vg         0.655          
 ICCAP_VAR vb         -1.2           
 ICCAP_VAR vs         0              

 #vd                    id                    ig                    ib                    is                   
  0                     1.5418e-09            2.46e-12              -4.02e-12             -1.3668e-09          
  0.05                  1.1464e-06            2.24e-12              -5.36e-12             -1.1468e-06          
  0.1                   1.813e-06             2.28e-12              -4.22e-12             -1.8094e-06          
  0.15                  2.1864e-06            2.18e-12              -5.36e-12             -2.1834e-06          
  0.2                   2.4108e-06            2.14e-12              -5.06e-12             -2.4072e-06          
  0.25                  2.5672e-06            2.1e-12               -4.6e-12              -2.564e-06           
  0.3                   2.6936e-06            2.1e-12               -5.5e-12              -2.6902e-06          
  0.35                  2.8074e-06            2.02e-12              -4.7e-12              -2.8038e-06          
  0.4                   2.9152e-06            2.02e-12              -5.24e-12             -2.9124e-06          
  0.45                  3.0214e-06            2.14e-12              -5.48e-12             -3.0174e-06          
  0.5                   3.1256e-06            2.16e-12              -4.4e-12              -3.1228e-06          
  0.55                  3.2306e-06            2.06e-12              -4.88e-12             -3.2274e-06          
  0.6                   3.336e-06             2.1e-12               -5.44e-12             -3.3326e-06          
  0.65                  3.4426e-06            2.02e-12              -4.72e-12             -3.439e-06           
  0.7                   3.551e-06             2.02e-12              -4.9e-12              -3.5476e-06          
  0.75                  3.661e-06             2.08e-12              -5.44e-12             -3.6578e-06          
  0.8                   3.7736e-06            2.04e-12              -4.06e-12             -3.77e-06            
  0.85                  3.8888e-06            2.18e-12              -5.18e-12             -3.8862e-06          
  0.9                   4.0064e-06            2.08e-12              -6.26e-12             -4.003e-06           
  0.95                  4.127e-06             2.04e-12              -5.86e-12             -4.1234e-06          
  1                     4.2502e-06            2.08e-12              -9.26e-12             -4.2476e-06          
  1.05                  4.3774e-06            2.12e-12              -1.442e-11            -4.375e-06           
  1.1                   4.508e-06             2.02e-12              -2.226e-11            -4.5052e-06          
  1.15                  4.643e-06             1.98e-12              -4.142e-11            -4.6392e-06          
  1.2                   4.7804e-06            2.04e-12              -7.318e-11            -4.7772e-06          
  1.25                  4.9218e-06            2.02e-12              -1.2648e-10           -4.918e-06           
  1.3                   5.0678e-06            1.9e-12               -2.1502e-10           -5.0644e-06          
  1.35                  5.2188e-06            1.84e-12              -3.5132e-10           -5.215e-06           
END_DB

