! VERSION = 6.00
BEGIN_HEADER
 ICCAP_INPUTS
  vg         V  G GROUND SMU2 0.001 LIN        1    -0.5       1.35       38   0.05      
  vb         V  B GROUND SMU4 0.1 LIN        2    0          -1.2       5    -0.3      
  vd         V  D GROUND SMU1 0.1 LIST       3 3 0.05 0.6 1.2
  vs         V  S GROUND SMU3 0.1 CON        0
 ICCAP_OUTPUTS
  id         I  D GROUND SMU1 B
  ig         I  G GROUND SMU2 B
  ib         I  B GROUND SMU4 B
  is         I  S GROUND SMU3 B
 ICCAP_VALUES
  MASTER_SETUP_TYPE "~dc_idvg~"
  LINVT_VALUE ""
  LISTVT_VALUE ""
  TYPE "1"
  TEMP " 70.0000 "
  IS_TNOM " 0.00000 "
  MAIN.W "10.00u"
  MAIN.L "130.0n"
  MAIN.AD "3.400p"
  MAIN.AS "3.400p"
  MAIN.PD "20.68u"
  MAIN.PS "20.68u"
  MAIN.NF "1.000"
  MAIN.M "1"
  MAIN.NRD "0.000"
  MAIN.NRS "0.000"
  MAIN.LDRIFT1 "1E-06"
  MAIN.LDRIFT2 "1E-06"
  MAIN.SA "0.000"
  MAIN.SB "0.000"
  MAIN.SD "0.000"
  MAIN.SCA "0.000"
  MAIN.SCB "0.000"
  MAIN.SCC "0.000"
  MAIN.SC "0.000"
  MODULE "S540"
  PIN_D "18"
  PIN_G "3"
  PIN_S "4"
  PIN_B "17"
  PIN_E ""
  PIN_6 ""
  XY_ID ""
  FUNC "Short"
  STI "SA ref"
  WPE "WPE ref"
  COMMENT ""
  DIS_MEAS ""
  TypeTCI "10"
END_HEADER

BEGIN_DB
 ICCAP_VAR vb         0              
 ICCAP_VAR vd         0.05           
 ICCAP_VAR vs         0              

 #vg                    id                    ig                    ib                    is                   
  -0.5                  2.5e-12               -1.7298e-09           1.7268e-09            2.74e-12             
  -0.45                 1.58e-12              -3.3024e-10           3.3078e-10            1.96e-12             
  -0.4                  1.26e-12              -6.534e-11            6.484e-11             1.3e-12              
  -0.35                 1.02e-12              -1.404e-11            1.412e-11             7.4e-13              
  -0.3                  1.16e-12              -3.56e-12             5.06e-12              8e-14                
  -0.25                 2.16e-12              -1.26e-12             3.2e-12               -1.24e-12            
  -0.2                  5.92e-12              -5.2e-13              3.26e-12              -5.4e-12             
  -0.15                 1.968e-11             -6e-14                2.76e-12              -1.93e-11            
  -0.1                  6.774e-11             2e-14                 2.42e-12              -6.762e-11           
  -0.05                 2.3676e-10            2.2e-13               1.98e-12              -2.3674e-10          
  0                     8.3676e-10            3.4e-13               3.48e-12              -8.3522e-10          
  0.05                  2.9728e-09            1.4e-13               4.16e-12              -2.9718e-09          
  0.1                   1.06006e-08           2.8e-13               1.5e-12               -1.06008e-08         
  0.15                  3.7848e-08            5.4e-13               2.96e-12              -3.791e-08           
  0.2                   1.3378e-07            7e-13                 1.96e-12              -1.3374e-07          
  0.25                  4.6026e-07            1.06e-12              3.2e-12               -4.6016e-07          
  0.3                   1.5032e-06            1.6e-12               1.5e-12               -1.4976e-06          
  0.35                  4.448e-06             2.74e-12              1.9e-12               -4.4464e-06          
  0.4                   1.1534e-05            4.46e-12              3.1e-12               -1.151e-05           
  0.45                  2.5494e-05            6.98e-12              2.38e-12              -2.5496e-05          
  0.5                   4.8526e-05            1.098e-11             1.52e-12              -4.854e-05           
  0.55                  8.1018e-05            1.688e-11             2.18e-12              -8.1026e-05          
  0.6                   0.00012182            2.514e-11             2e-12                 -0.00012148          
  0.65                  0.00016814            3.62e-11              2.72e-12              -0.00016786          
  0.7                   0.00021798            5.088e-11             2.6e-12               -0.00021764          
  0.75                  0.00026922            6.994e-11             1.06e-12              -0.0002689           
  0.8                   0.00032038            9.442e-11             1.52e-12              -0.00032006          
  0.85                  0.00037056            1.2488e-10            2.52e-12              -0.00037028          
  0.9                   0.00041894            1.6248e-10            2.72e-12              -0.00041862          
  0.95                  0.00046522            2.0796e-10            6.2e-13               -0.00046486          
  1                     0.0005092             2.6266e-10            2.3e-12               -0.00050884          
  1.05                  0.0005507             3.2788e-10            5.6e-13               -0.00055038          
  1.1                   0.00058974            4.0462e-10            3.06e-12              -0.00058932          
  1.15                  0.00062638            4.9498e-10            1.78e-12              -0.00062604          
  1.2                   0.00066062            5.9982e-10            1.36e-12              -0.00066016          
  1.25                  0.00069246            7.2182e-10            1.62e-12              -0.00069212          
  1.3                   0.0007222             8.6238e-10            9.2e-13               -0.00072182          
  1.35                  0.00074976            1.024e-09             4e-14                 -0.00074938          
END_DB

BEGIN_DB
 ICCAP_VAR vb         -0.3           
 ICCAP_VAR vd         0.05           
 ICCAP_VAR vs         0              

 #vg                    id                    ig                    ib                    is                   
  -0.5                  2.38e-12              -5.36e-12             -4.3e-12              2.78e-12             
  -0.45                 1.74e-12              -3.84e-12             -5.9e-12              1.92e-12             
  -0.4                  1.26e-12              -2.52e-12             -5.04e-12             1.44e-12             
  -0.35                 9.6e-13               -1.8e-12              -5.36e-12             8.4e-13              
  -0.3                  7.8e-13               -1.1e-12              -3.6e-12              5.8e-13              
  -0.25                 6e-13                 -7.4e-13              -3.3e-12              1.8e-13              
  -0.2                  1.14e-12              -2.4e-13              -3.48e-12             -5.6e-13             
  -0.15                 3.44e-12              0                     -3.96e-12             -3.14e-12            
  -0.1                  1.258e-11             1e-13                 -3.38e-12             -1.244e-11           
  -0.05                 4.692e-11             2e-13                 -3.32e-12             -4.666e-11           
  0                     1.7614e-10            2.6e-13               -2.56e-12             -1.7618e-10          
  0.05                  6.647e-10             2e-13                 -1.52e-12             -6.6432e-10          
  0.1                   2.5026e-09            3.2e-13               -2.5e-12              -2.502e-09           
  0.15                  9.4262e-09            5.2e-13               -2.18e-12             -9.4562e-09          
  0.2                   3.5252e-08            6.6e-13               -2.84e-12             -3.5212e-08          
  0.25                  1.2928e-07            9.2e-13               -1.4e-12              -1.2926e-07          
  0.3                   4.6108e-07            1.7e-12               -1.6e-12              -4.6126e-07          
  0.35                  1.5392e-06            2.26e-12              -1.8e-12              -1.5318e-06          
  0.4                   4.6026e-06            3.92e-12              -1.9e-12              -4.6086e-06          
  0.45                  1.1968e-05            6.32e-12              -7.8e-13              -1.1958e-05          
  0.5                   2.6372e-05            9.96e-12              -2.08e-12             -2.6348e-05          
  0.55                  4.9932e-05            1.548e-11             -1.94e-12             -4.992e-05           
  0.6                   8.2954e-05            2.316e-11             -1.78e-12             -8.295e-05           
  0.65                  0.00012416            3.382e-11             -1.26e-12             -0.00012374          
  0.7                   0.0001706             4.786e-11             -5e-13                -0.0001703           
  0.75                  0.0002205             6.644e-11             -1.82e-12             -0.00022018          
  0.8                   0.0002716             9.01e-11              -2.02e-12             -0.00027124          
  0.85                  0.00032254            1.203e-10             -1.68e-12             -0.00032224          
  0.9                   0.00037222            1.57e-10              -1.22e-12             -0.00037186          
  0.95                  0.00042006            2.02e-10              -8.6e-13              -0.00041962          
  1                     0.00046568            2.5618e-10            -1.52e-12             -0.00046534          
  1.05                  0.00050892            3.2066e-10            -1.18e-12             -0.00050858          
  1.1                   0.00054962            3.9692e-10            -1.3e-12              -0.00054918          
  1.15                  0.00058788            4.8638e-10            5.8e-13               -0.00058752          
  1.2                   0.00062366            5.9074e-10            -1.64e-12             -0.00062322          
  1.25                  0.00065684            7.1158e-10            -1.8e-12              -0.00065654          
  1.3                   0.00068784            8.5142e-10            -1.64e-12             -0.00068758          
  1.35                  0.00071678            1.0118e-09            -2.22e-12             -0.00071656          
END_DB

BEGIN_DB
 ICCAP_VAR vb         -0.6           
 ICCAP_VAR vd         0.05           
 ICCAP_VAR vs         0              

 #vg                    id                    ig                    ib                    is                   
  -0.5                  2.4e-12               -5.28e-12             -8.6e-12              2.86e-12             
  -0.45                 1.78e-12              -3.62e-12             -6.64e-12             1.9e-12              
  -0.4                  1.24e-12              -2.52e-12             -6.7e-12              1.36e-12             
  -0.35                 9.6e-13               -1.7e-12              -6.6e-12              9.4e-13              
  -0.3                  6.8e-13               -1.02e-12             -7e-12                6.6e-13              
  -0.25                 5.6e-13               -6.2e-13              -6.1e-12              4.4e-13              
  -0.2                  4.4e-13               -3.8e-13              -5.56e-12             0                    
  -0.15                 1.18e-12              -1.2e-13              -5.16e-12             -7.2e-13             
  -0.1                  3.86e-12              8e-14                 -5.52e-12             -3.6e-12             
  -0.05                 1.466e-11             2.4e-13               -5.38e-12             -1.464e-11           
  0                     5.736e-11             2.6e-13               -5.7e-12              -5.704e-11           
  0.05                  2.234e-10             4e-13                 -5.18e-12             -2.233e-10           
  0.1                   8.6866e-10            4e-13                 -4.44e-12             -8.684e-10           
  0.15                  3.3928e-09            4.8e-13               -3.92e-12             -3.3912e-09          
  0.2                   1.3076e-08            6.2e-13               -4.86e-12             -1.3066e-08          
  0.25                  4.9722e-08            9e-13                 -4.82e-12             -4.9706e-08          
  0.3                   1.8514e-07            1.42e-12              -3.58e-12             -1.8572e-07          
  0.35                  6.6204e-07            2.36e-12              -3.16e-12             -6.6204e-07          
  0.4                   2.173e-06             3.54e-12              -4.4e-12              -2.1642e-06          
  0.45                  6.2806e-06            5.78e-12              -4.74e-12             -6.2826e-06          
  0.5                   1.554e-05             9.18e-12              -2.12e-12             -1.5524e-05          
  0.55                  3.258e-05             1.434e-11             -3.42e-12             -3.256e-05           
  0.6                   5.911e-05             2.166e-11             -3.82e-12             -5.909e-05           
  0.65                  9.4712e-05            3.186e-11             -3.6e-12              -9.4702e-05          
  0.7                   0.00013766            4.544e-11             -3.64e-12             -0.00013734          
  0.75                  0.00018542            6.374e-11             -3.06e-12             -0.00018508          
  0.8                   0.00023564            8.684e-11             -2.72e-12             -0.00023526          
  0.85                  0.0002865             1.1604e-10            -3.44e-12             -0.00028616          
  0.9                   0.00033676            1.5258e-10            -3.5e-12              -0.00033642          
  0.95                  0.00038562            1.969e-10             -3.52e-12             -0.0003851           
  1                     0.00043232            2.5066e-10            -2.6e-12              -0.00043196          
  1.05                  0.00047692            3.1472e-10            -3.02e-12             -0.00047658          
  1.1                   0.00051884            3.902e-10             -2.8e-12              -0.00051848          
  1.15                  0.00055828            4.7954e-10            -3.66e-12             -0.00055798          
  1.2                   0.00059518            5.83e-10              -2.46e-12             -0.00059478          
  1.25                  0.00062972            7.0318e-10            -2.62e-12             -0.00062934          
  1.3                   0.00066176            8.418e-10             -4.22e-12             -0.00066134          
  1.35                  0.0006916             1.002e-09             -3.4e-12              -0.00069134          
END_DB

BEGIN_DB
 ICCAP_VAR vb         -0.9           
 ICCAP_VAR vd         0.05           
 ICCAP_VAR vs         0              

 #vg                    id                    ig                    ib                    is                   
  -0.5                  2.4e-12               -5.14e-12             -8.88e-12             2.7e-12              
  -0.45                 1.86e-12              -3.66e-12             -8.58e-12             2e-12                
  -0.4                  1.28e-12              -2.52e-12             -9.38e-12             1.46e-12             
  -0.35                 8e-13                 -1.78e-12             -9.1e-12              9.8e-13              
  -0.3                  6.8e-13               -1.22e-12             -8.72e-12             7e-13                
  -0.25                 4.2e-13               -5e-13                -7.74e-12             4.6e-13              
  -0.2                  3e-13                 -2.8e-13              -6.76e-12             1.6e-13              
  -0.15                 5.8e-13               -6e-14                -5.52e-12             -2.8e-13             
  -0.1                  1.7e-12               2e-14                 -7.06e-12             -1.38e-12            
  -0.05                 6.46e-12              3.2e-13               -6.98e-12             -6.42e-12            
  0                     2.588e-11             2.8e-13               -6.22e-12             -2.594e-11           
  0.05                  1.0384e-10            2.8e-13               -6.38e-12             -1.0368e-10          
  0.1                   4.1418e-10            5.8e-13               -5.28e-12             -4.1448e-10          
  0.15                  1.642e-09             3.6e-13               -5.3e-12              -1.641e-09           
  0.2                   6.5008e-09            6.6e-13               -6.5e-12              -6.4988e-09          
  0.25                  2.5306e-08            8.8e-13               -5.78e-12             -2.5294e-08          
  0.3                   9.6884e-08            1.44e-12              -4.98e-12             -9.7194e-08          
  0.35                  3.5996e-07            2.24e-12              -5.24e-12             -3.5984e-07          
  0.4                   1.2478e-06            3.48e-12              -5.58e-12             -1.24e-06            
  0.45                  3.8634e-06            5.6e-12               -3.74e-12             -3.8564e-06          
  0.5                   1.03424e-05           8.82e-12              -4.1e-12              -1.03394e-05         
  0.55                  2.337e-05             1.344e-11             -5e-12                -2.3378e-05          
  0.6                   4.525e-05             2.056e-11             -5.06e-12             -4.524e-05           
  0.65                  7.6592e-05            3.038e-11             -5.02e-12             -7.6574e-05          
  0.7                   0.00011614            4.382e-11             -3.84e-12             -0.00011584          
  0.75                  0.00016164            6.148e-11             -4.14e-12             -0.00016128          
  0.8                   0.00021074            8.442e-11             -4.8e-12              -0.00021036          
  0.85                  0.00026122            1.1322e-10            -5.24e-12             -0.0002609           
  0.9                   0.00031164            1.4934e-10            -4.4e-12              -0.00031136          
  0.95                  0.000361              1.9334e-10            -3.82e-12             -0.00036066          
  1                     0.00040854            2.4656e-10            -4.32e-12             -0.00040824          
  1.05                  0.0004539             3.1006e-10            -5.3e-12              -0.00045356          
  1.1                   0.0004966             3.85e-10              -3.84e-12             -0.00049634          
  1.15                  0.00053712            4.738e-10             -3.9e-12              -0.00053678          
  1.2                   0.00057502            5.7712e-10            -3.8e-12              -0.00057476          
  1.25                  0.00061044            6.97e-10              -5.06e-12             -0.00061002          
  1.3                   0.0006433             8.3538e-10            -3.28e-12             -0.00064282          
  1.35                  0.00067394            9.948e-10             -6.52e-12             -0.00067366          
END_DB

BEGIN_DB
 ICCAP_VAR vb         -1.2           
 ICCAP_VAR vd         0.05           
 ICCAP_VAR vs         0              

 #vg                    id                    ig                    ib                    is                   
  -0.5                  2.32e-12              -5e-12                -1.152e-11            2.78e-12             
  -0.45                 1.78e-12              -3.52e-12             -1.148e-11            1.9e-12              
  -0.4                  1.3e-12               -2.46e-12             -9.46e-12             1.4e-12              
  -0.35                 9.6e-13               -1.7e-12              -9e-12                1.06e-12             
  -0.3                  5.6e-13               -1.06e-12             -8.36e-12             7e-13                
