! VERSION = 6.00
BEGIN_HEADER
 ICCAP_INPUTS
  vd         V  D GROUND SMU1 0.1 LIN        1    0          1.35       28   0.05      
  vg         V  G GROUND SMU2 0.001 LIN        2    0.282      1.35       5    0.267     
  vb         V  B GROUND SMU4 0.1 CON        -1.2
  vs         V  S GROUND SMU3 0.1 CON        0
 ICCAP_OUTPUTS
  id         I  D GROUND SMU1 B
  ig         I  G GROUND SMU2 B
  ib         I  B GROUND SMU4 B
  is         I  S GROUND SMU3 B
 ICCAP_VALUES
  MASTER_SETUP_TYPE "~dc_idvd~"
  LINVT_VALUE "|idvg|100.0n|100.0m|1.000m|5|1.350|"
  LISTVT_VALUE ""
  TYPE "1"
  TEMP " 125.000 "
  IS_TNOM " 0.00000 "
  MAIN.W "10.00u"
  MAIN.L "10.00u"
  MAIN.AD "3.400p"
  MAIN.AS "3.400p"
  MAIN.PD "20.68u"
  MAIN.PS "20.68u"
  MAIN.NF "1.000"
  MAIN.M "1"
  MAIN.NRD "0.000"
  MAIN.NRS "0.000"
  MAIN.LDRIFT1 "1E-06"
  MAIN.LDRIFT2 "1E-06"
  MAIN.SA "0.000"
  MAIN.SB "0.000"
  MAIN.SD "0.000"
  MAIN.SCA "0.000"
  MAIN.SCB "0.000"
  MAIN.SCC "0.000"
  MAIN.SC "0.000"
  MODULE "S541"
  PIN_D "12"
  PIN_G "9"
  PIN_S "10"
  PIN_B "11"
  PIN_E ""
  PIN_6 ""
  XY_ID ""
  FUNC "Large"
  STI "SA ref"
  WPE "WPE ref"
  COMMENT ""
  DIS_MEAS ""
  TypeTCI "10"
END_HEADER

BEGIN_DB
 ICCAP_VAR vg         0.282          
 ICCAP_VAR vb         -1.2           
 ICCAP_VAR vs         0              

 #vd                    id                    ig                    ib                    is                   
  0                     9.442e-10             1.3294e-10            -5.98e-11             -8.545e-10           
  0.05                  4.5814e-07            1.0046e-10            -5.714e-11            -4.5832e-07          
  0.1                   6.4112e-07            8.698e-11             -5.588e-11            -6.412e-07           
  0.15                  7.0794e-07            8.178e-11             -5.438e-11            -7.08e-07            
  0.2                   7.3764e-07            7.946e-11             -5.29e-11             -7.3782e-07          
  0.25                  7.5656e-07            7.804e-11             -5.056e-11            -7.567e-07           
  0.3                   7.7176e-07            7.662e-11             -5.006e-11            -7.7182e-07          
  0.35                  7.8518e-07            7.566e-11             -4.9e-11              -7.8538e-07          
  0.4                   7.9748e-07            7.468e-11             -4.804e-11            -7.975e-07           
  0.45                  8.0876e-07            7.358e-11             -4.602e-11            -8.0888e-07          
  0.5                   8.1924e-07            7.278e-11             -4.638e-11            -8.1934e-07          
  0.55                  8.2892e-07            7.19e-11              -4.59e-11             -8.291e-07           
  0.6                   8.3804e-07            7.088e-11             -4.398e-11            -8.3808e-07          
  0.65                  8.4632e-07            7.002e-11             -4.35e-11             -8.4644e-07          
  0.7                   8.5406e-07            6.918e-11             -4.358e-11            -8.5422e-07          
  0.75                  8.6136e-07            6.814e-11             -4.232e-11            -8.6154e-07          
  0.8                   8.6802e-07            6.73e-11              -4.122e-11            -8.6814e-07          
  0.85                  8.742e-07             6.618e-11             -4.17e-11             -8.7432e-07          
  0.9                   8.8004e-07            6.488e-11             -4.214e-11            -8.8012e-07          
  0.95                  8.854e-07             6.366e-11             -4.282e-11            -8.8572e-07          
  1                     8.9054e-07            6.226e-11             -4.434e-11            -8.9066e-07          
  1.05                  8.9516e-07            6.064e-11             -4.898e-11            -8.9526e-07          
  1.1                   8.9948e-07            5.892e-11             -5.654e-11            -8.9958e-07          
  1.15                  9.0374e-07            5.698e-11             -6.73e-11             -9.0378e-07          
  1.2                   9.0746e-07            5.47e-11              -8.576e-11            -9.0754e-07          
  1.25                  9.11e-07              5.258e-11             -1.1422e-10           -9.1104e-07          
  1.3                   9.1434e-07            4.976e-11             -1.5396e-10           -9.1438e-07          
  1.35                  9.1748e-07            4.67e-11              -2.082e-10            -9.175e-07           
END_DB

BEGIN_DB
 ICCAP_VAR vg         0.549          
 ICCAP_VAR vb         -1.2           
 ICCAP_VAR vs         0              

 #vd                    id                    ig                    ib                    is                   
  0                     2.3806e-09            1.779e-09             -3.132e-11            -3.7934e-09          
  0.05                  3.473e-06             1.4826e-09            -3.114e-11            -3.4706e-06          
  0.1                   6.2424e-06            1.2632e-09            -3.142e-11            -6.2404e-06          
  0.15                  8.2912e-06            1.1102e-09            -3.196e-11            -8.289e-06           
  0.2                   9.624e-06             1.0152e-09            -3.124e-11            -9.622e-06           
  0.25                  1.0349e-05            9.643e-10             -3.126e-11            -1.03466e-05         
  0.3                   1.0695e-05            9.403e-10             -3.206e-11            -1.06926e-05         
  0.35                  1.08746e-05           9.2776e-10            -3.068e-11            -1.08718e-05         
  0.4                   1.09918e-05           9.1984e-10            -3.134e-11            -1.09902e-05         
  0.45                  1.109e-05             9.133e-10             -2.984e-11            -1.10842e-05         
  0.5                   1.1172e-05            9.0808e-10            -3.164e-11            -1.11672e-05         
  0.55                  1.1248e-05            9.0268e-10            -3.082e-11            -1.12428e-05         
  0.6                   1.1318e-05            8.983e-10             -2.996e-11            -1.13128e-05         
  0.65                  1.1384e-05            8.9362e-10            -3.12e-11             -1.13782e-05         
  0.7                   1.1446e-05            8.8958e-10            -3.034e-11            -1.14404e-05         
  0.75                  1.1504e-05            8.8558e-10            -3.032e-11            -1.14986e-05         
  0.8                   1.1558e-05            8.8198e-10            -3.074e-11            -1.1553e-05          
  0.85                  1.161e-05             8.7814e-10            -3.004e-11            -1.16044e-05         
  0.9                   1.1658e-05            8.7458e-10            -3.084e-11            -1.1653e-05          
  0.95                  1.1704e-05            8.7138e-10            -3.154e-11            -1.1699e-05          
  1                     1.1746e-05            8.6804e-10            -2.964e-11            -1.174e-05           
  1.05                  1.1788e-05            8.6488e-10            -3.298e-11            -1.1782e-05          
  1.1                   1.1826e-05            8.6188e-10            -3.72e-11             -1.182e-05           
  1.15                  1.1864e-05            8.588e-10             -4.44e-11             -1.1858e-05          
  1.2                   1.1898e-05            8.5556e-10            -6.398e-11            -1.1892e-05          
  1.25                  1.1932e-05            8.5264e-10            -9.682e-11            -1.1926e-05          
  1.3                   1.1962e-05            8.493e-10             -1.5372e-10           -1.1956e-05          
  1.35                  1.1992e-05            8.4614e-10            -2.542e-10            -1.1986e-05          
END_DB

BEGIN_DB
 ICCAP_VAR vg         0.816          
 ICCAP_VAR vb         -1.2           
 ICCAP_VAR vs         0              

 #vd                    id                    ig                    ib                    is                   
  0                     1.8638e-09            9.6888e-09            -2.704e-11            -1.3312e-08          
  0.05                  6.7284e-06            8.4778e-09            -2.614e-11            -6.733e-06           
  0.1                   1.2822e-05            7.4694e-09            -2.612e-11            -1.2822e-05          
  0.15                  1.825e-05             6.6402e-09            -2.72e-11             -1.825e-05           
  0.2                   2.2996e-05            5.9694e-09            -2.712e-11            -2.2994e-05          
  0.25                  2.704e-05             5.4364e-09            -2.604e-11            -2.7038e-05          
  0.3                   3.0356e-05            5.0254e-09            -2.742e-11            -3.0354e-05          
  0.35                  3.2914e-05            4.725e-09             -2.734e-11            -3.2912e-05          
  0.4                   3.4706e-05            4.5216e-09            -2.668e-11            -3.4706e-05          
  0.45                  3.5804e-05            4.4004e-09            -2.782e-11            -3.5802e-05          
  0.5                   3.6404e-05            4.3356e-09            -2.72e-11             -3.6402e-05          
  0.55                  3.674e-05             4.2994e-09            -2.62e-11             -3.6738e-05          
  0.6                   3.6958e-05            4.2762e-09            -2.774e-11            -3.6956e-05          
  0.65                  3.713e-05             4.2582e-09            -2.724e-11            -3.7128e-05          
  0.7                   3.7278e-05            4.2424e-09            -2.668e-11            -3.7276e-05          
  0.75                  3.741e-05             4.2282e-09            -2.746e-11            -3.7408e-05          
  0.8                   3.7534e-05            4.2156e-09            -2.702e-11            -3.753e-05           
  0.85                  3.765e-05             4.2036e-09            -2.584e-11            -3.7648e-05          
  0.9                   3.7758e-05            4.192e-09             -2.732e-11            -3.7756e-05          
  0.95                  3.7862e-05            4.1804e-09            -2.728e-11            -3.786e-05           
  1                     3.7958e-05            4.1712e-09            -2.62e-11             -3.7956e-05          
  1.05                  3.805e-05             4.161e-09             -2.76e-11             -3.8048e-05          
  1.1                   3.8138e-05            4.1522e-09            -2.774e-11            -3.8136e-05          
  1.15                  3.8222e-05            4.143e-09             -2.714e-11            -3.822e-05           
  1.2                   3.83e-05              4.1346e-09            -2.932e-11            -3.8298e-05          
  1.25                  3.8378e-05            4.1266e-09            -3.168e-11            -3.8374e-05          
  1.3                   3.845e-05             4.1186e-09            -3.746e-11            -3.8446e-05          
  1.35                  3.8518e-05            4.1112e-09            -5.238e-11            -3.8516e-05          
END_DB

BEGIN_DB
 ICCAP_VAR vg         1.083          
 ICCAP_VAR vb         -1.2           
 ICCAP_VAR vs         0              

 #vd                    id                    ig                    ib                    is                   
  0                     6.4382e-09            3.4748e-08            -2.75e-11             -3.2542e-08          
  0.05                  9.5162e-06            3.1286e-08            -2.566e-11            -9.5436e-06          
  0.1                   1.8516e-05            2.826e-08             -2.58e-11             -1.8538e-05          
  0.15                  2.6954e-05            2.5628e-08            -2.484e-11            -2.6974e-05          
  0.2                   3.4806e-05            2.3356e-08            -2.598e-11            -3.4822e-05          
  0.25                  4.2058e-05            2.1404e-08            -2.574e-11            -4.2074e-05          
  0.3                   4.8684e-05            1.974e-08             -2.464e-11            -4.8696e-05          
  0.35                  5.466e-05             1.8338e-08            -2.596e-11            -5.4672e-05          
  0.4                   5.9966e-05            1.7166e-08            -2.552e-11            -5.998e-05           
  0.45                  6.4572e-05            1.6208e-08            -2.528e-11            -6.4584e-05          
  0.5                   6.8462e-05            1.5438e-08            -2.574e-11            -6.8472e-05          
  0.55                  7.16e-05              1.4842e-08            -2.522e-11            -7.1612e-05          
  0.6                   7.397e-05             1.441e-08             -2.5e-11              -7.3978e-05          
  0.65                  7.5588e-05            1.4122e-08            -2.652e-11            -7.5596e-05          
  0.7                   7.6582e-05            1.3946e-08            -2.506e-11            -7.659e-05           
  0.75                  7.7162e-05            1.3848e-08            -2.542e-11            -7.717e-05           
  0.8                   7.7526e-05            1.3784e-08            -2.628e-11            -7.7534e-05          
  0.85                  7.7788e-05            1.3738e-08            -2.566e-11            -7.7796e-05          
  0.9                   7.8004e-05            1.3702e-08            -2.468e-11            -7.8012e-05          
  0.95                  7.8194e-05            1.367e-08             -2.576e-11            -7.82e-05            
  1                     7.8366e-05            1.364e-08             -2.618e-11            -7.8374e-05          
  1.05                  7.8528e-05            1.3614e-08            -2.522e-11            -7.8536e-05          
  1.1                   7.8678e-05            1.3588e-08            -2.594e-11            -7.8686e-05          
  1.15                  7.8822e-05            1.3564e-08            -2.568e-11            -7.883e-05           
  1.2                   7.8958e-05            1.3542e-08            -2.478e-11            -7.8966e-05          
  1.25                  7.9086e-05            1.3518e-08            -2.628e-11            -7.9094e-05          
  1.3                   7.921e-05             1.3498e-08            -2.662e-11            -7.9218e-05          
  1.35                  7.9328e-05            1.348e-08             -2.618e-11            -7.9334e-05          
END_DB

BEGIN_DB
 ICCAP_VAR vg         1.35           
 ICCAP_VAR vb         -1.2           
 ICCAP_VAR vs         0              

 #vd                    id                    ig                    ib                    is                   
  0                     -3.2594e-08           9.6822e-08            -1.7406e-10           -6.3128e-08          
  0.05                  1.1692e-05            8.8766e-08            -1.3802e-10           -1.1772e-05          
  0.1                   2.3012e-05            8.1528e-08            -1.127e-10            -2.3086e-05          
  0.15                  3.3892e-05            7.5054e-08            -9.338e-11            -3.396e-05           
  0.2                   4.43e-05              6.9282e-08            -8.042e-11            -4.4364e-05          
  0.25                  5.4226e-05            6.4142e-08            -7.152e-11            -5.4284e-05          
  0.3                   6.3642e-05            5.959e-08             -6.388e-11            -6.3696e-05          
  0.35                  7.2522e-05            5.557e-08             -5.98e-11             -7.2572e-05          
  0.4                   8.0848e-05            5.203e-08             -5.598e-11            -8.0894e-05          
  0.45                  8.858e-05             4.8942e-08            -5.254e-11            -8.8622e-05          
  0.5                   9.5718e-05            4.6254e-08            -5.16e-11             -9.576e-05           
  0.55                  0.000102234           4.3932e-08            -4.952e-11            -0.000102274         
  0.6                   0.000108098           4.195e-08             -4.678e-11            -0.000108138         
  0.65                  0.000113286           4.028e-08             -4.736e-11            -0.000113324         
  0.7                   0.00011788            3.8894e-08            -4.558e-11            -0.00011758          
  0.75                  0.00012164            3.778e-08             -4.584e-11            -0.00012134          
  0.8                   0.00012462            3.692e-08             -4.398e-11            -0.00012432          
  0.85                  0.00012686            3.6292e-08            -4.406e-11            -0.00012656          
  0.9                   0.00012838            3.5868e-08            -4.44e-11             -0.0001281           
  0.95                  0.00012936            3.561e-08             -4.328e-11            -0.00012906          
  1                     0.00012994            3.5448e-08            -4.398e-11            -0.00012966          
  1.05                  0.00013036            3.534e-08             -4.454e-11            -0.00013006          
  1.1                   0.00013066            3.5256e-08            -4.358e-11            -0.00013036          
  1.15                  0.0001309             3.519e-08             -4.432e-11            -0.00013062          
  1.2                   0.00013114            3.5128e-08            -4.46e-11             -0.00013084          
  1.25                  0.00013134            3.5072e-08            -4.278e-11            -0.00013104          
  1.3                   0.00013152            3.5024e-08            -4.388e-11            -0.00013124          
  1.35                  0.00013172            3.4974e-08            -4.452e-11            -0.00013142          
END_DB

