! VERSION = 6.00
BEGIN_HEADER
 ICCAP_INPUTS
  vg         V  G GROUND SMU2 0.001 LIN        1    -0.5       1.35       38   0.05      
  vb         V  B GROUND SMU4 0.1 LIN        2    0          -1.2       5    -0.3      
  vd         V  D GROUND SMU1 0.1 LIST       3 3 0.05 0.6 1.2
  vs         V  S GROUND SMU3 0.1 CON        0
 ICCAP_OUTPUTS
  id         I  D GROUND SMU1 B
  ig         I  G GROUND SMU2 B
  ib         I  B GROUND SMU4 B
  is         I  S GROUND SMU3 B
 ICCAP_VALUES
  MASTER_SETUP_TYPE "~dc_idvg~"
  LINVT_VALUE ""
  LISTVT_VALUE ""
  TYPE "1"
  TEMP " 27.0000 "
  IS_TNOM " 1.00000 "
  MAIN.W "300.0n"
  MAIN.L "500.0n"
  MAIN.AD "102.0f"
  MAIN.AS "102.0f"
  MAIN.PD "1.280u"
  MAIN.PS "1.280u"
  MAIN.NF "1.000"
  MAIN.M "1"
  MAIN.NRD "0.000"
  MAIN.NRS "0.000"
  MAIN.LDRIFT1 "1E-06"
  MAIN.LDRIFT2 "1E-06"
  MAIN.SA "0.000"
  MAIN.SB "0.000"
  MAIN.SD "0.000"
  MAIN.SCA "0.000"
  MAIN.SCB "0.000"
  MAIN.SCC "0.000"
  MAIN.SC "0.000"
  MODULE "S545"
  PIN_D "20"
  PIN_G "1"
  PIN_S "2"
  PIN_B "19"
  PIN_E ""
  PIN_6 ""
  XY_ID ""
  FUNC "LW Scale"
  STI "SA ref"
  WPE "WPE ref"
  COMMENT ""
  DIS_MEAS ""
  TypeTCI "10"
END_HEADER

BEGIN_DB
 ICCAP_VAR vb         0              
 ICCAP_VAR vd         0.05           
 ICCAP_VAR vs         0              

 #vg                    id                    ig                    ib                    is                   
  -0.5                  -4e-14                -4.566e-11            4.682e-11             1.2e-13              
  -0.45                 -8e-14                -6.86e-12             8.74e-12              2.2e-13              
  -0.4                  -2e-14                -9.6e-13              3.66e-12              -2e-14               
  -0.35                 1.4e-13               -1.4e-13              1.18e-12              1.2e-13              
  -0.3                  -1.2e-13              8e-14                 1.42e-12              -1e-13               
  -0.25                 8e-14                 1e-13                 1.06e-12              1.2e-13              
  -0.2                  1.2e-13               1.8e-13               2.34e-12              8e-14                
  -0.15                 4e-14                 3.4e-13               2.54e-12              -1e-13               
  -0.1                  6.2e-13               2.2e-13               2.34e-12              -6.6e-13             
  -0.05                 2.9e-12               4e-13                 8.8e-13               -2.64e-12            
  0                     1.28e-11              3.8e-13               1.16e-12              -1.274e-11           
  0.05                  6.026e-11             5.4e-13               2.46e-12              -6.026e-11           
  0.1                   2.8054e-10            3.6e-13               1.74e-12              -2.8088e-10          
  0.15                  1.2906e-09            2.8e-13               8.4e-13               -1.2926e-09          
  0.2                   5.7366e-09            3.8e-13               1.62e-12              -5.7356e-09          
  0.25                  2.3498e-08            3.6e-13               1.98e-12              -2.348e-08           
  0.3                   8.2162e-08            5.8e-13               2.12e-12              -8.2088e-08          
  0.35                  2.2926e-07            7.6e-13               9.8e-13               -2.2894e-07          
  0.4                   5.0068e-07            1e-12                 1.32e-12              -5.012e-07           
  0.45                  8.9348e-07            1.34e-12              2e-12                 -8.9372e-07          
  0.5                   1.3732e-06            1.78e-12              9.8e-13               -1.3704e-06          
  0.55                  1.9026e-06            2.74e-12              1.38e-12              -1.898e-06           
  0.6                   2.4552e-06            3.88e-12              2.16e-12              -2.4526e-06          
  0.65                  3.0174e-06            5.26e-12              8.4e-13               -3.0134e-06          
  0.7                   3.5788e-06            7.3e-12               6.8e-13               -3.575e-06           
  0.75                  4.1294e-06            9.8e-12               1.68e-12              -4.1256e-06          
  0.8                   4.6604e-06            1.302e-11             1.72e-12              -4.6564e-06          
  0.85                  5.168e-06             1.704e-11             1.32e-12              -5.164e-06           
  0.9                   5.65e-06              2.212e-11             8e-13                 -5.6462e-06          
  0.95                  6.1066e-06            2.818e-11             8e-13                 -6.1026e-06          
  1                     6.5378e-06            3.584e-11             1.7e-12               -6.5342e-06          
  1.05                  6.9452e-06            4.498e-11             1.28e-12              -6.941e-06           
  1.1                   7.326e-06             5.58e-11              2.4e-13               -7.3224e-06          
  1.15                  7.682e-06             6.884e-11             6e-13                 -7.6784e-06          
  1.2                   8.0166e-06            8.412e-11             2.02e-12              -8.013e-06           
  1.25                  8.321e-06             1.0224e-10            1.18e-12              -8.3196e-06          
  1.3                   8.6164e-06            1.2334e-10            3e-13                 -8.6112e-06          
  1.35                  8.8824e-06            1.4776e-10            6e-13                 -8.877e-06           
END_DB

BEGIN_DB
 ICCAP_VAR vb         -0.3           
 ICCAP_VAR vd         0.05           
 ICCAP_VAR vs         0              

 #vg                    id                    ig                    ib                    is                   
  -0.5                  1.4e-13               -4.4e-13              -2.7e-12              6e-14                
  -0.45                 4e-14                 -1.4e-13              -3.16e-12             1.2e-13              
  -0.4                  2e-14                 2e-14                 -3.2e-12              1.6e-13              
  -0.35                 8e-14                 0                     -2.3e-12              6e-14                
  -0.3                  6e-14                 2.2e-13               -2.86e-12             1.2e-13              
  -0.25                 4e-14                 2.6e-13               -1.48e-12             8e-14                
  -0.2                  1e-13                 2.6e-13               -1.56e-12             0                    
  -0.15                 1e-13                 2.4e-13               -1.48e-12             6e-14                
  -0.1                  1.4e-13               3.4e-13               -2.78e-12             -6e-14               
  -0.05                 6e-13                 3.4e-13               -1.36e-12             -5.6e-13             
  0                     3.08e-12              3.6e-13               -1.4e-13              -2.84e-12            
  0.05                  1.482e-11             2.8e-13               -9.8e-13              -1.462e-11           
  0.1                   7.278e-11             4e-13                 9.8e-13               -7.268e-11           
  0.15                  3.5548e-10            4.4e-13               -1.62e-12             -3.5512e-10          
  0.2                   1.6974e-09            3.8e-13               -1.16e-12             -1.6954e-09          
  0.25                  7.8512e-09            5.4e-13               -6.8e-13              -7.8804e-09          
  0.3                   3.2308e-08            5.8e-13               -5.4e-13              -3.2252e-08          
  0.35                  1.08824e-07           7.4e-13               -8.6e-13              -1.08834e-07         
  0.4                   2.8514e-07            9.4e-13               -4e-13                -2.8544e-07          
  0.45                  5.8746e-07            1.3e-12               -4e-13                -5.872e-07           
  0.5                   9.9998e-07            1.92e-12              -7.2e-13              -1.00048e-06         
  0.55                  1.4868e-06            2.48e-12              -6e-14                -1.4856e-06          
  0.6                   2.0178e-06            3.66e-12              3.2e-13               -2.0112e-06          
  0.65                  2.5644e-06            5.14e-12              -1.4e-12              -2.5606e-06          
  0.7                   3.1198e-06            7.12e-12              -1.22e-12             -3.1162e-06          
  0.75                  3.6702e-06            9.66e-12              -6.2e-13              -3.6668e-06          
  0.8                   4.2044e-06            1.286e-11             3e-13                 -4.2004e-06          
  0.85                  4.718e-06             1.682e-11             -6.8e-13              -4.7144e-06          
  0.9                   5.2062e-06            2.18e-11              -1.7e-12              -5.2024e-06          
  0.95                  5.6696e-06            2.8e-11               -5.4e-13              -5.6658e-06          
  1                     6.1072e-06            3.554e-11             7.4e-13               -6.1032e-06          
  1.05                  6.5202e-06            4.466e-11             -1.26e-12             -6.5158e-06          
  1.1                   6.907e-06             5.548e-11             -9.8e-13              -6.9012e-06          
  1.15                  7.2708e-06            6.844e-11             -4.2e-13              -7.267e-06           
  1.2                   7.6108e-06            8.38e-11              -2e-13                -7.6048e-06          
  1.25                  7.9272e-06            1.0188e-10            -7e-13                -7.918e-06           
  1.3                   8.2206e-06            1.2274e-10            -8.6e-13              -8.2148e-06          
  1.35                  8.4938e-06            1.474e-10             -6.2e-13              -8.4882e-06          
END_DB

BEGIN_DB
 ICCAP_VAR vb         -0.6           
 ICCAP_VAR vd         0.05           
 ICCAP_VAR vs         0              

 #vg                    id                    ig                    ib                    is                   
  -0.5                  4e-14                 -4.8e-13              -3.92e-12             4e-14                
  -0.45                 1e-13                 -1e-13                -4.52e-12             4e-14                
  -0.4                  8e-14                 6e-14                 -4.96e-12             1.6e-13              
  -0.35                 2e-14                 6e-14                 -4.04e-12             2e-14                
  -0.3                  1.2e-13               2e-13                 -3.82e-12             2e-13                
  -0.25                 -2e-14                3.4e-13               -2.06e-12             -4e-14               
  -0.2                  6e-14                 2.2e-13               -3.3e-12              2e-14                
  -0.15                 1e-13                 2.4e-13               -3.7e-12              1e-13                
  -0.1                  6e-14                 3e-13                 -2.64e-12             -1.2e-13             
  -0.05                 2.6e-13               3e-13                 -2.3e-12              -1.2e-13             
  0                     1.04e-12              3.6e-13               -1.46e-12             -9.4e-13             
  0.05                  5.08e-12              4e-13                 -2.12e-12             -5.02e-12            
  0.1                   2.56e-11              3.6e-13               -2.42e-12             -2.542e-11           
  0.15                  1.3144e-10            3.8e-13               -2.2e-12              -1.3168e-10          
  0.2                   6.481e-10             5e-13                 -1.98e-12             -6.4318e-10          
  0.25                  3.1218e-09            3.4e-13               -1.5e-12              -3.124e-09           
  0.3                   1.4072e-08            4.4e-13               -8.4e-13              -1.4018e-08          
  0.35                  5.4572e-08            7.2e-13               -2.24e-12             -5.4792e-08          
  0.4                   1.6902e-07            9.4e-13               -1.68e-12             -1.6894e-07          
  0.45                  3.955e-07             1.24e-12              -1.04e-12             -3.9584e-07          
  0.5                   7.419e-07             1.8e-12               -2.44e-12             -7.4252e-07          
  0.55                  1.1846e-06            2.44e-12              -5.8e-13              -1.1808e-06          
  0.6                   1.6832e-06            3.58e-12              -1.4e-12              -1.68e-06            
  0.65                  2.2174e-06            5.08e-12              -2.18e-12             -2.2126e-06          
  0.7                   2.759e-06             6.9e-12               -1.18e-12             -2.7564e-06          
  0.75                  3.3046e-06            9.52e-12              -1.16e-12             -3.3006e-06          
  0.8                   3.8386e-06            1.264e-11             -1.46e-12             -3.835e-06           
  0.85                  4.3552e-06            1.656e-11             -1.62e-12             -4.3508e-06          
  0.9                   4.847e-06             2.154e-11             -1.88e-12             -4.8436e-06          
  0.95                  5.3152e-06            2.778e-11             -1.68e-12             -5.3116e-06          
  1                     5.7578e-06            3.518e-11             -1.08e-12             -5.7538e-06          
  1.05                  6.1752e-06            4.432e-11             -1.9e-12              -6.171e-06           
  1.1                   6.5664e-06            5.518e-11             -1.46e-12             -6.5628e-06          
  1.15                  6.9344e-06            6.812e-11             -1.48e-12             -6.931e-06           
  1.2                   7.279e-06             8.346e-11             -7.8e-13              -7.2754e-06          
  1.25                  7.6002e-06            1.013e-10             -1.4e-12              -7.5964e-06          
  1.3                   7.899e-06             1.224e-10             -2.26e-12             -7.8954e-06          
  1.35                  8.1742e-06            1.4688e-10            -1.44e-12             -8.1726e-06          
END_DB

BEGIN_DB
 ICCAP_VAR vb         -0.9           
 ICCAP_VAR vd         0.05           
 ICCAP_VAR vs         0              

 #vg                    id                    ig                    ib                    is                   
  -0.5                  1.2e-13               -3.2e-13              -4.82e-12             8e-14                
  -0.45                 1e-13                 -1.6e-13              -5.52e-12             1.2e-13              
  -0.4                  2e-14                 -6e-14                -5.16e-12             1e-13                
  -0.35                 1.2e-13               -4e-14                -4.5e-12              6e-14                
  -0.3                  1e-13                 1.2e-13               -3.32e-12             -6e-14               
  -0.25                 4e-14                 2e-13                 -3.62e-12             1.4e-13              
  -0.2                  2e-14                 2.8e-13               -4e-12                4e-14                
  -0.15                 4e-14                 3.4e-13               -3.82e-12             6e-14                
  -0.1                  1.4e-13               2.8e-13               -3.44e-12             0                    
  -0.05                 1.2e-13               4e-13                 -2.72e-12             -6e-14               
  0                     4.8e-13               4.4e-13               -3.52e-12             -3e-13               
  0.05                  2.22e-12              4.4e-13               -3.16e-12             -2.1e-12             
  0.1                   1.124e-11             4.6e-13               -3.64e-12             -1.098e-11           
  0.15                  5.846e-11             4.6e-13               -3.16e-12             -5.846e-11           
  0.2                   3.0246e-10            5.6e-13               -2.16e-12             -3.0188e-10          
  0.25                  1.5068e-09            3e-13                 -2.46e-12             -1.5222e-09          
  0.3                   7.2736e-09            4.4e-13               -2.92e-12             -7.2812e-09          
  0.35                  3.1098e-08            5e-13                 -3.04e-12             -3.098e-08           
  0.4                   1.06348e-07           8.2e-13               -2.34e-12             -1.0635e-07          
  0.45                  2.7826e-07            1.16e-12              -2.56e-12             -2.7832e-07          
  0.5                   5.6928e-07            1.78e-12              -3.14e-12             -5.6936e-07          
  0.55                  9.6562e-07            2.5e-12               -2.5e-12              -9.661e-07           
  0.6                   1.4364e-06            3.42e-12              -2.52e-12             -1.4326e-06          
  0.65                  1.9476e-06            4.92e-12              -2.76e-12             -1.9446e-06          
  0.7                   2.4784e-06            6.68e-12              -2.3e-12              -2.4746e-06          
  0.75                  3.0162e-06            9.18e-12              -1.52e-12             -3.0124e-06          
  0.8                   3.5474e-06            1.246e-11             -2.06e-12             -3.5432e-06          
  0.85                  4.0632e-06            1.646e-11             -3e-12                -4.0594e-06          
  0.9                   4.5568e-06            2.144e-11             -2.3e-12              -4.5534e-06          
  0.95                  5.0258e-06            2.758e-11             -1.3e-12              -5.0222e-06          
  1                     5.4712e-06            3.498e-11             -2.18e-12             -5.4672e-06          
  1.05                  5.8916e-06            4.398e-11             -2.82e-12             -5.8878e-06          
  1.1                   6.2866e-06            5.486e-11             -1.88e-12             -6.283e-06           
  1.15                  6.6574e-06            6.768e-11             -8e-13                -6.6542e-06          
  1.2                   7.005e-06             8.298e-11             -1.98e-12             -7.001e-06           
  1.25                  7.3286e-06            1.0104e-10            -2.46e-12             -7.3252e-06          
  1.3                   7.6292e-06            1.22e-10              -2.1e-12              -7.6252e-06          
  1.35                  7.9096e-06            1.466e-10             -1.18e-12             -7.9058e-06          
END_DB

BEGIN_DB
 ICCAP_VAR vb         -1.2           
 ICCAP_VAR vd         0.05           
 ICCAP_VAR vs         0              

 #vg                    id                    ig                    ib                    is                   
  -0.5                  0                     -4.2e-13              -5.3e-12              4e-14                
  -0.45                 1e-13                 -1.4e-13              -6.12e-12             1.6e-13              
  -0.4                  2e-14                 0                     -5.04e-12             4e-14                
  -0.35                 6e-14                 2.2e-13               -3.36e-12             1.2e-13              
  -0.3                  1.4e-13               1.4e-13               -3.56e-12             2e-14                
