! VERSION = 6.00
BEGIN_HEADER
 ICCAP_INPUTS
  vg         V  G GROUND SMU2 0.001 LIN        1    -0.5       1.35       38   0.05      
  vb         V  B GROUND SMU4 0.1 LIN        2    0          -1.2       5    -0.3      
  vd         V  D GROUND SMU1 0.1 LIST       3 3 0.05 0.6 1.2
  vs         V  S GROUND SMU3 0.1 CON        0
 ICCAP_OUTPUTS
  id         I  D GROUND SMU1 B
  ig         I  G GROUND SMU2 B
  ib         I  B GROUND SMU4 B
  is         I  S GROUND SMU3 B
 ICCAP_VALUES
  MASTER_SETUP_TYPE "~dc_idvg~"
  LINVT_VALUE ""
  LISTVT_VALUE ""
  TYPE "1"
  TEMP " 27.0000 "
  IS_TNOM " 1.00000 "
  MAIN.W "10.00u"
  MAIN.L "5.000u"
  MAIN.AD "3.400p"
  MAIN.AS "3.400p"
  MAIN.PD "20.68u"
  MAIN.PS "20.68u"
  MAIN.NF "1.000"
  MAIN.M "1"
  MAIN.NRD "0.000"
  MAIN.NRS "0.000"
  MAIN.LDRIFT1 "1E-06"
  MAIN.LDRIFT2 "1E-06"
  MAIN.SA "0.000"
  MAIN.SB "0.000"
  MAIN.SD "0.000"
  MAIN.SCA "0.000"
  MAIN.SCB "0.000"
  MAIN.SCC "0.000"
  MAIN.SC "0.000"
  MODULE "S541"
  PIN_D "14"
  PIN_G "7"
  PIN_S "8"
  PIN_B "13"
  PIN_E ""
  PIN_6 ""
  XY_ID ""
  FUNC "L Scale"
  STI "SA ref"
  WPE "WPE ref"
  COMMENT ""
  DIS_MEAS ""
  TypeTCI "10"
END_HEADER

BEGIN_DB
 ICCAP_VAR vb         0              
 ICCAP_VAR vd         0.05           
 ICCAP_VAR vs         0              

 #vg                    id                    ig                    ib                    is                   
  -0.5                  1.82e-12              -4.906e-11            4.616e-11             2.2e-12              
  -0.45                 1.48e-12              -9.86e-12             9.24e-12              1.58e-12             
  -0.4                  1.18e-12              -3.6e-12              3.88e-12              1.14e-12             
  -0.35                 9.8e-13               -1.7e-12              2.16e-12              8e-13                
  -0.3                  7.8e-13               -1.16e-12             1.3e-12               6.4e-13              
  -0.25                 9e-13                 -8.4e-13              1.42e-12              -4e-14               
  -0.2                  2.2e-12               -4.4e-13              2.44e-12              -1.48e-12            
  -0.15                 8.94e-12              -2e-13                2.06e-12              -8.26e-12            
  -0.1                  4.186e-11             -6e-14                2.06e-12              -4.172e-11           
  -0.05                 2.0172e-10            -8e-14                9.6e-13               -2.013e-10           
  0                     9.7082e-10            4e-13                 9.4e-13               -9.7116e-10          
  0.05                  4.6574e-09            6.2e-13               2.32e-12              -4.6564e-09          
  0.1                   2.1768e-08            1.72e-12              2.44e-12              -2.175e-08           
  0.15                  9.6146e-08            5.92e-12              1.56e-12              -9.6144e-08          
  0.2                   3.71e-07              1.396e-11             9.6e-13               -3.7094e-07          
  0.25                  1.1311e-06            2.996e-11             2.6e-12               -1.13102e-06         
  0.3                   2.5774e-06            5.744e-11             1.46e-12              -2.5728e-06          
  0.35                  4.5682e-06            1.0182e-10            7e-13                 -4.5632e-06          
  0.4                   6.812e-06             1.7082e-10            1.44e-12              -6.8084e-06          
  0.45                  9.1272e-06            2.7492e-10            1.14e-12              -9.123e-06           
  0.5                   1.14322e-05           4.2578e-10            7.6e-13               -1.1429e-05          
  0.55                  1.371e-05             6.3936e-10            3.6e-13               -1.3692e-05          
  0.6                   1.5936e-05            9.3406e-10            1.12e-12              -1.592e-05           
  0.65                  1.8114e-05            1.3338e-09            1.44e-12              -1.8098e-05          
  0.7                   2.0224e-05            1.8622e-09            1.44e-12              -2.0208e-05          
  0.75                  2.227e-05             2.552e-09             1.14e-12              -2.2256e-05          
  0.8                   2.424e-05             3.437e-09             8.2e-13               -2.4224e-05          
  0.85                  2.6128e-05            4.5618e-09            9.4e-13               -2.6114e-05          
  0.9                   2.7926e-05            5.9664e-09            1.56e-12              -2.7914e-05          
  0.95                  2.9634e-05            7.7106e-09            9.8e-13               -2.9624e-05          
  1                     3.1248e-05            9.8528e-09            8.8e-13               -3.124e-05           
  1.05                  3.2762e-05            1.246e-08             1.74e-12              -3.2758e-05          
  1.1                   3.4182e-05            1.5596e-08            -1.4e-13              -3.418e-05           
  1.15                  3.5504e-05            1.9348e-08            1.2e-13               -3.5504e-05          
  1.2                   3.6728e-05            2.3798e-08            -1.84e-12             -3.6734e-05          
  1.25                  3.7858e-05            2.9026e-08            -5.16e-12             -3.7868e-05          
  1.3                   3.8894e-05            3.5132e-08            -1.442e-11            -3.8912e-05          
  1.35                  3.9842e-05            4.223e-08             -3.16e-11             -3.9866e-05          
END_DB

BEGIN_DB
 ICCAP_VAR vb         -0.3           
 ICCAP_VAR vd         0.05           
 ICCAP_VAR vs         0              

 #vg                    id                    ig                    ib                    is                   
  -0.5                  1.62e-12              -3.86e-12             -2.8e-12              1.8e-12              
  -0.45                 1.3e-12               -2.86e-12             -3.36e-12             1.58e-12             
  -0.4                  9e-13                 -2.1e-12              -2.3e-12              9.8e-13              
  -0.35                 8.4e-13               -1.48e-12             -1.6e-12              7.4e-13              
  -0.3                  5.8e-13               -8.8e-13              -2.26e-12             5.2e-13              
  -0.25                 3.6e-13               -4.8e-13              -1.92e-12             3.8e-13              
  -0.2                  6.8e-13               -1.8e-13              -1.92e-12             -1e-13               
  -0.15                 2.2e-12               1e-13                 -1.42e-12             -1.74e-12            
  -0.1                  1.022e-11             1.4e-13               8e-14                 -9.78e-12            
  -0.05                 5.088e-11             2.4e-13               -1.96e-12             -5.052e-11           
  0                     2.5696e-10            4.2e-13               -2.04e-12             -2.5714e-10          
  0.05                  1.3002e-09            6e-13                 -1.66e-12             -1.2986e-09          
  0.1                   6.4638e-09            1.52e-12              -8.8e-13              -6.463e-09           
  0.15                  3.1184e-08            4.04e-12              1e-13                 -3.1162e-08          
  0.2                   1.3864e-07            1.146e-11             -1.22e-12             -1.3848e-07          
  0.25                  5.194e-07             2.608e-11             -6.6e-13              -5.1928e-07          
  0.3                   1.4794e-06            5.228e-11             -4.6e-13              -1.4746e-06          
  0.35                  3.1226e-06            9.534e-11             -1.12e-12             -3.119e-06           
  0.4                   5.2234e-06            1.6238e-10            -1.22e-12             -5.2196e-06          
  0.45                  7.5042e-06            2.6374e-10            4e-13                 -7.4998e-06          
  0.5                   9.8124e-06            4.1236e-10            -5.4e-13              -9.8092e-06          
  0.55                  1.2102e-05            6.2222e-10            -8.2e-13              -1.2084e-05          
  0.6                   1.4342e-05            9.1368e-10            -1.2e-13              -1.4326e-05          
  0.65                  1.6534e-05            1.3092e-09            -7.8e-13              -1.6516e-05          
  0.7                   1.8662e-05            1.8338e-09            -2e-14                -1.8644e-05          
  0.75                  2.0726e-05            2.5184e-09            1.4e-13               -2.071e-05           
  0.8                   2.2712e-05            3.3986e-09            -3.2e-13              -2.2698e-05          
  0.85                  2.462e-05             4.5166e-09            -8.4e-13              -2.4608e-05          
  0.9                   2.644e-05             5.9158e-09            -2.78e-12             -2.6426e-05          
  0.95                  2.8168e-05            7.6538e-09            -3.4e-13              -2.8158e-05          
  1                     2.9802e-05            9.7886e-09            8e-14                 -2.9794e-05          
  1.05                  3.134e-05             1.239e-08             -8.6e-13              -3.1336e-05          
  1.1                   3.2778e-05            1.5516e-08            -1.5e-12              -3.2776e-05          
  1.15                  3.4122e-05            1.9262e-08            -1.24e-12             -3.4124e-05          
  1.2                   3.5368e-05            2.3702e-08            -2.78e-12             -3.5374e-05          
  1.25                  3.652e-05             2.8924e-08            -6.98e-12             -3.653e-05           
  1.3                   3.7578e-05            3.5022e-08            -1.646e-11            -3.7592e-05          
  1.35                  3.8546e-05            4.2114e-08            -3.362e-11            -3.857e-05           
END_DB

BEGIN_DB
 ICCAP_VAR vb         -0.6           
 ICCAP_VAR vd         0.05           
 ICCAP_VAR vs         0              

 #vg                    id                    ig                    ib                    is                   
  -0.5                  1.54e-12              -3.78e-12             -4.14e-12             1.92e-12             
  -0.45                 1.26e-12              -2.56e-12             -4.84e-12             1.36e-12             
  -0.4                  8.8e-13               -1.9e-12              -3.7e-12              1.02e-12             
  -0.35                 7.2e-13               -1.1e-12              -3.06e-12             7.8e-13              
  -0.3                  4.6e-13               -8.6e-13              -3.8e-12              6.2e-13              
  -0.25                 3.2e-13               -6.4e-13              -4.18e-12             5e-13                
  -0.2                  3.6e-13               2e-14                 -3.56e-12             3.4e-13              
  -0.15                 8e-13                 1e-13                 -2.26e-12             -3.4e-13             
  -0.1                  3.46e-12              6e-14                 -2.48e-12             -2.92e-12            
  -0.05                 1.716e-11             3.2e-13               -2.86e-12             -1.708e-11           
  0                     8.962e-11             3.4e-13               -2.92e-12             -8.956e-11           
  0.05                  4.691e-10             7.2e-13               -2.14e-12             -4.6888e-10          
  0.1                   2.4268e-09            1.1e-12               -2.14e-12             -2.4256e-09          
  0.15                  1.2322e-08            2.96e-12              -2.46e-12             -1.2302e-08          
  0.2                   5.9228e-08            8.66e-12              -3.1e-12              -5.9216e-08          
  0.25                  2.5262e-07            2.208e-11             -1.16e-12             -2.5252e-07          
  0.3                   8.5178e-07            4.68e-11              -2.34e-12             -8.5134e-07          
  0.35                  2.1194e-06            8.82e-11              -2.02e-12             -2.115e-06           
  0.4                   3.9836e-06            1.532e-10             -1.5e-12              -3.9806e-06          
  0.45                  6.1676e-06            2.522e-10             -1.06e-12             -6.1638e-06          
  0.5                   8.444e-06             3.9758e-10            -3.26e-12             -8.44e-06            
  0.55                  1.07152e-05           6.0442e-10            -2.64e-12             -1.07118e-05         
  0.6                   1.2964e-05            8.9214e-10            -1.74e-12             -1.2946e-05          
  0.65                  1.5162e-05            1.2834e-09            -9e-13                -1.5144e-05          
  0.7                   1.7298e-05            1.8028e-09            -1.3e-12              -1.7282e-05          
  0.75                  1.9372e-05            2.4822e-09            -1.8e-12              -1.9356e-05          
  0.8                   2.1374e-05            3.3568e-09            -2.02e-12             -2.1358e-05          
  0.85                  2.3296e-05            4.4682e-09            -3.22e-12             -2.3282e-05          
  0.9                   2.513e-05             5.8624e-09            -1.06e-12             -2.512e-05           
  0.95                  2.6878e-05            7.5924e-09            -1.44e-12             -2.6868e-05          
  1                     2.853e-05             9.7206e-09            -2.44e-12             -2.8522e-05          
  1.05                  3.0088e-05            1.2314e-08            -1.2e-13              -3.0082e-05          
  1.1                   3.1544e-05            1.5434e-08            -1.38e-12             -3.1542e-05          
  1.15                  3.2908e-05            1.9172e-08            -2.3e-12              -3.2908e-05          
  1.2                   3.4172e-05            2.3604e-08            -4.8e-12              -3.4178e-05          
  1.25                  3.5342e-05            2.8818e-08            -7.76e-12             -3.5354e-05          
  1.3                   3.6418e-05            3.4904e-08            -1.61e-11             -3.6436e-05          
  1.35                  3.7406e-05            4.199e-08             -3.356e-11            -3.743e-05           
END_DB

BEGIN_DB
 ICCAP_VAR vb         -0.9           
 ICCAP_VAR vd         0.05           
 ICCAP_VAR vs         0              

 #vg                    id                    ig                    ib                    is                   
  -0.5                  1.52e-12              -3.52e-12             -5.92e-12             1.88e-12             
  -0.45                 1.14e-12              -2.56e-12             -3.96e-12             1.22e-12             
  -0.4                  9.8e-13               -1.4e-12              -4.26e-12             1e-12                
  -0.35                 6.6e-13               -1.14e-12             -4.88e-12             8.2e-13              
  -0.3                  3.4e-13               -9e-13                -4.64e-12             4.6e-13              
  -0.25                 3.4e-13               -3.6e-13              -3.94e-12             4.8e-13              
  -0.2                  2e-13                 -4e-14                -4.24e-12             2.8e-13              
  -0.15                 4.2e-13               6e-14                 -3.06e-12             -6e-14               
  -0.1                  1.48e-12              1.8e-13               -2.88e-12             -1.02e-12            
  -0.05                 7.06e-12              4.8e-13               -3.84e-12             -6.82e-12            
  0                     3.792e-11             4.2e-13               -3.42e-12             -3.776e-11           
  0.05                  2.0332e-10            6.2e-13               -3.2e-12              -2.0316e-10          
  0.1                   1.08234e-09           9.4e-13               -2e-12                -1.08234e-09         
  0.15                  5.6906e-09            2.04e-12              -2.72e-12             -5.6928e-09          
  0.2                   2.8766e-08            6.5e-12               -2.62e-12             -2.8768e-08          
  0.25                  1.3324e-07            1.806e-11             -2.92e-12             -1.3306e-07          
  0.3                   5.077e-07             4.086e-11             -2e-12                -5.0764e-07          
  0.35                  1.4486e-06            8.034e-11             -3.34e-12             -1.4434e-06          
  0.4                   3.0386e-06            1.436e-10             -3.08e-12             -3.0344e-06          
  0.45                  5.0676e-06            2.3966e-10            -2.26e-12             -5.064e-06           
  0.5                   7.2732e-06            3.8212e-10            -1.68e-12             -7.2698e-06          
  0.55                  9.5134e-06            5.858e-10             -3.38e-12             -9.5098e-06          
  0.6                   1.1748e-05            8.6924e-10            -3e-12                -1.173e-05           
  0.65                  1.3938e-05            1.256e-09             -1.9e-12              -1.3922e-05          
  0.7                   1.6076e-05            1.7706e-09            -1.9e-12              -1.606e-05           
  0.75                  1.8158e-05            2.4446e-09            -3.04e-12             -1.8142e-05          
  0.8                   2.0168e-05            3.3136e-09            -2.16e-12             -2.0152e-05          
  0.85                  2.2104e-05            4.419e-09             -2.62e-12             -2.209e-05           
  0.9                   2.3954e-05            5.8058e-09            -1.38e-12             -2.394e-05           
  0.95                  2.5716e-05            7.5284e-09            -2.56e-12             -2.5704e-05          
  1                     2.7386e-05            9.6484e-09            -2.32e-12             -2.7376e-05          
  1.05                  2.896e-05             1.2232e-08            -1.14e-12             -2.8954e-05          
  1.1                   3.0434e-05            1.5344e-08            -2.22e-12             -3.043e-05           
  1.15                  3.1814e-05            1.9072e-08            -3.3e-12              -3.1816e-05          
  1.2                   3.3098e-05            2.3496e-08            -5.24e-12             -3.3104e-05          
  1.25                  3.4284e-05            2.87e-08              -8.38e-12             -3.4296e-05          
  1.3                   3.538e-05             3.4778e-08            -1.718e-11            -3.5396e-05          
  1.35                  3.6384e-05            4.1854e-08            -3.424e-11            -3.6408e-05          
END_DB

BEGIN_DB
 ICCAP_VAR vb         -1.2           
 ICCAP_VAR vd         0.05           
 ICCAP_VAR vs         0              

 #vg                    id                    ig                    ib                    is                   
  -0.5                  1.5e-12               -3.68e-12             -4.56e-12             1.86e-12             
  -0.45                 1.06e-12              -2.52e-12             -5.28e-12             1.36e-12             
  -0.4                  8.2e-13               -1.56e-12             -6.14e-12             1.08e-12             
  -0.35                 6.6e-13               -1.12e-12             -5.26e-12             6.4e-13              
  -0.3                  4.4e-13               -6.2e-13              -4.96e-12             5.8e-13              
