! VERSION = 6.00
BEGIN_HEADER
 ICCAP_INPUTS
  vd         V  D GROUND SMU1 0.1 LIN        1    0          1.35       28   0.05      
  vg         V  G GROUND SMU2 0.001 LIN        2    0.426      1.35       5    0.231     
  vb         V  B GROUND SMU4 0.1 CON        0
  vs         V  S GROUND SMU3 0.1 CON        0
 ICCAP_OUTPUTS
  id         I  D GROUND SMU1 B
  ig         I  G GROUND SMU2 B
  ib         I  B GROUND SMU4 B
  is         I  S GROUND SMU3 B
 ICCAP_VALUES
  MASTER_SETUP_TYPE "~dc_idvd~"
  LINVT_VALUE "|idvg|100.0n|100.0m|1.000m|5|1.350|"
  LISTVT_VALUE ""
  TYPE "1"
  TEMP " 27.0000 "
  IS_TNOM " 1.00000 "
  MAIN.W "600.0n"
  MAIN.L "180.0n"
  MAIN.AD "204.0f"
  MAIN.AS "204.0f"
  MAIN.PD "1.880u"
  MAIN.PS "1.880u"
  MAIN.NF "1.000"
  MAIN.M "1"
  MAIN.NRD "0.000"
  MAIN.NRS "0.000"
  MAIN.LDRIFT1 "1E-06"
  MAIN.LDRIFT2 "1E-06"
  MAIN.SA "0.000"
  MAIN.SB "0.000"
  MAIN.SD "0.000"
  MAIN.SCA "0.000"
  MAIN.SCB "0.000"
  MAIN.SCC "0.000"
  MAIN.SC "0.000"
  MODULE "S543"
  PIN_D "16"
  PIN_G "5"
  PIN_S "6"
  PIN_B "15"
  PIN_E ""
  PIN_6 ""
  XY_ID ""
  FUNC "LW Scale"
  STI "SA ref"
  WPE "WPE ref"
  COMMENT ""
  DIS_MEAS ""
  TypeTCI "10"
END_HEADER

BEGIN_DB
 ICCAP_VAR vg         0.426          
 ICCAP_VAR vb         0              
 ICCAP_VAR vs         0              

 #vd                    id                    ig                    ib                    is                   
  0                     2.6396e-09            6.2e-13               8.66e-12              -1.9352e-09          
  0.05                  1.2268e-06            4.2e-13               7.08e-12              -1.2212e-06          
  0.1                   1.745e-06             4.2e-13               7.94e-12              -1.7446e-06          
  0.15                  1.9732e-06            5e-13                 6.02e-12              -1.968e-06           
  0.2                   2.0846e-06            4e-13                 5.66e-12              -2.0832e-06          
  0.25                  2.1672e-06            3.6e-13               4.72e-12              -2.1734e-06          
  0.3                   2.2424e-06            3.2e-13               5.84e-12              -2.238e-06           
  0.35                  2.3054e-06            2.4e-13               4.42e-12              -2.3018e-06          
  0.4                   2.3654e-06            3.4e-13               5.58e-12              -2.3614e-06          
  0.45                  2.4222e-06            3.4e-13               4.94e-12              -2.4158e-06          
  0.5                   2.4768e-06            2.2e-13               4.28e-12              -2.4724e-06          
  0.55                  2.5276e-06            3e-13                 5.82e-12              -2.53e-06            
  0.6                   2.5776e-06            3.8e-13               4.72e-12              -2.5858e-06          
  0.65                  2.6292e-06            3.6e-13               4e-12                 -2.627e-06           
  0.7                   2.679e-06             2.4e-13               4.26e-12              -2.674e-06           
  0.75                  2.7258e-06            2.8e-13               3.78e-12              -2.7288e-06          
  0.8                   2.7804e-06            3e-13                 3.78e-12              -2.7696e-06          
  0.85                  2.818e-06             2.6e-13               5.02e-12              -2.8114e-06          
  0.9                   2.8612e-06            2.2e-13               3.94e-12              -2.8526e-06          
  0.95                  2.9016e-06            2.4e-13               3.48e-12              -2.9026e-06          
  1                     2.9494e-06            2.2e-13               4.3e-12               -2.944e-06           
  1.05                  2.991e-06             8e-14                 2.3e-12               -2.9858e-06          
  1.1                   3.0326e-06            4e-14                 -5.2e-13              -3.03e-06            
  1.15                  3.0756e-06            8e-14                 -4.08e-12             -3.0734e-06          
  1.2                   3.1152e-06            2e-14                 -1.534e-11            -3.109e-06           
  1.25                  3.1546e-06            -1e-13                -3.546e-11            -3.1512e-06          
  1.3                   3.202e-06             -4.2e-13              -6.688e-11            -3.1916e-06          
  1.35                  3.229e-06             -3.4e-13              -1.2246e-10           -3.2316e-06          
END_DB

BEGIN_DB
 ICCAP_VAR vg         0.657          
 ICCAP_VAR vb         0              
 ICCAP_VAR vs         0              

 #vd                    id                    ig                    ib                    is                   
  0                     1.5468e-08            6.2e-12               4.04e-12              -1.458e-08           
  0.05                  9.1822e-06            5.08e-12              2.38e-12              -9.1768e-06          
  0.1                   1.5818e-05            4.08e-12              1.48e-12              -1.5802e-05          
  0.15                  2.0292e-05            3.56e-12              2.88e-12              -2.0276e-05          
  0.2                   2.3138e-05            3.16e-12              2.34e-12              -2.3118e-05          
  0.25                  2.4926e-05            3.08e-12              1.88e-12              -2.4906e-05          
  0.3                   2.6102e-05            2.82e-12              2.98e-12              -2.6086e-05          
  0.35                  2.6946e-05            2.76e-12              2.72e-12              -2.693e-05           
  0.4                   2.7622e-05            2.66e-12              1.74e-12              -2.76e-05            
  0.45                  2.8184e-05            2.58e-12              2.68e-12              -2.817e-05           
  0.5                   2.8692e-05            2.56e-12              1.9e-12               -2.8684e-05          
  0.55                  2.9178e-05            2.52e-12              1.54e-12              -2.916e-05           
  0.6                   2.9636e-05            2.56e-12              2.42e-12              -2.961e-05           
  0.65                  3.0058e-05            2.4e-12               1.58e-12              -3.0042e-05          
  0.7                   3.0472e-05            2.36e-12              7.6e-13               -3.0454e-05          
  0.75                  3.0868e-05            2.32e-12              3.44e-12              -3.0864e-05          
  0.8                   3.1242e-05            2.46e-12              1.4e-12               -3.123e-05           
  0.85                  3.1622e-05            2.34e-12              1.02e-12              -3.1608e-05          
  0.9                   3.1988e-05            2.34e-12              3e-12                 -3.1974e-05          
  0.95                  3.2356e-05            2.36e-12              1.72e-12              -3.2328e-05          
  1                     3.2698e-05            2.18e-12              7.2e-13               -3.2664e-05          
  1.05                  3.3028e-05            2.12e-12              4.2e-13               -3.3012e-05          
  1.1                   3.3352e-05            2.06e-12              -4.14e-12             -3.335e-05           
  1.15                  3.3694e-05            1.96e-12              -1.236e-11            -3.3678e-05          
  1.2                   3.4022e-05            2.06e-12              -2.922e-11            -3.4004e-05          
  1.25                  3.4344e-05            2.02e-12              -7.026e-11            -3.4322e-05          
  1.3                   3.4654e-05            1.88e-12              -1.52e-10             -3.4634e-05          
  1.35                  3.4962e-05            1.92e-12              -3.0222e-10           -3.496e-05           
END_DB

BEGIN_DB
 ICCAP_VAR vg         0.888          
 ICCAP_VAR vb         0              
 ICCAP_VAR vs         0              

 #vd                    id                    ig                    ib                    is                   
  0                     3.1368e-08            2.144e-11             2.96e-12              -3.0808e-08          
  0.05                  2.0056e-05            1.92e-11              1.72e-12              -2.0032e-05          
  0.1                   3.7156e-05            1.742e-11             2.26e-12              -3.7146e-05          
  0.15                  5.1224e-05            1.582e-11             1.54e-12              -5.1222e-05          
  0.2                   6.2298e-05            1.446e-11             2e-12                 -6.2282e-05          
  0.25                  7.0732e-05            1.35e-11              1.78e-12              -7.073e-05           
  0.3                   7.6906e-05            1.266e-11             -1.18e-12             -7.687e-05           
  0.35                  8.1328e-05            1.186e-11             9.4e-13               -8.1342e-05          
  0.4                   8.4524e-05            1.156e-11             1.6e-12               -8.4494e-05          
  0.45                  8.6866e-05            1.112e-11             1.26e-12              -8.682e-05           
  0.5                   8.8652e-05            1.094e-11             1.1e-12               -8.8694e-05          
  0.55                  9.0186e-05            1.076e-11             2.08e-12              -9.0142e-05          
  0.6                   9.1454e-05            1.066e-11             9.2e-13               -9.1452e-05          
  0.65                  9.2666e-05            1.034e-11             1.62e-12              -9.2578e-05          
  0.7                   9.37e-05              1.014e-11             1.02e-12              -9.3654e-05          
  0.75                  9.4658e-05            1.008e-11             5e-13                 -9.4654e-05          
  0.8                   9.5588e-05            1e-11                 4.4e-13               -9.5584e-05          
  0.85                  9.6514e-05            9.88e-12              7.6e-13               -9.644e-05           
  0.9                   9.7354e-05            9.78e-12              9.6e-13               -9.734e-05           
  0.95                  9.8226e-05            9.68e-12              1.08e-12              -9.8148e-05          
  1                     9.8988e-05            9.56e-12              2e-13                 -9.9006e-05          
  1.05                  9.9766e-05            9.44e-12              -1.54e-12             -9.9774e-05          
  1.1                   0.000100498           9.34e-12              -4.88e-12             -0.000100502         
  1.15                  0.00010125            9.24e-12              -1.2e-11              -0.000101302         
  1.2                   0.000102044           9.2e-12               -3.024e-11            -0.000101968         
  1.25                  0.00010277            9.14e-12              -6.8e-11              -0.000102756         
  1.3                   0.000103472           8.92e-12              -1.4698e-10           -0.000103448         
  1.35                  0.00010412            8.92e-12              -3.0122e-10           -0.00010414          
END_DB

BEGIN_DB
 ICCAP_VAR vg         1.119          
 ICCAP_VAR vb         0              
 ICCAP_VAR vs         0              

 #vd                    id                    ig                    ib                    is                   
  0                     4.4256e-08            5.104e-11             2.36e-12              -4.1992e-08          
  0.05                  2.9566e-05            4.67e-11              1.12e-12              -2.9548e-05          
  0.1                   5.6402e-05            4.298e-11             1.88e-12              -5.6382e-05          
  0.15                  8.0072e-05            3.956e-11             3.4e-13               -8.0052e-05          
  0.2                   0.000100284           3.682e-11             8e-13                 -0.000100272         
  0.25                  0.00011744            3.442e-11             9.8e-13               -0.00011704          
  0.3                   0.00013124            3.226e-11             1.34e-12              -0.00013078          
  0.35                  0.0001422             3.054e-11             7.6e-13               -0.00014182          
  0.4                   0.0001507             2.926e-11             5e-13                 -0.00015032          
  0.45                  0.0001573             2.81e-11              9.8e-13               -0.0001569           
  0.5                   0.00016232            2.732e-11             7.8e-13               -0.00016192          
  0.55                  0.00016604            2.67e-11              1.32e-12              -0.00016576          
  0.6                   0.00016922            2.622e-11             1.42e-12              -0.00016884          
  0.65                  0.00017168            2.578e-11             6.6e-13               -0.0001713           
  0.7                   0.00017372            2.53e-11              1.28e-12              -0.00017326          
  0.75                  0.00017548            2.51e-11              1.44e-12              -0.00017502          
  0.8                   0.0001772             2.488e-11             6e-13                 -0.00017684          
  0.85                  0.00017866            2.446e-11             1.22e-12              -0.00017828          
  0.9                   0.00017998            2.444e-11             1.44e-12              -0.00017962          
  0.95                  0.00018138            2.408e-11             3.4e-13               -0.00018104          
  1                     0.00018246            2.388e-11             1e-13                 -0.0001822           
  1.05                  0.0001838             2.376e-11             -1.4e-12              -0.00018344          
  1.1                   0.00018486            2.35e-11              -4.8e-12              -0.00018444          
  1.15                  0.00018614            2.338e-11             -1.046e-11            -0.00018576          
  1.2                   0.00018716            2.334e-11             -2.636e-11            -0.00018664          
  1.25                  0.00018822            2.302e-11             -5.902e-11            -0.00018786          
  1.3                   0.00018922            2.284e-11             -1.24e-10             -0.00018892          
  1.35                  0.0001903             2.274e-11             -2.5016e-10           -0.0001899           
END_DB

BEGIN_DB
 ICCAP_VAR vg         1.35           
 ICCAP_VAR vb         0              
 ICCAP_VAR vs         0              

 #vd                    id                    ig                    ib                    is                   
  0                     5.5736e-08            1.1156e-10            1.2e-12               -5.3144e-08          
  0.05                  3.6882e-05            1.0304e-10            3.8e-13               -3.6864e-05          
  0.1                   7.1388e-05            9.548e-11             1.32e-12              -7.1372e-05          
  0.15                  0.00010291            8.868e-11             2e-14                 -0.0001029           
  0.2                   0.00013118            8.258e-11             7.8e-13               -0.0001308           
  0.25                  0.00015584            7.71e-11              6e-13                 -0.00015544          
  0.3                   0.00017702            7.256e-11             1.36e-12              -0.00017662          
  0.35                  0.00019498            6.872e-11             4.4e-13               -0.00019462          
  0.4                   0.0002099             6.52e-11              5.6e-13               -0.00020952          
  0.45                  0.00022206            6.248e-11             1.92e-12              -0.00022166          
  0.5                   0.00023194            6.008e-11             6.6e-13               -0.00023156          
  0.55                  0.00023986            5.824e-11             7e-13                 -0.0002395           
  0.6                   0.00024616            5.658e-11             1.46e-12              -0.00024578          
  0.65                  0.00025126            5.536e-11             8.4e-13               -0.00025088          
  0.7                   0.00025532            5.422e-11             1.14e-12              -0.00025496          
  0.75                  0.0002587             5.352e-11             1.12e-12              -0.00025826          
  0.8                   0.00026144            5.274e-11             3.2e-13               -0.00026108          
  0.85                  0.00026392            5.198e-11             1.4e-13               -0.00026354          
  0.9                   0.00026606            5.142e-11             5.2e-13               -0.00026566          
  0.95                  0.00026798            5.102e-11             7e-13                 -0.00026762          
  1                     0.0002698             5.084e-11             3.4e-13               -0.0002694           
  1.05                  0.00027146            5.028e-11             -1.56e-12             -0.0002711           
  1.1                   0.00027304            4.996e-11             -4.48e-12             -0.00027272          
  1.15                  0.00027458            4.956e-11             -9.26e-12             -0.00027416          
  1.2                   0.000276              4.92e-11              -2.166e-11            -0.00027562          
  1.25                  0.0002773             4.894e-11             -4.618e-11            -0.00027692          
  1.3                   0.00027862            4.862e-11             -9.6e-11              -0.00027822          
  1.35                  0.00027992            4.83e-11              -1.9392e-10           -0.00027948          
END_DB

