! VERSION = 6.00
BEGIN_HEADER
 ICCAP_INPUTS
  vd         V  D GROUND SMU1 0.1 LIN        1    0          1.35       28   0.05      
  vg         V  G GROUND SMU2 0.001 LIST       2 3 0.351 0.551 0.751
  vb         V  B GROUND SMU4 0.1 CON        -1.2
  vs         V  S GROUND SMU3 0.1 CON        0
 ICCAP_OUTPUTS
  id         I  D GROUND SMU1 B
  ig         I  G GROUND SMU2 B
  ib         I  B GROUND SMU4 B
  is         I  S GROUND SMU3 B
 ICCAP_VALUES
  MASTER_SETUP_TYPE "~dc_idvd~"
  LINVT_VALUE ""
  LISTVT_VALUE "|idvg|100.0n|-200.0m|1.000m|3|200.0m|200.0m|"
  TYPE "1"
  TEMP " 27.0000 "
  IS_TNOM " 1.00000 "
  MAIN.W "300.0n"
  MAIN.L "140.0n"
  MAIN.AD "102.0f"
  MAIN.AS "102.0f"
  MAIN.PD "1.280u"
  MAIN.PS "1.280u"
  MAIN.NF "1.000"
  MAIN.M "1"
  MAIN.NRD "0.000"
  MAIN.NRS "0.000"
  MAIN.LDRIFT1 "1E-06"
  MAIN.LDRIFT2 "1E-06"
  MAIN.SA "0.000"
  MAIN.SB "0.000"
  MAIN.SD "0.000"
  MAIN.SCA "0.000"
  MAIN.SCB "0.000"
  MAIN.SCC "0.000"
  MAIN.SC "0.000"
  MODULE "S544"
  PIN_D "16"
  PIN_G "5"
  PIN_S "6"
  PIN_B "15"
  PIN_E ""
  PIN_6 ""
  XY_ID ""
  FUNC "LW Scale"
  STI "SA ref"
  WPE "WPE ref"
  COMMENT ""
  DIS_MEAS ""
  TypeTCI "10"
END_HEADER

BEGIN_DB
 ICCAP_VAR vg         0.351          
 ICCAP_VAR vb         -1.2           
 ICCAP_VAR vs         0              

 #vd                    id                    ig                    ib                    is                   
  0                     7.4e-13               0                     -7.06e-12             -6.8e-13             
  0.05                  2.414e-10             8e-14                 -6.34e-12             -2.4128e-10          
  0.1                   3.0052e-10            -6e-14                -5.64e-12             -3.0016e-10          
  0.15                  3.31e-10              -2e-14                -4.98e-12             -3.3054e-10          
  0.2                   3.582e-10             -2e-14                -4.84e-12             -3.5802e-10          
  0.25                  3.8592e-10            0                     -4.4e-12              -3.8522e-10          
  0.3                   4.151e-10             2e-14                 -3.76e-12             -4.148e-10           
  0.35                  4.4618e-10            0                     -3.34e-12             -4.4608e-10          
  0.4                   4.7988e-10            0                     -2.08e-12             -4.7884e-10          
  0.45                  5.1366e-10            -1.2e-13              -3.54e-12             -5.133e-10           
  0.5                   5.5184e-10            -2e-14                -4e-12                -5.4974e-10          
  0.55                  5.9054e-10            6e-14                 -3.64e-12             -5.9066e-10          
  0.6                   6.3366e-10            -1.8e-13              -3.36e-12             -6.3194e-10          
  0.65                  6.7852e-10            4e-14                 -2.16e-12             -6.7624e-10          
  0.7                   7.262e-10             0                     -2.7e-12              -7.2412e-10          
  0.75                  7.7758e-10            4e-14                 -1.58e-12             -7.7592e-10          
  0.8                   8.3146e-10            -1.8e-13              -2.68e-12             -8.3046e-10          
  0.85                  8.9002e-10            -2e-14                -2.38e-12             -8.8804e-10          
  0.9                   9.5364e-10            1.2e-13               -1.6e-12              -9.5358e-10          
  0.95                  1.0212e-09            -8e-14                -3.08e-12             -1.01708e-09         
  1                     1.0912e-09            -1.6e-13              -2.26e-12             -1.09226e-09         
  1.05                  1.1708e-09            -8e-14                -8.8e-13              -1.1696e-09          
  1.1                   1.2542e-09            -2.2e-13              -2.34e-12             -1.2492e-09          
  1.15                  1.344e-09             -1.2e-13              -2.38e-12             -1.3444e-09          
  1.2                   1.4402e-09            -2.2e-13              -1.92e-12             -1.4362e-09          
  1.25                  1.5458e-09            -2.8e-13              -1.92e-12             -1.5324e-09          
  1.3                   1.6522e-09            -4.2e-13              -1.36e-12             -1.6448e-09          
  1.35                  1.7672e-09            -5.4e-13              -3.02e-12             -1.7674e-09          
END_DB

BEGIN_DB
 ICCAP_VAR vg         0.551          
 ICCAP_VAR vb         -1.2           
 ICCAP_VAR vs         0              

 #vd                    id                    ig                    ib                    is                   
  0                     1.782e-10             3.8e-13               -1.42e-12             -1.7082e-10          
  0.05                  9.4302e-08            2.8e-13               -6.6e-13              -9.4274e-08          
  0.1                   1.2344e-07            3e-13                 -2.34e-12             -1.2326e-07          
  0.15                  1.381e-07             1.6e-13               -1.5e-12              -1.3788e-07          
  0.2                   1.4964e-07            2.6e-13               -1.86e-12             -1.4948e-07          
  0.25                  1.6054e-07            2.6e-13               -1.26e-12             -1.6046e-07          
  0.3                   1.7156e-07            8e-14                 -1.44e-12             -1.7144e-07          
  0.35                  1.8274e-07            2e-13                 -8.4e-13              -1.8266e-07          
  0.4                   1.9426e-07            1.8e-13               -1.86e-12             -1.9416e-07          
  0.45                  2.063e-07             2.2e-13               -2.42e-12             -2.0608e-07          
  0.5                   2.1864e-07            2.4e-13               -1.74e-12             -2.1844e-07          
  0.55                  2.3154e-07            2.2e-13               -5e-13                -2.3142e-07          
  0.6                   2.451e-07             1.4e-13               -1.84e-12             -2.4496e-07          
  0.65                  2.592e-07             1.6e-13               -1.02e-12             -2.5904e-07          
  0.7                   2.7386e-07            1.6e-13               -1.2e-12              -2.7368e-07          
  0.75                  2.8918e-07            1.8e-13               -5e-13                -2.8904e-07          
  0.8                   3.0522e-07            2.8e-13               -1.52e-12             -3.0506e-07          
  0.85                  3.2206e-07            2.4e-13               -2.36e-12             -3.2198e-07          
  0.9                   3.3964e-07            2.2e-13               -2e-12                -3.3952e-07          
  0.95                  3.5792e-07            2.8e-13               -6.4e-13              -3.5776e-07          
  1                     3.7708e-07            2.2e-13               -2.14e-12             -3.7702e-07          
  1.05                  3.9722e-07            1.4e-13               -2.56e-12             -3.969e-07           
  1.1                   4.18e-07              1.4e-13               -2.38e-12             -4.1798e-07          
  1.15                  4.4006e-07            0                     -5.78e-12             -4.3988e-07          
  1.2                   4.6316e-07            1.4e-13               -7.26e-12             -4.6316e-07          
  1.25                  4.8704e-07            1.4e-13               -1.292e-11            -4.8724e-07          
  1.3                   5.1222e-07            1.2e-13               -2.198e-11            -5.1228e-07          
  1.35                  5.3866e-07            6e-14                 -3.542e-11            -5.3874e-07          
END_DB

BEGIN_DB
 ICCAP_VAR vg         0.751          
 ICCAP_VAR vb         -1.2           
 ICCAP_VAR vs         0              

 #vd                    id                    ig                    ib                    is                   
  0                     2.6086e-09            2.08e-12              -1.3e-12              -2.4458e-09          
  0.05                  2.3382e-06            1.6e-12               -1.24e-12             -2.3328e-06          
  0.1                   3.7668e-06            1.44e-12              -5.4e-13              -3.7704e-06          
  0.15                  4.6172e-06            1.42e-12              -1.5e-12              -4.6106e-06          
  0.2                   5.1734e-06            1.3e-12               -1.6e-12              -5.1718e-06          
  0.25                  5.5524e-06            9.6e-13               -1.62e-12             -5.5482e-06          
  0.3                   5.8516e-06            1.12e-12              -1.68e-12             -5.8484e-06          
  0.35                  6.1136e-06            1.06e-12              -1.08e-12             -6.1112e-06          
  0.4                   6.358e-06             1.06e-12              -1.22e-12             -6.3534e-06          
  0.45                  6.5892e-06            1.06e-12              -1.58e-12             -6.5842e-06          
  0.5                   6.8108e-06            1.08e-12              -7e-13                -6.806e-06           
  0.55                  7.0302e-06            1.08e-12              -1.24e-12             -7.0312e-06          
  0.6                   7.2552e-06            1.14e-12              -1.38e-12             -7.2512e-06          
  0.65                  7.4724e-06            1.12e-12              -1.14e-12             -7.4674e-06          
  0.7                   7.6964e-06            1.04e-12              -1.2e-12              -7.6934e-06          
  0.75                  7.918e-06             1.12e-12              -2.12e-12             -7.918e-06           
  0.8                   8.1442e-06            1.02e-12              -8.6e-13              -8.1344e-06          
  0.85                  8.3734e-06            1.08e-12              -1.16e-12             -8.37e-06            
  0.9                   8.6034e-06            1.22e-12              -1.48e-12             -8.5972e-06          
  0.95                  8.8356e-06            1.1e-12               -1.22e-12             -8.8324e-06          
  1                     9.0668e-06            1.02e-12              -1.74e-12             -9.0626e-06          
  1.05                  9.3086e-06            1.08e-12              -3.54e-12             -9.2998e-06          
  1.1                   9.5508e-06            9.4e-13               -5.92e-12             -9.5454e-06          
  1.15                  9.7918e-06            1.04e-12              -1.178e-11            -9.7894e-06          
  1.2                   1.00416e-05           9.6e-13               -2.594e-11            -1.00362e-05         
  1.25                  1.02958e-05           1.02e-12              -5.238e-11            -1.02904e-05         
  1.3                   1.05514e-05           9.6e-13               -1.061e-10            -1.05478e-05         
  1.35                  1.081e-05             8.4e-13               -2.003e-10            -1.08072e-05         
END_DB

