! VERSION = 6.00
BEGIN_HEADER
 ICCAP_INPUTS
  vd         V  D GROUND SMU1 0.1 LIN        1    0          1.35       28   0.05      
  vg         V  G GROUND SMU2 0.001 LIST       2 3 0.154 0.354 0.554
  vb         V  B GROUND SMU4 0.1 CON        0
  vs         V  S GROUND SMU3 0.1 CON        0
 ICCAP_OUTPUTS
  id         I  D GROUND SMU1 B
  ig         I  G GROUND SMU2 B
  ib         I  B GROUND SMU4 B
  is         I  S GROUND SMU3 B
 ICCAP_VALUES
  MASTER_SETUP_TYPE "~dc_idvd~"
  LINVT_VALUE ""
  LISTVT_VALUE "|idvg|100.0n|-200.0m|1.000m|3|200.0m|200.0m|"
  TYPE "1"
  TEMP " 70.0000 "
  IS_TNOM " 0.00000 "
  MAIN.W "150.0n"
  MAIN.L "130.0n"
  MAIN.AD "100.5f"
  MAIN.AS "100.5f"
  MAIN.PD "1.340u"
  MAIN.PS "1.340u"
  MAIN.NF "1.000"
  MAIN.M "1"
  MAIN.NRD "0.000"
  MAIN.NRS "0.000"
  MAIN.LDRIFT1 "1E-06"
  MAIN.LDRIFT2 "1E-06"
  MAIN.SA "0.000"
  MAIN.SB "0.000"
  MAIN.SD "0.000"
  MAIN.SCA "0.000"
  MAIN.SCB "0.000"
  MAIN.SCC "0.000"
  MAIN.SC "0.000"
  MODULE "S546"
  PIN_D "16"
  PIN_G "5"
  PIN_S "6"
  PIN_B "15"
  PIN_E ""
  PIN_6 ""
  XY_ID ""
  FUNC "Small"
  STI "SA ref"
  WPE "WPE ref"
  COMMENT ""
  DIS_MEAS ""
  TypeTCI "10"
END_HEADER

BEGIN_DB
 ICCAP_VAR vg         0.154          
 ICCAP_VAR vb         0              
 ICCAP_VAR vs         0              

 #vd                    id                    ig                    ib                    is                   
  0                     1.64e-12              -3e-13                2.58e-12              -1.26e-12            
  0.05                  4.9652e-10            -2.4e-13              1.3e-12               -4.964e-10           
  0.1                   6.0752e-10            -6e-14                9.6e-13               -6.0722e-10          
  0.15                  6.4394e-10            -2.4e-13              1.34e-12              -6.4236e-10          
  0.2                   6.6588e-10            -2.8e-13              0                     -6.6458e-10          
  0.25                  6.8476e-10            -6e-14                2.32e-12              -6.8412e-10          
  0.3                   7.0318e-10            -1.6e-13              6.4e-13               -7.029e-10           
  0.35                  7.2126e-10            -1.8e-13              1.6e-12               -7.2136e-10          
  0.4                   7.4122e-10            -2.2e-13              7.4e-13               -7.405e-10           
  0.45                  7.6026e-10            -2e-13                1.44e-12              -7.597e-10           
  0.5                   7.7948e-10            -1.2e-13              9.4e-13               -7.788e-10           
  0.55                  7.991e-10             -1.8e-13              1.1e-12               -7.9838e-10          
  0.6                   8.1746e-10            -1.8e-13              1.86e-12              -8.1818e-10          
  0.65                  8.3914e-10            -2.4e-13              3.4e-13               -8.3834e-10          
  0.7                   8.592e-10             -1.2e-13              1.14e-12              -8.5954e-10          
  0.75                  8.8106e-10            -6e-14                1.4e-13               -8.8014e-10          
  0.8                   9.0252e-10            -1.6e-13              2.86e-12              -9.018e-10           
  0.85                  9.2456e-10            -3e-13                1.4e-13               -9.2344e-10          
  0.9                   9.4686e-10            -2.8e-13              5.2e-13               -9.461e-10           
  0.95                  9.675e-10             -2.6e-13              9.4e-13               -9.6724e-10          
  1                     9.93e-10              -3e-13                1.24e-12              -9.9202e-10          
  1.05                  1.0174e-09            -2.6e-13              5.2e-13               -1.01576e-09         
  1.1                   1.0408e-09            -3e-13                -2e-13                -1.04038e-09         
  1.15                  1.0674e-09            -4.8e-13              8.2e-13               -1.06612e-09         
  1.2                   1.0932e-09            -4e-13                1.38e-12              -1.09128e-09         
  1.25                  1.1194e-09            -4.4e-13              1.38e-12              -1.1173e-09          
  1.3                   1.146e-09             -6.4e-13              8e-14                 -1.14386e-09         
  1.35                  1.173e-09             -6.8e-13              7.8e-13               -1.1696e-09          
END_DB

BEGIN_DB
 ICCAP_VAR vg         0.354          
 ICCAP_VAR vb         0              
 ICCAP_VAR vs         0              

 #vd                    id                    ig                    ib                    is                   
  0                     1.5632e-10            8e-14                 1.6e-12               -1.5102e-10          
  0.05                  7.284e-08             1.8e-13               2.42e-12              -7.283e-08           
  0.1                   9.24e-08              1.8e-13               1.34e-12              -9.2392e-08          
  0.15                  9.9158e-08            8e-14                 6.4e-13               -9.919e-08           
  0.2                   1.03238e-07           1.8e-13               1e-13                 -1.03232e-07         
  0.25                  1.06318e-07           1.2e-13               1.4e-12               -1.0653e-07          
  0.3                   1.0964e-07            2.2e-13               8e-13                 -1.09624e-07         
  0.35                  1.1264e-07            6e-14                 1.38e-12              -1.12678e-07         
  0.4                   1.1572e-07            1.6e-13               1.2e-12               -1.15688e-07         
  0.45                  1.1872e-07            6e-14                 1.32e-12              -1.1872e-07          
  0.5                   1.2178e-07            6e-14                 -8e-14                -1.2174e-07          
  0.55                  1.2486e-07            1e-13                 9.6e-13               -1.2482e-07          
  0.6                   1.2792e-07            8e-14                 6.2e-13               -1.279e-07           
  0.65                  1.3082e-07            1e-13                 7.2e-13               -1.3104e-07          
  0.7                   1.3424e-07            0                     1.5e-12               -1.342e-07           
  0.75                  1.373e-07             1.4e-13               1.08e-12              -1.3734e-07          
  0.8                   1.4066e-07            -4e-14                -3e-13                -1.4066e-07          
  0.85                  1.4396e-07            0                     7.8e-13               -1.4392e-07          
  0.9                   1.473e-07             -1.6e-13              4.6e-13               -1.4726e-07          
  0.95                  1.506e-07             2e-14                 8.6e-13               -1.504e-07           
  1                     1.5414e-07            6e-14                 2e-13                 -1.5414e-07          
  1.05                  1.576e-07             0                     -9.6e-13              -1.5764e-07          
  1.1                   1.6124e-07            1.2e-13               -6.2e-13              -1.6122e-07          
  1.15                  1.6488e-07            2e-14                 -2.82e-12             -1.6484e-07          
  1.2                   1.6854e-07            -1.6e-13              -6.74e-12             -1.6842e-07          
  1.25                  1.723e-07             -2.2e-13              -1.094e-11            -1.7224e-07          
  1.3                   1.761e-07             -2.4e-13              -1.732e-11            -1.761e-07           
  1.35                  1.8e-07               -1.6e-13              -2.87e-11             -1.7982e-07          
END_DB

BEGIN_DB
 ICCAP_VAR vg         0.554          
 ICCAP_VAR vb         0              
 ICCAP_VAR vs         0              

 #vd                    id                    ig                    ib                    is                   
  0                     2.1198e-09            1.3e-12               2.6e-12               -1.988e-09           
  0.05                  1.5764e-06            1.02e-12              7.2e-13               -1.5728e-06          
  0.1                   2.4552e-06            9.6e-13               9e-13                 -2.4518e-06          
  0.15                  2.9102e-06            9.4e-13               1.3e-12               -2.8978e-06          
  0.2                   3.1478e-06            8.2e-13               4e-13                 -3.1436e-06          
  0.25                  3.2886e-06            8.2e-13               -2.4e-13              -3.286e-06           
  0.3                   3.3918e-06            7.6e-13               1.02e-12              -3.387e-06           
  0.35                  3.4778e-06            9.6e-13               7e-13                 -3.475e-06           
  0.4                   3.5548e-06            9.8e-13               4e-13                 -3.553e-06           
  0.45                  3.6302e-06            9e-13                 7.6e-13               -3.6246e-06          
  0.5                   3.702e-06             8.4e-13               6.8e-13               -3.697e-06           
  0.55                  3.7696e-06            8e-13                 2.6e-13               -3.7666e-06          
  0.6                   3.8382e-06            8.6e-13               1.28e-12              -3.8342e-06          
  0.65                  3.8964e-06            8.6e-13               1.4e-13               -3.9012e-06          
  0.7                   3.9698e-06            8.6e-13               -1.4e-13              -3.9674e-06          
  0.75                  4.0372e-06            9e-13                 3.8e-13               -4.0336e-06          
  0.8                   4.1014e-06            7e-13                 1.14e-12              -4.0976e-06          
  0.85                  4.1628e-06            7.6e-13               2.2e-13               -4.1636e-06          
  0.9                   4.2336e-06            7.4e-13               5e-13                 -4.227e-06           
  0.95                  4.2976e-06            8.6e-13               -1.52e-12             -4.29e-06            
  1                     4.3636e-06            7.6e-13               -6.8e-13              -4.3592e-06          
  1.05                  4.4288e-06            8.6e-13               -3.1e-12              -4.4254e-06          
  1.1                   4.4936e-06            8e-13                 -9.64e-12             -4.4896e-06          
  1.15                  4.5594e-06            7.4e-13               -1.942e-11            -4.5558e-06          
  1.2                   4.626e-06             7.2e-13               -3.944e-11            -4.623e-06           
  1.25                  4.6902e-06            7.6e-13               -7.61e-11             -4.6884e-06          
  1.3                   4.7534e-06            7.6e-13               -1.3416e-10           -4.7548e-06          
  1.35                  4.824e-06             7.8e-13               -2.3096e-10           -4.8224e-06          
END_DB

