! VERSION = 6.00
BEGIN_HEADER
 ICCAP_INPUTS
  vd         V  D GROUND SMU1 0.1 LIN        1    0          1.35       28   0.05      
  vg         V  G GROUND SMU2 0.001 LIST       2 3 0.026 0.226 0.426
  vb         V  B GROUND SMU4 0.1 CON        -1.2
  vs         V  S GROUND SMU3 0.1 CON        0
 ICCAP_OUTPUTS
  id         I  D GROUND SMU1 B
  ig         I  G GROUND SMU2 B
  ib         I  B GROUND SMU4 B
  is         I  S GROUND SMU3 B
 ICCAP_VALUES
  MASTER_SETUP_TYPE "~dc_idvd~"
  LINVT_VALUE ""
  LISTVT_VALUE "|idvg|100.0n|-200.0m|1.000m|3|200.0m|200.0m|"
  TYPE "1"
  TEMP " 70.0000 "
  IS_TNOM " 0.00000 "
  MAIN.W "150.0n"
  MAIN.L "10.00u"
  MAIN.AD "100.5f"
  MAIN.AS "100.5f"
  MAIN.PD "1.340u"
  MAIN.PS "1.340u"
  MAIN.NF "1.000"
  MAIN.M "1"
  MAIN.NRD "0.000"
  MAIN.NRS "0.000"
  MAIN.LDRIFT1 "1E-06"
  MAIN.LDRIFT2 "1E-06"
  MAIN.SA "0.000"
  MAIN.SB "0.000"
  MAIN.SD "0.000"
  MAIN.SCA "0.000"
  MAIN.SCB "0.000"
  MAIN.SCC "0.000"
  MAIN.SC "0.000"
  MODULE "S547"
  PIN_D "16"
  PIN_G "5"
  PIN_S "6"
  PIN_B "15"
  PIN_E ""
  PIN_6 ""
  XY_ID ""
  FUNC "Narrow"
  STI "SA ref"
  WPE "WPE ref"
  COMMENT ""
  DIS_MEAS ""
  TypeTCI "10"
END_HEADER

BEGIN_DB
 ICCAP_VAR vg         0.026          
 ICCAP_VAR vb         -1.2           
 ICCAP_VAR vs         0              

 #vd                    id                    ig                    ib                    is                   
  0                     -4e-14                -2.4e-13              -1.094e-11            2.4e-13              
  0.05                  3.84e-12              -1.8e-13              -1.17e-11             -3.82e-12            
  0.1                   4.78e-12              -2e-13                -1.04e-11             -4.46e-12            
  0.15                  4.98e-12              -2e-13                -8.58e-12             -4.62e-12            
  0.2                   5.18e-12              -2.4e-13              -7.68e-12             -4.84e-12            
  0.25                  5.32e-12              -1.2e-13              -6.86e-12             -4.66e-12            
  0.3                   5.4e-12               -2.6e-13              -6.46e-12             -4.74e-12            
  0.35                  5.38e-12              -1.8e-13              -6.38e-12             -5.04e-12            
  0.4                   5.56e-12              -2.6e-13              -7.42e-12             -4.7e-12             
  0.45                  5.48e-12              -2.4e-13              -5.86e-12             -4.86e-12            
  0.5                   5.66e-12              -1.6e-13              -5.16e-12             -4.72e-12            
  0.55                  5.72e-12              -2e-13                -4.9e-12              -4.92e-12            
  0.6                   5.74e-12              -3.2e-13              -5.5e-12              -4.9e-12             
  0.65                  5.88e-12              -3.8e-13              -5.28e-12             -4.92e-12            
  0.7                   5.88e-12              -4.4e-13              -5.56e-12             -5.02e-12            
  0.75                  5.98e-12              -3.6e-13              -4.82e-12             -4.92e-12            
  0.8                   6.08e-12              -4.8e-13              -3.9e-12              -4.96e-12            
  0.85                  6.22e-12              -5.2e-13              -3.84e-12             -5.12e-12            
  0.9                   6.24e-12              -6.4e-13              -4.26e-12             -5e-12               
  0.95                  6.44e-12              -7e-13                -4.46e-12             -5.1e-12             
  1                     6.62e-12              -6.6e-13              -4.5e-12              -5.06e-12            
  1.05                  6.66e-12              -9.4e-13              -3.3e-12              -5.12e-12            
  1.1                   6.82e-12              -9.8e-13              -3.78e-12             -5.1e-12             
  1.15                  6.98e-12              -1.18e-12             -4e-12                -5.16e-12            
  1.2                   7.08e-12              -1.22e-12             -3.94e-12             -5.1e-12             
  1.25                  7.36e-12              -1.4e-12              -3.4e-12              -4.92e-12            
  1.3                   7.44e-12              -1.5e-12              -3.16e-12             -5.14e-12            
  1.35                  7.62e-12              -1.68e-12             -3.24e-12             -4.9e-12             
END_DB

BEGIN_DB
 ICCAP_VAR vg         0.226          
 ICCAP_VAR vb         -1.2           
 ICCAP_VAR vs         0              

 #vd                    id                    ig                    ib                    is                   
  0                     1.58e-12              8.2e-13               -1.92e-12             -2.34e-12            
  0.05                  1.1734e-09            4.4e-13               -2.58e-12             -1.1744e-09          
  0.1                   1.4734e-09            3.6e-13               -3.38e-12             -1.474e-09           
  0.15                  1.5546e-09            3.2e-13               -2.58e-12             -1.5518e-09          
  0.2                   1.5866e-09            2.6e-13               -2.5e-12              -1.5858e-09          
  0.25                  1.6106e-09            2.8e-13               -1.62e-12             -1.6082e-09          
  0.3                   1.6256e-09            1.6e-13               -3.8e-12              -1.6268e-09          
  0.35                  1.6422e-09            2.2e-13               -3.4e-12              -1.642e-09           
  0.4                   1.6554e-09            3.6e-13               -3.12e-12             -1.6568e-09          
  0.45                  1.6668e-09            1.8e-13               -2.78e-12             -1.6664e-09          
  0.5                   1.6778e-09            2.4e-13               -2e-12                -1.6786e-09          
  0.55                  1.6894e-09            2.4e-13               -3.64e-12             -1.6876e-09          
  0.6                   1.6974e-09            2e-13                 -2.2e-12              -1.6958e-09          
  0.65                  1.7046e-09            2e-13                 -3.52e-12             -1.706e-09           
  0.7                   1.7132e-09            8e-14                 -2.7e-12              -1.7116e-09          
  0.75                  1.7202e-09            2.4e-13               -1.4e-12              -1.7192e-09          
  0.8                   1.7262e-09            1.4e-13               -1.72e-12             -1.7256e-09          
  0.85                  1.7316e-09            -6e-14                -3.6e-12              -1.7304e-09          
  0.9                   1.737e-09             0                     -2.86e-12             -1.7354e-09          
  0.95                  1.7414e-09            -8e-14                -2.6e-12              -1.7392e-09          
  1                     1.7454e-09            2e-14                 -1.2e-12              -1.7442e-09          
  1.05                  1.7486e-09            -2.4e-13              -2.74e-12             -1.7472e-09          
  1.1                   1.7524e-09            -2.8e-13              -2.76e-12             -1.7508e-09          
  1.15                  1.756e-09             -4e-13                -3.26e-12             -1.7538e-09          
  1.2                   1.7586e-09            -4.8e-13              -3.58e-12             -1.7566e-09          
  1.25                  1.7614e-09            -6e-13                -2.66e-12             -1.7588e-09          
  1.3                   1.7642e-09            -6.6e-13              -2.54e-12             -1.7614e-09          
  1.35                  1.7664e-09            -9e-13                -3.14e-12             -1.763e-09           
END_DB

BEGIN_DB
 ICCAP_VAR vg         0.426          
 ICCAP_VAR vb         -1.2           
 ICCAP_VAR vs         0              

 #vd                    id                    ig                    ib                    is                   
  0                     3.42e-11              1.02e-11              -9.6e-13              -4.372e-11           
  0.05                  2.7998e-08            8.14e-12              -2.42e-12             -2.8e-08             
  0.1                   4.5508e-08            6.78e-12              -3.04e-12             -4.5496e-08          
  0.15                  5.4094e-08            6.2e-12               -2.24e-12             -5.4086e-08          
  0.2                   5.7534e-08            5.94e-12              -1.54e-12             -5.7522e-08          
  0.25                  5.895e-08             5.74e-12              -2.66e-12             -5.892e-08           
  0.3                   5.9816e-08            5.64e-12              -2.66e-12             -5.9738e-08          
  0.35                  6.0516e-08            5.54e-12              -2.36e-12             -6.049e-08           
  0.4                   6.1112e-08            5.5e-12               -2.58e-12             -6.1054e-08          
  0.45                  6.1664e-08            5.44e-12              -2.12e-12             -6.162e-08           
  0.5                   6.213e-08             5.4e-12               -3e-12                -6.217e-08           
  0.55                  6.2572e-08            5.4e-12               -1.22e-12             -6.264e-08           
  0.6                   6.302e-08             5.46e-12              -1.82e-12             -6.309e-08           
  0.65                  6.3428e-08            5.46e-12              -2.02e-12             -6.3422e-08          
  0.7                   6.3876e-08            5.34e-12              -1.92e-12             -6.38e-08            
  0.75                  6.421e-08             5.24e-12              -2.44e-12             -6.4204e-08          
  0.8                   6.4482e-08            5.22e-12              -1.76e-12             -6.4506e-08          
  0.85                  6.4858e-08            5.22e-12              -1.76e-12             -6.4816e-08          
  0.9                   6.5116e-08            5.1e-12               -2.44e-12             -6.5104e-08          
  0.95                  6.539e-08             5.1e-12               -2.22e-12             -6.5344e-08          
  1                     6.5658e-08            5.12e-12              -2e-12                -6.5632e-08          
  1.05                  6.586e-08             4.98e-12              -2.5e-12              -6.5872e-08          
  1.1                   6.6118e-08            4.94e-12              -3.2e-12              -6.6082e-08          
  1.15                  6.6302e-08            4.96e-12              -3.14e-12             -6.6268e-08          
  1.2                   6.6502e-08            4.78e-12              -2.14e-12             -6.6462e-08          
  1.25                  6.6674e-08            4.6e-12               -3e-12                -6.665e-08           
  1.3                   6.6834e-08            4.48e-12              -4.42e-12             -6.6842e-08          
  1.35                  6.7014e-08            4.52e-12              -4.88e-12             -6.699e-08           
END_DB

