! VERSION = 6.00
BEGIN_HEADER
 ICCAP_INPUTS
  vg         V  G GROUND SMU2 0.001 LIN        1    -0.5       1.35       38   0.05      
  vb         V  B GROUND SMU4 0.1 LIN        2    0          -1.2       5    -0.3      
  vd         V  D GROUND SMU1 0.1 LIST       3 3 0.05 0.6 1.2
  vs         V  S GROUND SMU3 0.1 CON        0
 ICCAP_OUTPUTS
  id         I  D GROUND SMU1 B
  ig         I  G GROUND SMU2 B
  ib         I  B GROUND SMU4 B
  is         I  S GROUND SMU3 B
 ICCAP_VALUES
  MASTER_SETUP_TYPE "~dc_idvg~"
  LINVT_VALUE ""
  LISTVT_VALUE ""
  TYPE "1"
  TEMP "-40.0000 "
  IS_TNOM " 0.00000 "
  MAIN.W "150.0n"
  MAIN.L "10.00u"
  MAIN.AD "100.5f"
  MAIN.AS "100.5f"
  MAIN.PD "1.340u"
  MAIN.PS "1.340u"
  MAIN.NF "1.000"
  MAIN.M "1"
  MAIN.NRD "0.000"
  MAIN.NRS "0.000"
  MAIN.LDRIFT1 "1E-06"
  MAIN.LDRIFT2 "1E-06"
  MAIN.SA "0.000"
  MAIN.SB "0.000"
  MAIN.SD "0.000"
  MAIN.SCA "0.000"
  MAIN.SCB "0.000"
  MAIN.SCC "0.000"
  MAIN.SC "0.000"
  MODULE "S547"
  PIN_D "16"
  PIN_G "5"
  PIN_S "6"
  PIN_B "15"
  PIN_E ""
  PIN_6 ""
  XY_ID ""
  FUNC "Narrow"
  STI "SA ref"
  WPE "WPE ref"
  COMMENT ""
  DIS_MEAS ""
  TypeTCI "10"
END_HEADER

BEGIN_DB
 ICCAP_VAR vb         0              
 ICCAP_VAR vd         0.05           
 ICCAP_VAR vs         0              

 #vg                    id                    ig                    ib                    is                   
  -0.5                  -2e-14                -4.4e-13              2.18e-12              2e-14                
  -0.45                 4e-14                 -2.6e-13              1.24e-12              1.2e-13              
  -0.4                  1e-13                 2e-14                 1.22e-12              2.6e-13              
  -0.35                 -4e-14                2.8e-13               9.2e-13               1.4e-13              
  -0.3                  4e-14                 -5.6e-13              1.72e-12              2e-13                
  -0.25                 0                     1.4e-13               2.16e-12              8e-14                
  -0.2                  2e-14                 3.6e-13               1.08e-12              8e-14                
  -0.15                 -2e-14                3.2e-13               6.8e-13               -1.6e-13             
  -0.1                  -2e-14                4.6e-13               1e-12                 4e-14                
  -0.05                 4e-14                 -2e-14                1.84e-12              1e-13                
  0                     3e-13                 1e-13                 1.64e-12              -3e-13               
  0.05                  1.92e-12              2.6e-13               5.8e-13               -1.86e-12            
  0.1                   1.424e-11             5.2e-13               9e-13                 -1.42e-11            
  0.15                  1.0604e-10            6.2e-13               1.26e-12              -1.0574e-10          
  0.2                   7.3952e-10            5.2e-13               1.44e-12              -7.3974e-10          
  0.25                  4.2798e-09            5.6e-13               2.18e-12              -4.273e-09           
  0.3                   1.5882e-08            1.76e-12              1.76e-12              -1.5882e-08          
  0.35                  3.4172e-08            3.46e-12              4.6e-13               -3.4156e-08          
  0.4                   5.3944e-08            5.6e-12               2.2e-13               -5.3924e-08          
  0.45                  7.3808e-08            8.54e-12              1.26e-12              -7.3796e-08          
  0.5                   9.3334e-08            1.346e-11             7.4e-13               -9.3336e-08          
  0.55                  1.1243e-07            2.004e-11             5.6e-13               -1.12434e-07         
  0.6                   1.3122e-07            2.93e-11              1.1e-12               -1.311e-07           
  0.65                  1.4948e-07            4.188e-11             1.98e-12              -1.4936e-07          
  0.7                   1.6712e-07            5.83e-11              -4.4e-13              -1.6702e-07          
  0.75                  1.8414e-07            8.022e-11             0                     -1.841e-07           
  0.8                   2.0048e-07            1.078e-10             4.6e-13               -2.0044e-07          
  0.85                  2.1608e-07            1.4306e-10            1.7e-12               -2.1612e-07          
  0.9                   2.309e-07             1.874e-10             1.28e-12              -2.3094e-07          
  0.95                  2.4476e-07            2.4216e-10            -9.8e-13              -2.4486e-07          
  1                     2.5788e-07            3.097e-10             2.2e-13               -2.5804e-07          
  1.05                  2.7014e-07            3.9244e-10            1.72e-12              -2.7038e-07          
  1.1                   2.8148e-07            4.9038e-10            1.06e-12              -2.8186e-07          
  1.15                  2.9202e-07            6.086e-10             6.8e-13               -2.9248e-07          
  1.2                   3.0168e-07            7.486e-10             1.78e-12              -3.0232e-07          
  1.25                  3.1054e-07            9.1358e-10            2.6e-13               -3.1132e-07          
  1.3                   3.1852e-07            1.1074e-09            1.48e-12              -3.1952e-07          
  1.35                  3.2582e-07            1.3324e-09            -3.2e-13              -3.2702e-07          
END_DB

BEGIN_DB
 ICCAP_VAR vb         -0.3           
 ICCAP_VAR vd         0.05           
 ICCAP_VAR vs         0              

 #vg                    id                    ig                    ib                    is                   
  -0.5                  1.2e-13               -7.4e-13              -3.6e-13              8e-14                
  -0.45                 8e-14                 2e-14                 -1.58e-12             8e-14                
  -0.4                  1.4e-13               -2.6e-13              -1.82e-12             3e-13                
  -0.35                 0                     1e-13                 -1.98e-12             4e-14                
  -0.3                  1e-13                 -2.2e-13              -8.4e-13              6e-14                
  -0.25                 6e-14                 8e-14                 -2.2e-13              0                    
  -0.2                  -2e-14                3.4e-13               -1.8e-13              1e-13                
  -0.15                 0                     1e-13                 -9e-13                6e-14                
  -0.1                  6e-14                 6e-14                 -1.14e-12             -8e-14               
  -0.05                 8e-14                 1.8e-13               -2.6e-13              8e-14                
  0                     4e-14                 -2e-14                6e-13                 -1.2e-13             
  0.05                  3.4e-13               2.6e-13               -8.4e-13              -1.2e-13             
  0.1                   2.76e-12              8e-14                 -1.2e-12              -2.72e-12            
  0.15                  2.132e-11             1.6e-13               4e-14                 -2.128e-11           
  0.2                   1.6312e-10            2.4e-13               -4e-13                -1.6274e-10          
  0.25                  1.14842e-09           7.6e-13               2.2e-13               -1.14716e-09         
  0.3                   6.2984e-09            1.84e-12              -2e-13                -6.3072e-09          
  0.35                  2.0564e-08            2.42e-12              -1.8e-13              -2.0512e-08          
  0.4                   3.9588e-08            4.7e-12               -1.5e-12              -3.9576e-08          
  0.45                  5.9134e-08            8.64e-12              -2.2e-13              -5.9118e-08          
  0.5                   7.8424e-08            1.322e-11             1.2e-13               -7.8418e-08          
  0.55                  9.7304e-08            1.97e-11              -1.18e-12             -9.7304e-08          
  0.6                   1.1586e-07            2.846e-11             -7.6e-13              -1.1576e-07          
  0.65                  1.3394e-07            4.15e-11              -7.8e-13              -1.3384e-07          
  0.7                   1.5148e-07            5.79e-11              6.8e-13               -1.514e-07           
  0.75                  1.6848e-07            7.924e-11             -7.8e-13              -1.6844e-07          
  0.8                   1.848e-07             1.0686e-10            -9e-13                -1.8476e-07          
  0.85                  2.0042e-07            1.4222e-10            -3e-13                -2.0044e-07          
  0.9                   2.1522e-07            1.8648e-10            1e-12                 -2.1526e-07          
  0.95                  2.2922e-07            2.4124e-10            -5.8e-13              -2.2934e-07          
  1                     2.4242e-07            3.0898e-10            -5.4e-13              -2.426e-07           
  1.05                  2.5474e-07            3.9108e-10            -4.6e-13              -2.5502e-07          
  1.1                   2.6622e-07            4.9012e-10            1.8e-13               -2.6658e-07          
  1.15                  2.7684e-07            6.0802e-10            8.2e-13               -2.7732e-07          
  1.2                   2.866e-07             7.48e-10              -6e-13                -2.8724e-07          
  1.25                  2.9554e-07            9.1264e-10            -4.2e-13              -2.9634e-07          
  1.3                   3.037e-07             1.1064e-09            5.6e-13               -3.047e-07           
  1.35                  3.1112e-07            1.3316e-09            -7.6e-13              -3.1232e-07          
END_DB

BEGIN_DB
 ICCAP_VAR vb         -0.6           
 ICCAP_VAR vd         0.05           
 ICCAP_VAR vs         0              

 #vg                    id                    ig                    ib                    is                   
  -0.5                  1.4e-13               -2e-13                -1.66e-12             6e-14                
  -0.45                 2e-14                 2.2e-13               -1.24e-12             6e-14                
  -0.4                  8e-14                 -2.6e-13              -1.96e-12             6e-14                
  -0.35                 4e-14                 3.6e-13               -2.26e-12             1e-13                
  -0.3                  4e-14                 4e-13                 -2.26e-12             6e-14                
  -0.25                 2e-14                 0                     -2.04e-12             -6e-14               
  -0.2                  1e-13                 1.4e-13               -7.2e-13              0                    
  -0.15                 4e-14                 -6e-14                -9e-13                0                    
  -0.1                  2e-14                 2.6e-13               -2.66e-12             -2e-14               
  -0.05                 4e-14                 2.2e-13               -1.7e-12              6e-14                
  0                     4e-14                 3.8e-13               -6e-13                2e-14                
  0.05                  8e-14                 -1e-13                -4.8e-13              1.2e-13              
  0.1                   7.2e-13               1.8e-13               -1.44e-12             -4.6e-13             
  0.15                  5.86e-12              4e-13                 -1.58e-12             -5.8e-12             
  0.2                   4.724e-11             5.6e-13               -1.44e-12             -4.608e-11           
  0.25                  3.5362e-10            5.4e-13               -1.34e-12             -3.5694e-10          
  0.3                   2.404e-09             9.2e-13               -6.2e-13              -2.3992e-09          
  0.35                  1.11954e-08           2.28e-12              -1.26e-12             -1.11956e-08         
  0.4                   2.8212e-08            4.66e-12              -9.2e-13              -2.8194e-08          
  0.45                  4.7202e-08            8.14e-12              -1.06e-12             -4.7194e-08          
  0.5                   6.612e-08             1.27e-11              -1.78e-12             -6.6118e-08          
  0.55                  8.4704e-08            1.94e-11              -1.4e-12              -8.4706e-08          
  0.6                   1.02952e-07           2.864e-11             -7.6e-13              -1.02968e-07         
  0.65                  1.209e-07             4.092e-11             -1.3e-12              -1.2078e-07          
  0.7                   1.383e-07             5.724e-11             -8.2e-13              -1.3818e-07          
  0.75                  1.5514e-07            7.876e-11             0                     -1.5508e-07          
  0.8                   1.7138e-07            1.0568e-10            -1.6e-12              -1.7138e-07          
  0.85                  1.87e-07              1.4152e-10            -1.08e-12             -1.87e-07            
  0.9                   2.0182e-07            1.8536e-10            -1.24e-12             -2.0186e-07          
  0.95                  2.1586e-07            2.4038e-10            -4.8e-13              -2.1598e-07          
  1                     2.2908e-07            3.075e-10             -8e-13                -2.2926e-07          
  1.05                  2.4152e-07            3.901e-10             -1.28e-12             -2.4172e-07          
  1.1                   2.5298e-07            4.8856e-10            -9e-13                -2.5336e-07          
  1.15                  2.637e-07             6.0702e-10            -4.6e-13              -2.6418e-07          
  1.2                   2.7358e-07            7.4708e-10            -1.4e-12              -2.742e-07           
  1.25                  2.826e-07             9.1206e-10            4.42e-12              -2.834e-07           
  1.3                   2.9088e-07            1.106e-09             -3.2e-13              -2.9186e-07          
  1.35                  2.984e-07             1.3306e-09            -6.8e-13              -2.996e-07           
END_DB

BEGIN_DB
 ICCAP_VAR vb         -0.9           
 ICCAP_VAR vd         0.05           
 ICCAP_VAR vs         0              

 #vg                    id                    ig                    ib                    is                   
  -0.5                  1.4e-13               -3e-13                -2.14e-12             4e-14                
  -0.45                 8e-14                 1e-13                 -1.88e-12             2e-14                
  -0.4                  1e-13                 -2e-14                -2.04e-12             6e-14                
  -0.35                 8e-14                 -3.4e-13              -6e-13                8e-14                
  -0.3                  -8e-14                1.2e-13               -1.8e-12              1e-13                
  -0.25                 0                     -1.4e-13              -2.86e-12             8e-14                
  -0.2                  6e-14                 6.2e-13               -1.4e-12              1.2e-13              
  -0.15                 0                     -8e-14                -1.54e-12             2.6e-13              
  -0.1                  -2e-14                1.2e-13               -2.24e-12             1.4e-13              
  -0.05                 0                     1.6e-13               -2.18e-12             1.2e-13              
  0                     -4e-14                1.6e-13               -1.32e-12             -4e-14               
  0.05                  -2e-14                4.6e-13               -4.4e-13              6e-14                
  0.1                   2.8e-13               -8e-14                -2.02e-12             -6e-14               
  0.15                  2.12e-12              5e-13                 -2e-12                -2.08e-12            
  0.2                   1.76e-11              2e-14                 -2.08e-12             -1.734e-11           
  0.25                  1.4118e-10            1.2e-13               -1.4e-12              -1.415e-10           
  0.3                   1.0298e-09            1.22e-12              -1.34e-12             -1.03204e-09         
  0.35                  5.9256e-09            2.08e-12              -7.6e-13              -5.925e-09           
  0.4                   1.9626e-08            4.12e-12              -1.02e-12             -1.96e-08            
  0.45                  3.7552e-08            7.88e-12              -1.46e-12             -3.7532e-08          
  0.5                   5.5862e-08            1.266e-11             4.4e-12               -5.5854e-08          
  0.55                  7.3998e-08            1.924e-11             -3.4e-13              -7.4004e-08          
  0.6                   9.192e-08             2.794e-11             -1.5e-12              -9.193e-08           
  0.65                  1.09534e-07           4.016e-11             -3.14e-12             -1.0957e-07          
  0.7                   1.2682e-07            5.65e-11              -9.2e-13              -1.2674e-07          
  0.75                  1.4356e-07            7.802e-11             -9.4e-13              -1.435e-07           
  0.8                   1.5972e-07            1.0576e-10            -1.38e-12             -1.5968e-07          
  0.85                  1.7526e-07            1.4062e-10            -2.16e-12             -1.7528e-07          
  0.9                   1.9006e-07            1.846e-10             -1.08e-12             -1.9012e-07          
  0.95                  2.0412e-07            2.3946e-10            -2e-14                -2.0422e-07          
  1                     2.1736e-07            3.0672e-10            -1.42e-12             -2.1756e-07          
  1.05                  2.298e-07             3.889e-10             -1.48e-12             -2.3004e-07          
  1.1                   2.4138e-07            4.8752e-10            -1.36e-12             -2.4174e-07          
  1.15                  2.5214e-07            6.0594e-10            4e-13                 -2.5262e-07          
  1.2                   2.6206e-07            7.4626e-10            -2.1e-12              -2.6266e-07          
  1.25                  2.712e-07             9.1046e-10            -1.1e-12              -2.7196e-07          
  1.3                   2.7952e-07            1.1048e-09            -1.9e-12              -2.8048e-07          
  1.35                  2.8714e-07            1.33e-09              -1.38e-12             -2.8836e-07          
END_DB

BEGIN_DB
 ICCAP_VAR vb         -1.2           
 ICCAP_VAR vd         0.05           
 ICCAP_VAR vs         0              

 #vg                    id                    ig                    ib                    is                   
  -0.5                  1.2e-13               -8.6e-13              -2.6e-12              0                    
  -0.45                 1e-13                 -2.6e-13              -1.48e-12             4e-14                
  -0.4                  2e-14                 3.6e-13               -3.34e-12             1.2e-13              
  -0.35                 6e-14                 3.2e-13               -3.48e-12             1.4e-13              
  -0.3                  -2e-14                4e-14                 6.6e-13               2e-14                
