! VERSION = 6.00
BEGIN_HEADER
 ICCAP_INPUTS
  vd         V  D GROUND SMU1 0.1 LIN        1    0          1.35       28   0.05      
  vg         V  G GROUND SMU2 0.001 LIST       2 3 0.07 0.27 0.47
  vb         V  B GROUND SMU4 0.1 CON        -1.2
  vs         V  S GROUND SMU3 0.1 CON        0
 ICCAP_OUTPUTS
  id         I  D GROUND SMU1 B
  ig         I  G GROUND SMU2 B
  ib         I  B GROUND SMU4 B
  is         I  S GROUND SMU3 B
 ICCAP_VALUES
  MASTER_SETUP_TYPE "~dc_idvd~"
  LINVT_VALUE ""
  LISTVT_VALUE "|idvg|100.0n|-200.0m|1.000m|3|200.0m|200.0m|"
  TYPE "1"
  TEMP " 27.0000 "
  IS_TNOM " 1.00000 "
  MAIN.W "10.00u"
  MAIN.L "5.000u"
  MAIN.AD "3.400p"
  MAIN.AS "3.400p"
  MAIN.PD "20.68u"
  MAIN.PS "20.68u"
  MAIN.NF "1.000"
  MAIN.M "1"
  MAIN.NRD "0.000"
  MAIN.NRS "0.000"
  MAIN.LDRIFT1 "1E-06"
  MAIN.LDRIFT2 "1E-06"
  MAIN.SA "0.000"
  MAIN.SB "0.000"
  MAIN.SD "0.000"
  MAIN.SCA "0.000"
  MAIN.SCB "0.000"
  MAIN.SCC "0.000"
  MAIN.SC "0.000"
  MODULE "S541"
  PIN_D "14"
  PIN_G "7"
  PIN_S "8"
  PIN_B "13"
  PIN_E ""
  PIN_6 ""
  XY_ID ""
  FUNC "L Scale"
  STI "SA ref"
  WPE "WPE ref"
  COMMENT ""
  DIS_MEAS ""
  TypeTCI "10"
END_HEADER

BEGIN_DB
 ICCAP_VAR vg         0.07           
 ICCAP_VAR vb         -1.2           
 ICCAP_VAR vs         0              

 #vd                    id                    ig                    ib                    is                   
  0                     8.4e-13               -1.4e-13              -7.66e-12             -6.6e-13             
  0.05                  1.9768e-10            -2.6e-13              -6.82e-12             -1.9752e-10          
  0.1                   2.3698e-10            -1.8e-13              -5.78e-12             -2.3662e-10          
  0.15                  2.514e-10             -1.6e-13              -4.7e-12              -2.5068e-10          
  0.2                   2.6134e-10            -2.2e-13              -4.5e-12              -2.6068e-10          
  0.25                  2.6978e-10            -3.4e-13              -5.02e-12             -2.69e-10            
  0.3                   2.7766e-10            -2.4e-13              -9.8e-13              -2.7716e-10          
  0.35                  2.8486e-10            -3.6e-13              -3.5e-12              -2.841e-10           
  0.4                   2.9174e-10            -5.2e-13              -2.56e-12             -2.9066e-10          
  0.45                  2.976e-10             -2.4e-13              -3.74e-12             -2.9638e-10          
  0.5                   3.031e-10             -9e-13                -3.68e-12             -3.017e-10           
  0.55                  3.0822e-10            -1.04e-12             -2.7e-12              -3.064e-10           
  0.6                   3.1292e-10            -1.34e-12             -1.72e-12             -3.11e-10            
  0.65                  3.1722e-10            -1.8e-12              -2.44e-12             -3.1464e-10          
  0.7                   3.213e-10             -2.24e-12             -2.62e-12             -3.1844e-10          
  0.75                  3.2514e-10            -2.8e-12              -2.8e-12              -3.2166e-10          
  0.8                   3.29e-10              -3.32e-12             -2.86e-12             -3.246e-10           
  0.85                  3.3238e-10            -4.22e-12             -1.8e-12              -3.2736e-10          
  0.9                   3.3606e-10            -5.24e-12             -1.9e-12              -3.3004e-10          
  0.95                  3.3948e-10            -6.1e-12              -2.18e-12             -3.323e-10           
  1                     3.4286e-10            -7.46e-12             -3.38e-12             -3.3452e-10          
  1.05                  3.4598e-10            -8.84e-12             -2.34e-12             -3.3638e-10          
  1.1                   3.4936e-10            -1.012e-11            -1.1e-12              -3.3804e-10          
  1.15                  3.5282e-10            -1.206e-11            -2.36e-12             -3.3952e-10          
  1.2                   3.5626e-10            -1.438e-11            -2.3e-12              -3.4118e-10          
  1.25                  3.5996e-10            -1.622e-11            -2.8e-12              -3.4248e-10          
  1.3                   3.638e-10             -1.874e-11            -1.46e-12             -3.438e-10           
  1.35                  3.6774e-10            -2.17e-11             -1.72e-12             -3.4468e-10          
END_DB

BEGIN_DB
 ICCAP_VAR vg         0.27           
 ICCAP_VAR vb         -1.2           
 ICCAP_VAR vs         0              

 #vd                    id                    ig                    ib                    is                   
  0                     3.8922e-10            2.854e-11             2.2e-13               -4.1534e-10          
  0.05                  1.3704e-07            2.034e-11             -2.02e-12             -1.3694e-07          
  0.1                   1.693e-07             1.792e-11             -1.44e-12             -1.6916e-07          
  0.15                  1.8136e-07            1.698e-11             -1.18e-12             -1.8124e-07          
  0.2                   1.896e-07             1.628e-11             -2.34e-12             -1.8952e-07          
  0.25                  1.967e-07             1.544e-11             -2.06e-12             -1.9646e-07          
  0.3                   2.0298e-07            1.498e-11             -5e-13                -2.0286e-07          
  0.35                  2.0886e-07            1.452e-11             -1.26e-12             -2.087e-07           
  0.4                   2.1414e-07            1.39e-11              -1.72e-12             -2.1408e-07          
  0.45                  2.1918e-07            1.358e-11             -1.58e-12             -2.1906e-07          
  0.5                   2.2374e-07            1.298e-11             -1.3e-12              -2.2372e-07          
  0.55                  2.2798e-07            1.26e-11              -1.04e-12             -2.2786e-07          
  0.6                   2.3174e-07            1.202e-11             -2.18e-12             -2.3162e-07          
  0.65                  2.3532e-07            1.12e-11              -1.8e-12              -2.3518e-07          
  0.7                   2.3842e-07            1.084e-11             -7e-13                -2.3824e-07          
  0.75                  2.4122e-07            1.018e-11             -1.42e-12             -2.4106e-07          
  0.8                   2.4376e-07            9.82e-12              -1.56e-12             -2.438e-07           
  0.85                  2.4632e-07            9.08e-12              -1.72e-12             -2.4604e-07          
  0.9                   2.4844e-07            8.3e-12               -1.36e-12             -2.4838e-07          
  0.95                  2.505e-07             7.48e-12              -8.4e-13              -2.5028e-07          
  1                     2.5232e-07            6.8e-12               -2.08e-12             -2.5206e-07          
  1.05                  2.5404e-07            5.76e-12              -2.62e-12             -2.5382e-07          
  1.1                   2.5546e-07            4.52e-12              -2.04e-12             -2.5532e-07          
  1.15                  2.5686e-07            3.54e-12              -4.98e-12             -2.568e-07           
  1.2                   2.582e-07             2.04e-12              -8.22e-12             -2.58e-07            
  1.25                  2.593e-07             7e-13                 -1.312e-11            -2.5914e-07          
  1.3                   2.6038e-07            -1e-12                -2.268e-11            -2.6038e-07          
  1.35                  2.6142e-07            -3.06e-12             -3.016e-11            -2.6124e-07          
END_DB

BEGIN_DB
 ICCAP_VAR vg         0.47           
 ICCAP_VAR vb         -1.2           
 ICCAP_VAR vs         0              

 #vd                    id                    ig                    ib                    is                   
  0                     9.148e-09             3.417e-10             8e-14                 -3.1994e-09          
  0.05                  4.9866e-06            2.76e-10              -1.54e-12             -4.982e-06           
  0.1                   7.773e-06             2.3934e-10            -6e-14                -7.7698e-06          
  0.15                  8.9774e-06            2.2366e-10            -1.56e-12             -8.9744e-06          
  0.2                   9.4832e-06            2.1696e-10            -2.42e-12             -9.4784e-06          
  0.25                  9.7776e-06            2.1294e-10            -1.66e-12             -9.774e-06           
  0.3                   1.0009e-05            2.1008e-10            -1.74e-12             -1.0005e-05          
  0.35                  1.02132e-05           2.0714e-10            -2.26e-12             -1.02096e-05         
  0.4                   1.04024e-05           2.049e-10             -4.8e-13              -1.03992e-05         
  0.45                  1.05782e-05           2.0278e-10            -1.9e-12              -1.05756e-05         
  0.5                   1.07442e-05           2.0054e-10            -1.5e-12              -1.07416e-05         
  0.55                  1.09032e-05           1.9838e-10            -6.4e-13              -1.08988e-05         
  0.6                   1.10514e-05           1.9676e-10            -1.44e-12             -1.10466e-05         
  0.65                  1.1198e-05            1.947e-10             -3.2e-13              -1.11874e-05         
  0.7                   1.1332e-05            1.9286e-10            -1.56e-12             -1.13194e-05         
  0.75                  1.1456e-05            1.9128e-10            -1.56e-12             -1.1445e-05          
  0.8                   1.1576e-05            1.8962e-10            -5e-13                -1.15638e-05         
  0.85                  1.169e-05             1.8794e-10            -1.62e-12             -1.16782e-05         
  0.9                   1.1796e-05            1.8632e-10            -1.8e-13              -1.1778e-05          
  0.95                  1.19e-05              1.848e-10             -8.6e-13              -1.1884e-05          
  1                     1.1996e-05            1.8294e-10            -2.3e-12              -1.1978e-05          
  1.05                  1.2086e-05            1.8158e-10            -3.12e-12             -1.207e-05           
  1.1                   1.2174e-05            1.799e-10             -4.9e-12              -1.2156e-05          
  1.15                  1.2256e-05            1.785e-10             -1.256e-11            -1.224e-05           
  1.2                   1.2336e-05            1.7668e-10            -2.646e-11            -1.2316e-05          
  1.25                  1.241e-05             1.7506e-10            -5.672e-11            -1.239e-05           
  1.3                   1.2478e-05            1.731e-10             -1.1508e-10           -1.2462e-05          
  1.35                  1.2546e-05            1.7112e-10            -2.1742e-10           -1.2528e-05          
END_DB

