! VERSION = 6.00
BEGIN_HEADER
 ICCAP_INPUTS
  vg         V  G GROUND SMU2 0.001 LIN        1    -0.5       1.35       38   0.05      
  vb         V  B GROUND SMU4 0.1 LIN        2    0          -1.2       5    -0.3      
  vd         V  D GROUND SMU1 0.1 LIST       3 3 0.05 0.6 1.2
  vs         V  S GROUND SMU3 0.1 CON        0
 ICCAP_OUTPUTS
  id         I  D GROUND SMU1 B
  ig         I  G GROUND SMU2 B
  ib         I  B GROUND SMU4 B
  is         I  S GROUND SMU3 B
 ICCAP_VALUES
  MASTER_SETUP_TYPE "~dc_idvg~"
  LINVT_VALUE ""
  LISTVT_VALUE ""
  TYPE "1"
  TEMP " 125.000 "
  IS_TNOM " 0.00000 "
  MAIN.W "10.00u"
  MAIN.L "180.0n"
  MAIN.AD "3.400p"
  MAIN.AS "3.400p"
  MAIN.PD "20.68u"
  MAIN.PS "20.68u"
  MAIN.NF "1.000"
  MAIN.M "1"
  MAIN.NRD "0.000"
  MAIN.NRS "0.000"
  MAIN.LDRIFT1 "1E-06"
  MAIN.LDRIFT2 "1E-06"
  MAIN.SA "0.000"
  MAIN.SB "0.000"
  MAIN.SD "0.000"
  MAIN.SCA "0.000"
  MAIN.SCB "0.000"
  MAIN.SCC "0.000"
  MAIN.SC "0.000"
  MODULE "S540"
  PIN_D "12"
  PIN_G "9"
  PIN_S "10"
  PIN_B "11"
  PIN_E ""
  PIN_6 ""
  XY_ID ""
  FUNC "L Scale"
  STI "SA ref"
  WPE "WPE ref"
  COMMENT ""
  DIS_MEAS ""
  TypeTCI "10"
END_HEADER

BEGIN_DB
 ICCAP_VAR vb         0              
 ICCAP_VAR vd         0.05           
 ICCAP_VAR vs         0              

 #vg                    id                    ig                    ib                    is                   
  -0.5                  4.82e-12              -5.5364e-08           5.531e-08             2.7e-12              
  -0.45                 1.92e-12              -1.302e-08            1.3008e-08            3.4e-13              
  -0.4                  3.3e-12               -3.065e-09            3.05e-09              -2.16e-12            
  -0.35                 1.064e-11             -7.1992e-10           7.0574e-10            -8.14e-12            
  -0.3                  2.586e-11             -1.6996e-10           1.569e-10             -2.43e-11            
  -0.25                 7.062e-11             -4.046e-11            2.76e-11              -6.918e-11           
  -0.2                  2.0286e-10            -9.62e-12             -2.02e-12             -2.0206e-10          
  -0.15                 5.9756e-10            -2.22e-12             -8.62e-12             -5.968e-10           
  -0.1                  1.7916e-09            -4.6e-13              -9.78e-12             -1.7908e-09          
  -0.05                 5.4314e-09            2.6e-13               -1.108e-11            -5.4304e-09          
  0                     1.6574e-08            3.8e-13               -1.104e-11            -1.656e-08           
  0.05                  5.0892e-08            6.2e-13               -1.162e-11            -5.0874e-08          
  0.1                   1.558e-07             6.8e-13               -1.016e-11            -1.5576e-07          
  0.15                  4.7148e-07            8.4e-13               -1.082e-11            -4.7138e-07          
  0.2                   1.3766e-06            1.1e-12               -1.008e-11            -1.372e-06           
  0.25                  3.7306e-06            1.72e-12              -8.82e-12             -3.7272e-06          
  0.3                   9.0226e-06            2.7e-12               -1.028e-11            -9.0192e-06          
  0.35                  1.8982e-05            4.26e-12              -1.02e-11             -1.8968e-05          
  0.4                   3.4578e-05            7.42e-12              -1.016e-11            -3.4568e-05          
  0.45                  5.5672e-05            1.166e-11             -9.46e-12             -5.5662e-05          
  0.5                   8.1202e-05            1.796e-11             -9.12e-12             -8.1186e-05          
  0.55                  0.000109744           2.71e-11              -9.72e-12             -0.000109726         
  0.6                   0.0001403             3.906e-11             -1.014e-11            -0.00013998          
  0.65                  0.00017166            5.56e-11              -9.88e-12             -0.00017132          
  0.7                   0.00020314            7.682e-11             -8.78e-12             -0.00020282          
  0.75                  0.0002344             1.0394e-10            -8.82e-12             -0.00023406          
  0.8                   0.0002649             1.3846e-10            -9.28e-12             -0.00026458          
  0.85                  0.00029458            1.8128e-10            -9.26e-12             -0.0002942           
  0.9                   0.00032306            2.3358e-10            -9.4e-12              -0.00032276          
  0.95                  0.00035044            2.9772e-10            -8.16e-12             -0.00035018          
  1                     0.00037662            3.7534e-10            -8.8e-12              -0.0003763           
  1.05                  0.00040148            4.6772e-10            -8.78e-12             -0.0004012           
  1.1                   0.00042504            5.769e-10             -9.04e-12             -0.00042468          
  1.15                  0.00044734            7.055e-10             -8.16e-12             -0.00044702          
  1.2                   0.0004685             8.5532e-10            -9.36e-12             -0.0004681           
  1.25                  0.0004883             1.031e-09             -8.7e-12              -0.00048792          
  1.3                   0.00050696            1.2326e-09            -1.058e-11            -0.00050658          
  1.35                  0.0005245             1.4664e-09            -1.092e-11            -0.00052418          
END_DB

BEGIN_DB
 ICCAP_VAR vb         -0.3           
 ICCAP_VAR vd         0.05           
 ICCAP_VAR vs         0              

 #vg                    id                    ig                    ib                    is                   
  -0.5                  2.74e-12              -1.458e-11            -1.33e-11             3.06e-12             
  -0.45                 2.46e-12              -5.78e-12             -1.942e-11            2.48e-12             
  -0.4                  2.12e-12              -3.08e-12             -2.068e-11            1.54e-12             
  -0.35                 2.72e-12              -1.86e-12             -2.004e-11            3e-13                
  -0.3                  5.04e-12              -1.2e-12              -2.014e-11            -2.54e-12            
  -0.25                 1.354e-11             -6.4e-13              -1.944e-11            -1.146e-11           
  -0.2                  4.056e-11             -3e-13                -1.81e-11             -3.894e-11           
  -0.15                 1.277e-10             0                     -1.7e-11              -1.2622e-10          
  -0.1                  4.0952e-10            1.6e-13               -1.702e-11            -4.0832e-10          
  -0.05                 1.3222e-09            1.4e-13               -1.598e-11            -1.321e-09           
  0                     4.278e-09             2.6e-13               -1.634e-11            -4.277e-09           
  0.05                  1.388e-08             5e-13                 -1.522e-11            -1.3866e-08          
  0.1                   4.4916e-08            5.8e-13               -1.474e-11            -4.4888e-08          
  0.15                  1.4464e-07            7e-13                 -1.568e-11            -1.4462e-07          
  0.2                   4.5598e-07            1.1e-12               -1.592e-11            -4.5592e-07          
  0.25                  1.3814e-06            1.44e-12              -1.46e-11             -1.377e-06           
  0.3                   3.8364e-06            2.32e-12              -1.474e-11            -3.8334e-06          
  0.35                  9.4136e-06            3.72e-12              -1.462e-11            -9.4112e-06          
  0.4                   1.9856e-05            5.8e-12               -1.336e-11            -1.9844e-05          
  0.45                  3.61e-05              1.016e-11             -1.262e-11            -3.609e-05           
  0.5                   5.7804e-05            1.624e-11             -1.338e-11            -5.7802e-05          
  0.55                  8.3702e-05            2.476e-11             -1.404e-11            -8.3704e-05          
  0.6                   0.000112566           3.656e-11             -1.408e-11            -0.000112572         
  0.65                  0.0001432             5.206e-11             -1.328e-11            -0.00014284          
  0.7                   0.00017438            7.27e-11              -1.232e-11            -0.00017406          
  0.75                  0.00020572            9.964e-11             -1.308e-11            -0.00020538          
  0.8                   0.0002365             1.3358e-10            -1.284e-11            -0.0002362           
  0.85                  0.0002667             1.753e-10             -1.308e-11            -0.00026636          
  0.9                   0.00029578            2.273e-10             -1.248e-11            -0.00029548          
  0.95                  0.00032384            2.9084e-10            -1.192e-11            -0.0003235           
  1                     0.0003506             3.6726e-10            -1.292e-11            -0.00035034          
  1.05                  0.00037614            4.585e-10             -1.278e-11            -0.0003758           
  1.1                   0.00040034            5.6696e-10            -1.262e-11            -0.00040006          
  1.15                  0.00042342            6.9502e-10            -1.164e-11            -0.00042308          
  1.2                   0.0004451             8.4436e-10            -1.272e-11            -0.00044476          
  1.25                  0.00046552            1.0186e-09            -1.182e-11            -0.00046518          
  1.3                   0.00048474            1.2194e-09            -1.286e-11            -0.00048448          
  1.35                  0.00050294            1.4518e-09            -1.448e-11            -0.0005026           
END_DB

BEGIN_DB
 ICCAP_VAR vb         -0.6           
 ICCAP_VAR vd         0.05           
 ICCAP_VAR vs         0              

 #vg                    id                    ig                    ib                    is                   
  -0.5                  2.84e-12              -4.98e-12             -2.498e-11            3.24e-12             
  -0.45                 2.56e-12              -3.72e-12             -2.464e-11            2.68e-12             
  -0.4                  2.08e-12              -2.5e-12              -2.386e-11            1.84e-12             
  -0.35                 2.04e-12              -1.7e-12              -2.338e-11            1.42e-12             
  -0.3                  2.5e-12               -1.06e-12             -2.244e-11            4.4e-13              
  -0.25                 4.76e-12              -6e-13                -2.162e-11            -2.48e-12            
  -0.2                  1.3e-11               -3e-13                -2.038e-11            -1.102e-11           
  -0.15                 4.064e-11             8e-14                 -2.034e-11            -3.896e-11           
  -0.1                  1.3402e-10            1.4e-13               -2.022e-11            -1.3254e-10          
  -0.05                 4.4688e-10            4.4e-13               -2.004e-11            -4.457e-10           
  0                     1.4956e-09            2.6e-13               -1.892e-11            -1.4938e-09          
  0.05                  5.016e-09             3.8e-13               -1.766e-11            -5.014e-09           
  0.1                   1.6766e-08            6.4e-13               -1.802e-11            -1.6754e-08          
  0.15                  5.5958e-08            7.6e-13               -1.876e-11            -5.5946e-08          
  0.2                   1.8422e-07            1.08e-12              -1.722e-11            -1.8422e-07          
  0.25                  5.916e-07             1.46e-12              -1.684e-11            -5.9152e-07          
  0.3                   1.7956e-06            2.02e-12              -1.728e-11            -1.791e-06           
  0.35                  4.926e-06             3.42e-12              -1.716e-11            -4.9228e-06          
  0.4                   1.1744e-05            5.3e-12               -1.478e-11            -1.1726e-05          
  0.45                  2.3878e-05            9.16e-12              -1.636e-11            -2.3882e-05          
  0.5                   4.19e-05              1.478e-11             -1.724e-11            -4.1898e-05          
  0.55                  6.5068e-05            2.266e-11             -1.642e-11            -6.5052e-05          
  0.6                   9.205e-05             3.422e-11             -1.614e-11            -9.2038e-05          
  0.65                  0.00012162            4.95e-11              -1.504e-11            -0.00012128          
  0.7                   0.00015228            6.984e-11             -1.574e-11            -0.00015196          
  0.75                  0.0001835             9.582e-11             -1.62e-11             -0.00018316          
  0.8                   0.00021448            1.2922e-10            -1.558e-11            -0.00021414          
  0.85                  0.00024492            1.7086e-10            -1.514e-11            -0.00024462          
  0.9                   0.00027444            2.2208e-10            -1.456e-11            -0.00027412          
  0.95                  0.00030292            2.845e-10             -1.522e-11            -0.00030252          
  1                     0.00033026            3.6054e-10            -1.532e-11            -0.00032986          
  1.05                  0.0003563             4.505e-10             -1.54e-11             -0.00035598          
  1.1                   0.000381              5.5858e-10            -1.444e-11            -0.00038066          
  1.15                  0.0004045             6.8512e-10            -1.496e-11            -0.00040416          
  1.2                   0.00042672            8.3396e-10            -1.576e-11            -0.00042642          
  1.25                  0.00044768            1.0072e-09            -1.512e-11            -0.00044738          
  1.3                   0.00046736            1.2078e-09            -1.636e-11            -0.00046704          
  1.35                  0.00048596            1.4392e-09            -1.648e-11            -0.00048566          
END_DB

BEGIN_DB
 ICCAP_VAR vb         -0.9           
 ICCAP_VAR vd         0.05           
 ICCAP_VAR vs         0              

 #vg                    id                    ig                    ib                    is                   
  -0.5                  3.22e-12              -5.02e-12             -2.788e-11            3.36e-12             
  -0.45                 2.72e-12              -3.5e-12              -2.886e-11            2.74e-12             
  -0.4                  2.38e-12              -2.48e-12             -2.708e-11            2.28e-12             
  -0.35                 2.14e-12              -1.7e-12              -2.586e-11            1.88e-12             
  -0.3                  2.1e-12               -9.8e-13              -2.44e-11             1.1e-12              
  -0.25                 3e-12                 -6.8e-13              -2.444e-11            1.4e-13              
  -0.2                  6.04e-12              -2e-13                -2.392e-11            -3.62e-12            
  -0.15                 1.734e-11             4e-14                 -2.39e-11             -1.5e-11             
  -0.1                  5.612e-11             2e-13                 -2.338e-11            -5.412e-11           
  -0.05                 1.8964e-10            3.2e-13               -2.188e-11            -1.8794e-10          
  0                     6.481e-10             4.2e-13               -2.084e-11            -6.4676e-10          
  0.05                  2.2234e-09            3.2e-13               -2.078e-11            -2.2208e-09          
  0.1                   7.6022e-09            6.2e-13               -2.112e-11            -7.6004e-09          
  0.15                  2.5974e-08            6.8e-13               -2.036e-11            -2.5956e-08          
  0.2                   8.7874e-08            8.8e-13               -2.094e-11            -8.786e-08           
  0.25                  2.925e-07             1.28e-12              -1.888e-11            -2.9244e-07          
  0.3                   9.342e-07             1.94e-12              -2.052e-11            -9.3436e-07          
  0.35                  2.7726e-06            2.94e-12              -1.942e-11            -2.7678e-06          
  0.4                   7.253e-06             5.06e-12              -1.858e-11            -7.2472e-06          
  0.45                  1.6278e-05            8.08e-12              -1.846e-11            -1.6264e-05          
  0.5                   3.107e-05             1.34e-11              -1.98e-11             -3.105e-05           
  0.55                  5.1526e-05            2.124e-11             -1.902e-11            -5.152e-05           
  0.6                   7.661e-05             3.222e-11             -1.844e-11            -7.6584e-05          
  0.65                  0.000104828           4.71e-11              -1.822e-11            -0.000104832         
  0.7                   0.000135              6.702e-11             -1.802e-11            -0.00013468          
  0.75                  0.0001659             9.29e-11              -1.892e-11            -0.00016556          
  0.8                   0.0001969             1.2562e-10            -1.884e-11            -0.00019656          
  0.85                  0.00022754            1.663e-10             -1.81e-11             -0.00022718          
  0.9                   0.00025734            2.1736e-10            -1.776e-11            -0.00025704          
  0.95                  0.00028622            2.7956e-10            -1.788e-11            -0.00028592          
  1                     0.00031398            3.544e-10             -1.884e-11            -0.00031364          
  1.05                  0.00034044            4.4442e-10            -1.772e-11            -0.0003401           
  1.1                   0.00036558            5.5124e-10            -1.708e-11            -0.00036528          
  1.15                  0.0003895             6.7748e-10            -1.722e-11            -0.0003892           
  1.2                   0.00041214            8.2532e-10            -1.804e-11            -0.00041182          
  1.25                  0.00043352            9.986e-10             -1.764e-11            -0.00043314          
  1.3                   0.00045356            1.1978e-09            -1.876e-11            -0.00045328          
  1.35                  0.00047252            1.4278e-09            -1.962e-11            -0.0004722           
END_DB

BEGIN_DB
 ICCAP_VAR vb         -1.2           
 ICCAP_VAR vd         0.05           
 ICCAP_VAR vs         0              

 #vg                    id                    ig                    ib                    is                   
  -0.5                  3.44e-12              -4.98e-12             -3.078e-11            3.82e-12             
  -0.45                 3.04e-12              -3.48e-12             -3.062e-11            2.92e-12             
  -0.4                  2.54e-12              -2.46e-12             -2.986e-11            2.62e-12             
  -0.35                 2.3e-12               -1.62e-12             -2.898e-11            2.06e-12             
  -0.3                  2.2e-12               -1.12e-12             -2.854e-11            1.96e-12             
