! VERSION = 6.00
BEGIN_HEADER
 ICCAP_INPUTS
  vd         V  D GROUND SMU1 0.1 LIN        1    0          1.35       28   0.05      
  vg         V  G GROUND SMU2 0.001 LIST       2 3 0.252 0.452 0.652
  vb         V  B GROUND SMU4 0.1 CON        -1.2
  vs         V  S GROUND SMU3 0.1 CON        0
 ICCAP_OUTPUTS
  id         I  D GROUND SMU1 B
  ig         I  G GROUND SMU2 B
  ib         I  B GROUND SMU4 B
  is         I  S GROUND SMU3 B
 ICCAP_VALUES
  MASTER_SETUP_TYPE "~dc_idvd~"
  LINVT_VALUE ""
  LISTVT_VALUE "|idvg|100.0n|-200.0m|1.000m|3|200.0m|200.0m|"
  TYPE "1"
  TEMP " 27.0000 "
  IS_TNOM " 1.00000 "
  MAIN.W "10.00u"
  MAIN.L "120.0n"
  MAIN.AD "3.400p"
  MAIN.AS "3.400p"
  MAIN.PD "20.68u"
  MAIN.PS "20.68u"
  MAIN.NF "1.000"
  MAIN.M "1"
  MAIN.NRD "0.000"
  MAIN.NRS "0.000"
  MAIN.LDRIFT1 "1E-06"
  MAIN.LDRIFT2 "1E-06"
  MAIN.SA "0.000"
  MAIN.SB "0.000"
  MAIN.SD "0.000"
  MAIN.SCA "0.000"
  MAIN.SCB "0.000"
  MAIN.SCC "0.000"
  MAIN.SC "0.000"
  MODULE "S540"
  PIN_D "20"
  PIN_G "1"
  PIN_S "2"
  PIN_B "19"
  PIN_E ""
  PIN_6 ""
  XY_ID ""
  FUNC "Additional"
  STI "SA ref"
  WPE "WPE ref"
  COMMENT ""
  DIS_MEAS ""
  TypeTCI "10"
END_HEADER

BEGIN_DB
 ICCAP_VAR vg         0.252          
 ICCAP_VAR vb         -1.2           
 ICCAP_VAR vs         0              

 #vd                    id                    ig                    ib                    is                   
  0                     2.592e-11             4.6e-13               -7.18e-12             -1.89e-11            
  0.05                  7.1868e-09            4e-13                 -6.2e-12              -7.1878e-09          
  0.1                   9.8028e-09            3.2e-13               -5.5e-12              -9.7962e-09          
  0.15                  1.176e-08             3.4e-13               -4.68e-12             -1.173e-08           
  0.2                   1.3818e-08            4e-13                 -4.36e-12             -1.3798e-08          
  0.25                  1.6126e-08            3.6e-13               -5e-12                -1.6098e-08          
  0.3                   1.8748e-08            2.8e-13               -4.5e-12              -1.872e-08           
  0.35                  2.1694e-08            2.8e-13               -3.74e-12             -2.1688e-08          
  0.4                   2.508e-08             3.4e-13               -2.42e-12             -2.5056e-08          
  0.45                  2.892e-08             2.6e-13               -3.08e-12             -2.8888e-08          
  0.5                   3.3258e-08            1.2e-13               -4.08e-12             -3.3216e-08          
  0.55                  3.816e-08             0                     -3.42e-12             -3.8142e-08          
  0.6                   4.3718e-08            -6e-14                -2.74e-12             -4.3722e-08          
  0.65                  5e-08                 -4e-13                -3.34e-12             -4.9976e-08          
  0.7                   5.7066e-08            -6.2e-13              -3.72e-12             -5.7038e-08          
  0.75                  6.5092e-08            -1.08e-12             -3.4e-12              -6.5052e-08          
  0.8                   7.403e-08             -1.6e-12              -2.6e-12              -7.4048e-08          
  0.85                  8.414e-08             -2.12e-12             -1.78e-12             -8.4198e-08          
  0.9                   9.5596e-08            -2.9e-12              -3.4e-12              -9.5538e-08          
  0.95                  1.08256e-07           -3.9e-12              -4.3e-12              -1.08258e-07         
  1                     1.2238e-07            -4.96e-12             -3.56e-12             -1.2242e-07          
  1.05                  1.3848e-07            -6.44e-12             -4e-12                -1.3836e-07          
  1.1                   1.5622e-07            -7.94e-12             -6.12e-12             -1.5594e-07          
  1.15                  1.7608e-07            -9.84e-12             -7.9e-12              -1.759e-07           
  1.2                   1.9814e-07            -1.19e-11             -1.432e-11            -1.9782e-07          
  1.25                  2.224e-07             -1.45e-11             -2.408e-11            -2.2214e-07          
  1.3                   2.4946e-07            -1.718e-11            -3.86e-11             -2.4932e-07          
  1.35                  2.7962e-07            -2.034e-11            -6.114e-11            -2.7932e-07          
END_DB

BEGIN_DB
 ICCAP_VAR vg         0.452          
 ICCAP_VAR vb         -1.2           
 ICCAP_VAR vs         0              

 #vd                    id                    ig                    ib                    is                   
  0                     2.9004e-09            5.3e-12               -1.7e-12              -2.911e-09           
  0.05                  1.8754e-06            4.44e-12              -1.28e-12             -1.8694e-06          
  0.1                   2.6702e-06            3.9e-12               -1.58e-12             -2.6652e-06          
  0.15                  3.237e-06             3.62e-12              -2.1e-12              -3.2322e-06          
  0.2                   3.7796e-06            3.28e-12              -7e-13                -3.7762e-06          
  0.25                  4.3524e-06            3.28e-12              -1.32e-12             -4.35e-06            
  0.3                   4.9708e-06            3.14e-12              -2.24e-12             -4.9696e-06          
  0.35                  5.6412e-06            3.18e-12              -1.18e-12             -5.6346e-06          
  0.4                   6.3612e-06            3.3e-12               -1.4e-12              -6.3604e-06          
  0.45                  7.1484e-06            3.14e-12              -2.12e-12             -7.1462e-06          
  0.5                   8.0014e-06            3.12e-12              -1.5e-12              -7.9956e-06          
  0.55                  8.9176e-06            3.16e-12              -1.98e-12             -8.9178e-06          
  0.6                   9.9152e-06            3.22e-12              -1.4e-12              -9.9058e-06          
  0.65                  1.0993e-05            3.18e-12              -1.22e-12             -1.09898e-05         
  0.7                   1.216e-05             3e-12                 -1.46e-12             -1.214e-05           
  0.75                  1.3394e-05            2.8e-12               -7.6e-13              -1.3384e-05          
  0.8                   1.473e-05             2.68e-12              -2.6e-12              -1.4712e-05          
  0.85                  1.6136e-05            2.52e-12              -2.04e-12             -1.6126e-05          
  0.9                   1.7684e-05            2.14e-12              -2.32e-12             -1.7656e-05          
  0.95                  1.9296e-05            1.78e-12              -6.82e-12             -1.9294e-05          
  1                     2.1046e-05            1.36e-12              -1.288e-11            -2.103e-05           
  1.05                  2.2904e-05            7.8e-13               -3.664e-11            -2.2888e-05          
  1.1                   2.4856e-05            -1e-13                -7.962e-11            -2.484e-05           
  1.15                  2.6968e-05            -9.6e-13              -1.7842e-10           -2.6946e-05          
  1.2                   2.9178e-05            -2e-12                -3.7548e-10           -2.9162e-05          
  1.25                  3.1518e-05            -3.38e-12             -7.447e-10            -3.1448e-05          
  1.3                   3.3964e-05            -4.92e-12             -1.39e-09             -3.399e-05           
  1.35                  3.6618e-05            -6.7e-12              -2.4664e-09           -3.659e-05           
END_DB

BEGIN_DB
 ICCAP_VAR vg         0.652          
 ICCAP_VAR vb         -1.2           
 ICCAP_VAR vs         0              

 #vd                    id                    ig                    ib                    is                   
  0                     1.12024e-07           2.958e-11             -1.3e-12              -9.8646e-08          
  0.05                  6.0824e-05            2.516e-11             -1.2e-12              -6.0854e-05          
  0.1                   9.7396e-05            2.202e-11             -2.22e-12             -9.7376e-05          
  0.15                  0.00012144            1.99e-11              -1.2e-12              -0.00012106          
  0.2                   0.00013954            1.86e-11              -2.02e-12             -0.00013932          
  0.25                  0.0001551             1.782e-11             -1.24e-12             -0.00015478          
  0.3                   0.0001692             1.724e-11             -1e-12                -0.00016866          
  0.35                  0.00018282            1.694e-11             -1.84e-12             -0.00018242          
  0.4                   0.00019636            1.678e-11             -9.4e-13              -0.00019588          
  0.45                  0.0002099             1.662e-11             -1.9e-12              -0.0002094           
  0.5                   0.00022334            1.656e-11             -1.46e-12             -0.0002229           
  0.55                  0.00023718            1.662e-11             -5e-13                -0.00023708          
  0.6                   0.00025122            1.66e-11              -1.88e-12             -0.00025082          
  0.65                  0.00026528            1.646e-11             -2.52e-12             -0.00026516          
  0.7                   0.00028016            1.668e-11             -9.6e-13              -0.0002799           
  0.75                  0.00029522            1.666e-11             -2.02e-12             -0.0002948           
  0.8                   0.00031034            1.652e-11             -2.8e-12              -0.00030984          
  0.85                  0.00032606            1.65e-11              -1.96e-12             -0.0003256           
  0.9                   0.00034184            1.646e-11             -7.62e-12             -0.00034146          
  0.95                  0.000358              1.636e-11             -1.874e-11            -0.00035716          
  1                     0.00037378            1.614e-11             -4.914e-11            -0.0003734           
  1.05                  0.00039052            1.594e-11             -1.3634e-10           -0.00039056          
  1.1                   0.00040762            1.58e-11              -3.5282e-10           -0.00040748          
  1.15                  0.00042506            1.534e-11             -8.3554e-10           -0.00042468          
  1.2                   0.000443              1.478e-11             -1.8686e-09           -0.000442            
  1.25                  0.0004608             1.426e-11             -3.8996e-09           -0.00046016          
  1.3                   0.00047906            1.356e-11             -7.6454e-09           -0.00047866          
  1.35                  0.0004974             1.26e-11              -1.4134e-08           -0.00049718          
END_DB

