! VERSION = 6.00
BEGIN_HEADER
 ICCAP_INPUTS
  vd         V  D GROUND SMU1 0.1 LIN        1    0          1.35       28   0.05      
  vg         V  G GROUND SMU2 0.001 LIST       2 3 0.176 0.376 0.576
  vb         V  B GROUND SMU4 0.1 CON        0
  vs         V  S GROUND SMU3 0.1 CON        0
 ICCAP_OUTPUTS
  id         I  D GROUND SMU1 B
  ig         I  G GROUND SMU2 B
  ib         I  B GROUND SMU4 B
  is         I  S GROUND SMU3 B
 ICCAP_VALUES
  MASTER_SETUP_TYPE "~dc_idvd~"
  LINVT_VALUE ""
  LISTVT_VALUE "|idvg|100.0n|-200.0m|1.000m|3|200.0m|200.0m|"
  TYPE "1"
  TEMP " 27.0000 "
  IS_TNOM " 1.00000 "
  MAIN.W "150.0n"
  MAIN.L "140.0n"
  MAIN.AD "100.5f"
  MAIN.AS "100.5f"
  MAIN.PD "1.340u"
  MAIN.PS "1.340u"
  MAIN.NF "1.000"
  MAIN.M "1"
  MAIN.NRD "0.000"
  MAIN.NRS "0.000"
  MAIN.LDRIFT1 "1E-06"
  MAIN.LDRIFT2 "1E-06"
  MAIN.SA "0.000"
  MAIN.SB "0.000"
  MAIN.SD "0.000"
  MAIN.SCA "0.000"
  MAIN.SCB "0.000"
  MAIN.SCC "0.000"
  MAIN.SC "0.000"
  MODULE "S546"
  PIN_D "14"
  PIN_G "7"
  PIN_S "8"
  PIN_B "13"
  PIN_E ""
  PIN_6 ""
  XY_ID ""
  FUNC "LW Scale"
  STI "SA ref"
  WPE "WPE ref"
  COMMENT ""
  DIS_MEAS ""
  TypeTCI "10"
END_HEADER

BEGIN_DB
 ICCAP_VAR vg         0.176          
 ICCAP_VAR vb         0              
 ICCAP_VAR vs         0              

 #vd                    id                    ig                    ib                    is                   
  0                     1.16e-12              -3.6e-13              1.38e-12              -7.6e-13             
  0.05                  2.399e-10             -1.2e-13              -2e-13                -2.3956e-10          
  0.1                   2.8558e-10            -1e-13                2.4e-13               -2.8502e-10          
  0.15                  3.0158e-10            -6e-14                5e-13                 -3.0082e-10          
  0.2                   3.1286e-10            -1.8e-13              1.18e-12              -3.1204e-10          
  0.25                  3.2352e-10            -2e-14                1.18e-12              -3.2286e-10          
  0.3                   3.3426e-10            -3.4e-13              4e-13                 -3.3354e-10          
  0.35                  3.4492e-10            -8e-14                9.2e-13               -3.4444e-10          
  0.4                   3.5628e-10            -6e-14                1.04e-12              -3.5544e-10          
  0.45                  3.6758e-10            -8e-14                2.2e-12               -3.6692e-10          
  0.5                   3.794e-10             -6e-14                6e-13                 -3.7866e-10          
  0.55                  3.915e-10             -2.4e-13              2e-14                 -3.905e-10           
  0.6                   4.0404e-10            -6e-14                7e-13                 -4.03e-10            
  0.65                  4.1676e-10            -1.2e-13              9.8e-13               -4.1578e-10          
  0.7                   4.2986e-10            -1.8e-13              1.66e-12              -4.2888e-10          
  0.75                  4.4366e-10            -4e-14                3.6e-13               -4.422e-10           
  0.8                   4.5612e-10            -4.4e-13              7.2e-13               -4.5526e-10          
  0.85                  4.7058e-10            -2e-13                3e-13                 -4.6934e-10          
  0.9                   4.8514e-10            -6e-14                8e-14                 -4.8376e-10          
  0.95                  5.0028e-10            -4e-13                1.56e-12              -4.9916e-10          
  1                     5.158e-10             -1.2e-13              1.4e-13               -5.147e-10           
  1.05                  5.3208e-10            -3.4e-13              5e-13                 -5.3078e-10          
  1.1                   5.487e-10             -5e-13                5.4e-13               -5.4726e-10          
  1.15                  5.6592e-10            -4e-13                8e-13                 -5.6444e-10          
  1.2                   5.8356e-10            -4.6e-13              1.84e-12              -5.8202e-10          
  1.25                  6.0174e-10            -7.4e-13              5.2e-13               -6.005e-10           
  1.3                   6.2094e-10            -7.8e-13              3e-13                 -6.1924e-10          
  1.35                  6.4068e-10            -9.4e-13              6e-13                 -6.3846e-10          
END_DB

BEGIN_DB
 ICCAP_VAR vg         0.376          
 ICCAP_VAR vb         0              
 ICCAP_VAR vs         0              

 #vd                    id                    ig                    ib                    is                   
  0                     1.6896e-10            1.6e-13               1.18e-12              -1.6368e-10          
  0.05                  6.6766e-08            4e-14                 2e-13                 -6.687e-08           
  0.1                   8.4102e-08            1.4e-13               1.32e-12              -8.415e-08           
  0.15                  9.0364e-08            2e-13                 1.38e-12              -9.0326e-08          
  0.2                   9.4238e-08            2.6e-13               -2e-14                -9.4224e-08          
  0.25                  9.7568e-08            2.8e-13               4.4e-13               -9.7554e-08          
  0.3                   1.0067e-07            2.2e-13               9e-13                 -1.00486e-07         
  0.35                  1.035e-07             2.8e-13               1.74e-12              -1.03712e-07         
  0.4                   1.06582e-07           1.2e-13               4e-13                 -1.06592e-07         
  0.45                  1.0974e-07            -4e-14                1.02e-12              -1.09762e-07         
  0.5                   1.127e-07             0                     1.22e-12              -1.12836e-07         
  0.55                  1.1576e-07            1e-13                 0                     -1.15718e-07         
  0.6                   1.1908e-07            1.6e-13               9.4e-13               -1.1884e-07          
  0.65                  1.2188e-07            1.2e-13               1.14e-12              -1.2196e-07          
  0.7                   1.2538e-07            4e-14                 3.6e-13               -1.2514e-07          
  0.75                  1.2854e-07            -4e-14                6e-14                 -1.2832e-07          
  0.8                   1.3178e-07            1.6e-13               4.8e-13               -1.3172e-07          
  0.85                  1.3534e-07            0                     1.58e-12              -1.3514e-07          
  0.9                   1.3864e-07            -6e-14                3.6e-13               -1.384e-07           
  0.95                  1.4224e-07            -4e-14                5.2e-13               -1.419e-07           
  1                     1.4566e-07            -6e-14                5.8e-13               -1.455e-07           
  1.05                  1.4906e-07            -4e-14                2.6e-13               -1.4942e-07          
  1.1                   1.5298e-07            -1e-13                -3.2e-13              -1.5294e-07          
  1.15                  1.567e-07             -1.2e-13              -1.2e-12              -1.5678e-07          
  1.2                   1.6034e-07            -8e-14                -1.82e-12             -1.604e-07           
  1.25                  1.6438e-07            -2.6e-13              -4.06e-12             -1.641e-07           
  1.3                   1.6838e-07            -2e-14                -7.76e-12             -1.6808e-07          
  1.35                  1.721e-07             -4e-13                -1.514e-11            -1.7232e-07          
END_DB

BEGIN_DB
 ICCAP_VAR vg         0.576          
 ICCAP_VAR vb         0              
 ICCAP_VAR vs         0              

 #vd                    id                    ig                    ib                    is                   
  0                     1.9374e-09            6.6e-13               6.2e-13               -1.7158e-09          
  0.05                  1.2778e-06            6.6e-13               7.8e-13               -1.2744e-06          
  0.1                   2.0462e-06            2.6e-13               1.82e-12              -2.0406e-06          
  0.15                  2.4734e-06            1.8e-13               2.8e-13               -2.473e-06           
  0.2                   2.7056e-06            3.6e-13               -2e-14                -2.7082e-06          
  0.25                  2.8564e-06            2.8e-13               6.8e-13               -2.8484e-06          
  0.3                   2.9446e-06            1.2e-13               0                     -2.9434e-06          
  0.35                  3.022e-06             1.4e-13               2.8e-13               -3.0216e-06          
  0.4                   3.0982e-06            1.2e-13               1.28e-12              -3.0986e-06          
  0.45                  3.1624e-06            3.2e-13               7.6e-13               -3.159e-06           
  0.5                   3.228e-06             4e-13                 -1.6e-13              -3.218e-06           
  0.55                  3.2852e-06            1.8e-13               1.08e-12              -3.2772e-06          
  0.6                   3.3364e-06            3.4e-13               -2.8e-13              -3.3358e-06          
  0.65                  3.3906e-06            3.6e-13               1.4e-13               -3.3964e-06          
  0.7                   3.4476e-06            1e-13                 1.2e-12               -3.4426e-06          
  0.75                  3.512e-06             3e-13                 -1.2e-13              -3.5074e-06          
  0.8                   3.5628e-06            4e-13                 8e-14                 -3.5686e-06          
  0.85                  3.6184e-06            2.8e-13               1.28e-12              -3.619e-06           
  0.9                   3.6766e-06            2.8e-13               -8e-14                -3.6746e-06          
  0.95                  3.7338e-06            4e-13                 3e-13                 -3.722e-06           
  1                     3.7904e-06            2e-13                 1.16e-12              -3.78e-06            
  1.05                  3.8458e-06            3.2e-13               -2.4e-13              -3.838e-06           
  1.1                   3.9024e-06            2.6e-13               -2.04e-12             -3.896e-06           
  1.15                  3.9492e-06            3.6e-13               -4.42e-12             -3.9598e-06          
  1.2                   4.0098e-06            3.4e-13               -1.298e-11            -4.0104e-06          
  1.25                  4.0692e-06            3.2e-13               -2.762e-11            -4.0682e-06          
  1.3                   4.129e-06             1e-13                 -5.444e-11            -4.1246e-06          
  1.35                  4.192e-06             -4e-14                -1.0142e-10           -4.1882e-06          
END_DB

