! VERSION = 6.00
BEGIN_HEADER
 ICCAP_INPUTS
  vd         V  D GROUND SMU1 0.1 LIN        1    0          1.35       28   0.05      
  vg         V  G GROUND SMU2 0.001 LIST       2 3 0.179 0.379 0.579
  vb         V  B GROUND SMU4 0.1 CON        -1.2
  vs         V  S GROUND SMU3 0.1 CON        0
 ICCAP_OUTPUTS
  id         I  D GROUND SMU1 B
  ig         I  G GROUND SMU2 B
  ib         I  B GROUND SMU4 B
  is         I  S GROUND SMU3 B
 ICCAP_VALUES
  MASTER_SETUP_TYPE "~dc_idvd~"
  LINVT_VALUE ""
  LISTVT_VALUE "|idvg|100.0n|-200.0m|1.000m|3|200.0m|200.0m|"
  TYPE "1"
  TEMP " 27.0000 "
  IS_TNOM " 1.00000 "
  MAIN.W "300.0n"
  MAIN.L "500.0n"
  MAIN.AD "102.0f"
  MAIN.AS "102.0f"
  MAIN.PD "1.280u"
  MAIN.PS "1.280u"
  MAIN.NF "1.000"
  MAIN.M "1"
  MAIN.NRD "0.000"
  MAIN.NRS "0.000"
  MAIN.LDRIFT1 "1E-06"
  MAIN.LDRIFT2 "1E-06"
  MAIN.SA "0.000"
  MAIN.SB "0.000"
  MAIN.SD "0.000"
  MAIN.SCA "0.000"
  MAIN.SCB "0.000"
  MAIN.SCC "0.000"
  MAIN.SC "0.000"
  MODULE "S545"
  PIN_D "20"
  PIN_G "1"
  PIN_S "2"
  PIN_B "19"
  PIN_E ""
  PIN_6 ""
  XY_ID ""
  FUNC "LW Scale"
  STI "SA ref"
  WPE "WPE ref"
  COMMENT ""
  DIS_MEAS ""
  TypeTCI "10"
END_HEADER

BEGIN_DB
 ICCAP_VAR vg         0.179          
 ICCAP_VAR vb         -1.2           
 ICCAP_VAR vs         0              

 #vd                    id                    ig                    ib                    is                   
  0                     2.8e-13               -1e-13                -6.6e-12              -4e-14               
  0.05                  8.254e-11             -8e-14                -5.46e-12             -8.232e-11           
  0.1                   9.826e-11             -1.2e-13              -5.1e-12              -9.756e-11           
  0.15                  1.0274e-10            -1e-13                -5.64e-12             -1.0214e-10          
  0.2                   1.0546e-10            -1.8e-13              -5.18e-12             -1.0492e-10          
  0.25                  1.0776e-10            -1e-13                -5.14e-12             -1.069e-10           
  0.3                   1.0998e-10            -8e-14                -3.34e-12             -1.0882e-10          
  0.35                  1.1118e-10            2e-14                 -2.66e-12             -1.1048e-10          
  0.4                   1.1278e-10            -4e-14                -3.62e-12             -1.1256e-10          
  0.45                  1.14e-10              2e-14                 -4.3e-12              -1.132e-10           
  0.5                   1.1322e-10            -4e-14                -3.58e-12             -1.1228e-10          
  0.55                  1.1408e-10            -1e-13                -2.52e-12             -1.1318e-10          
  0.6                   1.171e-10             -8e-14                -2.2e-12              -1.1594e-10          
  0.65                  1.1784e-10            2e-14                 -2.92e-12             -1.1484e-10          
  0.7                   1.1756e-10            -1e-13                -2.32e-12             -1.1772e-10          
  0.75                  1.1918e-10            -1.4e-13              -2.98e-12             -1.181e-10           
  0.8                   1.2064e-10            -1e-13                -2.22e-12             -1.1848e-10          
  0.85                  1.202e-10             -1e-13                -1.5e-12              -1.1896e-10          
  0.9                   1.2108e-10            -2e-13                -2.72e-12             -1.1976e-10          
  0.95                  1.2132e-10            -1.4e-13              -2.62e-12             -1.1972e-10          
  1                     1.199e-10             -2.2e-13              -2.68e-12             -1.2002e-10          
  1.05                  1.2182e-10            -2.2e-13              -1.7e-12              -1.2018e-10          
  1.1                   1.2e-10               -3e-13                -1.1e-12              -1.1984e-10          
  1.15                  1.2234e-10            -4.4e-13              -2.28e-12             -1.208e-10           
  1.2                   1.2284e-10            -4.4e-13              -2.8e-12              -1.2194e-10          
  1.25                  1.229e-10             -4.4e-13              -1.86e-12             -1.2122e-10          
  1.3                   1.2106e-10            -6.4e-13              -1.54e-12             -1.2146e-10          
  1.35                  1.2356e-10            -6.8e-13              -1.16e-12             -1.2166e-10          
END_DB

BEGIN_DB
 ICCAP_VAR vg         0.379          
 ICCAP_VAR vb         -1.2           
 ICCAP_VAR vs         0              

 #vd                    id                    ig                    ib                    is                   
  0                     8.754e-11             4.6e-13               1.4e-13               -8.816e-11           
  0.05                  4.2886e-08            4.2e-13               -2.34e-12             -4.2826e-08          
  0.1                   5.4216e-08            2.4e-13               -1.96e-12             -5.4172e-08          
  0.15                  5.8182e-08            2e-13                 -7.4e-13              -5.8134e-08          
  0.2                   6.0516e-08            3e-13                 -1.32e-12             -6.046e-08           
  0.25                  6.2444e-08            2e-13                 -1.94e-12             -6.2674e-08          
  0.3                   6.438e-08             3.2e-13               -1.54e-12             -6.402e-08           
  0.35                  6.5508e-08            2.2e-13               -1.1e-12              -6.5618e-08          
  0.4                   6.6778e-08            2.2e-13               -4.6e-13              -6.6816e-08          
  0.45                  6.7974e-08            2.4e-13               -1.34e-12             -6.7946e-08          
  0.5                   6.903e-08             2.2e-13               -2.08e-12             -6.9328e-08          
  0.55                  6.9962e-08            2.2e-13               -1.5e-12              -6.9966e-08          
  0.6                   7.083e-08             2.6e-13               -8e-13                -7.0802e-08          
  0.65                  7.1878e-08            1.6e-13               -1.66e-12             -7.1688e-08          
  0.7                   7.2588e-08            2.4e-13               -2.08e-12             -7.2216e-08          
  0.75                  7.3032e-08            2.2e-13               -2.06e-12             -7.2808e-08          
  0.8                   7.338e-08             1.2e-13               -9.4e-13              -7.3356e-08          
  0.85                  7.3828e-08            2e-14                 -9.2e-13              -7.3842e-08          
  0.9                   7.455e-08             6e-14                 -2.14e-12             -7.4304e-08          
  0.95                  7.492e-08             1.8e-13               -4.56e-12             -7.4656e-08          
  1                     7.4968e-08            -2e-14                -1.74e-12             -7.5212e-08          
  1.05                  7.5672e-08            1e-13                 -4e-13                -7.532e-08           
  1.1                   7.6014e-08            6e-14                 -1.56e-12             -7.4682e-08          
  1.15                  7.5224e-08            -2e-14                -2.14e-12             -7.5762e-08          
  1.2                   7.6084e-08            -6e-14                -1.98e-12             -7.6068e-08          
  1.25                  7.6242e-08            -2e-13                -1.9e-12              -7.6394e-08          
  1.3                   7.6894e-08            -1.8e-13              -3.46e-12             -7.6502e-08          
  1.35                  7.6696e-08            -2.4e-13              -5.54e-12             -7.668e-08           
END_DB

BEGIN_DB
 ICCAP_VAR vg         0.579          
 ICCAP_VAR vb         -1.2           
 ICCAP_VAR vs         0              

 #vd                    id                    ig                    ib                    is                   
  0                     1.473e-09             3.1e-12               -1.72e-12             -1.3662e-09          
  0.05                  1.06162e-06           2.5e-12               -1.38e-12             -1.06168e-06         
  0.1                   1.7172e-06            2.04e-12              -3.2e-13              -1.7136e-06          
  0.15                  2.08e-06              1.98e-12              -1.7e-12              -2.0736e-06          
  0.2                   2.2698e-06            1.76e-12              -1.36e-12             -2.2656e-06          
  0.25                  2.3846e-06            1.82e-12              -7e-13                -2.383e-06           
  0.3                   2.4718e-06            1.68e-12              -1.12e-12             -2.4686e-06          
  0.35                  2.5438e-06            1.62e-12              -9e-13                -2.539e-06           
  0.4                   2.6088e-06            1.58e-12              -9.2e-13              -2.604e-06           
  0.45                  2.6694e-06            1.66e-12              -1.66e-12             -2.6684e-06          
  0.5                   2.7286e-06            1.58e-12              -1.48e-12             -2.7224e-06          
  0.55                  2.7822e-06            1.46e-12              -1.3e-12              -2.7796e-06          
  0.6                   2.8368e-06            1.52e-12              -1.02e-12             -2.832e-06           
  0.65                  2.8908e-06            1.4e-12               -1.26e-12             -2.8866e-06          
  0.7                   2.9406e-06            1.52e-12              -3.2e-13              -2.936e-06           
  0.75                  2.987e-06             1.42e-12              -1.36e-12             -2.9834e-06          
  0.8                   3.0342e-06            1.34e-12              -1.68e-12             -3.0316e-06          
  0.85                  3.0804e-06            1.26e-12              -7.8e-13              -3.0758e-06          
  0.9                   3.1224e-06            1.24e-12              -1.66e-12             -3.1192e-06          
  0.95                  3.1596e-06            1.36e-12              -1.72e-12             -3.1568e-06          
  1                     3.2038e-06            1.26e-12              -6.6e-13              -3.2012e-06          
  1.05                  3.2428e-06            1.12e-12              -1.68e-12             -3.2366e-06          
  1.1                   3.2814e-06            1.16e-12              -1.88e-12             -3.2766e-06          
  1.15                  3.316e-06             1.14e-12              -1.66e-12             -3.312e-06           
  1.2                   3.3462e-06            1.14e-12              -4.44e-12             -3.349e-06           
  1.25                  3.384e-06             1.08e-12              -8.9e-12              -3.3806e-06          
  1.3                   3.4184e-06            9.4e-13               -1.75e-11             -3.411e-06           
  1.35                  3.4454e-06            9.8e-13               -3.476e-11            -3.4416e-06          
END_DB

