! VERSION = 6.00
BEGIN_HEADER
 ICCAP_INPUTS
  vd         V  D GROUND SMU1 0.1 LIN        1    0          1.35       28   0.05      
  vg         V  G GROUND SMU2 0.001 LIN        2    0.502      1.35       5    0.212     
  vb         V  B GROUND SMU4 0.1 CON        -1.2
  vs         V  S GROUND SMU3 0.1 CON        0
 ICCAP_OUTPUTS
  id         I  D GROUND SMU1 B
  ig         I  G GROUND SMU2 B
  ib         I  B GROUND SMU4 B
  is         I  S GROUND SMU3 B
 ICCAP_VALUES
  MASTER_SETUP_TYPE "~dc_idvd~"
  LINVT_VALUE "|idvg|100.0n|100.0m|1.000m|5|1.350|"
  LISTVT_VALUE ""
  TYPE "1"
  TEMP " 125.000 "
  IS_TNOM " 0.00000 "
  MAIN.W "150.0n"
  MAIN.L "180.0n"
  MAIN.AD "100.5f"
  MAIN.AS "100.5f"
  MAIN.PD "1.340u"
  MAIN.PS "1.340u"
  MAIN.NF "1.000"
  MAIN.M "1"
  MAIN.NRD "0.000"
  MAIN.NRS "0.000"
  MAIN.LDRIFT1 "1E-06"
  MAIN.LDRIFT2 "1E-06"
  MAIN.SA "0.000"
  MAIN.SB "0.000"
  MAIN.SD "0.000"
  MAIN.SCA "0.000"
  MAIN.SCB "0.000"
  MAIN.SCC "0.000"
  MAIN.SC "0.000"
  MODULE "S547"
  PIN_D "20"
  PIN_G "1"
  PIN_S "2"
  PIN_B "19"
  PIN_E ""
  PIN_6 ""
  XY_ID ""
  FUNC "LW Scale"
  STI "SA ref"
  WPE "WPE ref"
  COMMENT ""
  DIS_MEAS ""
  TypeTCI "10"
END_HEADER

BEGIN_DB
 ICCAP_VAR vg         0.502          
 ICCAP_VAR vb         -1.2           
 ICCAP_VAR vs         0              

 #vd                    id                    ig                    ib                    is                   
  0                     6.531e-10             6.2e-13               -4.128e-11            -5.1956e-10          
  0.05                  2.8312e-07            4.8e-13               -3.944e-11            -2.831e-07           
  0.1                   4.1326e-07            5e-13                 -3.722e-11            -4.1324e-07          
  0.15                  4.7374e-07            5e-13                 -3.58e-11             -4.7372e-07          
  0.2                   5.0774e-07            4.2e-13               -3.432e-11            -5.0776e-07          
  0.25                  5.3278e-07            5e-13                 -3.26e-11             -5.3278e-07          
  0.3                   5.5472e-07            5e-13                 -3.056e-11            -5.5476e-07          
  0.35                  5.7556e-07            5.4e-13               -3.06e-11             -5.7566e-07          
  0.4                   5.9608e-07            4e-13                 -3.04e-11             -5.9614e-07          
  0.45                  6.164e-07             5.6e-13               -2.816e-11            -6.1608e-07          
  0.5                   6.3668e-07            4.6e-13               -2.662e-11            -6.3674e-07          
  0.55                  6.5708e-07            4e-13                 -2.61e-11             -6.5706e-07          
  0.6                   6.7742e-07            5e-13                 -2.542e-11            -6.7752e-07          
  0.65                  6.9784e-07            4.6e-13               -2.442e-11            -6.9784e-07          
  0.7                   7.1832e-07            3.8e-13               -2.422e-11            -7.1834e-07          
  0.75                  7.3894e-07            4.4e-13               -2.378e-11            -7.39e-07            
  0.8                   7.597e-07             3.4e-13               -2.432e-11            -7.5966e-07          
  0.85                  7.803e-07             4e-13                 -2.142e-11            -7.8034e-07          
  0.9                   8.0132e-07            3.2e-13               -2.182e-11            -8.0174e-07          
  0.95                  8.2216e-07            4.6e-13               -2.262e-11            -8.2228e-07          
  1                     8.4328e-07            3.6e-13               -2.21e-11             -8.4348e-07          
  1.05                  8.6462e-07            3.2e-13               -2.284e-11            -8.6466e-07          
  1.1                   8.861e-07             4.4e-13               -2.674e-11            -8.861e-07           
  1.15                  9.0756e-07            2.6e-13               -3.192e-11            -9.0746e-07          
  1.2                   9.2906e-07            4e-13                 -4.064e-11            -9.2912e-07          
  1.25                  9.5086e-07            2.8e-13               -5.47e-11             -9.5086e-07          
  1.3                   9.729e-07             3e-13                 -7.946e-11            -9.727e-07           
  1.35                  9.9486e-07            1.6e-13               -1.1526e-10           -9.9486e-07          
END_DB

BEGIN_DB
 ICCAP_VAR vg         0.714          
 ICCAP_VAR vb         -1.2           
 ICCAP_VAR vs         0              

 #vd                    id                    ig                    ib                    is                   
  0                     2.3746e-09            2e-12                 -1.338e-11            -2.1522e-09          
  0.05                  1.8116e-06            1.72e-12              -1.38e-11             -1.8078e-06          
  0.1                   3.1538e-06            1.56e-12              -1.436e-11            -3.1578e-06          
  0.15                  4.1048e-06            1.44e-12              -1.428e-11            -4.1034e-06          
  0.2                   4.7424e-06            1.4e-12               -1.296e-11            -4.7472e-06          
  0.25                  5.1772e-06            1.22e-12              -1.404e-11            -5.1472e-06          
  0.3                   5.4522e-06            1.18e-12              -1.206e-11            -5.4818e-06          
  0.35                  5.7132e-06            1.26e-12              -1.3e-11              -5.684e-06           
  0.4                   5.8608e-06            1.26e-12              -1.322e-11            -5.8894e-06          
  0.45                  6.0154e-06            1.22e-12              -1.22e-11             -6.0468e-06          
  0.5                   6.1648e-06            1.16e-12              -1.304e-11            -6.1658e-06          
  0.55                  6.343e-06             1.18e-12              -1.318e-11            -6.3348e-06          
  0.6                   6.4572e-06            1.08e-12              -1.154e-11            -6.4706e-06          
  0.65                  6.5798e-06            1.14e-12              -1.252e-11            -6.5908e-06          
  0.7                   6.6922e-06            1.2e-12               -1.226e-11            -6.6998e-06          
  0.75                  6.8532e-06            1.08e-12              -1.066e-11            -6.837e-06           
  0.8                   6.9216e-06            1.12e-12              -1.27e-11             -6.971e-06           
  0.85                  7.0592e-06            1.14e-12              -1.284e-11            -7.0812e-06          
  0.9                   7.2328e-06            1.08e-12              -1.112e-11            -7.224e-06           
  0.95                  7.3378e-06            1.02e-12              -1.384e-11            -7.3262e-06          
  1                     7.47e-06              1.08e-12              -1.356e-11            -7.4498e-06          
  1.05                  7.512e-06             1e-12                 -1.506e-11            -7.5874e-06          
  1.1                   7.6988e-06            1.12e-12              -2.074e-11            -7.6504e-06          
  1.15                  7.8176e-06            1.12e-12              -2.9e-11              -7.8046e-06          
  1.2                   7.9064e-06            1.1e-12               -4.678e-11            -7.939e-06           
  1.25                  8.0342e-06            1.04e-12              -7.954e-11            -8.0544e-06          
  1.3                   8.1624e-06            1.02e-12              -1.3376e-10           -8.1322e-06          
  1.35                  8.2898e-06            9.8e-13               -2.2452e-10           -8.2596e-06          
END_DB

BEGIN_DB
 ICCAP_VAR vg         0.926          
 ICCAP_VAR vb         -1.2           
 ICCAP_VAR vs         0              

 #vd                    id                    ig                    ib                    is                   
  0                     3.357e-09             5.84e-12              -8.62e-12             -3.7918e-09          
  0.05                  3.962e-06             5.4e-12               -1.022e-11            -3.9584e-06          
  0.1                   7.342e-06             4.7e-12               -8.62e-12             -7.3434e-06          
  0.15                  1.01398e-05           4.44e-12              -9.76e-12             -1.01344e-05         
  0.2                   1.238e-05             4.04e-12              -8.46e-12             -1.2384e-05          
  0.25                  1.413e-05             3.74e-12              -1.038e-11            -1.4116e-05          
  0.3                   1.5464e-05            3.68e-12              -9.34e-12             -1.5448e-05          
  0.35                  1.647e-05             3.5e-12               -8.86e-12             -1.6456e-05          
  0.4                   1.7232e-05            3.6e-12               -1.034e-11            -1.7248e-05          
  0.45                  1.7838e-05            3.3e-12               -8.46e-12             -1.7836e-05          
  0.5                   1.8352e-05            3.26e-12              -9.1e-12              -1.8326e-05          
  0.55                  1.875e-05             3.18e-12              -9.3e-12              -1.8748e-05          
  0.6                   1.913e-05             3.34e-12              -7.8e-12              -1.9136e-05          
  0.65                  1.9464e-05            3.3e-12               -9.36e-12             -1.9456e-05          
  0.7                   1.9798e-05            3.24e-12              -8.94e-12             -1.9778e-05          
  0.75                  2.0094e-05            3.2e-12               -7.66e-12             -2.0084e-05          
  0.8                   2.0438e-05            3.06e-12              -9.04e-12             -2.0396e-05          
  0.85                  2.0648e-05            3.14e-12              -1.014e-11            -2.0704e-05          
  0.9                   2.0942e-05            3.1e-12               -9e-12                -2.0914e-05          
  0.95                  2.1186e-05            3.02e-12              -9.82e-12             -2.1178e-05          
  1                     2.1446e-05            3.04e-12              -9.96e-12             -2.1438e-05          
  1.05                  2.17e-05              3.04e-12              -1.25e-11             -2.1694e-05          
  1.1                   2.195e-05             3.16e-12              -1.766e-11            -2.1944e-05          
  1.15                  2.2248e-05            3.02e-12              -2.472e-11            -2.231e-05           
  1.2                   2.2458e-05            3.04e-12              -4.178e-11            -2.2444e-05          
  1.25                  2.2684e-05            2.94e-12              -7.322e-11            -2.269e-05           
  1.3                   2.2968e-05            2.88e-12              -1.276e-10            -2.2914e-05          
  1.35                  2.3156e-05            2.94e-12              -2.264e-10            -2.315e-05           
END_DB

BEGIN_DB
 ICCAP_VAR vg         1.138          
 ICCAP_VAR vb         -1.2           
 ICCAP_VAR vs         0              

 #vd                    id                    ig                    ib                    is                   
  0                     3.8664e-09            1.494e-11             -7.1e-12              -5.1132e-09          
  0.05                  6.0152e-06            1.362e-11             -7.26e-12             -6.0116e-06          
  0.1                   1.14758e-05           1.246e-11             -8.14e-12             -1.14732e-05         
  0.15                  1.6328e-05            1.144e-11             -8.38e-12             -1.6324e-05          
  0.2                   2.0536e-05            1.07e-11              -7.1e-12              -2.0528e-05          
  0.25                  2.4104e-05            1.004e-11             -7.26e-12             -2.41e-05            
  0.3                   2.7068e-05            9.46e-12              -8.36e-12             -2.706e-05           
  0.35                  2.948e-05             9.08e-12              -7.22e-12             -2.9474e-05          
  0.4                   3.1426e-05            8.66e-12              -7.26e-12             -3.141e-05           
  0.45                  3.2962e-05            8.4e-12               -7.7e-12              -3.2954e-05          
  0.5                   3.4194e-05            8.22e-12              -6.46e-12             -3.4186e-05          
  0.55                  3.5164e-05            8e-12                 -7.78e-12             -3.5158e-05          
  0.6                   3.602e-05             7.88e-12              -8.32e-12             -3.6014e-05          
  0.65                  3.672e-05             7.72e-12              -6.96e-12             -3.6714e-05          
  0.7                   3.7332e-05            7.7e-12               -7.6e-12              -3.7328e-05          
  0.75                  3.7882e-05            7.6e-12               -7.72e-12             -3.7876e-05          
  0.8                   3.8382e-05            7.42e-12              -6.38e-12             -3.8374e-05          
  0.85                  3.8848e-05            7.42e-12              -7.28e-12             -3.8842e-05          
  0.9                   3.929e-05             7.46e-12              -8.04e-12             -3.9302e-05          
  0.95                  3.971e-05             7.42e-12              -7.1e-12              -3.9728e-05          
  1                     4.0138e-05            7.32e-12              -9.2e-12              -4.0108e-05          
  1.05                  4.0506e-05            7.2e-12               -9.62e-12             -4.0498e-05          
  1.1                   4.0884e-05            7.08e-12              -1.374e-11            -4.088e-05           
  1.15                  4.1256e-05            7.22e-12              -2.128e-11            -4.125e-05           
  1.2                   4.162e-05             7.22e-12              -3.314e-11            -4.1612e-05          
  1.25                  4.1974e-05            7.14e-12              -5.952e-11            -4.1968e-05          
  1.3                   4.2326e-05            7.08e-12              -1.0588e-10           -4.2318e-05          
  1.35                  4.268e-05             7e-12                 -1.8732e-10           -4.2664e-05          
END_DB

BEGIN_DB
 ICCAP_VAR vg         1.35           
 ICCAP_VAR vb         -1.2           
 ICCAP_VAR vs         0              

 #vd                    id                    ig                    ib                    is                   
  0                     1.0628e-08            3.288e-11             -5.26e-12             -1.0744e-08          
  0.05                  7.7388e-06            3.024e-11             -6.28e-12             -7.735e-06           
  0.1                   1.4988e-05            2.804e-11             -5.5e-12              -1.4982e-05          
  0.15                  2.1662e-05            2.624e-11             -6.68e-12             -2.1634e-05          
  0.2                   2.7682e-05            2.434e-11             -7.04e-12             -2.7686e-05          
  0.25                  3.306e-05             2.292e-11             -6.12e-12             -3.3054e-05          
  0.3                   3.7752e-05            2.158e-11             -7.4e-12              -3.7742e-05          
  0.35                  4.1776e-05            2.034e-11             -7.02e-12             -4.1774e-05          
  0.4                   4.5186e-05            1.942e-11             -5.86e-12             -4.5188e-05          
  0.45                  4.804e-05             1.864e-11             -7.22e-12             -4.8032e-05          
  0.5                   5.0398e-05            1.802e-11             -6.34e-12             -5.0392e-05          
  0.55                  5.2334e-05            1.756e-11             -6.82e-12             -5.2326e-05          
  0.6                   5.3932e-05            1.716e-11             -7.46e-12             -5.3926e-05          
  0.65                  5.525e-05             1.672e-11             -5.72e-12             -5.525e-05           
  0.7                   5.6362e-05            1.658e-11             -6.42e-12             -5.6358e-05          
  0.75                  5.731e-05             1.626e-11             -7.48e-12             -5.7304e-05          
  0.8                   5.8132e-05            1.616e-11             -5.94e-12             -5.813e-05           
  0.85                  5.8882e-05            1.604e-11             -7.26e-12             -5.8866e-05          
  0.9                   5.954e-05             1.57e-11              -7.24e-12             -5.9524e-05          
  0.95                  6.0146e-05            1.574e-11             -5.94e-12             -6.0152e-05          
  1                     6.0732e-05            1.554e-11             -7.66e-12             -6.073e-05           
  1.05                  6.1276e-05            1.536e-11             -9.56e-12             -6.1268e-05          
  1.1                   6.179e-05             1.534e-11             -1.104e-11            -6.1786e-05          
  1.15                  6.228e-05             1.52e-11              -1.706e-11            -6.2282e-05          
  1.2                   6.2766e-05            1.514e-11             -2.744e-11            -6.272e-05           
  1.25                  6.321e-05             1.508e-11             -4.66e-11             -6.3196e-05          
  1.3                   6.3688e-05            1.502e-11             -8.374e-11            -6.368e-05           
  1.35                  6.4128e-05            1.496e-11             -1.4676e-10           -6.4114e-05          
END_DB

