! VERSION = 6.00
BEGIN_HEADER
 ICCAP_INPUTS
  vd         V  D GROUND SMU1 0.1 LIN        1    0          1.35       28   0.05      
  vg         V  G GROUND SMU2 0.001 LIST       2 3 -0.057 0.143 0.343
  vb         V  B GROUND SMU4 0.1 CON        0
  vs         V  S GROUND SMU3 0.1 CON        0
 ICCAP_OUTPUTS
  id         I  D GROUND SMU1 B
  ig         I  G GROUND SMU2 B
  ib         I  B GROUND SMU4 B
  is         I  S GROUND SMU3 B
 ICCAP_VALUES
  MASTER_SETUP_TYPE "~dc_idvd~"
  LINVT_VALUE ""
  LISTVT_VALUE "|idvg|100.0n|-200.0m|1.000m|3|200.0m|200.0m|"
  TYPE "1"
  TEMP " 27.0000 "
  IS_TNOM " 1.00000 "
  MAIN.W "10.00u"
  MAIN.L "10.00u"
  MAIN.AD "3.400p"
  MAIN.AS "3.400p"
  MAIN.PD "20.68u"
  MAIN.PS "20.68u"
  MAIN.NF "1.000"
  MAIN.M "1"
  MAIN.NRD "0.000"
  MAIN.NRS "0.000"
  MAIN.LDRIFT1 "1E-06"
  MAIN.LDRIFT2 "1E-06"
  MAIN.SA "0.000"
  MAIN.SB "0.000"
  MAIN.SD "0.000"
  MAIN.SCA "0.000"
  MAIN.SCB "0.000"
  MAIN.SCC "0.000"
  MAIN.SC "0.000"
  MODULE "S541"
  PIN_D "12"
  PIN_G "9"
  PIN_S "10"
  PIN_B "11"
  PIN_E ""
  PIN_6 ""
  XY_ID ""
  FUNC "Large"
  STI "SA ref"
  WPE "WPE ref"
  COMMENT ""
  DIS_MEAS ""
  TypeTCI "10"
END_HEADER

BEGIN_DB
 ICCAP_VAR vg         -0.057         
 ICCAP_VAR vb         0              
 ICCAP_VAR vs         0              

 #vd                    id                    ig                    ib                    is                   
  0                     6e-13                 -6e-13                1.36e-12              0                    
  0.05                  1.531e-10             -7e-13                -1.4e-13              -1.5244e-10          
  0.1                   1.8114e-10            -7e-13                -3.6e-13              -1.8014e-10          
  0.15                  1.8978e-10            -6.2e-13              1.02e-12              -1.8912e-10          
  0.2                   1.9592e-10            -8.8e-13              1.24e-12              -1.9474e-10          
  0.25                  2.0068e-10            -8.8e-13              8.2e-13               -1.9944e-10          
  0.3                   2.0516e-10            -1.02e-12             1.2e-13               -2.0404e-10          
  0.35                  2.0984e-10            -1.32e-12             1.2e-13               -2.0788e-10          
  0.4                   2.138e-10             -1.56e-12             5.4e-13               -2.1188e-10          
  0.45                  2.1802e-10            -1.9e-12              8.8e-13               -2.1554e-10          
  0.5                   2.2184e-10            -2.42e-12             3.6e-13               -2.1876e-10          
  0.55                  2.2548e-10            -2.94e-12             7.6e-13               -2.222e-10           
  0.6                   2.294e-10             -3.54e-12             6.2e-13               -2.2516e-10          
  0.65                  2.3274e-10            -4.48e-12             -4e-13                -2.2766e-10          
  0.7                   2.3626e-10            -5.22e-12             5.8e-13               -2.3064e-10          
  0.75                  2.399e-10             -6.52e-12             1.78e-12              -2.328e-10           
  0.8                   2.435e-10             -7.86e-12             1.06e-12              -2.3504e-10          
  0.85                  2.4692e-10            -9.14e-12             -2.6e-13              -2.3756e-10          
  0.9                   2.507e-10             -1.104e-11            4e-13                 -2.3924e-10          
  0.95                  2.548e-10             -1.294e-11            1.06e-12              -2.4118e-10          
  1                     2.589e-10             -1.502e-11            4.6e-13               -2.43e-10            
  1.05                  2.6282e-10            -1.782e-11            -3.6e-13              -2.4458e-10          
  1.1                   2.6762e-10            -2.072e-11            2.4e-13               -2.4598e-10          
  1.15                  2.7222e-10            -2.414e-11            5.6e-13               -2.4734e-10          
  1.2                   2.7758e-10            -2.794e-11            4.8e-13               -2.4892e-10          
  1.25                  2.8294e-10            -3.216e-11            -3.18e-12             -2.4996e-10          
  1.3                   2.8936e-10            -3.7e-11              -1.8e-13              -2.5136e-10          
  1.35                  2.9602e-10            -4.234e-11            -4.4e-13              -2.524e-10           
END_DB

BEGIN_DB
 ICCAP_VAR vg         0.143          
 ICCAP_VAR vb         0              
 ICCAP_VAR vs         0              

 #vd                    id                    ig                    ib                    is                   
  0                     1.7898e-10            1.278e-11             1.66e-12              -1.879e-10           
  0.05                  7.251e-08             8.76e-12              1e-13                 -7.247e-08           
  0.1                   8.8434e-08            7.8e-12               1.24e-12              -8.8426e-08          
  0.15                  9.401e-08             7.42e-12              1.52e-12              -9.398e-08           
  0.2                   9.7626e-08            7.08e-12              -1.26e-12             -9.76e-08            
  0.25                  1.00796e-07           6.92e-12              4e-13                 -1.00786e-07         
  0.3                   1.03688e-07           6.76e-12              2.6e-13               -1.03676e-07         
  0.35                  1.06348e-07           6.32e-12              5.6e-13               -1.063e-07           
  0.4                   1.0892e-07            6.04e-12              -5e-13                -1.08792e-07         
  0.45                  1.1128e-07            5.68e-12              8e-14                 -1.11212e-07         
  0.5                   1.1344e-07            5.36e-12              7.8e-13               -1.13374e-07         
  0.55                  1.1554e-07            5.16e-12              -4.4e-13              -1.1541e-07          
  0.6                   1.1742e-07            4.6e-12               1.28e-12              -1.1726e-07          
  0.65                  1.192e-07             4.12e-12              6.8e-13               -1.1908e-07          
  0.7                   1.2088e-07            3.44e-12              2.2e-13               -1.2074e-07          
  0.75                  1.2244e-07            2.7e-12               -2.4e-13              -1.223e-07           
  0.8                   1.2388e-07            2.08e-12              1.12e-12              -1.2376e-07          
  0.85                  1.2528e-07            1.04e-12              -8e-14                -1.2516e-07          
  0.9                   1.266e-07             -6e-14                1.6e-13               -1.2642e-07          
  0.95                  1.2778e-07            -1.14e-12             -2e-13                -1.2766e-07          
  1                     1.2894e-07            -2.46e-12             6.2e-13               -1.288e-07           
  1.05                  1.2996e-07            -4.1e-12              2e-14                 -1.2984e-07          
  1.1                   1.3092e-07            -5.88e-12             -1.94e-12             -1.308e-07           
  1.15                  1.3184e-07            -7.86e-12             -3.76e-12             -1.3174e-07          
  1.2                   1.328e-07             -1.026e-11            -5.16e-12             -1.3262e-07          
  1.25                  1.3358e-07            -1.288e-11            -9.5e-12              -1.334e-07           
  1.3                   1.3438e-07            -1.594e-11            -1.556e-11            -1.3416e-07          
  1.35                  1.3504e-07            -1.936e-11            -2.332e-11            -1.3492e-07          
END_DB

BEGIN_DB
 ICCAP_VAR vg         0.343          
 ICCAP_VAR vb         0              
 ICCAP_VAR vs         0              

 #vd                    id                    ig                    ib                    is                   
  0                     2.9518e-09            2.1934e-10            1.16e-12              -3.1972e-09          
  0.05                  2.538e-06             1.721e-10             8.4e-13               -2.5338e-06          
  0.1                   3.8582e-06            1.4842e-10            6.6e-13               -3.8544e-06          
  0.15                  4.3592e-06            1.3964e-10            -6.6e-13              -4.3554e-06          
  0.2                   4.5562e-06            1.362e-10             1.2e-13               -4.5524e-06          
  0.25                  4.6746e-06            1.3418e-10            1.24e-12              -4.6708e-06          
  0.3                   4.77e-06              1.3244e-10            0                     -4.7662e-06          
  0.35                  4.856e-06             1.3106e-10            5.4e-13               -4.8526e-06          
  0.4                   4.9362e-06            1.2972e-10            1.2e-12               -4.9328e-06          
  0.45                  5.0114e-06            1.284e-10             -3.2e-13              -5.0082e-06          
  0.5                   5.0826e-06            1.271e-10             -4.4e-13              -5.079e-06           
  0.55                  5.1498e-06            1.2598e-10            8.8e-13               -5.1462e-06          
  0.6                   5.214e-06             1.249e-10             -1.6e-13              -5.2104e-06          
  0.65                  5.275e-06             1.2352e-10            1.8e-13               -5.2714e-06          
  0.7                   5.3334e-06            1.2246e-10            1.3e-12               -5.3294e-06          
  0.75                  5.3886e-06            1.213e-10             2.6e-13               -5.3852e-06          
  0.8                   5.4416e-06            1.1996e-10            4e-13                 -5.4382e-06          
  0.85                  5.4928e-06            1.189e-10             7.8e-13               -5.4892e-06          
  0.9                   5.5416e-06            1.1748e-10            4e-14                 -5.538e-06           
  0.95                  5.588e-06             1.1606e-10            2e-14                 -5.584e-06           
  1                     5.6324e-06            1.1472e-10            -1e-13                -5.629e-06           
  1.05                  5.6752e-06            1.131e-10             -2.12e-12             -5.6718e-06          
  1.1                   5.7162e-06            1.1158e-10            -5.22e-12             -5.7126e-06          
  1.15                  5.7562e-06            1.0982e-10            -1.234e-11            -5.752e-06           
  1.2                   5.7938e-06            1.0792e-10            -2.926e-11            -5.79e-06            
  1.25                  5.8298e-06            1.0568e-10            -5.968e-11            -5.8264e-06          
  1.3                   5.865e-06             1.0344e-10            -1.1198e-10           -5.8612e-06          
  1.35                  5.8984e-06            1.0098e-10            -2e-10                -5.895e-06           
END_DB

