! VERSION = 6.00
BEGIN_HEADER
 ICCAP_INPUTS
  vd         V  D GROUND SMU1 0.1 LIN        1    0          1.35       28   0.05      
  vg         V  G GROUND SMU2 0.001 LIST       2 3 0.09 0.29 0.49
  vb         V  B GROUND SMU4 0.1 CON        -1.2
  vs         V  S GROUND SMU3 0.1 CON        0
 ICCAP_OUTPUTS
  id         I  D GROUND SMU1 B
  ig         I  G GROUND SMU2 B
  ib         I  B GROUND SMU4 B
  is         I  S GROUND SMU3 B
 ICCAP_VALUES
  MASTER_SETUP_TYPE "~dc_idvd~"
  LINVT_VALUE ""
  LISTVT_VALUE "|idvg|100.0n|-200.0m|1.000m|3|200.0m|200.0m|"
  TYPE "1"
  TEMP " 27.0000 "
  IS_TNOM " 1.00000 "
  MAIN.W "300.0n"
  MAIN.L "10.00u"
  MAIN.AD "102.0f"
  MAIN.AS "102.0f"
  MAIN.PD "1.280u"
  MAIN.PS "1.280u"
  MAIN.NF "1.000"
  MAIN.M "1"
  MAIN.NRD "0.000"
  MAIN.NRS "0.000"
  MAIN.LDRIFT1 "1E-06"
  MAIN.LDRIFT2 "1E-06"
  MAIN.SA "0.000"
  MAIN.SB "0.000"
  MAIN.SD "0.000"
  MAIN.SCA "0.000"
  MAIN.SCB "0.000"
  MAIN.SCC "0.000"
  MAIN.SC "0.000"
  MODULE "S545"
  PIN_D "18"
  PIN_G "3"
  PIN_S "4"
  PIN_B "17"
  PIN_E ""
  PIN_6 ""
  XY_ID ""
  FUNC "W Scale"
  STI "SA ref"
  WPE "WPE ref"
  COMMENT ""
  DIS_MEAS ""
  TypeTCI "10"
END_HEADER

BEGIN_DB
 ICCAP_VAR vg         0.09           
 ICCAP_VAR vb         -1.2           
 ICCAP_VAR vs         0              

 #vd                    id                    ig                    ib                    is                   
  0                     2e-14                 -1.4e-13              -6.32e-12             1.6e-13              
  0.05                  2.5e-12               4e-14                 -5.74e-12             -2.58e-12            
  0.1                   3.32e-12              0                     -4.86e-12             -2.92e-12            
  0.15                  3.62e-12              -1.6e-13              -4.46e-12             -3.18e-12            
  0.2                   3.86e-12              0                     -4.5e-12              -3.44e-12            
  0.25                  4.08e-12              -1.2e-13              -4.82e-12             -3.6e-12             
  0.3                   4.38e-12              -1.6e-13              -4.22e-12             -3.92e-12            
  0.35                  4.6e-12               -8e-14                -3.38e-12             -4.06e-12            
  0.4                   4.84e-12              -2e-13                -3.02e-12             -4.26e-12            
  0.45                  5.14e-12              -2.4e-13              -3.92e-12             -4.46e-12            
  0.5                   5.36e-12              -2e-14                -3.68e-12             -4.64e-12            
  0.55                  5.42e-12              -1e-13                -3.14e-12             -4.64e-12            
  0.6                   5.7e-12               -2.6e-13              -2.68e-12             -4.94e-12            
  0.65                  6.04e-12              -2e-13                -2.46e-12             -5.02e-12            
  0.7                   6e-12                 -1e-13                -3.74e-12             -5.16e-12            
  0.75                  6.14e-12              -1e-13                -2.96e-12             -5.36e-12            
  0.8                   6.36e-12              -3e-13                -3.2e-12              -5.48e-12            
  0.85                  6.6e-12               -3e-13                -1.78e-12             -5.74e-12            
  0.9                   6.86e-12              -2.6e-13              -1.3e-12              -5.72e-12            
  0.95                  6.96e-12              -4.4e-13              -2.98e-12             -5.72e-12            
  1                     7.08e-12              -4.2e-13              -2.84e-12             -5.82e-12            
  1.05                  7.3e-12               -6e-13                -2.6e-12              -6.08e-12            
  1.1                   7.46e-12              -7.4e-13              -1.92e-12             -5.96e-12            
  1.15                  7.62e-12              -7.6e-13              -1.36e-12             -6.1e-12             
  1.2                   7.68e-12              -9.2e-13              -2.02e-12             -6.12e-12            
  1.25                  8.12e-12              -1.06e-12             -2.7e-12              -6.08e-12            
  1.3                   8.26e-12              -1.24e-12             -2.14e-12             -6.2e-12             
  1.35                  8.54e-12              -1.28e-12             -1.82e-12             -6.14e-12            
END_DB

BEGIN_DB
 ICCAP_VAR vg         0.29           
 ICCAP_VAR vb         -1.2           
 ICCAP_VAR vs         0              

 #vd                    id                    ig                    ib                    is                   
  0                     1.64e-12              2.9e-12               -1.8e-13              -4.96e-12            
  0.05                  1.6676e-09            2.32e-12              -1.74e-12             -1.6676e-09          
  0.1                   2.1036e-09            2.22e-12              -1.68e-12             -2.1036e-09          
  0.15                  2.318e-09             2.02e-12              -1.64e-12             -2.3176e-09          
  0.2                   2.4912e-09            2.08e-12              -6.8e-13              -2.4916e-09          
  0.25                  2.655e-09             1.96e-12              -1.4e-12              -2.6542e-09          
  0.3                   2.8118e-09            1.92e-12              -1.96e-12             -2.8102e-09          
  0.35                  2.962e-09             1.78e-12              -1.84e-12             -2.9616e-09          
  0.4                   3.1074e-09            1.78e-12              -1.86e-12             -3.107e-09           
  0.45                  3.2482e-09            1.74e-12              -4e-13                -3.2466e-09          
  0.5                   3.3814e-09            1.58e-12              -8.4e-13              -3.3796e-09          
  0.55                  3.5082e-09            1.66e-12              -1.86e-12             -3.5072e-09          
  0.6                   3.6284e-09            1.52e-12              -2.12e-12             -3.6288e-09          
  0.65                  3.7446e-09            1.5e-12               -1.46e-12             -3.743e-09           
  0.7                   3.8534e-09            1.58e-12              -4.6e-13              -3.8514e-09          
  0.75                  3.9536e-09            1.34e-12              -1.24e-12             -3.9522e-09          
  0.8                   4.0484e-09            1.28e-12              -2.08e-12             -4.0466e-09          
  0.85                  4.1362e-09            1.26e-12              -1.18e-12             -4.135e-09           
  0.9                   4.2184e-09            1.18e-12              -1.86e-12             -4.2162e-09          
  0.95                  4.2936e-09            1.04e-12              -6.8e-13              -4.292e-09           
  1                     4.3636e-09            9.8e-13               -1.1e-12              -4.3614e-09          
  1.05                  4.4278e-09            8.6e-13               -1.98e-12             -4.4256e-09          
  1.1                   4.4858e-09            8.4e-13               -2.1e-12              -4.4836e-09          
  1.15                  4.5396e-09            6.6e-13               -2.02e-12             -4.5374e-09          
  1.2                   4.5884e-09            5.6e-13               -4e-13                -4.5852e-09          
  1.25                  4.632e-09             4.6e-13               -3.08e-12             -4.6292e-09          
  1.3                   4.6728e-09            4.6e-13               -2.44e-12             -4.6694e-09          
  1.35                  4.7106e-09            1.6e-13               -2.8e-12              -4.704e-09           
END_DB

BEGIN_DB
 ICCAP_VAR vg         0.49           
 ICCAP_VAR vb         -1.2           
 ICCAP_VAR vs         0              

 #vd                    id                    ig                    ib                    is                   
  0                     8.362e-11             3.192e-11             -4.6e-13              -1.1332e-10          
  0.05                  7.0036e-08            2.608e-11             -3.8e-13              -7.005e-08           
  0.1                   1.06104e-07           2.314e-11             -1.44e-12             -1.06102e-07         
  0.15                  1.2044e-07            2.198e-11             -1.04e-12             -1.2032e-07          
  0.2                   1.2732e-07            2.164e-11             1.8e-13               -1.272e-07           
  0.25                  1.321e-07             2.114e-11             -9.2e-13              -1.3194e-07          
  0.3                   1.3596e-07            2.086e-11             -1.32e-12             -1.3586e-07          
  0.35                  1.395e-07             2.054e-11             -1.46e-12             -1.3936e-07          
  0.4                   1.4284e-07            2.026e-11             -8.2e-13              -1.427e-07           
  0.45                  1.4596e-07            2.012e-11             -1.56e-12             -1.4584e-07          
  0.5                   1.4896e-07            1.986e-11             -1.6e-12              -1.4886e-07          
  0.55                  1.5184e-07            1.97e-11              -5.6e-13              -1.5174e-07          
  0.6                   1.5464e-07            1.962e-11             -3.8e-13              -1.545e-07           
  0.65                  1.5726e-07            1.922e-11             -1.62e-12             -1.5714e-07          
  0.7                   1.5984e-07            1.89e-11              -1.88e-12             -1.5974e-07          
  0.75                  1.6234e-07            1.876e-11             -1.52e-12             -1.622e-07           
  0.8                   1.6468e-07            1.854e-11             -6.6e-13              -1.6458e-07          
  0.85                  1.67e-07              1.85e-11              -1.16e-12             -1.6688e-07          
  0.9                   1.6918e-07            1.822e-11             -1.38e-12             -1.6908e-07          
  0.95                  1.713e-07             1.81e-11              -1.28e-12             -1.712e-07           
  1                     1.7334e-07            1.794e-11             -5.4e-13              -1.7324e-07          
  1.05                  1.7528e-07            1.774e-11             -1.36e-12             -1.752e-07           
  1.1                   1.7718e-07            1.766e-11             -2.38e-12             -1.7706e-07          
  1.15                  1.7896e-07            1.734e-11             -1.6e-12              -1.7888e-07          
  1.2                   1.8066e-07            1.718e-11             -1.26e-12             -1.8054e-07          
  1.25                  1.8226e-07            1.708e-11             -2.9e-12              -1.8216e-07          
  1.3                   1.8382e-07            1.686e-11             -4.46e-12             -1.837e-07           
  1.35                  1.8528e-07            1.668e-11             -6.9e-12              -1.8518e-07          
END_DB

