! VERSION = 6.00
BEGIN_HEADER
 ICCAP_INPUTS
  vg         V  G GROUND SMU2 0.001 LIN        1    -0.5       1.35       38   0.05      
  vb         V  B GROUND SMU4 0.1 LIN        2    0          -1.2       5    -0.3      
  vd         V  D GROUND SMU1 0.1 LIST       3 3 0.05 0.6 1.2
  vs         V  S GROUND SMU3 0.1 CON        0
 ICCAP_OUTPUTS
  id         I  D GROUND SMU1 B
  ig         I  G GROUND SMU2 B
  ib         I  B GROUND SMU4 B
  is         I  S GROUND SMU3 B
 ICCAP_VALUES
  MASTER_SETUP_TYPE "~dc_idvg~"
  LINVT_VALUE ""
  LISTVT_VALUE ""
  TYPE "1"
  TEMP " 27.0000 "
  IS_TNOM " 1.00000 "
  MAIN.W "10.00u"
  MAIN.L "1.200u"
  MAIN.AD "3.400p"
  MAIN.AS "3.400p"
  MAIN.PD "20.68u"
  MAIN.PS "20.68u"
  MAIN.NF "1.000"
  MAIN.M "1"
  MAIN.NRD "0.000"
  MAIN.NRS "0.000"
  MAIN.LDRIFT1 "1E-06"
  MAIN.LDRIFT2 "1E-06"
  MAIN.SA "0.000"
  MAIN.SB "0.000"
  MAIN.SD "0.000"
  MAIN.SCA "0.000"
  MAIN.SCB "0.000"
  MAIN.SCC "0.000"
  MAIN.SC "0.000"
  MODULE "S541"
  PIN_D "18"
  PIN_G "3"
  PIN_S "4"
  PIN_B "17"
  PIN_E ""
  PIN_6 ""
  XY_ID ""
  FUNC "L Scale"
  STI "SA ref"
  WPE "WPE ref"
  COMMENT ""
  DIS_MEAS ""
  TypeTCI "10"
END_HEADER

BEGIN_DB
 ICCAP_VAR vb         0              
 ICCAP_VAR vd         0.05           
 ICCAP_VAR vs         0              

 #vg                    id                    ig                    ib                    is                   
  -0.5                  2.06e-12              -4.898e-11            4.664e-11             2.46e-12             
  -0.45                 1.36e-12              -9.88e-12             8.56e-12              1.7e-12              
  -0.4                  8.6e-13               -3.26e-12             3.98e-12              1.26e-12             
  -0.35                 7.8e-13               -1.66e-12             3.12e-12              8.6e-13              
  -0.3                  6.2e-13               -1.08e-12             2.02e-12              5e-13                
  -0.25                 7.8e-13               -6e-13                1.5e-12               4e-14                
  -0.2                  2.46e-12              -3e-13                1.74e-12              -2.12e-12            
  -0.15                 1.104e-11             -1.2e-13              2.26e-12              -1.08e-11            
  -0.1                  5.256e-11             1.4e-13               2.42e-12              -5.218e-11           
  -0.05                 2.528e-10             1e-13                 1.64e-12              -2.5306e-10          
  0                     1.2216e-09            1.6e-13               1.46e-12              -1.2198e-09          
  0.05                  5.8816e-09            3.2e-13               2.02e-12              -5.8788e-09          
  0.1                   2.7798e-08            5.2e-13               2.24e-12              -2.7778e-08          
  0.15                  1.2512e-07            1.48e-12              1.32e-12              -1.2496e-07          
  0.2                   5.1036e-07            3.6e-12               2.38e-12              -5.0998e-07          
  0.25                  1.7472e-06            7.42e-12              6.6e-13               -1.7426e-06          
  0.3                   4.723e-06             1.476e-11             5.8e-13               -4.7202e-06          
  0.35                  1.00764e-05           2.642e-11             1.74e-12              -1.0074e-05          
  0.4                   1.7564e-05            4.462e-11             2.56e-12              -1.7542e-05          
  0.45                  2.6384e-05            7.24e-11              1.1e-12               -2.6364e-05          
  0.5                   3.5788e-05            1.132e-10             9.8e-13               -3.577e-05           
  0.55                  4.533e-05             1.7088e-10            1.58e-12              -4.531e-05           
  0.6                   5.4798e-05            2.5118e-10            1.64e-12              -5.4776e-05          
  0.65                  6.4064e-05            3.5956e-10            3.4e-13               -6.4046e-05          
  0.7                   7.305e-05             5.038e-10             7.6e-13               -7.3032e-05          
  0.75                  8.1728e-05            6.9236e-10            1.06e-12              -8.1714e-05          
  0.8                   9.0048e-05            9.345e-10             5.4e-13               -9.0026e-05          
  0.85                  9.7996e-05            1.2424e-09            7.4e-13               -9.7976e-05          
  0.9                   0.00010555            1.6262e-09            1.84e-12              -0.00010553          
  0.95                  0.000112706           2.1012e-09            8.6e-13               -0.000112688         
  1                     0.00011958            2.6818e-09            8.4e-13               -0.0001192           
  1.05                  0.0001259             3.3856e-09            5.4e-13               -0.00012552          
  1.1                   0.0001318             4.2274e-09            1.66e-12              -0.00013142          
  1.15                  0.0001373             5.2304e-09            1.48e-12              -0.00013692          
  1.2                   0.00014238            6.4136e-09            -2.4e-13              -0.000142            
  1.25                  0.00014708            7.8006e-09            -1.16e-12             -0.0001467           
  1.3                   0.00015138            9.4178e-09            -2.78e-12             -0.00015102          
  1.35                  0.00015534            1.12992e-08           -7.64e-12             -0.00015496          
END_DB

BEGIN_DB
 ICCAP_VAR vb         -0.3           
 ICCAP_VAR vd         0.05           
 ICCAP_VAR vs         0              

 #vg                    id                    ig                    ib                    is                   
  -0.5                  1.86e-12              -4.28e-12             -2.12e-12             2.54e-12             
  -0.45                 1.28e-12              -3.04e-12             -2.88e-12             1.68e-12             
  -0.4                  1.04e-12              -2e-12                -2.1e-12              1.14e-12             
  -0.35                 7.8e-13               -1.36e-12             -3.34e-12             1e-12                
  -0.3                  3.4e-13               -9.2e-13              -1.84e-12             5.8e-13              
  -0.25                 4.6e-13               -6.8e-13              -1.24e-12             4.2e-13              
  -0.2                  7e-13                 -2e-13                -1.5e-12              -2.2e-13             
  -0.15                 2.6e-12               -4e-14                -1.98e-12             -2.34e-12            
  -0.1                  1.292e-11             4e-14                 -2.04e-12             -1.272e-11           
  -0.05                 6.542e-11             8e-14                 -4.64e-12             -6.504e-11           
  0                     3.3092e-10            2.8e-13               -1.4e-12              -3.31e-10            
  0.05                  1.678e-09             2.4e-13               -1.28e-12             -1.6762e-09          
  0.1                   8.3982e-09            5.2e-13               -1.56e-12             -8.3978e-09          
  0.15                  4.0744e-08            1.16e-12              -1.64e-12             -4.0732e-08          
  0.2                   1.8606e-07            2.78e-12              -2e-13                -1.8604e-07          
  0.25                  7.4508e-07            6.42e-12              -8e-13                -7.4516e-07          
  0.3                   2.4178e-06            1.322e-11             -9.2e-13              -2.4128e-06          
  0.35                  6.1132e-06            2.436e-11             -4.6e-13              -6.1072e-06          
  0.4                   1.2216e-05            4.198e-11             -1.56e-12             -1.219e-05           
  0.45                  2.0216e-05            6.908e-11             -1.3e-12              -2.0198e-05          
  0.5                   2.9272e-05            1.0894e-10            -1.62e-12             -2.9252e-05          
  0.55                  3.8704e-05            1.654e-10             -3.6e-13              -3.869e-05           
  0.6                   4.8192e-05            2.4434e-10            2e-13                 -4.8176e-05          
  0.65                  5.7536e-05            3.5154e-10            -1e-12                -5.7522e-05          
  0.7                   6.6606e-05            4.9432e-10            -7e-13                -6.6592e-05          
  0.75                  7.5394e-05            6.813e-10             -8.6e-13              -7.5368e-05          
  0.8                   8.3822e-05            9.2156e-10            -1.1e-12              -8.3796e-05          
  0.85                  9.189e-05             1.2278e-09            -5.4e-13              -9.1876e-05          
  0.9                   9.956e-05             1.6092e-09            -4.2e-13              -9.9542e-05          
  0.95                  0.00010683            2.0826e-09            -1.12e-12             -0.000106818         
  1                     0.00011369            2.6606e-09            -7e-13                -0.00011367          
  1.05                  0.00012026            3.3616e-09            -1.2e-12              -0.00011988          
  1.1                   0.00012628            4.201e-09             7.8e-13               -0.00012588          
  1.15                  0.00013188            5.2016e-09            -1.1e-12              -0.0001315           
  1.2                   0.00013708            6.3822e-09            -1.48e-12             -0.00013668          
  1.25                  0.00014186            7.7662e-09            -2.3e-12              -0.00014148          
  1.3                   0.00014626            9.3804e-09            -3.74e-12             -0.0001459           
  1.35                  0.00015032            1.12588e-08           -9.08e-12             -0.00014994          
END_DB

BEGIN_DB
 ICCAP_VAR vb         -0.6           
 ICCAP_VAR vd         0.05           
 ICCAP_VAR vs         0              

 #vg                    id                    ig                    ib                    is                   
  -0.5                  1.8e-12               -4.22e-12             -3.8e-12              2.4e-12              
  -0.45                 1.4e-12               -3e-12                -3.72e-12             1.68e-12             
  -0.4                  1.06e-12              -1.98e-12             -4.46e-12             1.1e-12              
  -0.35                 6.6e-13               -1.32e-12             -4e-12                8.6e-13              
  -0.3                  4.6e-13               -9.6e-13              -2.94e-12             5.8e-13              
  -0.25                 4e-13                 -5.2e-13              -2.46e-12             4.8e-13              
  -0.2                  2.2e-13               -2.4e-13              -2.86e-12             6e-14                
  -0.15                 8.6e-13               -8e-14                -2.6e-12              -5.8e-13             
  -0.1                  4.46e-12              1.4e-13               -2.9e-12              -4.16e-12            
  -0.05                 2.252e-11             2e-13                 -2.24e-12             -2.25e-11            
  0                     1.1822e-10            2.8e-13               -1.84e-12             -1.181e-10           
  0.05                  6.1932e-10            3.8e-13               -2.2e-12              -6.1882e-10          
  0.1                   3.2128e-09            3e-13                 -2.64e-12             -3.214e-09           
  0.15                  1.6452e-08            7.8e-13               -2.82e-12             -1.6426e-08          
  0.2                   8.0304e-08            2.22e-12              -2.18e-12             -7.9804e-08          
  0.25                  3.5426e-07            5.6e-12               -1.02e-12             -3.5376e-07          
  0.3                   1.313e-06             1.156e-11             -1.92e-12             -1.308e-06           
  0.35                  3.8154e-06            2.244e-11             -1.12e-12             -3.8132e-06          
  0.4                   8.5976e-06            3.94e-11              -1.18e-12             -8.5936e-06          
  0.45                  1.564e-05             6.558e-11             -2.62e-12             -1.5614e-05          
  0.5                   2.4144e-05            1.0424e-10            -1.94e-12             -2.4124e-05          
  0.55                  3.3328e-05            1.5994e-10            -1.12e-12             -3.331e-05           
  0.6                   4.2722e-05            2.3764e-10            -4.42e-12             -4.2702e-05          
  0.65                  5.2048e-05            3.4362e-10            -2.46e-12             -5.2028e-05          
  0.7                   6.1152e-05            4.8492e-10            -2.36e-12             -6.1132e-05          
  0.75                  6.9998e-05            6.7006e-10            -2.38e-12             -6.998e-05           
  0.8                   7.8502e-05            9.084e-10             -2.18e-12             -7.8484e-05          
  0.85                  8.6652e-05            1.2126e-09            -9.8e-13              -8.6644e-05          
  0.9                   9.4414e-05            1.5924e-09            -1.36e-12             -9.4402e-05          
  0.95                  0.00010178            2.063e-09             -1.42e-12             -0.000101762         
  1                     0.00010873            2.639e-09             -2.86e-12             -0.00010871          
  1.05                  0.0001154             3.3368e-09            -1.42e-12             -0.00011502          
  1.1                   0.0001215             4.1738e-09            -8.2e-13              -0.00012112          
  1.15                  0.0001272             5.1718e-09            -1.18e-12             -0.00012682          
  1.2                   0.00013248            6.3492e-09            -2.04e-12             -0.0001321           
  1.25                  0.00013736            7.7304e-09            -4.12e-12             -0.00013698          
  1.3                   0.00014186            9.3428e-09            -6.18e-12             -0.00014148          
  1.35                  0.00014598            1.1217e-08            -9.26e-12             -0.0001456           
END_DB

BEGIN_DB
 ICCAP_VAR vb         -0.9           
 ICCAP_VAR vd         0.05           
 ICCAP_VAR vs         0              

 #vg                    id                    ig                    ib                    is                   
  -0.5                  1.74e-12              -4.3e-12              -3.72e-12             2.26e-12             
  -0.45                 1.3e-12               -2.88e-12             -5.08e-12             1.72e-12             
  -0.4                  9.8e-13               -2.1e-12              -5.08e-12             1.26e-12             
  -0.35                 7e-13                 -1.32e-12             -4.26e-12             9.4e-13              
  -0.3                  5e-13                 -9e-13                -4.66e-12             6.6e-13              
  -0.25                 4.2e-13               -6e-13                -3.64e-12             4.8e-13              
  -0.2                  2.6e-13               -1.2e-13              -3.44e-12             3e-13                
  -0.15                 4.2e-13               -8e-14                -4.24e-12             0                    
  -0.1                  1.78e-12              3e-13                 -3.92e-12             -1.64e-12            
  -0.05                 9.58e-12              2e-13                 -3.68e-12             -9.4e-12             
  0                     5.122e-11             1.8e-13               -3.36e-12             -5.106e-11           
  0.05                  2.7444e-10            3.8e-13               -2.08e-12             -2.7428e-10          
  0.1                   1.463e-09             3e-13                 -3.38e-12             -1.4622e-09          
  0.15                  7.724e-09             7e-13                 -3.46e-12             -7.7202e-09          
  0.2                   3.9136e-08            1.72e-12              -3.16e-12             -3.9138e-08          
  0.25                  1.8602e-07            4.38e-12              -2.22e-12             -1.8594e-07          
  0.3                   7.5964e-07            1.004e-11             -2.96e-12             -7.5952e-07          
  0.35                  2.4738e-06            1.996e-11             -1.82e-12             -2.4694e-06          
  0.4                   6.1974e-06            3.65e-11              -2.46e-12             -6.192e-06           
  0.45                  1.2262e-05            6.198e-11             -1.9e-12              -1.224e-05           
  0.5                   2.0114e-05            9.972e-11             -2.92e-12             -2.0096e-05          
  0.55                  2.8938e-05            1.5452e-10            -2.78e-12             -2.8914e-05          
  0.6                   3.8146e-05            2.3088e-10            -6.6e-13              -3.8126e-05          
  0.65                  4.7388e-05            3.3536e-10            -3.32e-12             -4.7374e-05          
  0.7                   5.6472e-05            4.7518e-10            -2.38e-12             -5.646e-05           
  0.75                  6.533e-05             6.5856e-10            -2.84e-12             -6.5314e-05          
  0.8                   7.3868e-05            8.953e-10             -2.64e-12             -7.385e-05           
  0.85                  8.2078e-05            1.1978e-09            -1.24e-12             -8.206e-05           
  0.9                   8.9904e-05            1.5752e-09            -2.16e-12             -8.9888e-05          
  0.95                  9.7338e-05            2.0434e-09            -2.36e-12             -9.7326e-05          
  1                     0.000104366           2.6172e-09            -2.38e-12             -0.00010435          
  1.05                  0.00011097            3.3132e-09            -1.4e-12              -0.000110958         
  1.1                   0.0001173             4.1472e-09            -1.24e-12             -0.0001169           
  1.15                  0.00012308            5.1418e-09            -2.22e-12             -0.00012268          
  1.2                   0.00012844            6.3166e-09            -3.14e-12             -0.00012804          
  1.25                  0.0001334             7.6962e-09            -3.76e-12             -0.000133            
  1.3                   0.00013796            9.3026e-09            -4.96e-12             -0.00013758          
  1.35                  0.00014216            1.11744e-08           -1.024e-11            -0.00014178          
END_DB

BEGIN_DB
 ICCAP_VAR vb         -1.2           
 ICCAP_VAR vd         0.05           
 ICCAP_VAR vs         0              

 #vg                    id                    ig                    ib                    is                   
  -0.5                  1.84e-12              -4.14e-12             -5.96e-12             2.4e-12              
  -0.45                 1.24e-12              -2.86e-12             -5.66e-12             1.72e-12             
  -0.4                  9.8e-13               -2e-12                -5.2e-12              1.2e-12              
  -0.35                 6.8e-13               -1.34e-12             -4.28e-12             8.8e-13              
  -0.3                  5e-13                 -8.8e-13              -5.04e-12             7.2e-13              
