! VERSION = 6.00
BEGIN_HEADER
 ICCAP_INPUTS
  vd         V  D GROUND SMU1 0.1 LIN        1    0          1.35       28   0.05      
  vg         V  G GROUND SMU2 0.001 LIST       2 3 0.214 0.414 0.614
  vb         V  B GROUND SMU4 0.1 CON        0
  vs         V  S GROUND SMU3 0.1 CON        0
 ICCAP_OUTPUTS
  id         I  D GROUND SMU1 B
  ig         I  G GROUND SMU2 B
  ib         I  B GROUND SMU4 B
  is         I  S GROUND SMU3 B
 ICCAP_VALUES
  MASTER_SETUP_TYPE "~dc_idvd~"
  LINVT_VALUE ""
  LISTVT_VALUE "|idvg|100.0n|-200.0m|1.000m|3|200.0m|200.0m|"
  TYPE "1"
  TEMP " 27.0000 "
  IS_TNOM " 1.00000 "
  MAIN.W "180.0n"
  MAIN.L "130.0n"
  MAIN.AD "102.6f"
  MAIN.AS "102.6f"
  MAIN.PD "1.340u"
  MAIN.PS "1.340u"
  MAIN.NF "1.000"
  MAIN.M "1"
  MAIN.NRD "0.000"
  MAIN.NRS "0.000"
  MAIN.LDRIFT1 "1E-06"
  MAIN.LDRIFT2 "1E-06"
  MAIN.SA "0.000"
  MAIN.SB "0.000"
  MAIN.SD "0.000"
  MAIN.SCA "0.000"
  MAIN.SCB "0.000"
  MAIN.SCC "0.000"
  MAIN.SC "0.000"
  MODULE "S545"
  PIN_D "16"
  PIN_G "5"
  PIN_S "6"
  PIN_B "15"
  PIN_E ""
  PIN_6 ""
  XY_ID ""
  FUNC "LW Scale"
  STI "SA ref"
  WPE "WPE ref"
  COMMENT ""
  DIS_MEAS ""
  TypeTCI "10"
END_HEADER

BEGIN_DB
 ICCAP_VAR vg         0.214          
 ICCAP_VAR vb         0              
 ICCAP_VAR vs         0              

 #vd                    id                    ig                    ib                    is                   
  0                     7.8e-13               -1.2e-13              1.04e-12              -3.2e-13             
  0.05                  2.4292e-10            0                     2.4e-13               -2.4276e-10          
  0.1                   3.1224e-10            -1.4e-13              1.8e-13               -3.1172e-10          
  0.15                  3.5396e-10            -4e-14                1.26e-12              -3.5392e-10          
  0.2                   3.919e-10             -2e-13                4.6e-13               -3.9158e-10          
  0.25                  4.2922e-10            0                     6.4e-13               -4.2852e-10          
  0.3                   4.6646e-10            -1e-13                4.4e-13               -4.6588e-10          
  0.35                  5.0604e-10            -2.6e-13              -3.6e-13              -5.054e-10           
  0.4                   5.4702e-10            0                     9.2e-13               -5.4632e-10          
  0.45                  5.8672e-10            -1e-13                1.42e-12              -5.8916e-10          
  0.5                   6.3398e-10            2e-14                 1.44e-12              -6.3556e-10          
  0.55                  6.8376e-10            -1.4e-13              3.3e-12               -6.8396e-10          
  0.6                   7.3482e-10            -1.2e-13              7.8e-13               -7.3488e-10          
  0.65                  7.901e-10             -8e-14                6.6e-13               -7.8908e-10          
  0.7                   8.4688e-10            -6e-14                1.44e-12              -8.4608e-10          
  0.75                  9.0724e-10            -1e-13                3.6e-13               -9.0628e-10          
  0.8                   9.7064e-10            -2.4e-13              -4.4e-13              -9.7034e-10          
  0.85                  1.0378e-09            -1.4e-13              6e-13                 -1.03572e-09         
  0.9                   1.1046e-09            -2e-13                8.6e-13               -1.10622e-09         
  0.95                  1.1806e-09            -1e-13                4e-14                 -1.1782e-09          
  1                     1.2582e-09            -2e-13                5.2e-13               -1.2554e-09          
  1.05                  1.338e-09             -2e-13                1.48e-12              -1.3348e-09          
  1.1                   1.4214e-09            -3.6e-13              2e-14                 -1.4188e-09          
  1.15                  1.504e-09             -3.6e-13              1.2e-13               -1.505e-09           
  1.2                   1.5982e-09            -2e-13                -1e-13                -1.5958e-09          
  1.25                  1.6908e-09            -4e-13                4.4e-13               -1.686e-09           
  1.3                   1.7852e-09            -5.2e-13              1.32e-12              -1.78e-09            
  1.35                  1.8804e-09            -4.8e-13              -1.1e-12              -1.8782e-09          
END_DB

BEGIN_DB
 ICCAP_VAR vg         0.414          
 ICCAP_VAR vb         0              
 ICCAP_VAR vs         0              

 #vd                    id                    ig                    ib                    is                   
  0                     1.133e-10             3.4e-13               1.8e-12               -1.1262e-10          
  0.05                  5.145e-08             6e-14                 -4e-14                -5.1368e-08          
  0.1                   6.9894e-08            2e-13                 9.8e-13               -6.9868e-08          
  0.15                  8.1032e-08            1e-13                 8.8e-13               -8.094e-08           
  0.2                   9.0226e-08            1.6e-13               -2e-13                -9.0234e-08          
  0.25                  9.8822e-08            1.2e-13               4.4e-13               -9.8906e-08          
  0.3                   1.07612e-07           1e-13                 1.8e-13               -1.076e-07           
  0.35                  1.167e-07             4e-14                 2.8e-13               -1.16622e-07         
  0.4                   1.259e-07             2e-14                 -6.8e-13              -1.2602e-07          
  0.45                  1.355e-07             8e-14                 9.8e-13               -1.3546e-07          
  0.5                   1.4552e-07            1.6e-13               9.8e-13               -1.4556e-07          
  0.55                  1.5618e-07            1.4e-13               0                     -1.5602e-07          
  0.6                   1.669e-07             1.2e-13               1.6e-13               -1.6676e-07          
  0.65                  1.783e-07             2e-13                 9.6e-13               -1.7814e-07          
  0.7                   1.8988e-07            2.2e-13               1.1e-12               -1.8976e-07          
  0.75                  2.0182e-07            1.4e-13               6.2e-13               -2.0168e-07          
  0.8                   2.1416e-07            1.4e-13               3.4e-13               -2.1416e-07          
  0.85                  2.2656e-07            2e-14                 1e-12                 -2.2672e-07          
  0.9                   2.399e-07             1.2e-13               1.04e-12              -2.3988e-07          
  0.95                  2.5346e-07            1e-13                 2e-13                 -2.5292e-07          
  1                     2.6668e-07            0                     -1.8e-13              -2.6612e-07          
  1.05                  2.8086e-07            2e-14                 3.4e-13               -2.805e-07           
  1.1                   2.9466e-07            2e-14                 -3.6e-13              -2.9454e-07          
  1.15                  3.0886e-07            -6e-14                -3.68e-12             -3.0898e-07          
  1.2                   3.2344e-07            -1.6e-13              -7.04e-12             -3.2374e-07          
  1.25                  3.3812e-07            -1.8e-13              -1.246e-11            -3.3798e-07          
  1.3                   3.5358e-07            -3e-13                -2.26e-11             -3.5336e-07          
  1.35                  3.6788e-07            -2e-13                -3.746e-11            -3.6704e-07          
END_DB

BEGIN_DB
 ICCAP_VAR vg         0.614          
 ICCAP_VAR vb         0              
 ICCAP_VAR vs         0              

 #vd                    id                    ig                    ib                    is                   
  0                     2.2692e-09            9.2e-13               1.12e-12              -2.0168e-09          
  0.05                  1.4874e-06            7.4e-13               2.24e-12              -1.4828e-06          
  0.1                   2.3086e-06            7e-13                 -1.2e-13              -2.3042e-06          
  0.15                  2.7736e-06            5.4e-13               6e-14                 -2.7694e-06          
  0.2                   3.0758e-06            5.8e-13               3.8e-12               -3.071e-06           
  0.25                  3.3038e-06            5.2e-13               1.4e-13               -3.2996e-06          
  0.3                   3.4954e-06            4.8e-13               -4e-14                -3.492e-06           
  0.35                  3.665e-06             6e-13                 8e-14                 -3.6622e-06          
  0.4                   3.8234e-06            5.4e-13               3.2e-13               -3.8198e-06          
  0.45                  3.9716e-06            4.6e-13               -4e-14                -3.9682e-06          
  0.5                   4.1184e-06            6e-13                 5e-13                 -4.1144e-06          
  0.55                  4.2634e-06            4.2e-13               -1e-13                -4.2582e-06          
  0.6                   4.405e-06             4.2e-13               4e-14                 -4.4006e-06          
  0.65                  4.5462e-06            4.6e-13               1.04e-12              -4.5418e-06          
  0.7                   4.6864e-06            6.4e-13               -3e-13                -4.682e-06           
  0.75                  4.8264e-06            4.2e-13               2e-14                 -4.8244e-06          
  0.8                   4.964e-06             4.2e-13               7.8e-13               -4.9612e-06          
  0.85                  5.104e-06             5.6e-13               2e-13                 -5.101e-06           
  0.9                   5.2386e-06            4.2e-13               4e-13                 -5.2362e-06          
  0.95                  5.3898e-06            4.6e-13               4.6e-13               -5.4082e-06          
  1                     5.5514e-06            4e-13                 -6.8e-13              -5.5472e-06          
  1.05                  5.6884e-06            4.2e-13               -2.06e-12             -5.6832e-06          
  1.1                   5.8248e-06            3.8e-13               -4.42e-12             -5.8206e-06          
  1.15                  5.9584e-06            4.2e-13               -1.438e-11            -5.9566e-06          
  1.2                   6.095e-06             4.2e-13               -3.1e-11              -6.0918e-06          
  1.25                  6.2302e-06            3.2e-13               -6.398e-11            -6.2252e-06          
  1.3                   6.364e-06             4e-13                 -1.2366e-10           -6.3592e-06          
  1.35                  6.496e-06             3e-13                 -2.2198e-10           -6.493e-06           
END_DB

