! VERSION = 6.00
BEGIN_HEADER
 ICCAP_INPUTS
  vd         V  D GROUND SMU1 0.1 LIN        1    0          1.35       28   0.05      
  vg         V  G GROUND SMU2 0.001 LIN        2    0.534      1.35       5    0.204     
  vb         V  B GROUND SMU4 0.1 CON        -1.2
  vs         V  S GROUND SMU3 0.1 CON        0
 ICCAP_OUTPUTS
  id         I  D GROUND SMU1 B
  ig         I  G GROUND SMU2 B
  ib         I  B GROUND SMU4 B
  is         I  S GROUND SMU3 B
 ICCAP_VALUES
  MASTER_SETUP_TYPE "~dc_idvd~"
  LINVT_VALUE "|idvg|100.0n|100.0m|1.000m|5|1.350|"
  LISTVT_VALUE ""
  TYPE "1"
  TEMP " 70.0000 "
  IS_TNOM " 0.00000 "
  MAIN.W "150.0n"
  MAIN.L "180.0n"
  MAIN.AD "100.5f"
  MAIN.AS "100.5f"
  MAIN.PD "1.340u"
  MAIN.PS "1.340u"
  MAIN.NF "1.000"
  MAIN.M "1"
  MAIN.NRD "0.000"
  MAIN.NRS "0.000"
  MAIN.LDRIFT1 "1E-06"
  MAIN.LDRIFT2 "1E-06"
  MAIN.SA "0.000"
  MAIN.SB "0.000"
  MAIN.SD "0.000"
  MAIN.SCA "0.000"
  MAIN.SCB "0.000"
  MAIN.SCC "0.000"
  MAIN.SC "0.000"
  MODULE "S547"
  PIN_D "20"
  PIN_G "1"
  PIN_S "2"
  PIN_B "19"
  PIN_E ""
  PIN_6 ""
  XY_ID ""
  FUNC "LW Scale"
  STI "SA ref"
  WPE "WPE ref"
  COMMENT ""
  DIS_MEAS ""
  TypeTCI "10"
END_HEADER

BEGIN_DB
 ICCAP_VAR vg         0.534          
 ICCAP_VAR vb         -1.2           
 ICCAP_VAR vs         0              

 #vd                    id                    ig                    ib                    is                   
  0                     8.0202e-10            6.4e-13               -2.476e-11            -6.5778e-10          
  0.05                  3.2442e-07            4e-13                 -2.246e-11            -3.2442e-07          
  0.1                   4.6818e-07            4.4e-13               -2.22e-11             -4.6816e-07          
  0.15                  5.3352e-07            4.2e-13               -2.15e-11             -5.337e-07           
  0.2                   5.7102e-07            3.2e-13               -1.978e-11            -5.7104e-07          
  0.25                  5.9952e-07            3.2e-13               -1.894e-11            -5.9956e-07          
  0.3                   6.2512e-07            3.6e-13               -1.77e-11             -6.2488e-07          
  0.35                  6.4992e-07            4e-13                 -1.772e-11            -6.499e-07           
  0.4                   6.7412e-07            2.4e-13               -1.588e-11            -6.7426e-07          
  0.45                  6.9836e-07            3.6e-13               -1.556e-11            -6.9842e-07          
  0.5                   7.2272e-07            2.2e-13               -1.594e-11            -7.2278e-07          
  0.55                  7.4712e-07            3.8e-13               -1.424e-11            -7.4718e-07          
  0.6                   7.7152e-07            4.2e-13               -1.408e-11            -7.716e-07           
  0.65                  7.9614e-07            4.2e-13               -1.42e-11             -7.9608e-07          
  0.7                   8.2078e-07            3.8e-13               -1.394e-11            -8.2112e-07          
  0.75                  8.458e-07             3e-13                 -1.34e-11             -8.459e-07           
  0.8                   8.7092e-07            3.2e-13               -1.222e-11            -8.7106e-07          
  0.85                  8.962e-07             3.4e-13               -1.186e-11            -8.9624e-07          
  0.9                   9.217e-07             3.6e-13               -1.314e-11            -9.2172e-07          
  0.95                  9.4716e-07            2.4e-13               -1.11e-11             -9.473e-07           
  1                     9.7284e-07            3.6e-13               -1.18e-11             -9.7316e-07          
  1.05                  9.9892e-07            2.6e-13               -1.404e-11            -9.9874e-07          
  1.1                   1.0247e-06            3.2e-13               -1.336e-11            -1.02502e-06         
  1.15                  1.05082e-06           2.4e-13               -1.506e-11            -1.05118e-06         
  1.2                   1.07746e-06           2.8e-13               -2.192e-11            -1.07768e-06         
  1.25                  1.1042e-06            2.2e-13               -2.972e-11            -1.1042e-06          
  1.3                   1.13108e-06           2.2e-13               -4.536e-11            -1.13128e-06         
  1.35                  1.1594e-06            2.4e-13               -6.97e-11             -1.1584e-06          
END_DB

BEGIN_DB
 ICCAP_VAR vg         0.738          
 ICCAP_VAR vb         -1.2           
 ICCAP_VAR vs         0              

 #vd                    id                    ig                    ib                    is                   
  0                     2.7052e-09            1.8e-12               -6.32e-12             -2.5052e-09          
  0.05                  2.069e-06             1.54e-12              -6.68e-12             -2.0654e-06          
  0.1                   3.5778e-06            1.44e-12              -7.1e-12              -3.5742e-06          
  0.15                  4.6716e-06            1.22e-12              -6.2e-12              -4.6684e-06          
  0.2                   5.389e-06             1.24e-12              -6.7e-12              -5.3858e-06          
  0.25                  5.8704e-06            1.2e-12               -8e-12                -5.8672e-06          
  0.3                   6.194e-06             1.24e-12              -6.98e-12             -6.1426e-06          
  0.35                  6.3954e-06            1.14e-12              -6.3e-12              -6.3924e-06          
  0.4                   6.6002e-06            1.06e-12              -7.66e-12             -6.5972e-06          
  0.45                  6.8472e-06            1.12e-12              -5.92e-12             -6.8492e-06          
  0.5                   7.0222e-06            1.06e-12              -6.08e-12             -6.9434e-06          
  0.55                  7.1046e-06            1.06e-12              -7.16e-12             -7.101e-06           
  0.6                   7.2574e-06            1.1e-12               -5.94e-12             -7.2538e-06          
  0.65                  7.4048e-06            1.1e-12               -7e-12                -7.4574e-06          
  0.7                   7.6378e-06            9.6e-13               -6.24e-12             -7.6346e-06          
  0.75                  7.7846e-06            1.12e-12              -6.24e-12             -7.7806e-06          
  0.8                   7.9278e-06            1.08e-12              -6.46e-12             -7.9246e-06          
  0.85                  8.0714e-06            1.14e-12              -6.06e-12             -8.068e-06           
  0.9                   8.2124e-06            1.16e-12              -5.52e-12             -8.2086e-06          
  0.95                  8.3522e-06            1.12e-12              -6.92e-12             -8.3488e-06          
  1                     8.4916e-06            1.12e-12              -6.18e-12             -8.4874e-06          
  1.05                  8.525e-06             1.1e-12               -6.82e-12             -8.5214e-06          
  1.1                   8.6602e-06            1e-12                 -9.22e-12             -8.7616e-06          
  1.15                  8.9018e-06            1.04e-12              -1.294e-11            -8.8518e-06          
  1.2                   8.9268e-06            1.04e-12              -2.212e-11            -8.924e-06           
  1.25                  9.0596e-06            1.08e-12              -4.074e-11            -9.057e-06           
  1.3                   9.193e-06             1.02e-12              -7.312e-11            -9.1894e-06          
  1.35                  9.324e-06             1e-12                 -1.3268e-10           -9.321e-06           
END_DB

BEGIN_DB
 ICCAP_VAR vg         0.942          
 ICCAP_VAR vb         -1.2           
 ICCAP_VAR vs         0              

 #vd                    id                    ig                    ib                    is                   
  0                     3.6396e-09            5.46e-12              -2.66e-12             -4.3498e-09          
  0.05                  4.5324e-06            5.08e-12              -4.86e-12             -4.5288e-06          
  0.1                   8.3706e-06            4.44e-12              -3.7e-12              -8.3676e-06          
  0.15                  1.1514e-05            4.12e-12              -3.9e-12              -1.1508e-05          
  0.2                   1.3998e-05            3.82e-12              -4.8e-12              -1.3992e-05          
  0.25                  1.591e-05             3.6e-12               -4.22e-12             -1.5904e-05          
  0.3                   1.7358e-05            3.4e-12               -3.96e-12             -1.7352e-05          
  0.35                  1.8446e-05            3.3e-12               -4.86e-12             -1.844e-05           
  0.4                   1.9278e-05            3.2e-12               -4.28e-12             -1.9272e-05          
  0.45                  1.9932e-05            3.12e-12              -4.12e-12             -1.9926e-05          
  0.5                   2.047e-05             3.08e-12              -4.72e-12             -2.0464e-05          
  0.55                  2.093e-05             3.04e-12              -3.9e-12              -2.0924e-05          
  0.6                   2.134e-05             2.98e-12              -3.34e-12             -2.1334e-05          
  0.65                  2.1718e-05            3.04e-12              -4.58e-12             -2.1708e-05          
  0.7                   2.2066e-05            2.98e-12              -4.54e-12             -2.206e-05           
  0.75                  2.24e-05              2.92e-12              -3.54e-12             -2.2394e-05          
  0.8                   2.272e-05             2.88e-12              -4.4e-12              -2.2714e-05          
  0.85                  2.303e-05             2.88e-12              -4.5e-12              -2.3026e-05          
  0.9                   2.3334e-05            2.92e-12              -4.22e-12             -2.3328e-05          
  0.95                  2.3628e-05            2.86e-12              -4.36e-12             -2.362e-05           
  1                     2.3918e-05            2.78e-12              -4e-12                -2.391e-05           
  1.05                  2.42e-05              2.78e-12              -5.46e-12             -2.4194e-05          
  1.1                   2.4482e-05            2.88e-12              -7.96e-12             -2.4474e-05          
  1.15                  2.4756e-05            2.7e-12               -1.15e-11             -2.475e-05           
  1.2                   2.5028e-05            2.8e-12               -2.132e-11            -2.5024e-05          
  1.25                  2.5294e-05            2.8e-12               -3.956e-11            -2.5286e-05          
  1.3                   2.556e-05             2.7e-12               -7.392e-11            -2.5552e-05          
  1.35                  2.5822e-05            2.76e-12              -1.3974e-10           -2.5818e-05          
END_DB

BEGIN_DB
 ICCAP_VAR vg         1.146          
 ICCAP_VAR vb         -1.2           
 ICCAP_VAR vs         0              

 #vd                    id                    ig                    ib                    is                   
  0                     1.0284e-08            1.4e-11               -2.36e-12             -1.024e-08           
  0.05                  6.864e-06             1.27e-11              -3.44e-12             -6.8514e-06          
  0.1                   1.3062e-05            1.166e-11             -3.04e-12             -1.3056e-05          
  0.15                  1.852e-05             1.062e-11             -3.58e-12             -1.8512e-05          
  0.2                   2.3192e-05            9.88e-12              -2.76e-12             -2.3186e-05          
  0.25                  2.71e-05              9.4e-12               -3.88e-12             -2.7094e-05          
  0.3                   3.0296e-05            8.7e-12               -2.84e-12             -3.029e-05           
  0.35                  3.2858e-05            8.36e-12              -3.9e-12              -3.2852e-05          
  0.4                   3.4892e-05            8.04e-12              -4.22e-12             -3.4886e-05          
  0.45                  3.6496e-05            7.76e-12              -2.72e-12             -3.649e-05           
  0.5                   3.7752e-05            7.58e-12              -3.86e-12             -3.7768e-05          
  0.55                  3.881e-05             7.48e-12              -3.78e-12             -3.8804e-05          
  0.6                   3.968e-05             7.42e-12              -3.16e-12             -3.9674e-05          
  0.65                  4.041e-05             7.24e-12              -2.98e-12             -4.0398e-05          
  0.7                   4.1052e-05            7.16e-12              -3.98e-12             -4.1044e-05          
  0.75                  4.1632e-05            7.1e-12               -2.56e-12             -4.1624e-05          
  0.8                   4.2162e-05            7.08e-12              -3.7e-12              -4.2154e-05          
  0.85                  4.2662e-05            6.96e-12              -3.9e-12              -4.2654e-05          
  0.9                   4.3134e-05            6.92e-12              -2.94e-12             -4.313e-05           
  0.95                  4.3584e-05            6.84e-12              -3.12e-12             -4.3582e-05          
  1                     4.4018e-05            6.86e-12              -4.36e-12             -4.4016e-05          
  1.05                  4.443e-05             6.82e-12              -3.8e-12              -4.4438e-05          
  1.1                   4.4862e-05            6.8e-12               -6.54e-12             -4.4856e-05          
  1.15                  4.5262e-05            6.68e-12              -1.134e-11            -4.5256e-05          
  1.2                   4.5656e-05            6.66e-12              -1.796e-11            -4.5652e-05          
  1.25                  4.6042e-05            6.6e-12               -3.548e-11            -4.6036e-05          
  1.3                   4.642e-05             6.56e-12              -6.56e-11             -4.6418e-05          
  1.35                  4.6796e-05            6.52e-12              -1.2294e-10           -4.679e-05           
END_DB

BEGIN_DB
 ICCAP_VAR vg         1.35           
 ICCAP_VAR vb         -1.2           
 ICCAP_VAR vs         0              

 #vd                    id                    ig                    ib                    is                   
  0                     1.3158e-08            3.044e-11             -2.02e-12             -1.3024e-08          
  0.05                  8.7938e-06            2.804e-11             -2.76e-12             -8.7952e-06          
  0.1                   1.701e-05             2.59e-11              -2.3e-12              -1.6994e-05          
  0.15                  2.4504e-05            2.414e-11             -3.1e-12              -2.4496e-05          
  0.2                   3.1206e-05            2.252e-11             -2.22e-12             -3.1188e-05          
  0.25                  3.707e-05             2.1e-11               -2.96e-12             -3.7044e-05          
  0.3                   4.2148e-05            1.972e-11             -3.2e-12              -4.215e-05           
  0.35                  4.6432e-05            1.87e-11              -2.78e-12             -4.6444e-05          
  0.4                   5.0022e-05            1.798e-11             -3.62e-12             -5.0016e-05          
  0.45                  5.2928e-05            1.722e-11             -3.88e-12             -5.2954e-05          
  0.5                   5.5338e-05            1.662e-11             -1.98e-12             -5.535e-05           
  0.55                  5.733e-05             1.618e-11             -2.72e-12             -5.7342e-05          
  0.6                   5.8946e-05            1.584e-11             -3.32e-12             -5.8942e-05          
  0.65                  6.0266e-05            1.548e-11             -2.2e-12              -6.0252e-05          
  0.7                   6.1384e-05            1.526e-11             -2.64e-12             -6.1368e-05          
  0.75                  6.2344e-05            1.51e-11              -3.8e-12              -6.2336e-05          
  0.8                   6.318e-05             1.5e-11               -2.68e-12             -6.3172e-05          
  0.85                  6.3938e-05            1.47e-11              -2.42e-12             -6.393e-05           
  0.9                   6.4626e-05            1.454e-11             -2.56e-12             -6.4622e-05          
  0.95                  6.5268e-05            1.448e-11             -1.56e-12             -6.526e-05           
  1                     6.586e-05             1.446e-11             -3.42e-12             -6.5862e-05          
  1.05                  6.6432e-05            1.424e-11             -4.72e-12             -6.6428e-05          
  1.1                   6.6976e-05            1.422e-11             -4.98e-12             -6.6974e-05          
  1.15                  6.7492e-05            1.422e-11             -9.58e-12             -6.7486e-05          
  1.2                   6.7984e-05            1.4e-11               -1.598e-11            -6.8e-05             
  1.25                  6.8498e-05            1.412e-11             -2.822e-11            -6.8498e-05          
  1.3                   6.898e-05             1.392e-11             -5.476e-11            -6.8976e-05          
  1.35                  6.9448e-05            1.386e-11             -1.0132e-10           -6.9412e-05          
END_DB

