! VERSION = 6.00
BEGIN_HEADER
 ICCAP_INPUTS
  vd         V  D GROUND SMU1 0.1 LIN        1    0          1.35       28   0.05      
  vg         V  G GROUND SMU2 0.001 LIN        2    0.618      1.35       5    0.183     
  vb         V  B GROUND SMU4 0.1 CON        -1.2
  vs         V  S GROUND SMU3 0.1 CON        0
 ICCAP_OUTPUTS
  id         I  D GROUND SMU1 B
  ig         I  G GROUND SMU2 B
  ib         I  B GROUND SMU4 B
  is         I  S GROUND SMU3 B
 ICCAP_VALUES
  MASTER_SETUP_TYPE "~dc_idvd~"
  LINVT_VALUE "|idvg|100.0n|100.0m|1.000m|5|1.350|"
  LISTVT_VALUE ""
  TYPE "1"
  TEMP " 27.0000 "
  IS_TNOM " 1.00000 "
  MAIN.W "150.0n"
  MAIN.L "130.0n"
  MAIN.AD "100.5f"
  MAIN.AS "100.5f"
  MAIN.PD "1.340u"
  MAIN.PS "1.340u"
  MAIN.NF "1.000"
  MAIN.M "1"
  MAIN.NRD "0.000"
  MAIN.NRS "0.000"
  MAIN.LDRIFT1 "1E-06"
  MAIN.LDRIFT2 "1E-06"
  MAIN.SA "0.000"
  MAIN.SB "0.000"
  MAIN.SD "0.000"
  MAIN.SCA "0.000"
  MAIN.SCB "0.000"
  MAIN.SCC "0.000"
  MAIN.SC "0.000"
  MODULE "S546"
  PIN_D "16"
  PIN_G "5"
  PIN_S "6"
  PIN_B "15"
  PIN_E ""
  PIN_6 ""
  XY_ID ""
  FUNC "Small"
  STI "SA ref"
  WPE "WPE ref"
  COMMENT ""
  DIS_MEAS ""
  TypeTCI "10"
END_HEADER

BEGIN_DB
 ICCAP_VAR vg         0.618          
 ICCAP_VAR vb         -1.2           
 ICCAP_VAR vs         0              

 #vd                    id                    ig                    ib                    is                   
  0                     8.279e-10             1.5e-12               -1.424e-11            -5.8498e-10          
  0.05                  4.3042e-07            1.46e-12              -1.238e-11            -4.306e-07           
  0.1                   6.0952e-07            1.38e-12              -1.248e-11            -6.0908e-07          
  0.15                  6.9716e-07            1.24e-12              -1.238e-11            -6.9742e-07          
  0.2                   7.5656e-07            1.28e-12              -1.124e-11            -7.5678e-07          
  0.25                  8.0778e-07            1.32e-12              -1.018e-11            -8.0794e-07          
  0.3                   8.5648e-07            1.24e-12              -1.094e-11            -8.5708e-07          
  0.35                  9.0448e-07            1.2e-12               -9.96e-12             -9.0468e-07          
  0.4                   9.5366e-07            1.38e-12              -8.38e-12             -9.5428e-07          
  0.45                  1.00058e-06           1.34e-12              -8.68e-12             -1.00088e-06         
  0.5                   1.05184e-06           1.28e-12              -9e-12                -1.05198e-06         
  0.55                  1.10384e-06           1.18e-12              -8.82e-12             -1.10724e-06         
  0.6                   1.1618e-06            1.26e-12              -8.14e-12             -1.16166e-06         
  0.65                  1.219e-06             1.3e-12               -7.76e-12             -1.2142e-06          
  0.7                   1.2762e-06            1.24e-12              -4.9e-12              -1.273e-06           
  0.75                  1.3374e-06            1.2e-12               -6.38e-12             -1.334e-06           
  0.8                   1.4e-06               1.26e-12              -7.52e-12             -1.3958e-06          
  0.85                  1.4662e-06            1.16e-12              -6.24e-12             -1.4634e-06          
  0.9                   1.5344e-06            1.26e-12              -6.12e-12             -1.5304e-06          
  0.95                  1.6058e-06            1.28e-12              -7.34e-12             -1.6004e-06          
  1                     1.6814e-06            1.28e-12              -6.32e-12             -1.6766e-06          
  1.05                  1.7578e-06            1.18e-12              -6.58e-12             -1.7522e-06          
  1.1                   1.8378e-06            1.18e-12              -8.3e-12              -1.8336e-06          
  1.15                  1.922e-06             1.22e-12              -1.086e-11            -1.9176e-06          
  1.2                   2.0084e-06            1.32e-12              -1.646e-11            -2.0052e-06          
  1.25                  2.1e-06               1.12e-12              -3.05e-11             -2.0958e-06          
  1.3                   2.1966e-06            1.02e-12              -5.268e-11            -2.1912e-06          
  1.35                  2.2974e-06            1.14e-12              -9.004e-11            -2.2934e-06          
END_DB

BEGIN_DB
 ICCAP_VAR vg         0.801          
 ICCAP_VAR vb         -1.2           
 ICCAP_VAR vs         0              

 #vd                    id                    ig                    ib                    is                   
  0                     2.5672e-09            4.86e-12              -3.66e-12             -2.7638e-09          
  0.05                  3.2318e-06            4.58e-12              -3.26e-12             -3.2242e-06          
  0.1                   5.4524e-06            4.44e-12              -3.8e-12              -5.4482e-06          
  0.15                  6.9086e-06            4.3e-12               -4.52e-12             -6.9152e-06          
  0.2                   7.8668e-06            4.12e-12              -3.06e-12             -7.8636e-06          
  0.25                  8.5018e-06            3.9e-12               -3.84e-12             -8.487e-06           
  0.3                   8.965e-06             4.06e-12              -4e-12                -8.9606e-06          
  0.35                  9.369e-06             4e-12                 -3.68e-12             -9.3662e-06          
  0.4                   9.7092e-06            3.94e-12              -3.56e-12             -9.705e-06           
  0.45                  1.00246e-05           3.88e-12              -4.46e-12             -1.00216e-05         
  0.5                   1.03286e-05           3.86e-12              -3.66e-12             -1.03038e-05         
  0.55                  1.06028e-05           3.98e-12              -3.98e-12             -1.0598e-05          
  0.6                   1.09198e-05           3.84e-12              -4.18e-12             -1.09142e-05         
  0.65                  1.1222e-05            3.94e-12              -3.68e-12             -1.11604e-05         
  0.7                   1.1516e-05            3.82e-12              -3.92e-12             -1.14806e-05         
  0.75                  1.1814e-05            3.82e-12              -3.68e-12             -1.1796e-05          
  0.8                   1.2088e-05            3.88e-12              -3.96e-12             -1.2098e-05          
  0.85                  1.2414e-05            3.86e-12              -3.38e-12             -1.2368e-05          
  0.9                   1.272e-05             3.82e-12              -3.54e-12             -1.2698e-05          
  0.95                  1.3e-05               3.86e-12              -3.94e-12             -1.3008e-05          
  1                     1.3346e-05            3.8e-12               -3.3e-12              -1.333e-05           
  1.05                  1.3666e-05            3.88e-12              -5.76e-12             -1.3648e-05          
  1.1                   1.3984e-05            3.76e-12              -8.88e-12             -1.3968e-05          
  1.15                  1.4284e-05            3.76e-12              -1.558e-11            -1.4296e-05          
  1.2                   1.4648e-05            3.72e-12              -3.17e-11             -1.46e-05            
  1.25                  1.4956e-05            3.78e-12              -6.334e-11            -1.4938e-05          
  1.3                   1.5328e-05            3.78e-12              -1.227e-10            -1.532e-05           
  1.35                  1.5692e-05            3.86e-12              -2.3104e-10           -1.5674e-05          
END_DB

BEGIN_DB
 ICCAP_VAR vg         0.984          
 ICCAP_VAR vb         -1.2           
 ICCAP_VAR vs         0              

 #vd                    id                    ig                    ib                    is                   
  0                     2.8048e-09            1.128e-11             -2.16e-12             -4.6752e-09          
  0.05                  7.1964e-06            1.078e-11             -1.94e-12             -7.1952e-06          
  0.1                   1.3116e-05            1.036e-11             -1.4e-12              -1.31e-05            
  0.15                  1.7744e-05            1.006e-11             -2.5e-12              -1.7716e-05          
  0.2                   2.1198e-05            9.64e-12              -3e-12                -2.1194e-05          
  0.25                  2.3752e-05            9.44e-12              -2.64e-12             -2.3738e-05          
  0.3                   2.56e-05              9.16e-12              -2.92e-12             -2.556e-05           
  0.35                  2.696e-05             9.12e-12              -2.94e-12             -2.694e-05           
  0.4                   2.803e-05             9.02e-12              -1.08e-12             -2.8014e-05          
  0.45                  2.891e-05             8.98e-12              -2.34e-12             -2.8896e-05          
  0.5                   2.966e-05             8.94e-12              -3.08e-12             -2.968e-05           
  0.55                  3.0348e-05            8.76e-12              -1.5e-12              -3.0332e-05          
  0.6                   3.0984e-05            8.8e-12               -2.26e-12             -3.0948e-05          
  0.65                  3.1606e-05            8.84e-12              -2.62e-12             -3.157e-05           
  0.7                   3.2162e-05            8.8e-12               -1.68e-12             -3.214e-05           
  0.75                  3.274e-05             8.72e-12              -2.36e-12             -3.272e-05           
  0.8                   3.331e-05             8.66e-12              -4.58e-12             -3.3288e-05          
  0.85                  3.385e-05             8.5e-12               -2.48e-12             -3.3842e-05          
  0.9                   3.4398e-05            8.7e-12               -2.42e-12             -3.4398e-05          
  0.95                  3.4944e-05            8.7e-12               -2.76e-12             -3.4922e-05          
  1                     3.549e-05             8.72e-12              -3.1e-12              -3.5484e-05          
  1.05                  3.603e-05             8.58e-12              -6.22e-12             -3.6016e-05          
  1.1                   3.6574e-05            8.68e-12              -1.156e-11            -3.6568e-05          
  1.15                  3.7142e-05            8.46e-12              -2.264e-11            -3.7102e-05          
  1.2                   3.7712e-05            8.44e-12              -4.79e-11             -3.7648e-05          
  1.25                  3.8244e-05            8.46e-12              -9.406e-11            -3.8208e-05          
  1.3                   3.8814e-05            8.4e-12               -1.8084e-10           -3.875e-05           
  1.35                  3.9334e-05            8.38e-12              -3.374e-10            -3.9314e-05          
END_DB

BEGIN_DB
 ICCAP_VAR vg         1.167          
 ICCAP_VAR vb         -1.2           
 ICCAP_VAR vs         0              

 #vd                    id                    ig                    ib                    is                   
  0                     1.2922e-08            2.204e-11             -5.6e-13              -1.2388e-08          
  0.05                  1.0884e-05            2.114e-11             -1.72e-12             -1.0866e-05          
  0.1                   2.0436e-05            2.02e-11              -1.26e-12             -2.043e-05           
  0.15                  2.851e-05             1.96e-11              -1.62e-12             -2.8494e-05          
  0.2                   3.506e-05             1.882e-11             -2.58e-12             -3.5038e-05          
  0.25                  4.0194e-05            1.832e-11             -2.1e-12              -4.0238e-05          
  0.3                   4.4248e-05            1.784e-11             -2.32e-12             -4.4232e-05          
  0.35                  4.7328e-05            1.758e-11             -2.7e-12              -4.7314e-05          
  0.4                   4.9676e-05            1.728e-11             -1.2e-12              -4.971e-05           
  0.45                  5.1576e-05            1.7e-11               -1.86e-12             -5.1592e-05          
  0.5                   5.3096e-05            1.684e-11             -2.96e-12             -5.3116e-05          
  0.55                  5.4406e-05            1.668e-11             -1.06e-12             -5.439e-05           
  0.6                   5.5494e-05            1.668e-11             -2.36e-12             -5.546e-05           
  0.65                  5.6458e-05            1.672e-11             -1.66e-12             -5.6506e-05          
  0.7                   5.7414e-05            1.654e-11             -1.1e-12              -5.7328e-05          
  0.75                  5.8292e-05            1.646e-11             -3.76e-12             -5.8248e-05          
  0.8                   5.906e-05             1.644e-11             -2.62e-12             -5.9038e-05          
  0.85                  5.9884e-05            1.642e-11             -1.28e-12             -5.9832e-05          
  0.9                   6.067e-05             1.638e-11             -2.5e-12              -6.0666e-05          
  0.95                  6.1388e-05            1.632e-11             -3.42e-12             -6.1406e-05          
  1                     6.2202e-05            1.632e-11             -3.62e-12             -6.2128e-05          
  1.05                  6.282e-05             1.62e-11              -8.64e-12             -6.2858e-05          
  1.1                   6.3602e-05            1.624e-11             -1.592e-11            -6.3576e-05          
  1.15                  6.4314e-05            1.616e-11             -3.078e-11            -6.4282e-05          
  1.2                   6.4998e-05            1.598e-11             -6.314e-11            -6.5032e-05          
  1.25                  6.5718e-05            1.612e-11             -1.1986e-10           -6.5722e-05          
  1.3                   6.6464e-05            1.606e-11             -2.2532e-10           -6.6444e-05          
  1.35                  6.7172e-05            1.594e-11             -4.1252e-10           -6.7156e-05          
END_DB

BEGIN_DB
 ICCAP_VAR vg         1.35           
 ICCAP_VAR vb         -1.2           
 ICCAP_VAR vs         0              

 #vd                    id                    ig                    ib                    is                   
  0                     1.6658e-08            3.8e-11               -4.6e-13              -1.6396e-08          
  0.05                  1.3938e-05            3.652e-11             -1.5e-12              -1.3912e-05          
  0.1                   2.6608e-05            3.506e-11             -1.6e-12              -2.6604e-05          
  0.15                  3.7748e-05            3.378e-11             -8.6e-13              -3.7714e-05          
  0.2                   4.7184e-05            3.272e-11             -1.96e-12             -4.716e-05           
  0.25                  5.508e-05             3.182e-11             -1.42e-12             -5.4994e-05          
  0.3                   6.1546e-05            3.086e-11             -2.06e-12             -6.1452e-05          
  0.35                  6.6618e-05            3.018e-11             -2.68e-12             -6.668e-05           
  0.4                   7.0742e-05            2.962e-11             -1.56e-12             -7.0854e-05          
  0.45                  7.4188e-05            2.92e-11              -1.18e-12             -7.414e-05           
  0.5                   7.6894e-05            2.876e-11             -1.88e-12             -7.6816e-05          
  0.55                  7.9022e-05            2.832e-11             -1.54e-12             -7.9036e-05          
  0.6                   8.0806e-05            2.81e-11              -1.4e-12              -8.0922e-05          
  0.65                  8.2408e-05            2.794e-11             -2.22e-12             -8.2366e-05          
  0.7                   8.3824e-05            2.778e-11             -1.38e-12             -8.3764e-05          
  0.75                  8.498e-05             2.77e-11              -1.54e-12             -8.498e-05           
  0.8                   8.6146e-05            2.75e-11              -2.38e-12             -8.6174e-05          
  0.85                  8.7332e-05            2.746e-11             -1.72e-12             -8.718e-05           
  0.9                   8.827e-05             2.718e-11             -2.14e-12             -8.8224e-05          
  0.95                  8.922e-05             2.738e-11             -3.78e-12             -8.9248e-05          
  1                     9.0098e-05            2.72e-11              -4.84e-12             -9.013e-05           
  1.05                  9.1032e-05            2.712e-11             -8.52e-12             -9.096e-05           
  1.1                   9.1984e-05            2.7e-11               -2.014e-11            -9.1956e-05          
  1.15                  9.282e-05             2.692e-11             -3.766e-11            -9.2788e-05          
  1.2                   9.3662e-05            2.69e-11              -7.35e-11             -9.3656e-05          
  1.25                  9.4552e-05            2.68e-11              -1.3984e-10           -9.4512e-05          
  1.3                   9.539e-05             2.678e-11             -2.5602e-10           -9.5364e-05          
  1.35                  9.6188e-05            2.678e-11             -4.5872e-10           -9.6192e-05          
END_DB

