! VERSION = 6.00
BEGIN_HEADER
 ICCAP_INPUTS
  vd         V  D GROUND SMU1 0.1 LIN        1    0          1.35       28   0.05      
  vg         V  G GROUND SMU2 0.001 LIN        2    0.474      1.35       5    0.219     
  vb         V  B GROUND SMU4 0.1 CON        0
  vs         V  S GROUND SMU3 0.1 CON        0
 ICCAP_OUTPUTS
  id         I  D GROUND SMU1 B
  ig         I  G GROUND SMU2 B
  ib         I  B GROUND SMU4 B
  is         I  S GROUND SMU3 B
 ICCAP_VALUES
  MASTER_SETUP_TYPE "~dc_idvd~"
  LINVT_VALUE "|idvg|100.0n|100.0m|1.000m|5|1.350|"
  LISTVT_VALUE ""
  TYPE "1"
  TEMP " 27.0000 "
  IS_TNOM " 1.00000 "
  MAIN.W "10.00u"
  MAIN.L "130.0n"
  MAIN.AD "3.400p"
  MAIN.AS "3.400p"
  MAIN.PD "20.68u"
  MAIN.PS "20.68u"
  MAIN.NF "1.000"
  MAIN.M "1"
  MAIN.NRD "0.000"
  MAIN.NRS "0.000"
  MAIN.LDRIFT1 "1E-06"
  MAIN.LDRIFT2 "1E-06"
  MAIN.SA "0.000"
  MAIN.SB "0.000"
  MAIN.SD "0.000"
  MAIN.SCA "0.000"
  MAIN.SCB "0.000"
  MAIN.SCC "0.000"
  MAIN.SC "0.000"
  MODULE "S540"
  PIN_D "18"
  PIN_G "3"
  PIN_S "4"
  PIN_B "17"
  PIN_E ""
  PIN_6 ""
  XY_ID ""
  FUNC "Short"
  STI "SA ref"
  WPE "WPE ref"
  COMMENT ""
  DIS_MEAS ""
  TypeTCI "10"
END_HEADER

BEGIN_DB
 ICCAP_VAR vg         0.474          
 ICCAP_VAR vb         0              
 ICCAP_VAR vs         0              

 #vd                    id                    ig                    ib                    is                   
  0                     6.8014e-08            8.88e-12              8.68e-12              -5.2284e-08          
  0.05                  2.6024e-05            7.1e-12               8.36e-12              -2.603e-05           
  0.1                   3.723e-05             6.22e-12              6.8e-12               -3.7172e-05          
  0.15                  4.2506e-05            5.44e-12              6.34e-12              -4.2436e-05          
  0.2                   4.587e-05             5.28e-12              6.68e-12              -4.5996e-05          
  0.25                  4.856e-05             5.04e-12              4.82e-12              -4.8676e-05          
  0.3                   5.1146e-05            4.86e-12              5.24e-12              -5.1092e-05          
  0.35                  5.3466e-05            4.78e-12              5.48e-12              -5.3474e-05          
  0.4                   5.563e-05             4.7e-12               4.76e-12              -5.5582e-05          
  0.45                  5.7984e-05            4.72e-12              5.1e-12               -5.795e-05           
  0.5                   5.999e-05             4.74e-12              5.54e-12              -6.0066e-05          
  0.55                  6.246e-05             4.62e-12              4.8e-12               -6.2446e-05          
  0.6                   6.4466e-05            4.64e-12              5.02e-12              -6.4502e-05          
  0.65                  6.6758e-05            4.54e-12              3.9e-12               -6.6644e-05          
  0.7                   6.903e-05             4.5e-12               3.18e-12              -6.8778e-05          
  0.75                  7.1286e-05            4.26e-12              3.64e-12              -7.1134e-05          
  0.8                   7.3582e-05            4.14e-12              3.82e-12              -7.3652e-05          
  0.85                  7.5932e-05            4.1e-12               2.56e-12              -7.6002e-05          
  0.9                   7.8468e-05            3.76e-12              2.28e-12              -7.8488e-05          
  0.95                  8.0896e-05            3.32e-12              -3.1e-12              -8.0684e-05          
  1                     8.3248e-05            2.88e-12              -1.582e-11            -8.3328e-05          
  1.05                  8.5886e-05            2.2e-12               -4.954e-11            -8.5934e-05          
  1.1                   8.8532e-05            1.62e-12              -1.3012e-10           -8.8624e-05          
  1.15                  9.1136e-05            6.4e-13               -3.0912e-10           -9.1088e-05          
  1.2                   9.3986e-05            -2.8e-13              -6.702e-10            -9.3864e-05          
  1.25                  9.644e-05             -1.5e-12              -1.3462e-09           -9.6372e-05          
  1.3                   9.9216e-05            -3.1e-12              -2.5308e-09           -9.9256e-05          
  1.35                  0.000102326           -4.84e-12             -4.4908e-09           -0.000102212         
END_DB

BEGIN_DB
 ICCAP_VAR vg         0.693          
 ICCAP_VAR vb         0              
 ICCAP_VAR vs         0              

 #vd                    id                    ig                    ib                    is                   
  0                     5.8506e-07            5.04e-11              2.48e-12              -2.3786e-07          
  0.05                  0.00021262            4.298e-11             2.6e-12               -0.0002122           
  0.1                   0.00036078            3.762e-11             2.88e-12              -0.00036046          
  0.15                  0.00045848            3.352e-11             1.5e-12               -0.00045814          
  0.2                   0.00052186            3.08e-11              2.96e-12              -0.00052148          
  0.25                  0.0005641             2.89e-11              2.12e-12              -0.00056372          
  0.3                   0.00059412            2.758e-11             6.8e-13               -0.00059372          
  0.35                  0.00061722            2.678e-11             2.16e-12              -0.00061682          
  0.4                   0.00063652            2.63e-11              1.28e-12              -0.00063612          
  0.45                  0.00065352            2.59e-11              9.6e-13               -0.00065288          
  0.5                   0.00066918            2.55e-11              2.82e-12              -0.00066842          
  0.55                  0.00068336            2.546e-11             1.36e-12              -0.00068316          
  0.6                   0.00069784            2.518e-11             9.8e-13               -0.00069754          
  0.65                  0.00071162            2.51e-11              1.82e-12              -0.00071122          
  0.7                   0.00072498            2.514e-11             1.68e-12              -0.00072466          
  0.75                  0.0007383             2.484e-11             1.14e-12              -0.0007379           
  0.8                   0.0007513             2.468e-11             1.46e-12              -0.00075088          
  0.85                  0.00076416            2.462e-11             -1.02e-12             -0.00076382          
  0.9                   0.00077702            2.438e-11             -6.28e-12             -0.00077668          
  0.95                  0.00078978            2.43e-11              -1.926e-11            -0.0007895           
  1                     0.00080234            2.41e-11              -5.688e-11            -0.0008018           
  1.05                  0.00081514            2.374e-11             -1.499e-10            -0.0008146           
  1.1                   0.00082768            2.336e-11             -3.7504e-10           -0.00082722          
  1.15                  0.00084042            2.3e-11               -8.871e-10            -0.00084002          
  1.2                   0.00085302            2.254e-11             -1.9724e-09           -0.00085264          
  1.25                  0.00086558            2.204e-11             -4.1258e-09           -0.0008652           
  1.3                   0.00087852            2.132e-11             -8.1416e-09           -0.00087806          
  1.35                  0.00089108            2.042e-11             -1.5186e-08           -0.00089044          
END_DB

BEGIN_DB
 ICCAP_VAR vg         0.912          
 ICCAP_VAR vb         0              
 ICCAP_VAR vs         0              

 #vd                    id                    ig                    ib                    is                   
  0                     7.164e-07             1.7926e-10            1.14e-12              3.306e-08            
  0.05                  0.00046624            1.5902e-10            2.14e-12              -0.00046588          
  0.1                   0.00085194            1.419e-10             1.08e-12              -0.00085174          
  0.15                  0.0011546             1.2836e-10            2.12e-12              -0.0011528           
  0.2                   0.001381              1.1754e-10            2e-13                 -0.0013794           
  0.25                  0.001547              1.0928e-10            1.14e-12              -0.0015454           
  0.3                   0.0016676             1.032e-10             2.18e-12              -0.0016662           
  0.35                  0.0017566             9.85e-11              7e-13                 -0.0017548           
  0.4                   0.001823              9.496e-11             6e-13                 -0.0018216           
  0.45                  0.0018756             9.276e-11             1.56e-12              -0.0018738           
  0.5                   0.0019184             9.074e-11             5.2e-13               -0.0019168           
  0.55                  0.001955              8.94e-11              1.32e-12              -0.0019534           
  0.6                   0.0019878             8.84e-11              1.26e-12              -0.0019858           
  0.65                  0.0020166             8.754e-11             8e-14                 -0.0020148           
  0.7                   0.0020444             8.676e-11             1.06e-12              -0.0020422           
  0.75                  0.0020702             8.608e-11             6.4e-13               -0.0020688           
  0.8                   0.0020956             8.56e-11              -2.82e-12             -0.002094            
  0.85                  0.0021194             8.508e-11             -5.56e-12             -0.0021174           
  0.9                   0.0021428             8.488e-11             -1.688e-11            -0.0021412           
  0.95                  0.0021658             8.438e-11             -4.804e-11            -0.0021638           
  1                     0.0021878             8.39e-11              -1.1964e-10           -0.0021862           
  1.05                  0.0022098             8.362e-11             -2.8982e-10           -0.0022082           
  1.1                   0.0022316             8.328e-11             -6.6556e-10           -0.0022296           
  1.15                  0.002253              8.276e-11             -1.4648e-09           -0.0022512           
  1.2                   0.002274              8.23e-11              -3.0908e-09           -0.0022724           
  1.25                  0.002295              8.192e-11             -6.236e-09            -0.0022936           
  1.3                   0.0023164             8.134e-11             -1.2054e-08           -0.0023146           
  1.35                  0.0023372             8.092e-11             -2.229e-08            -0.0023356           
END_DB

BEGIN_DB
 ICCAP_VAR vg         1.131          
 ICCAP_VAR vb         0              
 ICCAP_VAR vs         0              

 #vd                    id                    ig                    ib                    is                   
  0                     1.058e-06             4.7098e-10            9.2e-13               8.806e-08            
  0.05                  0.00067616            4.2816e-10            6.2e-13               -0.00067578          
  0.1                   0.0012762             3.9146e-10            1.2e-12               -0.0012744           
  0.15                  0.0017824             3.6006e-10            1.64e-12              -0.0017804           
  0.2                   0.0021942             3.3342e-10            3.4e-13               -0.0021926           
  0.25                  0.0025214             3.1106e-10            2e-13                 -0.0025198           
  0.3                   0.0027774             2.928e-10             6.2e-13               -0.0027754           
  0.35                  0.0029746             2.7786e-10            -1.8e-13              -0.0029728           
  0.4                   0.003128              2.6606e-10            1.24e-12              -0.0031264           
  0.45                  0.0032466             2.566e-10             1e-12                 -0.0032452           
  0.5                   0.003341              2.494e-10             -5.6e-13              -0.0033386           
  0.55                  0.0034156             2.436e-10             1.06e-12              -0.0034144           
  0.6                   0.0034782             2.3916e-10            -4e-14                -0.003477            
  0.65                  0.0035322             2.3544e-10            -2.2e-13              -0.0035302           
  0.7                   0.0035788             2.3244e-10            -2.58e-12             -0.003577            
  0.75                  0.003621              2.3008e-10            -8.8e-13              -0.0036188           
  0.8                   0.003659              2.281e-10             -3.12e-12             -0.0036578           
  0.85                  0.003695              2.2634e-10            -8.66e-12             -0.0036934           
  0.9                   0.0037284             2.2474e-10            -2.884e-11            -0.0037268           
  0.95                  0.003761              2.2346e-10            -7.43e-11             -0.0037594           
  1                     0.003792              2.2208e-10            -1.7766e-10           -0.0037902           
  1.05                  0.0038208             2.2106e-10            -4.0836e-10           -0.0038196           
  1.1                   0.0038498             2.1994e-10            -8.9466e-10           -0.0038482           
  1.15                  0.0038776             2.1884e-10            -1.8826e-09           -0.003876            
  1.2                   0.0039054             2.1782e-10            -3.8168e-09           -0.003904            
  1.25                  0.0039318             2.169e-10             -7.4364e-09           -0.0039302           
  1.3                   0.003958              2.1598e-10            -1.3984e-08           -0.003957            
  1.35                  0.0039844             2.1498e-10            -2.5356e-08           -0.003982            
END_DB

BEGIN_DB
 ICCAP_VAR vg         1.35           
 ICCAP_VAR vb         0              
 ICCAP_VAR vs         0              

 #vd                    id                    ig                    ib                    is                   
  0                     1.2088e-06            1.0444e-09            -1.4e-13              -1.177e-06           
  0.05                  0.00082932            9.633e-10             1e-13                 -0.00082888          
  0.1                   0.0015918             8.9274e-10            1.86e-12              -0.00159             
  0.15                  0.0022636             8.3066e-10            -4e-13                -0.002262            
  0.2                   0.002838              7.7674e-10            -4e-13                -0.0028364           
  0.25                  0.0033184             7.2944e-10            8e-13                 -0.0033168           
  0.3                   0.003713              6.8844e-10            -6.4e-13              -0.0037112           
  0.35                  0.004034              6.5344e-10            2.2e-13               -0.0040324           
  0.4                   0.0042938             6.24e-10              5.8e-13               -0.0042918           
  0.45                  0.0045014             5.9922e-10            4e-14                 -0.0044996           
  0.5                   0.004669              5.7886e-10            1.34e-12              -0.0046676           
  0.55                  0.0048054             5.6216e-10            4e-13                 -0.0048038           
  0.6                   0.004917              5.4816e-10            -3.4e-13              -0.0049154           
  0.65                  0.0050088             5.37e-10              8.2e-13               -0.0050068           
  0.7                   0.0050864             5.2776e-10            -3.4e-13              -0.0050844           
  0.75                  0.0051526             5.2002e-10            -1.76e-12             -0.0051508           
  0.8                   0.005211              5.1366e-10            -3.64e-12             -0.0052096           
  0.85                  0.005263              5.084e-10             -1.342e-11            -0.0052618           
  0.9                   0.0053106             5.0366e-10            -3.632e-11            -0.0053092           
  0.95                  0.0053548             4.9962e-10            -8.872e-11            -0.0053532           
  1                     0.0053958             4.9616e-10            -2.1064e-10           -0.0053944           
  1.05                  0.005434              4.9314e-10            -4.7026e-10           -0.005433            
  1.1                   0.005471              4.9032e-10            -1.00332e-09          -0.0054692           
  1.15                  0.0055062             4.8756e-10            -2.0646e-09           -0.0055042           
  1.2                   0.0055394             4.8512e-10            -4.0882e-09           -0.0055374           
  1.25                  0.0055714             4.8294e-10            -7.7986e-09           -0.00557             
  1.3                   0.0056028             4.8092e-10            -1.4396e-08           -0.0056014           
  1.35                  0.0056338             4.7872e-10            -2.569e-08            -0.005632            
END_DB

