! VERSION = 6.00
BEGIN_HEADER
 ICCAP_INPUTS
  vd         V  D GROUND SMU1 0.1 LIN        1    0          1.35       28   0.05      
  vg         V  G GROUND SMU2 0.001 LIN        2    0.182      1.35       5    0.292     
  vb         V  B GROUND SMU4 0.1 CON        0
  vs         V  S GROUND SMU3 0.1 CON        0
 ICCAP_OUTPUTS
  id         I  D GROUND SMU1 B
  ig         I  G GROUND SMU2 B
  ib         I  B GROUND SMU4 B
  is         I  S GROUND SMU3 B
 ICCAP_VALUES
  MASTER_SETUP_TYPE "~dc_idvd~"
  LINVT_VALUE "|idvg|100.0n|100.0m|1.000m|5|1.350|"
  LISTVT_VALUE ""
  TYPE "1"
  TEMP " 125.000 "
  IS_TNOM " 0.00000 "
  MAIN.W "300.0n"
  MAIN.L "10.00u"
  MAIN.AD "102.0f"
  MAIN.AS "102.0f"
  MAIN.PD "1.280u"
  MAIN.PS "1.280u"
  MAIN.NF "1.000"
  MAIN.M "1"
  MAIN.NRD "0.000"
  MAIN.NRS "0.000"
  MAIN.LDRIFT1 "1E-06"
  MAIN.LDRIFT2 "1E-06"
  MAIN.SA "0.000"
  MAIN.SB "0.000"
  MAIN.SD "0.000"
  MAIN.SCA "0.000"
  MAIN.SCB "0.000"
  MAIN.SCC "0.000"
  MAIN.SC "0.000"
  MODULE "S545"
  PIN_D "18"
  PIN_G "3"
  PIN_S "4"
  PIN_B "17"
  PIN_E ""
  PIN_6 ""
  XY_ID ""
  FUNC "W Scale"
  STI "SA ref"
  WPE "WPE ref"
  COMMENT ""
  DIS_MEAS ""
  TypeTCI "10"
END_HEADER

BEGIN_DB
 ICCAP_VAR vg         0.182          
 ICCAP_VAR vb         0              
 ICCAP_VAR vs         0              

 #vd                    id                    ig                    ib                    is                   
  0                     2.368e-11             2.2e-12               2.25e-11              -1.888e-11           
  0.05                  1.267e-08             1.64e-12              2.136e-11             -1.2654e-08          
  0.1                   1.7158e-08            1.54e-12              1.95e-11              -1.7148e-08          
  0.15                  1.8784e-08            1.44e-12              1.78e-11              -1.8778e-08          
  0.2                   1.9608e-08            1.34e-12              1.776e-11             -1.9596e-08          
  0.25                  2.0206e-08            1.18e-12              1.796e-11             -2.019e-08           
  0.3                   2.0726e-08            1.24e-12              1.666e-11             -2.071e-08           
  0.35                  2.121e-08             1.28e-12              1.6e-11               -2.1198e-08          
  0.4                   2.168e-08             1.22e-12              1.498e-11             -2.1668e-08          
  0.45                  2.2132e-08            1.3e-12               1.598e-11             -2.2116e-08          
  0.5                   2.2566e-08            1.4e-12               1.532e-11             -2.2552e-08          
  0.55                  2.2988e-08            1.26e-12              1.38e-11              -2.2978e-08          
  0.6                   2.3404e-08            1.22e-12              1.378e-11             -2.3394e-08          
  0.65                  2.377e-08             1.06e-12              1.382e-11             -2.379e-08           
  0.7                   2.4192e-08            1.14e-12              1.294e-11             -2.4178e-08          
  0.75                  2.457e-08             1e-12                 1.284e-11             -2.4556e-08          
  0.8                   2.4938e-08            9.6e-13               1.182e-11             -2.4926e-08          
  0.85                  2.53e-08              9.8e-13               1.234e-11             -2.5286e-08          
  0.9                   2.5654e-08            9e-13                 1.222e-11             -2.5636e-08          
  0.95                  2.5988e-08            7.8e-13               1.036e-11             -2.5964e-08          
  1                     2.6308e-08            7.8e-13               1.042e-11             -2.6288e-08          
  1.05                  2.6624e-08            7.2e-13               1.01e-11              -2.6608e-08          
  1.1                   2.6926e-08            5.4e-13               9.88e-12              -2.6914e-08          
  1.15                  2.7226e-08            4.2e-13               8.26e-12              -2.721e-08           
  1.2                   2.7516e-08            3.4e-13               6.48e-12              -2.7494e-08          
  1.25                  2.7788e-08            1.2e-13               5.26e-12              -2.777e-08           
  1.3                   2.8054e-08            -6e-14                3.66e-12              -2.8032e-08          
  1.35                  2.831e-08             -1.6e-13              -8.6e-13              -2.8282e-08          
END_DB

BEGIN_DB
 ICCAP_VAR vg         0.474          
 ICCAP_VAR vb         0              
 ICCAP_VAR vs         0              

 #vd                    id                    ig                    ib                    is                   
  0                     1.0846e-10            4.584e-11             8.32e-12              -1.5786e-10          
  0.05                  1.1824e-07            3.796e-11             7.52e-12              -1.1824e-07          
  0.1                   2.122e-07             3.202e-11             6.34e-12              -2.1222e-07          
  0.15                  2.7958e-07            2.81e-11              7.64e-12              -2.796e-07           
  0.2                   3.2018e-07            2.604e-11             7.22e-12              -3.201e-07           
  0.25                  3.404e-07             2.484e-11             6.12e-12              -3.4044e-07          
  0.3                   3.4982e-07            2.446e-11             6.64e-12              -3.501e-07           
  0.35                  3.554e-07             2.412e-11             6.78e-12              -3.5566e-07          
  0.4                   3.597e-07             2.392e-11             7.26e-12              -3.5968e-07          
  0.45                  3.6354e-07            2.382e-11             5.68e-12              -3.6338e-07          
  0.5                   3.669e-07             2.36e-11              5.26e-12              -3.6672e-07          
  0.55                  3.701e-07             2.334e-11             6.76e-12              -3.7e-07             
  0.6                   3.7316e-07            2.32e-11              5.66e-12              -3.73e-07            
  0.65                  3.7622e-07            2.304e-11             5.62e-12              -3.7608e-07          
  0.7                   3.791e-07             2.29e-11              6.16e-12              -3.7884e-07          
  0.75                  3.8168e-07            2.3e-11               6.62e-12              -3.8178e-07          
  0.8                   3.8422e-07            2.28e-11              5.7e-12               -3.8444e-07          
  0.85                  3.8718e-07            2.258e-11             5.1e-12               -3.8682e-07          
  0.9                   3.8954e-07            2.25e-11              5.52e-12              -3.8974e-07          
  0.95                  3.9198e-07            2.222e-11             6.3e-12               -3.9196e-07          
  1                     3.9462e-07            2.206e-11             4.86e-12              -3.9462e-07          
  1.05                  3.9698e-07            2.2e-11               4.38e-12              -3.97e-07            
  1.1                   3.9904e-07            2.178e-11             4.92e-12              -3.9898e-07          
  1.15                  4.0146e-07            2.174e-11             3.88e-12              -4.0142e-07          
  1.2                   4.0364e-07            2.164e-11             1.06e-12              -4.0366e-07          
  1.25                  4.056e-07             2.144e-11             -1.64e-12             -4.057e-07           
  1.3                   4.0776e-07            2.122e-11             -5.56e-12             -4.078e-07           
  1.35                  4.098e-07             2.106e-11             -1.402e-11            -4.0982e-07          
END_DB

BEGIN_DB
 ICCAP_VAR vg         0.766          
 ICCAP_VAR vb         0              
 ICCAP_VAR vs         0              

 #vd                    id                    ig                    ib                    is                   
  0                     7.904e-11             3.2116e-10            5.68e-12              -4.0346e-10          
  0.05                  2.217e-07             2.7928e-10            4.04e-12              -2.2192e-07          
  0.1                   4.2402e-07            2.4482e-10            5.24e-12              -4.2424e-07          
  0.15                  6.0592e-07            2.1634e-10            4.26e-12              -6.062e-07           
  0.2                   7.6648e-07            1.9356e-10            3.32e-12              -7.6674e-07          
  0.25                  9.0432e-07            1.7538e-10            3.74e-12              -9.045e-07           
  0.3                   1.01746e-06           1.6172e-10            4.48e-12              -1.0177e-06          
  0.35                  1.10322e-06           1.5196e-10            3.72e-12              -1.10354e-06         
  0.4                   1.162e-06             1.457e-10             4.1e-12               -1.16094e-06         
  0.45                  1.1952e-06            1.4214e-10            3.86e-12              -1.1918e-06          
  0.5                   1.2134e-06            1.4012e-10            2.66e-12              -1.2102e-06          
  0.55                  1.2248e-06            1.3888e-10            4.02e-12              -1.2224e-06          
  0.6                   1.235e-06             1.3788e-10            4.02e-12              -1.2318e-06          
  0.65                  1.2418e-06            1.3718e-10            2.54e-12              -1.2388e-06          
  0.7                   1.248e-06             1.3658e-10            4.36e-12              -1.245e-06           
  0.75                  1.2538e-06            1.3618e-10            3.46e-12              -1.2506e-06          
  0.8                   1.2594e-06            1.3544e-10            2.3e-12               -1.2562e-06          
  0.85                  1.2646e-06            1.3498e-10            4.14e-12              -1.2616e-06          
  0.9                   1.2696e-06            1.3442e-10            3.52e-12              -1.2666e-06          
  0.95                  1.2748e-06            1.3404e-10            2.98e-12              -1.2714e-06          
  1                     1.2792e-06            1.3336e-10            3.82e-12              -1.2764e-06          
  1.05                  1.284e-06             1.331e-10             2.94e-12              -1.2808e-06          
  1.1                   1.2888e-06            1.3254e-10            3.16e-12              -1.2852e-06          
  1.15                  1.2928e-06            1.3206e-10            4.04e-12              -1.2896e-06          
  1.2                   1.2968e-06            1.3178e-10            2.28e-12              -1.2938e-06          
  1.25                  1.3016e-06            1.3142e-10            2.78e-12              -1.2982e-06          
  1.3                   1.3052e-06            1.3094e-10            2.4e-12               -1.302e-06           
  1.35                  1.3092e-06            1.3048e-10            1.2e-13               -1.306e-06           
END_DB

BEGIN_DB
 ICCAP_VAR vg         1.058          
 ICCAP_VAR vb         0              
 ICCAP_VAR vs         0              

 #vd                    id                    ig                    ib                    is                   
  0                     -3.317e-10            1.341e-09             3.12e-12              -1.00462e-09         
  0.05                  3.0474e-07            1.205e-09             3.46e-12              -3.0592e-07          
  0.1                   5.9442e-07            1.0866e-09            1.94e-12              -5.9554e-07          
  0.15                  8.6764e-07            9.8298e-10            2.02e-12              -8.6868e-07          
  0.2                   1.12364e-06           8.9364e-10            2.86e-12              -1.1246e-06          
  0.25                  1.3632e-06            8.167e-10             2.46e-12              -1.3606e-06          
  0.3                   1.5832e-06            7.5066e-10            2.62e-12              -1.5806e-06          
  0.35                  1.7838e-06            6.949e-10             3e-12                 -1.7812e-06          
  0.4                   1.9642e-06            6.4828e-10            2.18e-12              -1.9614e-06          
  0.45                  2.1228e-06            6.1026e-10            2.44e-12              -2.12e-06            
  0.5                   2.2582e-06            5.7906e-10            2.6e-12               -2.2554e-06          
  0.55                  2.3678e-06            5.5526e-10            2.46e-12              -2.3652e-06          
  0.6                   2.4502e-06            5.3802e-10            2.48e-12              -2.4474e-06          
  0.65                  2.5052e-06            5.2688e-10            2.54e-12              -2.5024e-06          
  0.7                   2.5386e-06            5.2036e-10            1.7e-12               -2.5358e-06          
  0.75                  2.5594e-06            5.162e-10             2.88e-12              -2.5564e-06          
  0.8                   2.5734e-06            5.135e-10             1.5e-12               -2.5706e-06          
  0.85                  2.5844e-06            5.112e-10             2.02e-12              -2.5816e-06          
  0.9                   2.5934e-06            5.0948e-10            2.52e-12              -2.5908e-06          
  0.95                  2.602e-06             5.0798e-10            2.02e-12              -2.5994e-06          
  1                     2.61e-06              5.0642e-10            1.28e-12              -2.607e-06           
  1.05                  2.6174e-06            5.052e-10             2.96e-12              -2.6146e-06          
  1.1                   2.6246e-06            5.039e-10             2.26e-12              -2.6218e-06          
  1.15                  2.6316e-06            5.0236e-10            1.58e-12              -2.6288e-06          
  1.2                   2.6382e-06            5.0126e-10            3.4e-12               -2.6356e-06          
  1.25                  2.6446e-06            4.9988e-10            1.9e-12               -2.6432e-06          
  1.3                   2.652e-06             4.985e-10             1.76e-12              -2.6492e-06          
  1.35                  2.6582e-06            4.9718e-10            2.26e-12              -2.6554e-06          
END_DB

BEGIN_DB
 ICCAP_VAR vg         1.35           
 ICCAP_VAR vb         0              
 ICCAP_VAR vs         0              

 #vd                    id                    ig                    ib                    is                   
  0                     -1.6464e-09           4.105e-09             -2.08e-12             -2.401e-09           
  0.05                  3.6684e-07            3.7666e-09            -2.18e-12             -3.7058e-07          
  0.1                   7.2346e-07            3.461e-09             -5.2e-13              -7.2702e-07          
  0.15                  1.06728e-06           3.187e-09             -4e-14                -1.07056e-06         
  0.2                   1.3988e-06            2.9428e-09            -3.4e-13              -1.3982e-06          
  0.25                  1.7152e-06            2.7238e-09            1.32e-12              -1.7146e-06          
  0.3                   2.017e-06             2.5286e-09            4.2e-13               -2.0162e-06          
  0.35                  2.3036e-06            2.3558e-09            -2.6e-13              -2.3026e-06          
  0.4                   2.5744e-06            2.2026e-09            1.18e-12              -2.5734e-06          
  0.45                  2.8284e-06            2.068e-09             -4.8e-13              -2.827e-06           
  0.5                   3.0654e-06            1.95e-09              -1e-13                -3.064e-06           
  0.55                  3.2844e-06            1.8472e-09            1e-12                 -3.2828e-06          
  0.6                   3.4846e-06            1.7588e-09            2e-13                 -3.483e-06           
  0.65                  3.6646e-06            1.6834e-09            3.8e-13               -3.6632e-06          
  0.7                   3.8234e-06            1.6204e-09            1.78e-12              -3.8218e-06          
  0.75                  3.9586e-06            1.5682e-09            4e-13                 -3.9568e-06          
  0.8                   4.0682e-06            1.528e-09             3.4e-13               -4.0668e-06          
  0.85                  4.1516e-06            1.4982e-09            1.56e-12              -4.1498e-06          
  0.9                   4.209e-06             1.4782e-09            8.8e-13               -4.2072e-06          
  0.95                  4.246e-06             1.4652e-09            3.2e-13               -4.2454e-06          
  1                     4.2716e-06            1.4566e-09            1.18e-12              -4.2698e-06          
  1.05                  4.2888e-06            1.451e-09             9.6e-13               -4.2868e-06          
  1.1                   4.3026e-06            1.4462e-09            1.4e-13               -4.3006e-06          
  1.15                  4.3138e-06            1.442e-09             1.2e-12               -4.3122e-06          
  1.2                   4.324e-06             1.4386e-09            1.02e-12              -4.3224e-06          
  1.25                  4.334e-06             1.4358e-09            2.2e-13               -4.332e-06           
  1.3                   4.3428e-06            1.4324e-09            8.6e-13               -4.341e-06           
  1.35                  4.3512e-06            1.4298e-09            8e-13                 -4.3496e-06          
END_DB

