! VERSION = 6.00
BEGIN_HEADER
 ICCAP_INPUTS
  vd         V  D GROUND SMU1 0.1 LIN        1    0          1.35       28   0.05      
  vg         V  G GROUND SMU2 0.001 LIST       2 3 0.265 0.465 0.665
  vb         V  B GROUND SMU4 0.1 CON        -1.2
  vs         V  S GROUND SMU3 0.1 CON        0
 ICCAP_OUTPUTS
  id         I  D GROUND SMU1 B
  ig         I  G GROUND SMU2 B
  ib         I  B GROUND SMU4 B
  is         I  S GROUND SMU3 B
 ICCAP_VALUES
  MASTER_SETUP_TYPE "~dc_idvd~"
  LINVT_VALUE ""
  LISTVT_VALUE "|idvg|100.0n|-200.0m|1.000m|3|200.0m|200.0m|"
  TYPE "1"
  TEMP "-40.0000 "
  IS_TNOM " 0.00000 "
  MAIN.W "10.00u"
  MAIN.L "180.0n"
  MAIN.AD "3.400p"
  MAIN.AS "3.400p"
  MAIN.PD "20.68u"
  MAIN.PS "20.68u"
  MAIN.NF "1.000"
  MAIN.M "1"
  MAIN.NRD "0.000"
  MAIN.NRS "0.000"
  MAIN.LDRIFT1 "1E-06"
  MAIN.LDRIFT2 "1E-06"
  MAIN.SA "0.000"
  MAIN.SB "0.000"
  MAIN.SD "0.000"
  MAIN.SCA "0.000"
  MAIN.SCB "0.000"
  MAIN.SCC "0.000"
  MAIN.SC "0.000"
  MODULE "S540"
  PIN_D "12"
  PIN_G "9"
  PIN_S "10"
  PIN_B "11"
  PIN_E ""
  PIN_6 ""
  XY_ID ""
  FUNC "L Scale"
  STI "SA ref"
  WPE "WPE ref"
  COMMENT ""
  DIS_MEAS ""
  TypeTCI "10"
END_HEADER

BEGIN_DB
 ICCAP_VAR vg         0.265          
 ICCAP_VAR vb         -1.2           
 ICCAP_VAR vs         0              

 #vd                    id                    ig                    ib                    is                   
  0                     6.62e-12              3.4e-13               -3.56e-12             -4.02e-12            
  0.05                  1.11062e-09           1.8e-13               1.62e-12              -1.1104e-09          
  0.1                   1.3306e-09            1.4e-13               -1.3e-12              -1.3288e-09          
  0.15                  1.4682e-09            2.4e-13               -3.2e-12              -1.4682e-09          
  0.2                   1.6036e-09            2e-13                 -3.56e-12             -1.6022e-09          
  0.25                  1.7446e-09            2e-13                 -2.78e-12             -1.7438e-09          
  0.3                   1.8932e-09            1.8e-13               -2.56e-12             -1.8928e-09          
  0.35                  2.051e-09             2.4e-13               -1.98e-12             -2.048e-09           
  0.4                   2.2126e-09            1.4e-13               -1.54e-12             -2.213e-09           
  0.45                  2.388e-09             1.6e-13               -2.1e-12              -2.3858e-09          
  0.5                   2.5684e-09            2e-14                 -2.8e-12              -2.5666e-09          
  0.55                  2.763e-09             2e-14                 -2.28e-12             -2.76e-09            
  0.6                   2.9628e-09            4e-14                 -8e-13                -2.962e-09           
  0.65                  3.1818e-09            -2.8e-13              -1.72e-12             -3.1718e-09          
  0.7                   3.4066e-09            -4.2e-13              -2.9e-12              -3.4044e-09          
  0.75                  3.6464e-09            -7.8e-13              -2.38e-12             -3.6336e-09          
  0.8                   3.898e-09             -1.08e-12             -2.7e-12              -3.8906e-09          
  0.85                  4.1524e-09            -1.44e-12             -5.4e-13              -4.1432e-09          
  0.9                   4.4344e-09            -1.88e-12             -1.82e-12             -4.4324e-09          
  0.95                  4.734e-09             -2.48e-12             -6.38e-12             -4.7222e-09          
  1                     5.0474e-09            -3.14e-12             -1.68e-12             -5.0352e-09          
  1.05                  5.3768e-09            -3.9e-12              -1.48e-12             -5.369e-09           
  1.1                   5.715e-09             -4.84e-12             -4.6e-13              -5.7092e-09          
  1.15                  6.085e-09             -6.16e-12             -2.8e-12              -6.0826e-09          
  1.2                   6.4796e-09            -7.44e-12             -1.84e-12             -6.4726e-09          
  1.25                  6.879e-09             -9.18e-12             -2.32e-12             -6.866e-09           
  1.3                   7.3216e-09            -1.09e-11             -2.06e-12             -7.3078e-09          
  1.35                  7.8096e-09            -1.296e-11            -1.58e-12             -7.7926e-09          
END_DB

BEGIN_DB
 ICCAP_VAR vg         0.465          
 ICCAP_VAR vb         -1.2           
 ICCAP_VAR vs         0              

 #vd                    id                    ig                    ib                    is                   
  0                     5.5406e-09            5e-12                 -6e-14                -7.5656e-09          
  0.05                  2.647e-06             3.88e-12              -1.5e-12              -2.64e-06            
  0.1                   3.3524e-06            3.34e-12              -1.44e-12             -3.348e-06           
  0.15                  3.7216e-06            3.04e-12              -9.4e-13              -3.72e-06            
  0.2                   4.0354e-06            2.9e-12               -1.24e-12             -4.0324e-06          
  0.25                  4.3304e-06            2.88e-12              -1.8e-13              -4.3288e-06          
  0.3                   4.6228e-06            2.92e-12              -1.06e-12             -4.6274e-06          
  0.35                  4.9234e-06            2.98e-12              -9.4e-13              -4.9198e-06          
  0.4                   5.222e-06             2.82e-12              -1.22e-12             -5.222e-06           
  0.45                  5.5234e-06            2.64e-12              -1.2e-12              -5.5186e-06          
  0.5                   5.8272e-06            2.76e-12              -1.94e-12             -5.8224e-06          
  0.55                  6.1354e-06            2.56e-12              -1.38e-12             -6.1344e-06          
  0.6                   6.4506e-06            2.62e-12              -6.2e-13              -6.446e-06           
  0.65                  6.7644e-06            2.78e-12              -7e-13                -6.7638e-06          
  0.7                   7.093e-06             2.68e-12              -1.04e-12             -7.0856e-06          
  0.75                  7.4272e-06            2.48e-12              -1.64e-12             -7.4206e-06          
  0.8                   7.758e-06             2.28e-12              -1.32e-12             -7.756e-06           
  0.85                  8.0928e-06            2.24e-12              -1.44e-12             -8.0922e-06          
  0.9                   8.4446e-06            2.06e-12              -1.84e-12             -8.4406e-06          
  0.95                  8.8024e-06            1.74e-12              -1.4e-12              -8.7944e-06          
  1                     9.158e-06             1.64e-12              -1.1e-12              -9.1574e-06          
  1.05                  9.5234e-06            1.06e-12              -2.98e-12             -9.5204e-06          
  1.1                   9.8962e-06            2.8e-13               -5.96e-12             -9.8966e-06          
  1.15                  1.02796e-05           4e-14                 -1.208e-11            -1.0276e-05          
  1.2                   1.06778e-05           -5.2e-13              -2.966e-11            -1.06784e-05         
  1.25                  1.10808e-05           -1.4e-12              -6.794e-11            -1.1081e-05          
  1.3                   1.1508e-05            -2.56e-12             -1.436e-10            -1.14868e-05         
  1.35                  1.1918e-05            -3.58e-12             -2.7742e-10           -1.191e-05           
END_DB

BEGIN_DB
 ICCAP_VAR vg         0.665          
 ICCAP_VAR vb         -1.2           
 ICCAP_VAR vs         0              

 #vd                    id                    ig                    ib                    is                   
  0                     3.4132e-07            3.758e-11             -9.6e-13              -1.6518e-07          
  0.05                  0.00010078            3.134e-11             2.8e-13               -0.0001004           
  0.1                   0.0001607             2.706e-11             2.8e-13               -0.00016038          
  0.15                  0.00019484            2.404e-11             -2.14e-12             -0.00019446          
  0.2                   0.00021514            2.252e-11             -4e-13                -0.00021486          
  0.25                  0.00022892            2.152e-11             3.4e-13               -0.00022858          
  0.3                   0.00023954            2.084e-11             -1.42e-12             -0.00023918          
  0.35                  0.00024848            2.01e-11              -9e-13                -0.00024838          
  0.4                   0.00025704            1.986e-11             -6.8e-13              -0.00025668          
  0.45                  0.00026478            1.96e-11              -1.48e-12             -0.00026436          
  0.5                   0.0002723             1.922e-11             -2.2e-13              -0.000272            
  0.55                  0.00027962            1.92e-11              -1.3e-12              -0.00027922          
  0.6                   0.00028666            1.904e-11             -1.56e-12             -0.00028634          
  0.65                  0.00029372            1.892e-11             -1.6e-13              -0.00029332          
  0.7                   0.00030038            1.878e-11             -1.26e-12             -0.0003002           
  0.75                  0.0003074             1.848e-11             -1.64e-12             -0.00030704          
  0.8                   0.00031414            1.852e-11             3.6e-13               -0.0003138           
  0.85                  0.0003209             1.84e-11              -1.12e-12             -0.00032042          
  0.9                   0.00032752            1.812e-11             -1.54e-12             -0.00032706          
  0.95                  0.00033408            1.792e-11             -8.4e-13              -0.00033368          
  1                     0.00034054            1.78e-11              -3.76e-12             -0.00034022          
  1.05                  0.0003472             1.764e-11             -5.84e-12             -0.00034686          
  1.1                   0.00035368            1.716e-11             -1.7e-11              -0.0003534           
  1.15                  0.00036026            1.706e-11             -4.956e-11            -0.00035986          
  1.2                   0.00036674            1.658e-11             -1.3642e-10           -0.00036646          
  1.25                  0.0003732             1.604e-11             -3.5672e-10           -0.00037294          
  1.3                   0.00037976            1.558e-11             -8.5956e-10           -0.00037938          
  1.35                  0.00038626            1.502e-11             -1.9034e-09           -0.00038598          
END_DB

