! VERSION = 6.00
BEGIN_HEADER
 ICCAP_INPUTS
  vg         V  G GROUND SMU2 0.001 LIN        1    -0.5       1.35       38   0.05      
  vb         V  B GROUND SMU4 0.1 LIN        2    0          -1.2       5    -0.3      
  vd         V  D GROUND SMU1 0.1 LIST       3 3 0.05 0.6 1.2
  vs         V  S GROUND SMU3 0.1 CON        0
 ICCAP_OUTPUTS
  id         I  D GROUND SMU1 B
  ig         I  G GROUND SMU2 B
  ib         I  B GROUND SMU4 B
  is         I  S GROUND SMU3 B
 ICCAP_VALUES
  MASTER_SETUP_TYPE "~dc_idvg~"
  LINVT_VALUE ""
  LISTVT_VALUE ""
  TYPE "1"
  TEMP " 125.000 "
  IS_TNOM " 0.00000 "
  MAIN.W "300.0n"
  MAIN.L "10.00u"
  MAIN.AD "102.0f"
  MAIN.AS "102.0f"
  MAIN.PD "1.280u"
  MAIN.PS "1.280u"
  MAIN.NF "1.000"
  MAIN.M "1"
  MAIN.NRD "0.000"
  MAIN.NRS "0.000"
  MAIN.LDRIFT1 "1E-06"
  MAIN.LDRIFT2 "1E-06"
  MAIN.SA "0.000"
  MAIN.SB "0.000"
  MAIN.SD "0.000"
  MAIN.SCA "0.000"
  MAIN.SCB "0.000"
  MAIN.SCC "0.000"
  MAIN.SC "0.000"
  MODULE "S545"
  PIN_D "18"
  PIN_G "3"
  PIN_S "4"
  PIN_B "17"
  PIN_E ""
  PIN_6 ""
  XY_ID ""
  FUNC "W Scale"
  STI "SA ref"
  WPE "WPE ref"
  COMMENT ""
  DIS_MEAS ""
  TypeTCI "10"
END_HEADER

BEGIN_DB
 ICCAP_VAR vb         0              
 ICCAP_VAR vd         0.05           
 ICCAP_VAR vs         0              

 #vg                    id                    ig                    ib                    is                   
  -0.5                  5.2e-13               -5.5962e-08           5.5938e-08            5.6e-13              
  -0.45                 -1.56e-12             -1.3154e-08           1.316e-08             1.8e-13              
  -0.4                  -1.4e-12              -3.093e-09            3.0996e-09            2.8e-13              
  -0.35                 2e-13                 -7.2524e-10           7.3098e-10            2.2e-13              
  -0.3                  5e-13                 -1.7062e-10           1.758e-10             -4e-14               
  -0.25                 1.1e-12               -4e-11                4.632e-11             -8e-13               
  -0.2                  3.34e-12              -9.46e-12             1.568e-11             -2.98e-12            
  -0.15                 1.006e-11             -2.1e-12              9.12e-12              -9.88e-12            
  -0.1                  3.238e-11             -3e-13                6.88e-12              -3.204e-11           
  -0.05                 1.0358e-10            8e-14                 5.94e-12              -1.034e-10           
  0                     3.289e-10             2.6e-13               5.32e-12              -3.2876e-10          
  0.05                  1.01428e-09           5.8e-13               5.76e-12              -1.01428e-09         
  0.1                   2.916e-09             6.8e-13               5.54e-12              -2.9162e-09          
  0.15                  7.4992e-09            1.24e-12              5.68e-12              -7.4992e-09          
  0.2                   1.6516e-08            2.48e-12              5.42e-12              -1.6502e-08          
  0.25                  3.0708e-08            4.62e-12              4.84e-12              -3.0674e-08          
  0.3                   4.8788e-08            7.78e-12              5.3e-12               -4.8788e-08          
  0.35                  6.8686e-08            1.278e-11             5.04e-12              -6.869e-08           
  0.4                   8.893e-08             2.042e-11             5.14e-12              -8.8952e-08          
  0.45                  1.08868e-07           3.138e-11             4.82e-12              -1.08896e-07         
  0.5                   1.2828e-07            4.714e-11             4.74e-12              -1.283e-07           
  0.55                  1.4708e-07            6.878e-11             5e-12                 -1.4712e-07          
  0.6                   1.6534e-07            9.846e-11             5.38e-12              -1.654e-07           
  0.65                  1.8302e-07            1.375e-10             4.58e-12              -1.8312e-07          
  0.7                   2.0008e-07            1.89e-10              4.7e-12               -2.0024e-07          
  0.75                  2.1656e-07            2.5532e-10            4.12e-12              -2.168e-07           
  0.8                   2.3244e-07            3.3932e-10            4.86e-12              -2.3278e-07          
  0.85                  2.4776e-07            4.4464e-10            4.6e-12               -2.4818e-07          
  0.9                   2.6244e-07            5.7514e-10            3.66e-12              -2.63e-07            
  0.95                  2.765e-07             7.3528e-10            4.68e-12              -2.7722e-07          
  1                     2.8996e-07            9.2972e-10            4.16e-12              -2.9086e-07          
  1.05                  3.028e-07             1.164e-09             3.58e-12              -3.0394e-07          
  1.1                   3.1502e-07            1.4434e-09            3.58e-12              -3.1644e-07          
  1.15                  3.266e-07             1.7746e-09            3.88e-12              -3.2836e-07          
  1.2                   3.3758e-07            2.1648e-09            3.12e-12              -3.3974e-07          
  1.25                  3.4794e-07            2.6208e-09            4e-12                 -3.5056e-07          
  1.3                   3.5768e-07            3.1516e-09            1.54e-12              -3.6084e-07          
  1.35                  3.6688e-07            3.7674e-09            -4.8e-13              -3.7064e-07          
END_DB

BEGIN_DB
 ICCAP_VAR vb         -0.3           
 ICCAP_VAR vd         0.05           
 ICCAP_VAR vs         0              

 #vg                    id                    ig                    ib                    is                   
  -0.5                  3.6e-13               -1.024e-11            2.4e-13               5.4e-13              
  -0.45                 2.8e-13               -2.56e-12             -6.56e-12             4.4e-13              
  -0.4                  2.2e-13               -7.4e-13              -7.68e-12             3.4e-13              
  -0.35                 2.6e-13               -1.8e-13              -7.44e-12             4e-13                
  -0.3                  2.6e-13               -6e-14                -6.58e-12             2.4e-13              
  -0.25                 4e-13                 1.2e-13               -5.86e-12             1.2e-13              
  -0.2                  1.04e-12              6e-14                 -4.72e-12             -4.4e-13             
  -0.15                 2.82e-12              1.8e-13               -5.06e-12             -2.36e-12            
  -0.1                  9.22e-12              2e-13                 -5.06e-12             -8.68e-12            
  -0.05                 3.092e-11             2e-13                 -5.28e-12             -3.044e-11           
  0                     1.0336e-10            4e-13                 -4.54e-12             -1.0292e-10          
  0.05                  3.424e-10             5.2e-13               -3.28e-12             -3.419e-10           
  0.1                   1.08778e-09           7.6e-13               -3.7e-12              -1.0873e-09          
  0.15                  3.1982e-09            1.1e-12               -3.02e-12             -3.1978e-09          
  0.2                   8.2528e-09            2.36e-12              -3.84e-12             -8.2716e-09          
  0.25                  1.8112e-08            4.3e-12               -3.48e-12             -1.807e-08           
  0.3                   3.3054e-08            7.24e-12              -3.02e-12             -3.305e-08           
  0.35                  5.1534e-08            1.22e-11              -2.22e-12             -5.1522e-08          
  0.4                   7.1378e-08            1.96e-11              -2.68e-12             -7.139e-08           
  0.45                  9.1322e-08            3.052e-11             -3.2e-12              -9.134e-08           
  0.5                   1.1079e-07            4.592e-11             -3.06e-12             -1.1083e-07          
  0.55                  1.2968e-07            6.744e-11             -1.44e-12             -1.2972e-07          
  0.6                   1.48e-07              9.656e-11             -2.74e-12             -1.4806e-07          
  0.65                  1.6574e-07            1.3582e-10            -2.94e-12             -1.6584e-07          
  0.7                   1.8286e-07            1.8678e-10            -1.58e-12             -1.8302e-07          
  0.75                  1.9944e-07            2.5238e-10            -1.84e-12             -1.9968e-07          
  0.8                   2.1542e-07            3.361e-10             -1.58e-12             -2.1572e-07          
  0.85                  2.3082e-07            4.4108e-10            -1.96e-12             -2.3124e-07          
  0.9                   2.456e-07             5.7114e-10            -2.22e-12             -2.4612e-07          
  0.95                  2.5976e-07            7.3064e-10            -2.3e-12              -2.6044e-07          
  1                     2.733e-07             9.2476e-10            -9.4e-13              -2.742e-07           
  1.05                  2.8624e-07            1.1592e-09            -2.46e-12             -2.874e-07           
  1.1                   2.9856e-07            1.438e-09             -2.18e-12             -2.9998e-07          
  1.15                  3.1026e-07            1.7688e-09            -1.52e-12             -3.1202e-07          
  1.2                   3.2138e-07            2.1582e-09            -1.36e-12             -3.235e-07           
  1.25                  3.3182e-07            2.614e-09             -3.1e-12              -3.344e-07           
  1.3                   3.417e-07             3.1446e-09            -4.26e-12             -3.4486e-07          
  1.35                  3.51e-07              3.7604e-09            -5.44e-12             -3.5474e-07          
END_DB

BEGIN_DB
 ICCAP_VAR vb         -0.6           
 ICCAP_VAR vd         0.05           
 ICCAP_VAR vs         0              

 #vg                    id                    ig                    ib                    is                   
  -0.5                  4e-13                 -7.2e-13              -1.44e-11             5.6e-13              
  -0.45                 4e-13                 -4.2e-13              -1.396e-11            4.8e-13              
  -0.4                  3.2e-13               -2.8e-13              -1.334e-11            5.2e-13              
  -0.35                 2.4e-13               -1.2e-13              -1.152e-11            4.2e-13              
  -0.3                  2.8e-13               0                     -9.88e-12             4.2e-13              
  -0.25                 1.8e-13               8e-14                 -1e-11                2.4e-13              
  -0.2                  3.8e-13               1.8e-13               -1e-11                2e-14                
  -0.15                 1.24e-12              2.6e-13               -9.74e-12             -5.4e-13             
  -0.1                  3.56e-12              2.6e-13               -8.36e-12             -3.04e-12            
  -0.05                 1.18e-11              3e-13                 -7.58e-12             -1.156e-11           
  0                     4.098e-11             3.2e-13               -6.96e-12             -4.044e-11           
  0.05                  1.4046e-10            5.6e-13               -7.24e-12             -1.4016e-10          
  0.1                   4.7104e-10            6.8e-13               -8.08e-12             -4.7052e-10          
  0.15                  1.5008e-09            9.6e-13               -7.1e-12              -1.4998e-09          
  0.2                   4.3224e-09            2.1e-12               -6.36e-12             -4.3238e-09          
  0.25                  1.07592e-08           3.88e-12              -6.1e-12              -1.07622e-08         
  0.3                   2.228e-08             6.78e-12              -5.6e-12              -2.2228e-08          
  0.35                  3.8478e-08            1.152e-11             -6.8e-12              -3.844e-08           
  0.4                   5.7278e-08            1.878e-11             -6.28e-12             -5.7282e-08          
  0.45                  7.6896e-08            2.944e-11             -5.94e-12             -7.6908e-08          
  0.5                   9.628e-08             4.454e-11             -4.98e-12             -9.6308e-08          
  0.55                  1.1514e-07            6.582e-11             -6.12e-12             -1.1518e-07          
  0.6                   1.3346e-07            9.472e-11             -5.28e-12             -1.3352e-07          
  0.65                  1.512e-07             1.335e-10             -4.54e-12             -1.513e-07           
  0.7                   1.6836e-07            1.8412e-10            -5.06e-12             -1.6852e-07          
  0.75                  1.8498e-07            2.4948e-10            -6.44e-12             -1.8518e-07          
  0.8                   2.0098e-07            3.3282e-10            -4.76e-12             -2.0128e-07          
  0.85                  2.1644e-07            4.376e-10             -4.28e-12             -2.1686e-07          
  0.9                   2.3128e-07            5.6706e-10            -4.98e-12             -2.3182e-07          
  0.95                  2.4552e-07            7.2652e-10            -4.6e-12              -2.4622e-07          
  1                     2.5916e-07            9.2004e-10            -3.88e-12             -2.6006e-07          
  1.05                  2.7218e-07            1.154e-09             -4.92e-12             -2.7334e-07          
  1.1                   2.8458e-07            1.4318e-09            -4.9e-12              -2.8602e-07          
  1.15                  2.9642e-07            1.762e-09             -4.52e-12             -2.9816e-07          
  1.2                   3.0762e-07            2.1514e-09            -4.7e-12              -3.0974e-07          
  1.25                  3.1818e-07            2.6068e-09            -5.46e-12             -3.2076e-07          
  1.3                   3.2816e-07            3.1374e-09            -6.96e-12             -3.3128e-07          
  1.35                  3.3756e-07            3.7522e-09            -9.14e-12             -3.413e-07           
END_DB

BEGIN_DB
 ICCAP_VAR vb         -0.9           
 ICCAP_VAR vd         0.05           
 ICCAP_VAR vs         0              

 #vg                    id                    ig                    ib                    is                   
  -0.5                  3e-13                 -5.4e-13              -1.536e-11            5.4e-13              
  -0.45                 3e-13                 -2.8e-13              -1.55e-11             5e-13                
  -0.4                  3e-13                 -2.2e-13              -1.516e-11            4.8e-13              
  -0.35                 3.2e-13               0                     -1.428e-11            3.8e-13              
  -0.3                  2.8e-13               -6e-14                -1.34e-11             5.2e-13              
  -0.25                 2.8e-13               1.4e-13               -1.16e-11             2.6e-13              
  -0.2                  2.2e-13               2.6e-13               -1.116e-11            2.8e-13              
  -0.15                 6.4e-13               1e-13                 -1.17e-11             4e-14                
  -0.1                  1.68e-12              3e-13                 -1.106e-11            -1.28e-12            
  -0.05                 5.48e-12              3.4e-13               -1.062e-11            -4.96e-12            
  0                     1.904e-11             4.2e-13               -9.72e-12             -1.874e-11           
  0.05                  6.68e-11              5.2e-13               -9.38e-12             -6.64e-11            
  0.1                   2.3148e-10            6.6e-13               -9.24e-12             -2.311e-10           
  0.15                  7.7524e-10            1.02e-12              -1.03e-11             -7.7514e-10          
  0.2                   2.4034e-09            1.74e-12              -9.16e-12             -2.4036e-09          
  0.25                  6.5778e-09            3.38e-12              -8.94e-12             -6.5792e-09          
  0.3                   1.5118e-08            6.16e-12              -8.32e-12             -1.5108e-08          
  0.35                  2.8676e-08            1.092e-11             -7.26e-12             -2.871e-08           
  0.4                   4.5946e-08            1.79e-11              -8.38e-12             -4.595e-08           
  0.45                  6.4864e-08            2.814e-11             -8.7e-12              -6.4886e-08          
  0.5                   8.3948e-08            4.336e-11             -8.24e-12             -8.398e-08           
  0.55                  1.02644e-07           6.41e-11              -7.38e-12             -1.02688e-07         
  0.6                   1.2088e-07            9.286e-11             -8.12e-12             -1.2094e-07          
  0.65                  1.3858e-07            1.3118e-10            -7.7e-12              -1.3868e-07          
  0.7                   1.557e-07             1.8156e-10            -7.56e-12             -1.5586e-07          
  0.75                  1.7232e-07            2.4674e-10            -6.48e-12             -1.7252e-07          
  0.8                   1.8836e-07            3.2926e-10            -7.72e-12             -1.8866e-07          
  0.85                  2.0384e-07            4.3326e-10            -7.66e-12             -2.0426e-07          
  0.9                   2.1874e-07            5.6274e-10            -7.36e-12             -2.1926e-07          
  0.95                  2.3304e-07            7.2128e-10            -6.88e-12             -2.3372e-07          
  1                     2.4674e-07            9.1478e-10            -7.7e-12              -2.4764e-07          
  1.05                  2.5984e-07            1.148e-09             -6.74e-12             -2.6096e-07          
  1.1                   2.7232e-07            1.4254e-09            -6.26e-12             -2.7374e-07          
  1.15                  2.8422e-07            1.7556e-09            -6.64e-12             -2.8594e-07          
  1.2                   2.955e-07             2.1444e-09            -7.1e-12              -2.9762e-07          
  1.25                  3.0614e-07            2.6e-09               -7.64e-12             -3.0872e-07          
  1.3                   3.1622e-07            3.1288e-09            -8.44e-12             -3.193e-07           
  1.35                  3.2568e-07            3.7444e-09            -9.42e-12             -3.2942e-07          
END_DB

BEGIN_DB
 ICCAP_VAR vb         -1.2           
 ICCAP_VAR vd         0.05           
 ICCAP_VAR vs         0              

 #vg                    id                    ig                    ib                    is                   
  -0.5                  3.8e-13               -5.4e-13              -1.812e-11            5.4e-13              
  -0.45                 2.4e-13               -3e-13                -1.77e-11             5e-13                
  -0.4                  1.4e-13               -4e-14                -1.712e-11            5e-13                
  -0.35                 2.4e-13               -4e-14                -1.524e-11            3.8e-13              
  -0.3                  1.8e-13               1.6e-13               -1.406e-11            4.8e-13              
