! VERSION = 6.00
BEGIN_HEADER
 ICCAP_INPUTS
  vg         V  G GROUND SMU2 0.001 LIN        1    -0.5       1.35       38   0.05      
  vb         V  B GROUND SMU4 0.1 LIN        2    0          -1.2       5    -0.3      
  vd         V  D GROUND SMU1 0.1 LIST       3 3 0.05 0.6 1.2
  vs         V  S GROUND SMU3 0.1 CON        0
 ICCAP_OUTPUTS
  id         I  D GROUND SMU1 B
  ig         I  G GROUND SMU2 B
  ib         I  B GROUND SMU4 B
  is         I  S GROUND SMU3 B
 ICCAP_VALUES
  MASTER_SETUP_TYPE "~dc_idvg~"
  LINVT_VALUE ""
  LISTVT_VALUE ""
  TYPE "1"
  TEMP " 70.0000 "
  IS_TNOM " 0.00000 "
  MAIN.W "150.0n"
  MAIN.L "10.00u"
  MAIN.AD "100.5f"
  MAIN.AS "100.5f"
  MAIN.PD "1.340u"
  MAIN.PS "1.340u"
  MAIN.NF "1.000"
  MAIN.M "1"
  MAIN.NRD "0.000"
  MAIN.NRS "0.000"
  MAIN.LDRIFT1 "1E-06"
  MAIN.LDRIFT2 "1E-06"
  MAIN.SA "0.000"
  MAIN.SB "0.000"
  MAIN.SD "0.000"
  MAIN.SCA "0.000"
  MAIN.SCB "0.000"
  MAIN.SCC "0.000"
  MAIN.SC "0.000"
  MODULE "S547"
  PIN_D "16"
  PIN_G "5"
  PIN_S "6"
  PIN_B "15"
  PIN_E ""
  PIN_6 ""
  XY_ID ""
  FUNC "Narrow"
  STI "SA ref"
  WPE "WPE ref"
  COMMENT ""
  DIS_MEAS ""
  TypeTCI "10"
END_HEADER

BEGIN_DB
 ICCAP_VAR vb         0              
 ICCAP_VAR vd         0.05           
 ICCAP_VAR vs         0              

 #vg                    id                    ig                    ib                    is                   
  -0.5                  2e-13                 -1.6364e-09           1.6376e-09            1.8e-13              
  -0.45                 -1.4e-13              -3.074e-10            3.1064e-10            4e-14                
  -0.4                  0                     -5.814e-11            6.278e-11             4e-14                
  -0.35                 8e-14                 -1.11e-11             1.612e-11             2e-13                
  -0.3                  0                     -2.04e-12             6.42e-12              2.2e-13              
  -0.25                 6e-14                 -2.6e-13              3.86e-12              8e-14                
  -0.2                  2.6e-13               0                     3.3e-12               -1.6e-13             
  -0.15                 1.24e-12              1.2e-13               2.94e-12              -1.08e-12            
  -0.1                  4.8e-12               2.2e-13               3.42e-12              -4.5e-12             
  -0.05                 1.896e-11             2.2e-13               4.18e-12              -1.89e-11            
  0                     7.536e-11             2e-13                 4.1e-12               -7.51e-11            
  0.05                  2.9362e-10            3e-13                 1.82e-12              -2.9382e-10          
  0.1                   1.0744e-09            3.4e-13               3.16e-12              -1.07254e-09         
  0.15                  3.4276e-09            4.4e-13               3.1e-12               -3.429e-09           
  0.2                   8.7504e-09            9.4e-13               3.38e-12              -8.7494e-09          
  0.25                  1.7434e-08            1.64e-12              3.02e-12              -1.7422e-08          
  0.3                   2.8198e-08            2.94e-12              3.5e-12               -2.8174e-08          
  0.35                  3.9764e-08            4.84e-12              2.36e-12              -3.9752e-08          
  0.4                   5.1482e-08            7.86e-12              2.8e-12               -5.148e-08           
  0.45                  6.3114e-08            1.236e-11             3.1e-12               -6.3118e-08          
  0.5                   7.4542e-08            1.86e-11              3.8e-12               -7.4562e-08          
  0.55                  8.5724e-08            2.716e-11             2.4e-12               -8.573e-08           
  0.6                   9.6594e-08            3.922e-11             2.04e-12              -9.6616e-08          
  0.65                  1.07146e-07           5.504e-11             2.82e-12              -1.07168e-07         
  0.7                   1.1732e-07            7.582e-11             3.36e-12              -1.1738e-07          
  0.75                  1.2716e-07            1.0254e-10            2.46e-12              -1.2722e-07          
  0.8                   1.3658e-07            1.3654e-10            2.72e-12              -1.3668e-07          
  0.85                  1.4562e-07            1.7912e-10            3.04e-12              -1.4576e-07          
  0.9                   1.5426e-07            2.3192e-10            3.78e-12              -1.5446e-07          
  0.95                  1.6248e-07            2.9686e-10            2.28e-12              -1.6274e-07          
  1                     1.7028e-07            3.7588e-10            1.6e-12               -1.7062e-07          
  1.05                  1.7768e-07            4.7116e-10            3.12e-12              -1.7812e-07          
  1.1                   1.8464e-07            5.8466e-10            3.7e-12               -1.852e-07           
  1.15                  1.9122e-07            7.1966e-10            1.72e-12              -1.9192e-07          
  1.2                   1.974e-07             8.7892e-10            2.42e-12              -1.9826e-07          
  1.25                  2.032e-07             1.0656e-09            1.66e-12              -2.0424e-07          
  1.3                   2.0858e-07            1.2828e-09            2.68e-12              -2.0984e-07          
  1.35                  2.136e-07             1.5346e-09            1.92e-12              -2.1512e-07          
END_DB

BEGIN_DB
 ICCAP_VAR vb         -0.3           
 ICCAP_VAR vd         0.05           
 ICCAP_VAR vs         0              

 #vg                    id                    ig                    ib                    is                   
  -0.5                  1.4e-13               -5.4e-13              -5.48e-12             2.6e-13              
  -0.45                 4e-14                 -1.8e-13              -5.04e-12             1e-13                
  -0.4                  4e-14                 -1.6e-13              -4.66e-12             1.8e-13              
  -0.35                 2e-14                 6e-14                 -2.52e-12             -6e-14               
  -0.3                  6e-14                 0                     -2.8e-12              1.6e-13              
  -0.25                 2e-14                 8e-14                 -2.98e-12             0                    
  -0.2                  -4e-14                1.8e-13               -2.24e-12             -6e-14               
  -0.15                 3e-13                 1.8e-13               -3.56e-12             -1.8e-13             
  -0.1                  1.18e-12              2.2e-13               -2.7e-12              -1.18e-12            
  -0.05                 5.3e-12               3e-13                 -1.34e-12             -5.28e-12            
  0                     2.192e-11             2.4e-13               -1.06e-12             -2.182e-11           
  0.05                  9.004e-11             3.2e-13               -1.5e-12              -9.016e-11           
  0.1                   3.5966e-10            3.2e-13               -2.24e-12             -3.5912e-10          
  0.15                  1.3266e-09            5.2e-13               -4.8e-13              -1.325e-09           
  0.2                   4.1582e-09            7.2e-13               -1.26e-12             -4.1588e-09          
  0.25                  1.02734e-08           1.66e-12              -1.04e-12             -1.02756e-08         
  0.3                   1.9562e-08            2.66e-12              -1.68e-12             -1.9556e-08          
  0.35                  3.0526e-08            4.58e-12              -4e-13                -3.0522e-08          
  0.4                   4.1946e-08            7.6e-12               -1.6e-12              -4.1944e-08          
  0.45                  5.3426e-08            1.176e-11             -5.4e-13              -5.3416e-08          
  0.5                   6.4726e-08            1.814e-11             -8.2e-13              -6.4734e-08          
  0.55                  7.58e-08              2.686e-11             -1.38e-12             -7.5814e-08          
  0.6                   8.6632e-08            3.864e-11             -1.26e-12             -8.6646e-08          
  0.65                  9.715e-08             5.444e-11             -6.8e-13              -9.7196e-08          
  0.7                   1.07328e-07           7.508e-11             -9e-13                -1.07366e-07         
  0.75                  1.1716e-07            1.0168e-10            -7e-13                -1.1724e-07          
  0.8                   1.266e-07             1.3566e-10            -6.8e-13              -1.267e-07           
  0.85                  1.3568e-07            1.7806e-10            2e-14                 -1.3582e-07          
  0.9                   1.4434e-07            2.3092e-10            -5.6e-13              -1.4454e-07          
  0.95                  1.5262e-07            2.9564e-10            -1.62e-12             -1.5288e-07          
  1                     1.6048e-07            3.744e-10             -1.2e-12              -1.6084e-07          
  1.05                  1.6794e-07            4.6964e-10            5.6e-13               -1.6838e-07          
  1.1                   1.7498e-07            5.8314e-10            -6e-14                -1.7554e-07          
  1.15                  1.816e-07             7.181e-10             -3.4e-13              -1.8232e-07          
  1.2                   1.8784e-07            8.7694e-10            -3e-13                -1.887e-07           
  1.25                  1.9368e-07            1.0636e-09            -1.14e-12             -1.947e-07           
  1.3                   1.991e-07             1.2806e-09            6e-14                 -2.0036e-07          
  1.35                  2.042e-07             1.5326e-09            -9e-13                -2.0568e-07          
END_DB

BEGIN_DB
 ICCAP_VAR vb         -0.6           
 ICCAP_VAR vd         0.05           
 ICCAP_VAR vs         0              

 #vg                    id                    ig                    ib                    is                   
  -0.5                  1.8e-13               -4e-13                -6.46e-12             8e-14                
  -0.45                 2e-14                 -3.2e-13              -6.86e-12             1.4e-13              
  -0.4                  4e-14                 2e-14                 -6.68e-12             -8e-14               
  -0.35                 4e-14                 -4e-14                -6.12e-12             1.4e-13              
  -0.3                  2e-14                 -1e-13                -6.14e-12             1.6e-13              
  -0.25                 -8e-14                1e-13                 -4.98e-12             1e-13                
  -0.2                  1e-13                 8e-14                 -4.74e-12             2.4e-13              
  -0.15                 0                     3.4e-13               -4.46e-12             -6e-14               
  -0.1                  3e-13                 2.6e-13               -4.66e-12             -3.4e-13             
  -0.05                 1.82e-12              2.2e-13               -4.6e-12              -1.68e-12            
  0                     7.86e-12              3.8e-13               -3.68e-12             -7.98e-12            
  0.05                  3.396e-11             3.2e-13               -3.84e-12             -3.37e-11            
  0.1                   1.4116e-10            3.6e-13               -3.46e-12             -1.412e-10           
  0.15                  5.6378e-10            5.6e-13               -4.64e-12             -5.6372e-10          
  0.2                   2.0162e-09            5.4e-13               -4.36e-12             -2.0132e-09          
  0.25                  5.91e-09              1.42e-12              -3.12e-12             -5.9142e-09          
  0.3                   1.326e-08             2.42e-12              -2.42e-12             -1.3236e-08          
  0.35                  2.3202e-08            4.36e-12              -1.74e-12             -2.3208e-08          
  0.4                   3.4196e-08            7.32e-12              -3.94e-12             -3.418e-08           
  0.45                  4.5418e-08            1.148e-11             -3.32e-12             -4.5414e-08          
  0.5                   5.6566e-08            1.758e-11             -2.1e-12              -5.6572e-08          
  0.55                  6.7518e-08            2.62e-11              -1.52e-12             -6.7536e-08          
  0.6                   7.8252e-08            3.8e-11               -3.78e-12             -7.8282e-08          
  0.65                  8.8708e-08            5.362e-11             -2.4e-12              -8.8766e-08          
  0.7                   9.8858e-08            7.434e-11             -2.52e-12             -9.891e-08           
  0.75                  1.08672e-07           1.0076e-10            -1.76e-12             -1.08752e-07         
  0.8                   1.1814e-07            1.3444e-10            -2.82e-12             -1.1824e-07          
  0.85                  1.2722e-07            1.7694e-10            -2.68e-12             -1.2736e-07          
  0.9                   1.3592e-07            2.2964e-10            -1.42e-12             -1.361e-07           
  0.95                  1.4422e-07            2.9408e-10            -1.12e-12             -1.4448e-07          
  1                     1.5212e-07            3.729e-10             -3.3e-12              -1.5246e-07          
  1.05                  1.5962e-07            4.6808e-10            -3.38e-12             -1.6004e-07          
  1.1                   1.6668e-07            5.8144e-10            -2.18e-12             -1.6724e-07          
  1.15                  1.7336e-07            7.1616e-10            -2.32e-12             -1.7406e-07          
  1.2                   1.7966e-07            8.7528e-10            -1.02e-12             -1.8048e-07          
  1.25                  1.8554e-07            1.0618e-09            -2.42e-12             -1.8658e-07          
  1.3                   1.9104e-07            1.2788e-09            -2.12e-12             -1.923e-07           
  1.35                  1.9618e-07            1.5306e-09            -2e-12                -1.977e-07           
END_DB

BEGIN_DB
 ICCAP_VAR vb         -0.9           
 ICCAP_VAR vd         0.05           
 ICCAP_VAR vs         0              

 #vg                    id                    ig                    ib                    is                   
  -0.5                  1.8e-13               -5e-13                -8.02e-12             1e-13                
  -0.45                 0                     -1e-13                -8.4e-12              2.6e-13              
  -0.4                  6e-14                 -1e-13                -7.72e-12             6e-14                
  -0.35                 2e-14                 4e-14                 -6.82e-12             1.8e-13              
  -0.3                  -2e-14                1.4e-13               -6.44e-12             1e-13                
  -0.25                 -6e-14                0                     -6.62e-12             6e-14                
  -0.2                  2e-14                 8e-14                 -6.3e-12              2e-14                
  -0.15                 0                     2.2e-13               -6.5e-12              1.2e-13              
  -0.1                  1.2e-13               2.4e-13               -5.66e-12             -6e-14               
  -0.05                 7e-13                 2e-13                 -4.54e-12             -8e-13               
  0                     3.34e-12              3e-13                 -4.86e-12             -3.52e-12            
  0.05                  1.5e-11               3e-13                 -5.12e-12             -1.494e-11           
  0.1                   6.46e-11              3.8e-13               -5.56e-12             -6.48e-11            
  0.15                  2.7102e-10            4.6e-13               -4.44e-12             -2.7072e-10          
  0.2                   1.04788e-09           5.2e-13               -4.36e-12             -1.04724e-09         
  0.25                  3.4602e-09            1.24e-12              -3.84e-12             -3.4622e-09          
  0.3                   8.9502e-09            2.28e-12              -4.36e-12             -8.9482e-09          
  0.35                  1.756e-08             3.94e-12              -4.76e-12             -1.7558e-08          
  0.4                   2.7862e-08            6.96e-12              -4.44e-12             -2.7858e-08          
  0.45                  3.8686e-08            1.104e-11             -4.14e-12             -3.8688e-08          
  0.5                   4.9596e-08            1.706e-11             -3.28e-12             -4.96e-08            
  0.55                  6.0392e-08            2.56e-11              -3.26e-12             -6.0394e-08          
  0.6                   7.1004e-08            3.734e-11             -5.16e-12             -7.1032e-08          
  0.65                  8.1384e-08            5.298e-11             -5.12e-12             -8.1434e-08          
  0.7                   9.1466e-08            7.316e-11             -3.86e-12             -9.1548e-08          
  0.75                  1.01258e-07           9.982e-11             -2.4e-12              -1.01346e-07         
  0.8                   1.107e-07             1.3338e-10            -4.04e-12             -1.10812e-07         
  0.85                  1.198e-07             1.756e-10             -3.9e-12              -1.1994e-07          
  0.9                   1.285e-07             2.2808e-10            -2.42e-12             -1.287e-07           
  0.95                  1.3684e-07            2.928e-10             -2.26e-12             -1.371e-07           
  1                     1.4474e-07            3.714e-10             -3.22e-12             -1.4508e-07          
  1.05                  1.5228e-07            4.662e-10             -3.62e-12             -1.527e-07           
  1.1                   1.5938e-07            5.7952e-10            -3.34e-12             -1.5992e-07          
  1.15                  1.6612e-07            7.143e-10             -3.38e-12             -1.668e-07           
  1.2                   1.7246e-07            8.7316e-10            -2.18e-12             -1.7328e-07          
  1.25                  1.7838e-07            1.0596e-09            -3.72e-12             -1.794e-07           
  1.3                   1.8392e-07            1.2766e-09            -3.82e-12             -1.8518e-07          
  1.35                  1.8912e-07            1.5286e-09            -2.56e-12             -1.9064e-07          
END_DB

BEGIN_DB
 ICCAP_VAR vb         -1.2           
 ICCAP_VAR vd         0.05           
 ICCAP_VAR vs         0              

 #vg                    id                    ig                    ib                    is                   
  -0.5                  2e-14                 -4e-13                -8.08e-12             2.6e-13              
  -0.45                 2e-14                 -2.4e-13              -9.18e-12             1e-13                
  -0.4                  2e-14                 -1.2e-13              -1.012e-11            1.2e-13              
  -0.35                 0                     6e-14                 -8.12e-12             0                    
  -0.3                  2e-14                 4e-14                 -7.36e-12             -1.4e-13             
