! VERSION = 6.00
BEGIN_HEADER
 ICCAP_INPUTS
  vd         V  D GROUND SMU1 0.1 LIN        1    0          1.35       28   0.05      
  vg         V  G GROUND SMU2 0.001 LIST       2 3 0.238 0.438 0.638
  vb         V  B GROUND SMU4 0.1 CON        -1.2
  vs         V  S GROUND SMU3 0.1 CON        0
 ICCAP_OUTPUTS
  id         I  D GROUND SMU1 B
  ig         I  G GROUND SMU2 B
  ib         I  B GROUND SMU4 B
  is         I  S GROUND SMU3 B
 ICCAP_VALUES
  MASTER_SETUP_TYPE "~dc_idvd~"
  LINVT_VALUE ""
  LISTVT_VALUE "|idvg|100.0n|-200.0m|1.000m|3|200.0m|200.0m|"
  TYPE "1"
  TEMP " 70.0000 "
  IS_TNOM " 0.00000 "
  MAIN.W "10.00u"
  MAIN.L "130.0n"
  MAIN.AD "3.400p"
  MAIN.AS "3.400p"
  MAIN.PD "20.68u"
  MAIN.PS "20.68u"
  MAIN.NF "1.000"
  MAIN.M "1"
  MAIN.NRD "0.000"
  MAIN.NRS "0.000"
  MAIN.LDRIFT1 "1E-06"
  MAIN.LDRIFT2 "1E-06"
  MAIN.SA "0.000"
  MAIN.SB "0.000"
  MAIN.SD "0.000"
  MAIN.SCA "0.000"
  MAIN.SCB "0.000"
  MAIN.SCC "0.000"
  MAIN.SC "0.000"
  MODULE "S540"
  PIN_D "18"
  PIN_G "3"
  PIN_S "4"
  PIN_B "17"
  PIN_E ""
  PIN_6 ""
  XY_ID ""
  FUNC "Short"
  STI "SA ref"
  WPE "WPE ref"
  COMMENT ""
  DIS_MEAS ""
  TypeTCI "10"
END_HEADER

BEGIN_DB
 ICCAP_VAR vg         0.238          
 ICCAP_VAR vb         -1.2           
 ICCAP_VAR vs         0              

 #vd                    id                    ig                    ib                    is                   
  0                     3.768e-11             4.8e-13               -1.054e-11            -2.202e-11           
  0.05                  1.2724e-08            3.4e-13               -1.066e-11            -1.2706e-08          
  0.1                   1.7052e-08            3e-13                 -1.042e-11            -1.7038e-08          
  0.15                  1.9766e-08            2.8e-13               -9.18e-12             -1.975e-08           
  0.2                   2.2324e-08            1e-13                 -8.56e-12             -2.231e-08           
  0.25                  2.5058e-08            2.4e-13               -8.6e-12              -2.5044e-08          
  0.3                   2.8062e-08            2.2e-13               -8.36e-12             -2.8114e-08          
  0.35                  3.1454e-08            8e-14                 -8.02e-12             -3.1436e-08          
  0.4                   3.512e-08             1e-13                 -7.16e-12             -3.5104e-08          
  0.45                  3.9154e-08            6e-14                 -7.62e-12             -3.9144e-08          
  0.5                   4.3624e-08            -8e-14                -7.96e-12             -4.361e-08           
  0.55                  4.8536e-08            -1e-13                -6.4e-12              -4.8532e-08          
  0.6                   5.3958e-08            -5e-13                -6.52e-12             -5.389e-08           
  0.65                  5.9912e-08            -6.8e-13              -6.26e-12             -5.9782e-08          
  0.7                   6.6436e-08            -9.6e-13              -7.14e-12             -6.644e-08           
  0.75                  7.3644e-08            -1.44e-12             -5.96e-12             -7.3626e-08          
  0.8                   8.1544e-08            -2.04e-12             -5.16e-12             -8.153e-08           
  0.85                  9.0204e-08            -2.68e-12             -6.52e-12             -9.0188e-08          
  0.9                   9.9692e-08            -3.7e-12              -6.96e-12             -9.965e-08           
  0.95                  1.10028e-07           -4.78e-12             -6.24e-12             -1.1005e-07          
  1                     1.2144e-07            -5.96e-12             -7.72e-12             -1.2138e-07          
  1.05                  1.338e-07             -7.52e-12             -8.78e-12             -1.3374e-07          
  1.1                   1.4714e-07            -9.2e-12              -1.176e-11            -1.471e-07           
  1.15                  1.6208e-07            -1.134e-11            -1.656e-11            -1.6208e-07          
  1.2                   1.781e-07             -1.384e-11            -2.526e-11            -1.7802e-07          
  1.25                  1.9554e-07            -1.64e-11             -3.678e-11            -1.955e-07           
  1.3                   2.1452e-07            -1.964e-11            -5.43e-11             -2.1436e-07          
  1.35                  2.352e-07             -2.31e-11             -8.434e-11            -2.3508e-07          
END_DB

BEGIN_DB
 ICCAP_VAR vg         0.438          
 ICCAP_VAR vb         -1.2           
 ICCAP_VAR vs         0              

 #vd                    id                    ig                    ib                    is                   
  0                     2.3526e-09            5.42e-12              -2.62e-12             -2.3724e-09          
  0.05                  2.2766e-06            4.42e-12              -3.9e-12              -2.2724e-06          
  0.1                   3.1752e-06            3.84e-12              -4.6e-12              -3.1726e-06          
  0.15                  3.7188e-06            3.5e-12               -3.5e-12              -3.7138e-06          
  0.2                   4.1906e-06            3.34e-12              -4.68e-12             -4.1904e-06          
  0.25                  4.666e-06             3.2e-12               -3.88e-12             -4.6626e-06          
  0.3                   5.1636e-06            3.2e-12               -2.68e-12             -5.1626e-06          
  0.35                  5.6918e-06            3.18e-12              -4.54e-12             -5.6904e-06          
  0.4                   6.2598e-06            3.2e-12               -4.28e-12             -6.2572e-06          
  0.45                  6.8634e-06            3.18e-12              -3.36e-12             -6.856e-06           
  0.5                   7.5058e-06            3.14e-12              -4.24e-12             -7.5014e-06          
  0.55                  8.1958e-06            3.22e-12              -3.36e-12             -8.1898e-06          
  0.6                   8.9298e-06            3.1e-12               -3.82e-12             -8.9272e-06          
  0.65                  9.7114e-06            2.98e-12              -4.74e-12             -9.7082e-06          
  0.7                   1.05458e-05           3e-12                 -3.46e-12             -1.05384e-05         
  0.75                  1.1423e-05            2.86e-12              -4.7e-12              -1.14182e-05         
  0.8                   1.2372e-05            2.64e-12              -3.44e-12             -1.236e-05           
  0.85                  1.3362e-05            2.3e-12               -6.2e-12              -1.336e-05           
  0.9                   1.4412e-05            1.94e-12              -7.72e-12             -1.4406e-05          
  0.95                  1.553e-05             1.52e-12              -1.28e-11             -1.5532e-05          
  1                     1.6724e-05            9.4e-13               -2.96e-11             -1.6708e-05          
  1.05                  1.7956e-05            1.6e-13               -6.148e-11            -1.7938e-05          
  1.1                   1.9226e-05            -5.4e-13              -1.2738e-10           -1.9232e-05          
  1.15                  2.0604e-05            -1.64e-12             -2.5976e-10           -2.0612e-05          
  1.2                   2.2076e-05            -2.96e-12             -4.9494e-10           -2.2068e-05          
  1.25                  2.359e-05             -4.28e-12             -9.0224e-10           -2.3578e-05          
  1.3                   2.5182e-05            -6.1e-12              -1.5728e-09           -2.5156e-05          
  1.35                  2.6846e-05            -8.32e-12             -2.6356e-09           -2.6874e-05          
END_DB

BEGIN_DB
 ICCAP_VAR vg         0.638          
 ICCAP_VAR vb         -1.2           
 ICCAP_VAR vs         0              

 #vd                    id                    ig                    ib                    is                   
  0                     9.418e-08             3.164e-11             -3.3e-12              -8.0772e-08          
  0.05                  5.9962e-05            2.674e-11             -2.68e-12             -5.9924e-05          
  0.1                   9.5842e-05            2.322e-11             -3.34e-12             -9.5798e-05          
  0.15                  0.00011822            2.112e-11             -3.08e-12             -0.00011792          
  0.2                   0.00013388            1.954e-11             -3.52e-12             -0.00013348          
  0.25                  0.0001464             1.886e-11             -2.9e-12              -0.00014608          
  0.3                   0.00015728            1.828e-11             -3.82e-12             -0.000157            
  0.35                  0.00016758            1.782e-11             -4.08e-12             -0.00016732          
  0.4                   0.00017744            1.758e-11             -2.84e-12             -0.00017728          
  0.45                  0.00018756            1.746e-11             -4.2e-12              -0.00018716          
  0.5                   0.00019732            1.744e-11             -3.68e-12             -0.00019706          
  0.55                  0.0002073             1.744e-11             -2.64e-12             -0.0002069           
  0.6                   0.00021748            1.754e-11             -3.56e-12             -0.00021724          
  0.65                  0.00022772            1.736e-11             -2.34e-12             -0.00022734          
  0.7                   0.00023806            1.734e-11             -3.6e-12              -0.00023766          
  0.75                  0.00024864            1.724e-11             -4.58e-12             -0.00024838          
  0.8                   0.00025918            1.714e-11             -4.04e-12             -0.00025892          
  0.85                  0.00026994            1.718e-11             -8e-12                -0.0002699           
  0.9                   0.00028102            1.704e-11             -1.494e-11            -0.00028074          
  0.95                  0.00029228            1.678e-11             -3.266e-11            -0.0002919           
  1                     0.00030356            1.668e-11             -8.298e-11            -0.00030332          
  1.05                  0.0003152             1.65e-11              -2.0132e-10           -0.00031484          
  1.1                   0.0003269             1.604e-11             -4.6524e-10           -0.00032654          
  1.15                  0.00033878            1.558e-11             -1.02232e-09          -0.00033836          
  1.2                   0.00035076            1.51e-11              -2.1188e-09           -0.00035036          
  1.25                  0.00036304            1.428e-11             -4.1506e-09           -0.00036284          
  1.3                   0.0003755             1.338e-11             -7.7132e-09           -0.0003752           
  1.35                  0.00038802            1.228e-11             -1.3672e-08           -0.00038762          
END_DB

