! VERSION = 6.00
BEGIN_HEADER
 ICCAP_INPUTS
  vd         V  D GROUND SMU1 0.1 LIN        1    0          1.35       28   0.05      
  vg         V  G GROUND SMU2 0.001 LIST       2 3 -0.022 0.178 0.378
  vb         V  B GROUND SMU4 0.1 CON        0
  vs         V  S GROUND SMU3 0.1 CON        0
 ICCAP_OUTPUTS
  id         I  D GROUND SMU1 B
  ig         I  G GROUND SMU2 B
  ib         I  B GROUND SMU4 B
  is         I  S GROUND SMU3 B
 ICCAP_VALUES
  MASTER_SETUP_TYPE "~dc_idvd~"
  LINVT_VALUE ""
  LISTVT_VALUE "|idvg|100.0n|-200.0m|1.000m|3|200.0m|200.0m|"
  TYPE "1"
  TEMP " 27.0000 "
  IS_TNOM " 1.00000 "
  MAIN.W "300.0n"
  MAIN.L "10.00u"
  MAIN.AD "102.0f"
  MAIN.AS "102.0f"
  MAIN.PD "1.280u"
  MAIN.PS "1.280u"
  MAIN.NF "1.000"
  MAIN.M "1"
  MAIN.NRD "0.000"
  MAIN.NRS "0.000"
  MAIN.LDRIFT1 "1E-06"
  MAIN.LDRIFT2 "1E-06"
  MAIN.SA "0.000"
  MAIN.SB "0.000"
  MAIN.SD "0.000"
  MAIN.SCA "0.000"
  MAIN.SCB "0.000"
  MAIN.SCC "0.000"
  MAIN.SC "0.000"
  MODULE "S545"
  PIN_D "18"
  PIN_G "3"
  PIN_S "4"
  PIN_B "17"
  PIN_E ""
  PIN_6 ""
  XY_ID ""
  FUNC "W Scale"
  STI "SA ref"
  WPE "WPE ref"
  COMMENT ""
  DIS_MEAS ""
  TypeTCI "10"
END_HEADER

BEGIN_DB
 ICCAP_VAR vg         -0.022         
 ICCAP_VAR vb         0              
 ICCAP_VAR vs         0              

 #vd                    id                    ig                    ib                    is                   
  0                     -1.6e-13              -1e-13                1.02e-12              2.2e-13              
  0.05                  4.2e-12               -1.2e-13              9e-13                 -4.06e-12            
  0.1                   5.16e-12              -1e-13                1.68e-12              -4.84e-12            
  0.15                  5.58e-12              -2.8e-13              1.3e-12               -5.12e-12            
  0.2                   5.8e-12               -2e-13                0                     -5.38e-12            
  0.25                  6.2e-12               -8e-14                3.2e-13               -5.58e-12            
  0.3                   6.32e-12              -2.6e-13              3.6e-13               -5.76e-12            
  0.35                  6.72e-12              -2.2e-13              1.1e-12               -6e-12               
  0.4                   6.88e-12              -1.8e-13              7.2e-13               -6.18e-12            
  0.45                  7.12e-12              -2e-13                -2e-14                -6.4e-12             
  0.5                   7.34e-12              -1.4e-13              3e-13                 -6.6e-12             
  0.55                  7.52e-12              -2.2e-13              -4e-14                -6.82e-12            
  0.6                   7.84e-12              -1.8e-13              1.3e-12               -7e-12               
  0.65                  7.96e-12              -2e-13                3e-13                 -7.26e-12            
  0.7                   8.18e-12              -3.2e-13              5e-13                 -7.42e-12            
  0.75                  8.56e-12              -3.2e-13              1e-13                 -7.56e-12            
  0.8                   8.88e-12              -4.4e-13              -8e-14                -7.76e-12            
  0.85                  9.02e-12              -4.4e-13              1.74e-12              -7.96e-12            
  0.9                   9.38e-12              -6.6e-13              7e-13                 -8.02e-12            
  0.95                  9.48e-12              -7e-13                0                     -8.28e-12            
  1                     9.9e-12               -8.4e-13              2.8e-13               -8.4e-12             
  1.05                  1.006e-11             -9e-13                5.8e-13               -8.56e-12            
  1.1                   1.054e-11             -9.6e-13              6.2e-13               -8.62e-12            
  1.15                  1.066e-11             -1.18e-12             1e-12                 -8.76e-12            
  1.2                   1.112e-11             -1.38e-12             3.6e-13               -8.78e-12            
  1.25                  1.126e-11             -1.52e-12             4.8e-13               -8.86e-12            
  1.3                   1.158e-11             -1.8e-12              1.8e-13               -9.02e-12            
  1.35                  1.188e-11             -1.96e-12             1.18e-12              -9.24e-12            
END_DB

BEGIN_DB
 ICCAP_VAR vg         0.178          
 ICCAP_VAR vb         0              
 ICCAP_VAR vs         0              

 #vd                    id                    ig                    ib                    is                   
  0                     2.54e-12              9.6e-13               7e-13                 -3.74e-12            
  0.05                  1.8804e-09            8.4e-13               1.2e-13               -1.879e-09           
  0.1                   2.315e-09             6.2e-13               2e-13                 -2.3136e-09          
  0.15                  2.4986e-09            6e-13                 3.8e-13               -2.4952e-09          
  0.2                   2.6378e-09            7e-13                 1.5e-12               -2.6354e-09          
  0.25                  2.7652e-09            5.8e-13               8e-13                 -2.7634e-09          
  0.3                   2.8888e-09            4.4e-13               -5.8e-13              -2.8866e-09          
  0.35                  3.008e-09             5.2e-13               -2e-13                -3.0068e-09          
  0.4                   3.1238e-09            6.6e-13               8e-13                 -3.1226e-09          
  0.45                  3.2368e-09            5.6e-13               1.5e-12               -3.2348e-09          
  0.5                   3.3464e-09            3.8e-13               -2.6e-13              -3.3438e-09          
  0.55                  3.4542e-09            4.8e-13               4e-13                 -3.452e-09           
  0.6                   3.5588e-09            4.8e-13               3.6e-13               -3.5554e-09          
  0.65                  3.6586e-09            5.8e-13               1.36e-12              -3.6578e-09          
  0.7                   3.7574e-09            4.6e-13               1.12e-12              -3.7548e-09          
  0.75                  3.8542e-09            4e-13                 -6e-14                -3.8508e-09          
  0.8                   3.9466e-09            3.4e-13               2.4e-13               -3.9446e-09          
  0.85                  4.0362e-09            3.2e-13               3e-13                 -4.0346e-09          
  0.9                   4.1238e-09            1.6e-13               6.8e-13               -4.1214e-09          
  0.95                  4.2086e-09            1.8e-13               1.16e-12              -4.2044e-09          
  1                     4.2882e-09            1.8e-13               -2e-13                -4.2842e-09          
  1.05                  4.363e-09             6e-14                 1.4e-13               -4.3614e-09          
  1.1                   4.4376e-09            -2.6e-13              -6e-13                -4.4334e-09          
  1.15                  4.507e-09             -2.2e-13              5.4e-13               -4.5024e-09          
  1.2                   4.5722e-09            -2.2e-13              3e-13                 -4.5686e-09          
  1.25                  4.6348e-09            -5.2e-13              2.06e-12              -4.6312e-09          
  1.3                   4.6946e-09            -6.2e-13              -1e-12                -4.689e-09           
  1.35                  4.7488e-09            -8.8e-13              -9.8e-13              -4.7438e-09          
END_DB

BEGIN_DB
 ICCAP_VAR vg         0.378          
 ICCAP_VAR vb         0              
 ICCAP_VAR vs         0              

 #vd                    id                    ig                    ib                    is                   
  0                     9.15e-11              1.3e-11               1.2e-12               -1.055e-10           
  0.05                  7.525e-08             1.048e-11             2.8e-13               -7.5252e-08          
  0.1                   1.10934e-07           9.16e-12              -2.4e-13              -1.10944e-07         
  0.15                  1.2428e-07            8.82e-12              1.22e-12              -1.2412e-07          
  0.2                   1.3036e-07            8.62e-12              3.8e-13               -1.3022e-07          
  0.25                  1.3434e-07            8.5e-12               -4e-13                -1.342e-07           
  0.3                   1.3772e-07            8.24e-12              2.4e-13               -1.3762e-07          
  0.35                  1.4088e-07            8.22e-12              3.7e-12               -1.4078e-07          
  0.4                   1.439e-07             8.08e-12              2.4e-13               -1.4374e-07          
  0.45                  1.4672e-07            8.02e-12              -1.4e-13              -1.466e-07           
  0.5                   1.4944e-07            8.06e-12              4.4e-13               -1.4932e-07          
  0.55                  1.521e-07             7.92e-12              7.6e-13               -1.5194e-07          
  0.6                   1.5466e-07            7.82e-12              8e-14                 -1.5452e-07          
  0.65                  1.5716e-07            7.76e-12              3.6e-13               -1.5706e-07          
  0.7                   1.5958e-07            7.56e-12              0                     -1.5946e-07          
  0.75                  1.6198e-07            7.54e-12              1.04e-12              -1.6186e-07          
  0.8                   1.643e-07             7.54e-12              -1e-13                -1.6418e-07          
  0.85                  1.6658e-07            7.42e-12              -1.2e-13              -1.6648e-07          
  0.9                   1.6882e-07            7.36e-12              3.6e-13               -1.687e-07           
  0.95                  1.7102e-07            7.26e-12              1.04e-12              -1.709e-07           
  1                     1.7318e-07            7.16e-12              -4.6e-13              -1.7306e-07          
  1.05                  1.753e-07             7.08e-12              2.4e-13               -1.7518e-07          
  1.1                   1.7736e-07            6.9e-12               5e-13                 -1.7724e-07          
  1.15                  1.7938e-07            6.78e-12              5e-13                 -1.7926e-07          
  1.2                   1.8134e-07            6.74e-12              -8.4e-13              -1.8122e-07          
  1.25                  1.8326e-07            6.6e-12               -2.96e-12             -1.8316e-07          
  1.3                   1.8516e-07            6.52e-12              -4.62e-12             -1.8504e-07          
  1.35                  1.8698e-07            6.3e-12               -7.94e-12             -1.8686e-07          
END_DB

