! VERSION = 6.00
BEGIN_HEADER
 ICCAP_INPUTS
  vd         V  D GROUND SMU1 0.1 LIN        1    0          1.35       28   0.05      
  vg         V  G GROUND SMU2 0.001 LIST       2 3 0.115 0.315 0.515
  vb         V  B GROUND SMU4 0.1 CON        0
  vs         V  S GROUND SMU3 0.1 CON        0
 ICCAP_OUTPUTS
  id         I  D GROUND SMU1 B
  ig         I  G GROUND SMU2 B
  ib         I  B GROUND SMU4 B
  is         I  S GROUND SMU3 B
 ICCAP_VALUES
  MASTER_SETUP_TYPE "~dc_idvd~"
  LINVT_VALUE ""
  LISTVT_VALUE "|idvg|100.0n|-200.0m|1.000m|3|200.0m|200.0m|"
  TYPE "1"
  TEMP " 27.0000 "
  IS_TNOM " 1.00000 "
  MAIN.W "10.00u"
  MAIN.L "180.0n"
  MAIN.AD "3.400p"
  MAIN.AS "3.400p"
  MAIN.PD "20.68u"
  MAIN.PS "20.68u"
  MAIN.NF "1.000"
  MAIN.M "1"
  MAIN.NRD "0.000"
  MAIN.NRS "0.000"
  MAIN.LDRIFT1 "1E-06"
  MAIN.LDRIFT2 "1E-06"
  MAIN.SA "0.000"
  MAIN.SB "0.000"
  MAIN.SD "0.000"
  MAIN.SCA "0.000"
  MAIN.SCB "0.000"
  MAIN.SCC "0.000"
  MAIN.SC "0.000"
  MODULE "S540"
  PIN_D "12"
  PIN_G "9"
  PIN_S "10"
  PIN_B "11"
  PIN_E ""
  PIN_6 ""
  XY_ID ""
  FUNC "L Scale"
  STI "SA ref"
  WPE "WPE ref"
  COMMENT ""
  DIS_MEAS ""
  TypeTCI "10"
END_HEADER

BEGIN_DB
 ICCAP_VAR vg         0.115          
 ICCAP_VAR vb         0              
 ICCAP_VAR vs         0              

 #vd                    id                    ig                    ib                    is                   
  0                     5.542e-11             -2e-14                6.2e-13               -3.596e-11           
  0.05                  1.0802e-08            -1e-13                5.4e-13               -1.0782e-08          
  0.1                   1.2994e-08            -1e-13                7e-13                 -1.297e-08           
  0.15                  1.3824e-08            4e-14                 6.4e-13               -1.3804e-08          
  0.2                   1.4452e-08            -4e-14                -8e-14                -1.443e-08           
  0.25                  1.5028e-08            -1.4e-13              0                     -1.5008e-08          
  0.3                   1.5594e-08            -1.2e-13              1e-12                 -1.5576e-08          
  0.35                  1.6156e-08            -2e-13                -1.8e-13              -1.6132e-08          
  0.4                   1.6706e-08            -2.8e-13              -7.6e-13              -1.6686e-08          
  0.45                  1.7262e-08            -6.4e-13              0                     -1.7232e-08          
  0.5                   1.7804e-08            -6.6e-13              4.4e-13               -1.7776e-08          
  0.55                  1.834e-08             -8e-13                8.2e-13               -1.8324e-08          
  0.6                   1.8884e-08            -1.14e-12             -8e-13                -1.8858e-08          
  0.65                  1.9414e-08            -1.52e-12             -4.4e-13              -1.9388e-08          
  0.7                   1.9942e-08            -1.98e-12             -2.2e-13              -1.9922e-08          
  0.75                  2.0474e-08            -2.58e-12             0                     -2.0442e-08          
  0.8                   2.0988e-08            -3.12e-12             7.4e-13               -2.0954e-08          
  0.85                  2.151e-08             -4.02e-12             -3.8e-13              -2.1482e-08          
  0.9                   2.2028e-08            -5.04e-12             -6.6e-13              -2.1998e-08          
  0.95                  2.254e-08             -6.08e-12             1.08e-12              -2.2516e-08          
  1                     2.3062e-08            -7.48e-12             4e-13                 -2.3022e-08          
  1.05                  2.357e-08             -9.2e-12              -9.6e-13              -2.3546e-08          
  1.1                   2.4084e-08            -1.09e-11             -1.2e-12              -2.4052e-08          
  1.15                  2.4594e-08            -1.298e-11            -2.1e-12              -2.4564e-08          
  1.2                   2.5102e-08            -1.528e-11            -1.84e-12             -2.507e-08           
  1.25                  2.5622e-08            -1.8e-11              -4.06e-12             -2.5576e-08          
  1.3                   2.6126e-08            -2.106e-11            -5.56e-12             -2.6074e-08          
  1.35                  2.6642e-08            -2.446e-11            -7.78e-12             -2.66e-08            
END_DB

BEGIN_DB
 ICCAP_VAR vg         0.315          
 ICCAP_VAR vb         0              
 ICCAP_VAR vs         0              

 #vd                    id                    ig                    ib                    is                   
  0                     1.011e-08             1.66e-12              3e-13                 -1.0188e-08          
  0.05                  3.4488e-06            1.44e-12              8e-14                 -3.4388e-06          
  0.1                   4.369e-06             1.12e-12              -7e-13                -4.3658e-06          
  0.15                  4.7324e-06            1.02e-12              6.2e-13               -4.729e-06           
  0.2                   4.9698e-06            1.08e-12              8.4e-13               -4.9648e-06          
  0.25                  5.1754e-06            1.08e-12              -4.2e-13              -5.176e-06           
  0.3                   5.37e-06              9.2e-13               2e-13                 -5.3664e-06          
  0.35                  5.555e-06             8.8e-13               -2e-13                -5.5518e-06          
  0.4                   5.7352e-06            8e-13                 -2.2e-13              -5.7326e-06          
  0.45                  5.909e-06             8.8e-13               6.2e-13               -5.9064e-06          
  0.5                   6.0786e-06            8.2e-13               8e-14                 -6.076e-06           
  0.55                  6.2446e-06            8e-13                 -5e-13                -6.2402e-06          
  0.6                   6.4056e-06            5.6e-13               5e-13                 -6.4016e-06          
  0.65                  6.5698e-06            4.4e-13               -1.04e-12             -6.562e-06           
  0.7                   6.7212e-06            2.6e-13               -7e-13                -6.7158e-06          
  0.75                  6.869e-06             -2e-14                2.48e-12              -6.8702e-06          
  0.8                   7.023e-06             -3.4e-13              -7.4e-13              -7.021e-06           
  0.85                  7.1668e-06            -6e-13                -8.2e-13              -7.164e-06           
  0.9                   7.3154e-06            -1.02e-12             -3.64e-12             -7.3106e-06          
  0.95                  7.4666e-06            -1.48e-12             -1.8e-12              -7.4618e-06          
  1                     7.6044e-06            -2.28e-12             -5.08e-12             -7.5932e-06          
  1.05                  7.7358e-06            -3.2e-12              -1.096e-11            -7.7288e-06          
  1.1                   7.881e-06             -4.1e-12              -2.76e-11             -7.8792e-06          
  1.15                  8.0064e-06            -5.34e-12             -5.836e-11            -8.001e-06           
  1.2                   8.1508e-06            -6.64e-12             -1.1462e-10           -8.1456e-06          
  1.25                  8.2842e-06            -8.2e-12              -2.134e-10            -8.2794e-06          
  1.3                   8.415e-06             -9.94e-12             -3.741e-10            -8.4084e-06          
  1.35                  8.5442e-06            -1.194e-11            -6.2088e-10           -8.5402e-06          
END_DB

BEGIN_DB
 ICCAP_VAR vg         0.515          
 ICCAP_VAR vb         0              
 ICCAP_VAR vs         0              

 #vd                    id                    ig                    ib                    is                   
  0                     2.738e-07             1.662e-11             1.26e-12              -1.4238e-07          
  0.05                  8.0384e-05            1.338e-11             -6.8e-13              -8.036e-05           
  0.1                   0.0001265             1.142e-11             6e-14                 -0.00012618          
  0.15                  0.00015086            1.006e-11             -1.2e-13              -0.00015048          
  0.2                   0.00016404            9.36e-12              7e-13                 -0.00016358          
  0.25                  0.00017222            8.96e-12              -3.4e-13              -0.00017184          
  0.3                   0.00017822            8.72e-12              -4.2e-13              -0.00017782          
  0.35                  0.00018322            8.5e-12               2.6e-13               -0.0001829           
  0.4                   0.00018786            8.32e-12              -8.6e-13              -0.0001875           
  0.45                  0.00019198            8.18e-12              -4.8e-13              -0.00019162          
  0.5                   0.000196              8.14e-12              1.52e-12              -0.00019566          
  0.55                  0.0001999             8e-12                 -8.2e-13              -0.00019948          
  0.6                   0.00020348            7.86e-12              -1.18e-12             -0.00020306          
  0.65                  0.00020688            7.76e-12              7.2e-13               -0.00020646          
  0.7                   0.00021026            7.74e-12              -8.4e-13              -0.00020994          
  0.75                  0.00021368            7.52e-12              -5.4e-13              -0.00021326          
  0.8                   0.0002169             7.32e-12              3.74e-12              -0.00021658          
  0.85                  0.0002201             7.3e-12               -9.2e-13              -0.00021978          
  0.9                   0.00022334            7.08e-12              -1.76e-12             -0.0002229           
  0.95                  0.00022638            6.62e-12              -3.14e-12             -0.00022596          
  1                     0.00022932            6.44e-12              -1.072e-11            -0.00022892          
  1.05                  0.00023226            5.88e-12              -3.052e-11            -0.00023182          
  1.1                   0.00023516            5.44e-12              -8.396e-11            -0.00023474          
  1.15                  0.00023798            4.86e-12              -2.129e-10            -0.00023762          
  1.2                   0.00024076            4.22e-12              -4.999e-10            -0.00024046          
  1.25                  0.00024346            3.24e-12              -1.09266e-09          -0.00024312          
  1.3                   0.0002461             2.24e-12              -2.2194e-09           -0.0002458           
  1.35                  0.00024886            1.1e-12               -4.2272e-09           -0.00024854          
END_DB

