! VERSION = 6.00
BEGIN_HEADER
 ICCAP_INPUTS
  vg         V  G GROUND SMU2 0.001 LIN        1    -0.5       1.35       38   0.05      
  vb         V  B GROUND SMU4 0.1 LIN        2    0          -1.2       5    -0.3      
  vd         V  D GROUND SMU1 0.1 LIST       3 3 0.05 0.6 1.2
  vs         V  S GROUND SMU3 0.1 CON        0
 ICCAP_OUTPUTS
  id         I  D GROUND SMU1 B
  ig         I  G GROUND SMU2 B
  ib         I  B GROUND SMU4 B
  is         I  S GROUND SMU3 B
 ICCAP_VALUES
  MASTER_SETUP_TYPE "~dc_idvg~"
  LINVT_VALUE ""
  LISTVT_VALUE ""
  TYPE "1"
  TEMP " 27.0000 "
  IS_TNOM " 1.00000 "
  MAIN.W "10.00u"
  MAIN.L "2.000u"
  MAIN.AD "3.400p"
  MAIN.AS "3.400p"
  MAIN.PD "20.68u"
  MAIN.PS "20.68u"
  MAIN.NF "1.000"
  MAIN.M "1"
  MAIN.NRD "0.000"
  MAIN.NRS "0.000"
  MAIN.LDRIFT1 "1E-06"
  MAIN.LDRIFT2 "1E-06"
  MAIN.SA "0.000"
  MAIN.SB "0.000"
  MAIN.SD "0.000"
  MAIN.SCA "0.000"
  MAIN.SCB "0.000"
  MAIN.SCC "0.000"
  MAIN.SC "0.000"
  MODULE "S541"
  PIN_D "16"
  PIN_G "5"
  PIN_S "6"
  PIN_B "15"
  PIN_E ""
  PIN_6 ""
  XY_ID ""
  FUNC "L Scale"
  STI "SA ref"
  WPE "WPE ref"
  COMMENT ""
  DIS_MEAS ""
  TypeTCI "10"
END_HEADER

BEGIN_DB
 ICCAP_VAR vb         0              
 ICCAP_VAR vd         0.05           
 ICCAP_VAR vs         0              

 #vg                    id                    ig                    ib                    is                   
  -0.5                  1.82e-12              -4.74e-11             4.566e-11             1.86e-12             
  -0.45                 1.28e-12              -9.36e-12             8.6e-12               1.32e-12             
  -0.4                  9.8e-13               -2.82e-12             4.18e-12              8.6e-13              
  -0.35                 8e-13                 -1.66e-12             2.88e-12              7.4e-13              
  -0.3                  7.6e-13               -9e-13                9.4e-13               4.6e-13              
  -0.25                 8.8e-13               -4.2e-13              1.5e-12               4e-14                
  -0.2                  2.6e-12               -4e-13                1.54e-12              -2.12e-12            
  -0.15                 1.112e-11             -8e-14                2.72e-12              -1.072e-11           
  -0.1                  5.324e-11             4e-14                 1.76e-12              -5.29e-11            
  -0.05                 2.5676e-10            2.8e-13               1.1e-12               -2.5654e-10          
  0                     1.2398e-09            1.2e-13               1.92e-12              -1.2386e-09          
  0.05                  5.962e-09             3.4e-13               2.12e-12              -5.9586e-09          
  0.1                   2.7966e-08            8.2e-13               1.78e-12              -2.7954e-08          
  0.15                  1.2508e-07            2.28e-12              5.48e-12              -1.249e-07           
  0.2                   4.9644e-07            5.52e-12              1.36e-12              -4.9636e-07          
  0.25                  1.6212e-06            1.2e-11               -1.5e-12              -1.6174e-06          
  0.3                   4.1066e-06            2.37e-11              2.8e-13               -4.1028e-06          
  0.35                  8.1614e-06            4.26e-11              6.8e-13               -8.157e-06           
  0.4                   1.3338e-05            7.232e-11             2.24e-12              -1.3316e-05          
  0.45                  1.9026e-05            1.1732e-10            1.22e-12              -1.9008e-05          
  0.5                   2.485e-05             1.8312e-10            4.6e-13               -2.4836e-05          
  0.55                  3.0638e-05            2.7614e-10            1.02e-12              -3.062e-05           
  0.6                   3.633e-05             4.0482e-10            2.26e-12              -3.6316e-05          
  0.65                  4.1888e-05            5.7884e-10            1.24e-12              -4.1872e-05          
  0.7                   4.7268e-05            8.0838e-10            1.12e-12              -4.7248e-05          
  0.75                  5.2468e-05            1.1076e-09            8.4e-13               -5.2448e-05          
  0.8                   5.7454e-05            1.49e-09              8.4e-13               -5.7438e-05          
  0.85                  6.2232e-05            1.9734e-09            1.3e-12               -6.2214e-05          
  0.9                   6.6772e-05            2.5756e-09            1.8e-12               -6.6756e-05          
  0.95                  7.1072e-05            3.3206e-09            4.18e-12              -7.106e-05           
  1                     7.5132e-05            4.2314e-09            4.2e-13               -7.512e-05           
  1.05                  7.8942e-05            5.3338e-09            8e-13                 -7.893e-05           
  1.1                   8.2498e-05            6.6556e-09            1.68e-12              -8.249e-05           
  1.15                  8.5816e-05            8.2318e-09            1.1e-12               -8.5806e-05          
  1.2                   8.8884e-05            1.00952e-08           -8e-13                -8.8872e-05          
  1.25                  9.1712e-05            1.2286e-08            -1.66e-12             -9.1702e-05          
  1.3                   9.4304e-05            1.4842e-08            -6.2e-12              -9.4306e-05          
  1.35                  9.6686e-05            1.782e-08             -1.446e-11            -9.6686e-05          
END_DB

BEGIN_DB
 ICCAP_VAR vb         -0.3           
 ICCAP_VAR vd         0.05           
 ICCAP_VAR vs         0              

 #vg                    id                    ig                    ib                    is                   
  -0.5                  1.8e-12               -3.36e-12             -3.88e-12             1.68e-12             
  -0.45                 1.28e-12              -2.34e-12             -3.68e-12             1.3e-12              
  -0.4                  9.6e-13               -1.8e-12              -1.9e-12              1.04e-12             
  -0.35                 7.8e-13               -1.28e-12             -2.18e-12             7e-13                
  -0.3                  5.2e-13               -6.2e-13              -2.34e-12             6.2e-13              
  -0.25                 4.2e-13               -4.4e-13              -1.78e-12             1.8e-13              
  -0.2                  7.6e-13               -3.4e-13              -2.98e-12             -1.4e-13             
  -0.15                 2.64e-12              -2e-14                -1.78e-12             -2.46e-12            
  -0.1                  1.31e-11              6e-14                 -8.8e-13              -1.274e-11           
  -0.05                 6.622e-11             2.6e-13               -1.84e-12             -6.596e-11           
  0                     3.3566e-10            3e-13                 -1.28e-12             -3.3576e-10          
  0.05                  1.7018e-09            2.4e-13               -1.04e-12             -1.7002e-09          
  0.1                   8.4864e-09            6.8e-13               -4.6e-13              -8.489e-09           
  0.15                  4.1136e-08            1.62e-12              -4e-14                -4.1128e-08          
  0.2                   1.855e-07             4.4e-12               -1.96e-12             -1.8534e-07          
  0.25                  7.2024e-07            1.038e-11             -1.58e-12             -7.2018e-07          
  0.3                   2.2162e-06            2.13e-11              -1.12e-12             -2.2104e-06          
  0.35                  5.2278e-06            3.946e-11             -1.22e-12             -5.223e-06           
  0.4                   9.7118e-06            6.84e-11              -9.8e-13              -9.7064e-06          
  0.45                  1.5106e-05            1.1214e-10            -2e-13                -1.5082e-05          
  0.5                   2.0842e-05            1.7662e-10            -2.2e-13              -2.0822e-05          
  0.55                  2.6626e-05            2.682e-10             -7.6e-13              -2.6606e-05          
  0.6                   3.2352e-05            3.9524e-10            -1.4e-12              -3.2332e-05          
  0.65                  3.795e-05             5.673e-10             -2e-14                -3.793e-05           
  0.7                   4.3382e-05            7.9432e-10            -4.8e-13              -4.3364e-05          
  0.75                  4.8638e-05            1.0916e-09            -8e-14                -4.862e-05           
  0.8                   5.3688e-05            1.4712e-09            -9.8e-13              -5.3668e-05          
  0.85                  5.8522e-05            1.952e-09             -1.46e-12             -5.851e-05           
  0.9                   6.312e-05             2.5516e-09            -1.1e-12              -6.3108e-05          
  0.95                  6.7486e-05            3.2932e-09            -4e-13                -6.7472e-05          
  1                     7.1608e-05            4.2012e-09            5.4e-13               -7.159e-05           
  1.05                  7.5478e-05            5.3004e-09            -1.44e-12             -7.5466e-05          
  1.1                   7.9092e-05            6.6182e-09            -1.56e-12             -7.9084e-05          
  1.15                  8.2466e-05            8.1906e-09            -8.2e-13              -8.2458e-05          
  1.2                   8.5594e-05            1.00504e-08           -1.7e-12              -8.5588e-05          
  1.25                  8.8482e-05            1.2238e-08            -4.24e-12             -8.8476e-05          
  1.3                   9.1134e-05            1.4792e-08            -7.34e-12             -9.1128e-05          
  1.35                  9.3564e-05            1.7766e-08            -1.396e-11            -9.3564e-05          
END_DB

BEGIN_DB
 ICCAP_VAR vb         -0.6           
 ICCAP_VAR vd         0.05           
 ICCAP_VAR vs         0              

 #vg                    id                    ig                    ib                    is                   
  -0.5                  1.56e-12              -3.36e-12             -3.88e-12             1.62e-12             
  -0.45                 1.12e-12              -2.26e-12             -4.72e-12             1.16e-12             
  -0.4                  1.02e-12              -1.8e-12              -3.96e-12             1e-12                
  -0.35                 7.6e-13               -1.16e-12             -4.14e-12             7e-13                
  -0.3                  4.2e-13               -6.6e-13              -3.52e-12             4e-13                
  -0.25                 5e-13                 -4.8e-13              -2.64e-12             4.2e-13              
  -0.2                  3.4e-13               -1e-13                -3.18e-12             2.4e-13              
  -0.15                 9.4e-13               4e-14                 -3.9e-12              -4.4e-13             
  -0.1                  4.4e-12               1.2e-13               -3.18e-12             -4.16e-12            
  -0.05                 2.268e-11             1.8e-13               -2.54e-12             -2.25e-11            
  0                     1.1938e-10            1.8e-13               -2.8e-12              -1.1912e-10          
  0.05                  6.2658e-10            4e-13                 -3.36e-12             -6.2646e-10          
  0.1                   3.251e-09             5e-13                 -2.76e-12             -3.2504e-09          
  0.15                  1.657e-08             1.26e-12              -2.98e-12             -1.6546e-08          
  0.2                   8.0312e-08            3.5e-12               -1.9e-12              -8.0274e-08          
  0.25                  3.4968e-07            8.58e-12              -2.7e-12              -3.4972e-07          
  0.3                   1.2464e-06            1.868e-11             -1.7e-12              -1.242e-06           
  0.35                  3.4008e-06            3.614e-11             -1.32e-12             -3.397e-06           
  0.4                   7.1234e-06            6.398e-11             -1.62e-12             -7.1164e-06          
  0.45                  1.2062e-05            1.067e-10             -1.92e-12             -1.2044e-05          
  0.5                   1.759e-05             1.6968e-10            -1.48e-12             -1.7568e-05          
  0.55                  2.3288e-05            2.5992e-10            4.2e-13               -2.327e-05           
  0.6                   2.899e-05             3.8516e-10            -1.72e-12             -2.897e-05           
  0.65                  3.4594e-05            5.5518e-10            -2.2e-12              -3.4576e-05          
  0.7                   4.005e-05             7.803e-10             -8.4e-13              -4.0032e-05          
  0.75                  4.5336e-05            1.075e-09             -2.62e-12             -4.532e-05           
  0.8                   5.0426e-05            1.4522e-09            -6.8e-13              -5.0412e-05          
  0.85                  5.5308e-05            1.9302e-09            -1.1e-12              -5.5292e-05          
  0.9                   5.9956e-05            2.5266e-09            -2.32e-12             -5.9942e-05          
  0.95                  6.437e-05             3.265e-09             -1.7e-12              -6.4356e-05          
  1                     6.8542e-05            4.169e-09             -5e-13                -6.8524e-05          
  1.05                  7.2466e-05            5.2646e-09            -1.14e-12             -7.2452e-05          
  1.1                   7.6132e-05            6.579e-09             -1.44e-12             -7.612e-05           
  1.15                  7.9554e-05            8.1476e-09            -2.18e-12             -7.9548e-05          
  1.2                   8.274e-05             1.00032e-08           -2.96e-12             -8.2732e-05          
  1.25                  8.5678e-05            1.2186e-08            -4.6e-12              -8.567e-05           
  1.3                   8.8382e-05            1.4736e-08            -8.08e-12             -8.8378e-05          
  1.35                  9.0864e-05            1.7706e-08            -1.574e-11            -9.0864e-05          
END_DB

BEGIN_DB
 ICCAP_VAR vb         -0.9           
 ICCAP_VAR vd         0.05           
 ICCAP_VAR vs         0              

 #vg                    id                    ig                    ib                    is                   
  -0.5                  1.68e-12              -3.24e-12             -5.16e-12             1.58e-12             
  -0.45                 1.1e-12               -2.36e-12             -5.44e-12             1.44e-12             
  -0.4                  9e-13                 -1.52e-12             -3.74e-12             6.8e-13              
  -0.35                 6.8e-13               -1.06e-12             -3.84e-12             8.2e-13              
  -0.3                  3.4e-13               -6.8e-13              -4.64e-12             6.2e-13              
  -0.25                 3e-13                 -3e-13                -4.48e-12             3.6e-13              
  -0.2                  2.8e-13               -1.4e-13              -3.78e-12             2.8e-13              
  -0.15                 4.2e-13               1e-13                 -2.24e-12             -1.8e-13             
  -0.1                  1.88e-12              6e-14                 -3.62e-12             -1.4e-12             
  -0.05                 9.38e-12              1.6e-13               -4.04e-12             -9.52e-12            
  0                     5.1e-11               3e-13                 -3.1e-12              -5.102e-11           
  0.05                  2.749e-10             2.6e-13               -3.64e-12             -2.7422e-10          
  0.1                   1.4654e-09            3.8e-13               -1.88e-12             -1.4646e-09          
  0.15                  7.7274e-09            9.2e-13               -3.46e-12             -7.7242e-09          
  0.2                   3.9252e-08            2.6e-12               -2.76e-12             -3.9232e-08          
  0.25                  1.847e-07             7.02e-12              -2.88e-12             -1.845e-07           
  0.3                   7.3258e-07            1.616e-11             -1.92e-12             -7.3272e-07          
  0.35                  2.2658e-06            3.26e-11              -2.84e-12             -2.2598e-06          
  0.4                   5.2848e-06            5.944e-11             -2.58e-12             -5.2802e-06          
  0.45                  9.6914e-06            1.0098e-10            -2e-12                -9.6876e-06          
  0.5                   1.4928e-05            1.6266e-10            -2.2e-12              -1.4908e-05          
  0.55                  2.0472e-05            2.5096e-10            -2.42e-12             -2.0456e-05          
  0.6                   2.6098e-05            3.7452e-10            -1.62e-12             -2.608e-05           
  0.65                  3.1676e-05            5.4268e-10            -1.94e-12             -3.1658e-05          
  0.7                   3.7126e-05            7.657e-10             -2.42e-12             -3.711e-05           
  0.75                  4.243e-05             1.058e-09             -3.38e-12             -4.241e-05           
  0.8                   4.754e-05             1.4322e-09            -2.12e-12             -4.7522e-05          
  0.85                  5.2452e-05            1.9072e-09            -1.8e-12              -5.2438e-05          
  0.9                   5.7138e-05            2.5006e-09            -2.72e-12             -5.7122e-05          
  0.95                  6.1594e-05            3.2356e-09            -2.48e-12             -6.1578e-05          
  1                     6.5808e-05            4.136e-09             -2.1e-12              -6.5796e-05          
  1.05                  6.978e-05             5.229e-09             -9.8e-13              -6.9766e-05          
  1.1                   7.3496e-05            6.5388e-09            -2.42e-12             -7.3482e-05          
  1.15                  7.6968e-05            8.103e-09             -3.2e-12              -7.696e-05           
  1.2                   8.0194e-05            9.955e-09             -2.96e-12             -8.0186e-05          
  1.25                  8.3178e-05            1.2134e-08            -4.58e-12             -8.317e-05           
  1.3                   8.5924e-05            1.4676e-08            -5.64e-12             -8.5918e-05          
  1.35                  8.8446e-05            1.7644e-08            -1.616e-11            -8.845e-05           
END_DB

BEGIN_DB
 ICCAP_VAR vb         -1.2           
 ICCAP_VAR vd         0.05           
 ICCAP_VAR vs         0              

 #vg                    id                    ig                    ib                    is                   
  -0.5                  1.48e-12              -3.18e-12             -5.88e-12             1.54e-12             
  -0.45                 1.14e-12              -2.34e-12             -6.32e-12             1.36e-12             
  -0.4                  8.8e-13               -1.48e-12             -5.22e-12             9e-13                
  -0.35                 6.2e-13               -1.14e-12             -4.66e-12             7.4e-13              
  -0.3                  5e-13                 -6.6e-13              -3.92e-12             5.2e-13              
