! VERSION = 6.00
BEGIN_HEADER
 ICCAP_INPUTS
  vd         V  D GROUND SMU1 0.1 LIN        1    0          1.35       28   0.05      
  vg         V  G GROUND SMU2 0.001 LIST       2 3 0.315 0.515 0.715
  vb         V  B GROUND SMU4 0.1 CON        -1.2
  vs         V  S GROUND SMU3 0.1 CON        0
 ICCAP_OUTPUTS
  id         I  D GROUND SMU1 B
  ig         I  G GROUND SMU2 B
  ib         I  B GROUND SMU4 B
  is         I  S GROUND SMU3 B
 ICCAP_VALUES
  MASTER_SETUP_TYPE "~dc_idvd~"
  LINVT_VALUE ""
  LISTVT_VALUE "|idvg|100.0n|-200.0m|1.000m|3|200.0m|200.0m|"
  TYPE "1"
  TEMP " 27.0000 "
  IS_TNOM " 1.00000 "
  MAIN.W "150.0n"
  MAIN.L "120.0n"
  MAIN.AD "100.5f"
  MAIN.AS "100.5f"
  MAIN.PD "1.340u"
  MAIN.PS "1.340u"
  MAIN.NF "1.000"
  MAIN.M "1"
  MAIN.NRD "0.000"
  MAIN.NRS "0.000"
  MAIN.LDRIFT1 "1E-06"
  MAIN.LDRIFT2 "1E-06"
  MAIN.SA "0.000"
  MAIN.SB "0.000"
  MAIN.SD "0.000"
  MAIN.SCA "0.000"
  MAIN.SCB "0.000"
  MAIN.SCC "0.000"
  MAIN.SC "0.000"
  MODULE "S546"
  PIN_D "18"
  PIN_G "3"
  PIN_S "4"
  PIN_B "17"
  PIN_E ""
  PIN_6 ""
  XY_ID ""
  FUNC "Additional"
  STI "SA ref"
  WPE "WPE ref"
  COMMENT ""
  DIS_MEAS ""
  TypeTCI "10"
END_HEADER

BEGIN_DB
 ICCAP_VAR vg         0.315          
 ICCAP_VAR vb         -1.2           
 ICCAP_VAR vs         0              

 #vd                    id                    ig                    ib                    is                   
  0                     3e-13                 2e-14                 -6.94e-12             1e-13                
  0.05                  1.056e-10             -8e-14                -6.46e-12             -1.0528e-10          
  0.1                   1.5174e-10            -1.4e-13              -5.02e-12             -1.5136e-10          
  0.15                  1.9304e-10            -6e-14                -4.84e-12             -1.9268e-10          
  0.2                   2.4056e-10            0                     -5.28e-12             -2.4004e-10          
  0.25                  2.9784e-10            -4e-14                -4.46e-12             -2.9722e-10          
  0.3                   3.6612e-10            -8e-14                -4.58e-12             -3.6522e-10          
  0.35                  4.4656e-10            2e-14                 -2.72e-12             -4.458e-10           
  0.4                   5.401e-10             -8e-14                -3.2e-13              -5.3938e-10          
  0.45                  6.4744e-10            -1.6e-13              -3.96e-12             -6.4666e-10          
  0.5                   7.707e-10             -8e-14                -2.5e-12              -7.7006e-10          
  0.55                  9.1026e-10            0                     -3.82e-12             -9.0974e-10          
  0.6                   1.0684e-09            -6e-14                -1.94e-12             -1.06726e-09         
  0.65                  1.2438e-09            2e-14                 -2.7e-12              -1.2432e-09          
  0.7                   1.4418e-09            -1e-13                -2.66e-12             -1.4404e-09          
  0.75                  1.6602e-09            -4e-14                -1.24e-12             -1.6574e-09          
  0.8                   1.8998e-09            -2e-14                -1.64e-12             -1.8962e-09          
  0.85                  2.1632e-09            -6e-14                -2.4e-12              -2.1614e-09          
  0.9                   2.4552e-09            -2e-14                -2.68e-12             -2.4528e-09          
  0.95                  2.7728e-09            -8e-14                -2.44e-12             -2.7706e-09          
  1                     3.1214e-09            -8e-14                -9.8e-13              -3.1198e-09          
  1.05                  3.5084e-09            -6e-14                -2.16e-12             -3.503e-09           
  1.1                   3.9272e-09            -6e-14                -2.82e-12             -3.9212e-09          
  1.15                  4.3896e-09            -1e-13                -2.9e-12              -4.3822e-09          
  1.2                   4.8942e-09            -1.6e-13              -2.48e-12             -4.8892e-09          
  1.25                  5.4422e-09            -1.8e-13              -2.26e-12             -5.4402e-09          
  1.3                   5.5634e-09            -2.4e-13              -2.3e-12              -2.9802e-09          
  1.35                  3.311e-09             -3.2e-13              -3.08e-12             -3.3064e-09          
END_DB

BEGIN_DB
 ICCAP_VAR vg         0.515          
 ICCAP_VAR vb         -1.2           
 ICCAP_VAR vs         0              

 #vd                    id                    ig                    ib                    is                   
  0                     4.83e-11              3e-13                 -6.4e-13              -4.922e-11           
  0.05                  2.73e-08              2.6e-13               -6.6e-13              -2.7284e-08          
  0.1                   3.947e-08             2.8e-13               -1.82e-12             -3.9462e-08          
  0.15                  4.8848e-08            3e-13                 -2.2e-12              -4.8822e-08          
  0.2                   5.814e-08             1.6e-13               -3.02e-12             -5.816e-08           
  0.25                  6.8068e-08            2.8e-13               -1.48e-12             -6.8048e-08          
  0.3                   7.8696e-08            2.6e-13               -1.14e-12             -7.8714e-08          
  0.35                  9.0172e-08            1e-13                 -2.08e-12             -9.0164e-08          
  0.4                   1.02432e-07           6e-14                 -1.78e-12             -1.024e-07           
  0.45                  1.1552e-07            8e-14                 -8e-13                -1.15406e-07         
  0.5                   1.2922e-07            1.6e-13               -1.86e-12             -1.2914e-07          
  0.55                  1.4388e-07            1e-13                 -1.48e-12             -1.437e-07           
  0.6                   1.5932e-07            1.4e-13               -1.24e-12             -1.5918e-07          
  0.65                  1.7556e-07            2e-14                 -1.58e-12             -1.7542e-07          
  0.7                   1.9286e-07            2.6e-13               -1.4e-12              -1.9272e-07          
  0.75                  2.1114e-07            8e-14                 -2.06e-12             -2.1096e-07          
  0.8                   2.305e-07             1.2e-13               -1.38e-12             -2.303e-07           
  0.85                  2.511e-07             1.6e-13               -1.76e-12             -2.5104e-07          
  0.9                   2.7296e-07            4e-14                 -2.36e-12             -2.7292e-07          
  0.95                  2.9622e-07            1.2e-13               -1.34e-12             -2.9606e-07          
  1                     3.2068e-07            1.2e-13               -1.12e-12             -3.2068e-07          
  1.05                  3.4688e-07            1.2e-13               -2.18e-12             -3.4686e-07          
  1.1                   3.747e-07             1.4e-13               -2.88e-12             -3.7454e-07          
  1.15                  4.0434e-07            2.2e-13               -1.88e-12             -4.0412e-07          
  1.2                   4.3694e-07            4e-14                 -7.66e-12             -4.3586e-07          
  1.25                  4.7186e-07            8e-14                 -1.52e-11             -4.6968e-07          
  1.3                   5.0632e-07            1.6e-13               -2.626e-11            -5.0698e-07          
  1.35                  5.4988e-07            6e-14                 -4.498e-11            -5.4666e-07          
END_DB

BEGIN_DB
 ICCAP_VAR vg         0.715          
 ICCAP_VAR vb         -1.2           
 ICCAP_VAR vs         0              

 #vd                    id                    ig                    ib                    is                   
  0                     1.3332e-09            9e-13                 -2.6e-13              -1.2234e-09          
  0.05                  8.7968e-07            8e-13                 -7.4e-13              -8.7966e-07          
  0.1                   1.4208e-06            7.2e-13               -1.66e-12             -1.4158e-06          
  0.15                  1.7824e-06            6.8e-13               6e-14                 -1.7784e-06          
  0.2                   2.0572e-06            5.4e-13               -1.8e-12              -2.0534e-06          
  0.25                  2.2904e-06            5.2e-13               -2.36e-12             -2.2878e-06          
  0.3                   2.5074e-06            4.6e-13               -7.8e-13              -2.5036e-06          
  0.35                  2.7172e-06            5e-13                 -1.2e-12              -2.7136e-06          
  0.4                   2.9266e-06            6.8e-13               -1.82e-12             -2.9226e-06          
  0.45                  3.1376e-06            4.4e-13               -8.6e-13              -3.1338e-06          
  0.5                   3.3536e-06            6.4e-13               -1.94e-12             -3.3502e-06          
  0.55                  3.575e-06             4.8e-13               -1.26e-12             -3.5716e-06          
  0.6                   3.8022e-06            5.6e-13               -5.8e-13              -3.7994e-06          
  0.65                  4.0362e-06            6.6e-13               -1.54e-12             -4.0316e-06          
  0.7                   4.2786e-06            4.8e-13               -9.4e-13              -4.2758e-06          
  0.75                  4.5292e-06            5.2e-13               -3.6e-13              -4.5238e-06          
  0.8                   4.7838e-06            6.2e-13               -1.7e-12              -4.7812e-06          
  0.85                  5.047e-06             5.8e-13               -1.68e-12             -5.0436e-06          
  0.9                   5.314e-06             4.8e-13               -1.54e-12             -5.3102e-06          
  0.95                  5.5902e-06            6.6e-13               -1.74e-12             -5.5886e-06          
  1                     5.8728e-06            5.6e-13               -2.08e-12             -5.8676e-06          
  1.05                  6.1614e-06            5.2e-13               -3.08e-12             -6.1562e-06          
  1.1                   6.4598e-06            5.6e-13               -8.26e-12             -6.4554e-06          
  1.15                  6.7676e-06            5.2e-13               -1.684e-11            -6.7622e-06          
  1.2                   7.0836e-06            5.2e-13               -3.592e-11            -7.0804e-06          
  1.25                  7.4138e-06            4.4e-13               -7.412e-11            -7.4102e-06          
  1.3                   7.755e-06             4.6e-13               -1.43e-10             -7.7494e-06          
  1.35                  8.1054e-06            4.8e-13               -2.6142e-10           -8.1e-06             
END_DB

