! VERSION = 6.00
BEGIN_HEADER
 ICCAP_INPUTS
  vd         V  D GROUND SMU1 0.1 LIN        1    0          1.35       28   0.05      
  vg         V  G GROUND SMU2 0.001 LIN        2    0.346      1.35       5    0.251     
  vb         V  B GROUND SMU4 0.1 CON        0
  vs         V  S GROUND SMU3 0.1 CON        0
 ICCAP_OUTPUTS
  id         I  D GROUND SMU1 B
  ig         I  G GROUND SMU2 B
  ib         I  B GROUND SMU4 B
  is         I  S GROUND SMU3 B
 ICCAP_VALUES
  MASTER_SETUP_TYPE "~dc_idvd~"
  LINVT_VALUE "|idvg|100.0n|100.0m|1.000m|5|1.350|"
  LISTVT_VALUE ""
  TYPE "1"
  TEMP "-40.0000 "
  IS_TNOM " 0.00000 "
  MAIN.W "300.0n"
  MAIN.L "10.00u"
  MAIN.AD "102.0f"
  MAIN.AS "102.0f"
  MAIN.PD "1.280u"
  MAIN.PS "1.280u"
  MAIN.NF "1.000"
  MAIN.M "1"
  MAIN.NRD "0.000"
  MAIN.NRS "0.000"
  MAIN.LDRIFT1 "1E-06"
  MAIN.LDRIFT2 "1E-06"
  MAIN.SA "0.000"
  MAIN.SB "0.000"
  MAIN.SD "0.000"
  MAIN.SCA "0.000"
  MAIN.SCB "0.000"
  MAIN.SCC "0.000"
  MAIN.SC "0.000"
  MODULE "S545"
  PIN_D "18"
  PIN_G "3"
  PIN_S "4"
  PIN_B "17"
  PIN_E ""
  PIN_6 ""
  XY_ID ""
  FUNC "W Scale"
  STI "SA ref"
  WPE "WPE ref"
  COMMENT ""
  DIS_MEAS ""
  TypeTCI "10"
END_HEADER

BEGIN_DB
 ICCAP_VAR vg         0.346          
 ICCAP_VAR vb         0              
 ICCAP_VAR vs         0              

 #vd                    id                    ig                    ib                    is                   
  0                     7.584e-11             6.9e-12               4.98e-12              -6.09e-11            
  0.05                  3.1486e-08            5.74e-12              3.42e-12              -3.1492e-08          
  0.1                   3.9492e-08            5.26e-12              2.86e-12              -3.9486e-08          
  0.15                  4.327e-08             5.28e-12              4.06e-12              -4.3262e-08          
  0.2                   4.5914e-08            5.14e-12              4.1e-12               -4.5922e-08          
  0.25                  4.8244e-08            5.1e-12               4.08e-12              -4.8238e-08          
  0.3                   5.0378e-08            5.12e-12              2.6e-12               -5.038e-08           
  0.35                  5.2408e-08            4.86e-12              2.88e-12              -5.2394e-08          
  0.4                   5.4368e-08            4.94e-12              3.28e-12              -5.4378e-08          
  0.45                  5.624e-08             4.82e-12              2.84e-12              -5.6224e-08          
  0.5                   5.803e-08             4.56e-12              2.22e-12              -5.8032e-08          
  0.55                  5.9774e-08            4.7e-12               2.46e-12              -5.9784e-08          
  0.6                   6.1504e-08            4.7e-12               2.98e-12              -6.1472e-08          
  0.65                  6.3172e-08            4.66e-12              3.78e-12              -6.3144e-08          
  0.7                   6.471e-08             4.42e-12              2.68e-12              -6.4684e-08          
  0.75                  6.6314e-08            4.48e-12              1.14e-12              -6.6318e-08          
  0.8                   6.7904e-08            4.3e-12               2.76e-12              -6.7922e-08          
  0.85                  6.9492e-08            4.28e-12              2.22e-12              -6.946e-08           
  0.9                   7.1024e-08            4.16e-12              2.26e-12              -7.1014e-08          
  0.95                  7.2556e-08            4.16e-12              1.52e-12              -7.253e-08           
  1                     7.4026e-08            3.88e-12              1.2e-12               -7.4016e-08          
  1.05                  7.5526e-08            3.86e-12              2.6e-12               -7.5476e-08          
  1.1                   7.6932e-08            3.9e-12               2.06e-12              -7.6928e-08          
  1.15                  7.8372e-08            3.72e-12              7.4e-13               -7.8346e-08          
  1.2                   7.9744e-08            3.66e-12              1.02e-12              -7.9716e-08          
  1.25                  8.1114e-08            3.46e-12              1e-12                 -8.112e-08           
  1.3                   8.2446e-08            3.26e-12              4.6e-13               -8.2418e-08          
  1.35                  8.375e-08             3.2e-12               -2.12e-12             -8.3726e-08          
END_DB

BEGIN_DB
 ICCAP_VAR vg         0.597          
 ICCAP_VAR vb         0              
 ICCAP_VAR vs         0              

 #vd                    id                    ig                    ib                    is                   
  0                     2.9238e-10            7.012e-11             3.02e-12              -3.7862e-10          
  0.05                  2.5008e-07            5.844e-11             1.44e-12              -2.5002e-07          
  0.1                   4.4886e-07            4.988e-11             2.04e-12              -4.4872e-07          
  0.15                  5.8922e-07            4.436e-11             2.48e-12              -5.8916e-07          
  0.2                   6.683e-07             4.134e-11             1.66e-12              -6.6836e-07          
  0.25                  7.0318e-07            3.994e-11             7.4e-13               -7.0312e-07          
  0.3                   7.2024e-07            3.934e-11             1.14e-12              -7.2026e-07          
  0.35                  7.3202e-07            3.9e-11               1.72e-12              -7.321e-07           
  0.4                   7.4224e-07            3.862e-11             7.4e-13               -7.4232e-07          
  0.45                  7.514e-07             3.83e-11              1.3e-12               -7.5182e-07          
  0.5                   7.6032e-07            3.796e-11             1.16e-12              -7.604e-07           
  0.55                  7.6832e-07            3.77e-11              1.12e-12              -7.6828e-07          
  0.6                   7.7582e-07            3.742e-11             1.24e-12              -7.759e-07           
  0.65                  7.8328e-07            3.698e-11             1.22e-12              -7.8338e-07          
  0.7                   7.904e-07             3.684e-11             2.62e-12              -7.9042e-07          
  0.75                  7.973e-07             3.656e-11             1.24e-12              -7.9728e-07          
  0.8                   8.0384e-07            3.622e-11             2.6e-13               -8.037e-07           
  0.85                  8.1036e-07            3.604e-11             1.2e-12               -8.1034e-07          
  0.9                   8.1662e-07            3.592e-11             1.76e-12              -8.1648e-07          
  0.95                  8.2284e-07            3.558e-11             5.2e-13               -8.2292e-07          
  1                     8.289e-07             3.55e-11              3.2e-13               -8.2888e-07          
  1.05                  8.3464e-07            3.534e-11             2.6e-13               -8.3476e-07          
  1.1                   8.4054e-07            3.496e-11             1.86e-12              -8.4046e-07          
  1.15                  8.4614e-07            3.478e-11             1.22e-12              -8.4624e-07          
  1.2                   8.518e-07             3.48e-11              5.4e-13               -8.5188e-07          
  1.25                  8.5716e-07            3.434e-11             7.6e-13               -8.572e-07           
  1.3                   8.6244e-07            3.424e-11             1.2e-12               -8.6248e-07          
  1.35                  8.6762e-07            3.416e-11             -1.08e-12             -8.6776e-07          
END_DB

BEGIN_DB
 ICCAP_VAR vg         0.848          
 ICCAP_VAR vb         0              
 ICCAP_VAR vs         0              

 #vd                    id                    ig                    ib                    is                   
  0                     4.1114e-10            3.5216e-10            1.1e-12               -7.681e-10           
  0.05                  4.37e-07              3.068e-10             7e-13                 -4.3728e-07          
  0.1                   8.3396e-07            2.6918e-10            7.2e-13               -8.3418e-07          
  0.15                  1.1898e-06            2.385e-10             1.46e-12              -1.1862e-06          
  0.2                   1.4988e-06            2.1386e-10            2.8e-13               -1.4952e-06          
  0.25                  1.7588e-06            1.946e-10             9e-13                 -1.7554e-06          
  0.3                   1.9638e-06            1.8032e-10            8.8e-13               -1.9602e-06          
  0.35                  2.1082e-06            1.7082e-10            7.8e-13               -2.1044e-06          
  0.4                   2.1952e-06            1.6522e-10            1e-12                 -2.1916e-06          
  0.45                  2.242e-06             1.6238e-10            4.8e-13               -2.2384e-06          
  0.5                   2.2692e-06            1.606e-10             4.2e-13               -2.2658e-06          
  0.55                  2.289e-06             1.5936e-10            2.4e-13               -2.2852e-06          
  0.6                   2.3048e-06            1.583e-10             6e-13                 -2.3012e-06          
  0.65                  2.319e-06             1.574e-10             6.8e-13               -2.3152e-06          
  0.7                   2.332e-06             1.5672e-10            -2e-14                -2.3284e-06          
  0.75                  2.3442e-06            1.561e-10             1.2e-12               -2.3408e-06          
  0.8                   2.3558e-06            1.5532e-10            -2e-13                -2.3522e-06          
  0.85                  2.3668e-06            1.5468e-10            9.2e-13               -2.3636e-06          
  0.9                   2.378e-06             1.5396e-10            9.4e-13               -2.3744e-06          
  0.95                  2.3886e-06            1.5334e-10            2.4e-13               -2.3852e-06          
  1                     2.3988e-06            1.5272e-10            7.2e-13               -2.3952e-06          
  1.05                  2.409e-06             1.5214e-10            1.1e-12               -2.4052e-06          
  1.1                   2.4186e-06            1.5176e-10            1.2e-13               -2.415e-06           
  1.15                  2.4282e-06            1.5102e-10            6.4e-13               -2.4248e-06          
  1.2                   2.4376e-06            1.5058e-10            9.4e-13               -2.434e-06           
  1.25                  2.4468e-06            1.4998e-10            1.8e-13               -2.4432e-06          
  1.3                   2.4558e-06            1.4956e-10            3.4e-13               -2.4522e-06          
  1.35                  2.4646e-06            1.489e-10             1.1e-12               -2.4608e-06          
END_DB

BEGIN_DB
 ICCAP_VAR vg         1.099          
 ICCAP_VAR vb         0              
 ICCAP_VAR vs         0              

 #vd                    id                    ig                    ib                    is                   
  0                     1.6968e-10            1.2198e-09            1.66e-12              -1.322e-09           
  0.05                  5.821e-07             1.0934e-09            4e-13                 -5.8312e-07          
  0.1                   1.13398e-06           9.8218e-10            4.2e-13               -1.135e-06           
  0.15                  1.6546e-06            8.8678e-10            6.8e-13               -1.6518e-06          
  0.2                   2.1386e-06            8.048e-10             3.2e-13               -2.1356e-06          
  0.25                  2.586e-06             7.3486e-10            1.14e-12              -2.583e-06           
  0.3                   2.994e-06             6.7524e-10            7.8e-13               -2.991e-06           
  0.35                  3.3604e-06            6.2554e-10            -4.6e-13              -3.3572e-06          
  0.4                   3.682e-06             5.8482e-10            7e-13                 -3.6788e-06          
  0.45                  3.954e-06             5.5262e-10            4.8e-13               -3.9508e-06          
  0.5                   4.172e-06             5.2774e-10            6e-14                 -4.169e-06           
  0.55                  4.3314e-06            5.1034e-10            8.2e-13               -4.3282e-06          
  0.6                   4.4348e-06            4.9936e-10            1e-12                 -4.4318e-06          
  0.65                  4.4972e-06            4.9276e-10            -3e-13                -4.494e-06           
  0.7                   4.536e-06             4.887e-10             4.2e-13               -4.5328e-06          
  0.75                  4.563e-06             4.8604e-10            5e-13                 -4.5598e-06          
  0.8                   4.5848e-06            4.8376e-10            4e-14                 -4.5814e-06          
  0.85                  4.6034e-06            4.8208e-10            9.2e-13               -4.6002e-06          
  0.9                   4.6204e-06            4.8024e-10            -2e-13                -4.6174e-06          
  0.95                  4.6368e-06            4.7858e-10            -6e-13                -4.634e-06           
  1                     4.6526e-06            4.7706e-10            1.12e-12              -4.6494e-06          
  1.05                  4.6672e-06            4.7552e-10            -3.6e-13              -4.6642e-06          
  1.1                   4.6818e-06            4.741e-10             -7.6e-13              -4.6784e-06          
  1.15                  4.6952e-06            4.73e-10              1.56e-12              -4.6918e-06          
  1.2                   4.7086e-06            4.7154e-10            6.6e-13               -4.7054e-06          
  1.25                  4.7216e-06            4.7026e-10            -8e-14                -4.7184e-06          
  1.3                   4.7344e-06            4.6898e-10            1.32e-12              -4.731e-06           
  1.35                  4.7462e-06            4.6792e-10            3.4e-13               -4.743e-06           
END_DB

BEGIN_DB
 ICCAP_VAR vg         1.35           
 ICCAP_VAR vb         0              
 ICCAP_VAR vs         0              

 #vd                    id                    ig                    ib                    is                   
  0                     -7.1698e-10           3.303e-09             -4.6e-13              -2.801e-09           
  0.05                  6.8084e-07            3.018e-09             -6.8e-13              -6.8374e-07          
  0.1                   1.3434e-06            2.7634e-09            -2e-14                -1.3424e-06          
  0.15                  1.9812e-06            2.5352e-09            -8.8e-13              -1.98e-06            
  0.2                   2.5936e-06            2.3314e-09            5.8e-13               -2.592e-06           
  0.25                  3.179e-06             2.1506e-09            -3.2e-13              -3.1774e-06          
  0.3                   3.7358e-06            1.9906e-09            -5e-13                -3.734e-06           
  0.35                  4.2614e-06            1.8498e-09            -2e-14                -4.2596e-06          
  0.4                   4.7544e-06            1.7262e-09            5.2e-13               -4.7522e-06          
  0.45                  5.211e-06             1.6194e-09            -7.8e-13              -5.2092e-06          
  0.5                   5.631e-06             1.528e-09             4.4e-13               -5.629e-06           
  0.55                  6.0108e-06            1.4492e-09            -1e-13                -6.0088e-06          
  0.6                   6.347e-06             1.3832e-09            -1.4e-13              -6.3446e-06          
  0.65                  6.636e-06             1.329e-09             -4e-13                -6.6336e-06          
  0.7                   6.8728e-06            1.2864e-09            9.4e-13               -6.8704e-06          
  0.75                  7.0538e-06            1.255e-09             -1.2e-13              -7.0514e-06          
  0.8                   7.1798e-06            1.234e-09             -6e-14                -7.1774e-06          
  0.85                  7.2612e-06            1.2202e-09            2e-13                 -7.2586e-06          
  0.9                   7.3134e-06            1.2114e-09            3e-13                 -7.3106e-06          
  0.95                  7.3498e-06            1.2056e-09            -7.2e-13              -7.3476e-06          
  1                     7.3782e-06            1.201e-09             8.6e-13               -7.3758e-06          
  1.05                  7.402e-06             1.1972e-09            -2.6e-13              -7.3992e-06          
  1.1                   7.423e-06             1.1936e-09            -4e-13                -7.4204e-06          
  1.15                  7.4434e-06            1.1908e-09            6.2e-13               -7.4406e-06          
  1.2                   7.4618e-06            1.1876e-09            -3.6e-13              -7.4596e-06          
  1.25                  7.48e-06              1.1846e-09            -1.08e-12             -7.4774e-06          
  1.3                   7.497e-06             1.182e-09             8.6e-13               -7.4944e-06          
  1.35                  7.5134e-06            1.1794e-09            -4.2e-13              -7.5108e-06          
END_DB

