! VERSION = 6.00
BEGIN_HEADER
 ICCAP_INPUTS
  vd         V  D GROUND SMU1 0.1 LIN        1    0          1.35       28   0.05      
  vg         V  G GROUND SMU2 0.001 LIST       2 3 0.189 0.389 0.589
  vb         V  B GROUND SMU4 0.1 CON        0
  vs         V  S GROUND SMU3 0.1 CON        0
 ICCAP_OUTPUTS
  id         I  D GROUND SMU1 B
  ig         I  G GROUND SMU2 B
  ib         I  B GROUND SMU4 B
  is         I  S GROUND SMU3 B
 ICCAP_VALUES
  MASTER_SETUP_TYPE "~dc_idvd~"
  LINVT_VALUE ""
  LISTVT_VALUE "|idvg|100.0n|-200.0m|1.000m|3|200.0m|200.0m|"
  TYPE "1"
  TEMP " 27.0000 "
  IS_TNOM " 1.00000 "
  MAIN.W "150.0n"
  MAIN.L "130.0n"
  MAIN.AD "100.5f"
  MAIN.AS "100.5f"
  MAIN.PD "1.340u"
  MAIN.PS "1.340u"
  MAIN.NF "1.000"
  MAIN.M "1"
  MAIN.NRD "0.000"
  MAIN.NRS "0.000"
  MAIN.LDRIFT1 "1E-06"
  MAIN.LDRIFT2 "1E-06"
  MAIN.SA "0.000"
  MAIN.SB "0.000"
  MAIN.SD "0.000"
  MAIN.SCA "0.000"
  MAIN.SCB "0.000"
  MAIN.SCC "0.000"
  MAIN.SC "0.000"
  MODULE "S546"
  PIN_D "16"
  PIN_G "5"
  PIN_S "6"
  PIN_B "15"
  PIN_E ""
  PIN_6 ""
  XY_ID ""
  FUNC "Small"
  STI "SA ref"
  WPE "WPE ref"
  COMMENT ""
  DIS_MEAS ""
  TypeTCI "10"
END_HEADER

BEGIN_DB
 ICCAP_VAR vg         0.189          
 ICCAP_VAR vb         0              
 ICCAP_VAR vs         0              

 #vd                    id                    ig                    ib                    is                   
  0                     7.8e-13               -6e-14                2.66e-12              -3.6e-13             
  0.05                  2.4186e-10            -1.6e-13              1.44e-12              -2.4166e-10          
  0.1                   2.8732e-10            -1.4e-13              6e-13                 -2.8714e-10          
  0.15                  3.027e-10             -1e-13                1.04e-12              -3.0254e-10          
  0.2                   3.1386e-10            -2e-13                -1.9e-12              -3.1344e-10          
  0.25                  3.2422e-10            -8e-14                1.5e-12               -3.2326e-10          
  0.3                   3.3408e-10            0                     1.74e-12              -3.3366e-10          
  0.35                  3.4424e-10            -2e-13                -6e-14                -3.435e-10           
  0.4                   3.5472e-10            -1e-13                2e-13                 -3.5378e-10          
  0.45                  3.6526e-10            -1e-13                7.2e-13               -3.6468e-10          
  0.5                   3.763e-10             -4e-14                5.8e-13               -3.7578e-10          
  0.55                  3.875e-10             -1.4e-13              1.32e-12              -3.8682e-10          
  0.6                   3.9878e-10            -1.2e-13              -6e-14                -3.9808e-10          
  0.65                  4.104e-10             -1.2e-13              -4e-14                -4.0974e-10          
  0.7                   4.222e-10             -8e-14                -5e-13                -4.2158e-10          
  0.75                  4.3458e-10            -1.6e-13              1.46e-12              -4.3414e-10          
  0.8                   4.4688e-10            -1.4e-13              1e-12                 -4.462e-10           
  0.85                  4.6022e-10            -1.2e-13              -2.2e-13              -4.594e-10           
  0.9                   4.732e-10             -1.4e-13              6e-13                 -4.7252e-10          
  0.95                  4.8686e-10            -1.6e-13              1.6e-13               -4.8512e-10          
  1                     5.0094e-10            -2.4e-13              8.6e-13               -4.9984e-10          
  1.05                  5.1518e-10            -1.2e-13              1.16e-12              -5.1414e-10          
  1.1                   5.301e-10             -3.2e-13              7e-13                 -5.2888e-10          
  1.15                  5.4492e-10            -3.6e-13              -3.6e-13              -5.4358e-10          
  1.2                   5.6008e-10            -2.2e-13              6.8e-13               -5.5714e-10          
  1.25                  5.7454e-10            -4.2e-13              8e-13                 -5.727e-10           
  1.3                   5.909e-10             -3.8e-13              3.6e-13               -5.9038e-10          
  1.35                  6.0824e-10            -4.4e-13              7.8e-13               -6.068e-10           
END_DB

BEGIN_DB
 ICCAP_VAR vg         0.389          
 ICCAP_VAR vb         0              
 ICCAP_VAR vs         0              

 #vd                    id                    ig                    ib                    is                   
  0                     1.2386e-10            2e-13                 1.58e-12              -1.2386e-10          
  0.05                  7.3716e-08            1e-13                 7.8e-13               -7.379e-08           
  0.1                   9.1498e-08            1.4e-13               -4e-13                -9.1496e-08          
  0.15                  9.7718e-08            2e-13                 -4e-13                -9.7602e-08          
  0.2                   1.0168e-07            2.2e-13               1.08e-12              -1.0172e-07          
  0.25                  1.05196e-07           1.2e-13               -1e-13                -1.05142e-07         
  0.3                   1.0862e-07            1.8e-13               8e-13                 -1.08536e-07         
  0.35                  1.118e-07             2.4e-13               6.6e-13               -1.11828e-07         
  0.4                   1.1532e-07            1.4e-13               -5.6e-13              -1.1516e-07          
  0.45                  1.1878e-07            2e-13                 1.2e-13               -1.1824e-07          
  0.5                   1.2202e-07            2.4e-13               1.3e-12               -1.2182e-07          
  0.55                  1.2548e-07            1.8e-13               7.6e-13               -1.2538e-07          
  0.6                   1.2878e-07            2e-13                 2e-13                 -1.287e-07           
  0.65                  1.3254e-07            1.8e-13               6.2e-13               -1.3242e-07          
  0.7                   1.3594e-07            1.8e-13               1.6e-12               -1.3566e-07          
  0.75                  1.3956e-07            8e-14                 6e-14                 -1.395e-07           
  0.8                   1.4316e-07            1.6e-13               -1.4e-13              -1.4308e-07          
  0.85                  1.4712e-07            2.4e-13               3.2e-13               -1.4678e-07          
  0.9                   1.5098e-07            8e-14                 8.4e-13               -1.506e-07           
  0.95                  1.5462e-07            4e-14                 2.4e-13               -1.5452e-07          
  1                     1.585e-07             0                     -2e-13                -1.584e-07           
  1.05                  1.628e-07             0                     -1.2e-13              -1.624e-07           
  1.1                   1.6668e-07            4e-14                 6e-13                 -1.666e-07           
  1.15                  1.7088e-07            0                     -1.84e-12             -1.7064e-07          
  1.2                   1.7518e-07            1.6e-13               -3.9e-12              -1.7504e-07          
  1.25                  1.7922e-07            -4e-14                -6.64e-12             -1.7924e-07          
  1.3                   1.8382e-07            4e-14                 -1.024e-11            -1.837e-07           
  1.35                  1.8852e-07            -8e-14                -1.814e-11            -1.8796e-07          
END_DB

BEGIN_DB
 ICCAP_VAR vg         0.589          
 ICCAP_VAR vb         0              
 ICCAP_VAR vs         0              

 #vd                    id                    ig                    ib                    is                   
  0                     1.8652e-09            1.32e-12              4.2e-13               -1.6948e-09          
  0.05                  1.8726e-06            1.16e-12              4.24e-12              -1.8606e-06          
  0.1                   2.9154e-06            1.06e-12              -1e-13                -2.922e-06           
  0.15                  3.484e-06             1.08e-12              -1e-13                -3.4776e-06          
  0.2                   3.7764e-06            1.22e-12              1.6e-12               -3.7742e-06          
  0.25                  3.9542e-06            1.12e-12              -4e-14                -3.9518e-06          
  0.3                   4.0848e-06            1.08e-12              0                     -4.0784e-06          
  0.35                  4.1916e-06            1.18e-12              1.26e-12              -4.1888e-06          
  0.4                   4.2868e-06            1.14e-12              6e-14                 -4.2828e-06          
  0.45                  4.38e-06              1.1e-12               -5.4e-13              -4.374e-06           
  0.5                   4.4662e-06            9.6e-13               4.2e-13               -4.4614e-06          
  0.55                  4.55e-06              1.04e-12              -6e-14                -4.5474e-06          
  0.6                   4.634e-06             1.1e-12               -2.4e-13              -4.6302e-06          
  0.65                  4.7186e-06            1.1e-12               1.36e-12              -4.7116e-06          
  0.7                   4.7964e-06            1.2e-12               -1.4e-13              -4.7926e-06          
  0.75                  4.8774e-06            9.6e-13               -4.4e-13              -4.8734e-06          
  0.8                   4.9572e-06            1.04e-12              8.4e-13               -4.9556e-06          
  0.85                  5.0384e-06            1.1e-12               -4.6e-13              -5.0348e-06          
  0.9                   5.1178e-06            9.2e-13               8e-14                 -5.115e-06           
  0.95                  5.1998e-06            9.2e-13               2.2e-13               -5.1984e-06          
  1                     5.2802e-06            1.02e-12              -8.4e-13              -5.2774e-06          
  1.05                  5.3576e-06            9e-13                 -1.7e-12              -5.3552e-06          
  1.1                   5.4392e-06            1.06e-12              -3.5e-12              -5.4372e-06          
  1.15                  5.4952e-06            9.8e-13               -1.092e-11            -5.4926e-06          
  1.2                   5.5992e-06            8.8e-13               -2.336e-11            -5.6002e-06          
  1.25                  5.6812e-06            9.6e-13               -4.61e-11             -5.682e-06           
  1.3                   5.7646e-06            9.6e-13               -8.95e-11             -5.7608e-06          
  1.35                  5.8494e-06            8.8e-13               -1.6352e-10           -5.8426e-06          
END_DB

