! VERSION = 6.00
BEGIN_HEADER
 ICCAP_INPUTS
  vd         V  D GROUND SMU1 0.1 LIN        1    0          1.35       28   0.05      
  vg         V  G GROUND SMU2 0.001 LIN        2    0.57       1.35       5    0.195     
  vb         V  B GROUND SMU4 0.1 CON        -1.2
  vs         V  S GROUND SMU3 0.1 CON        0
 ICCAP_OUTPUTS
  id         I  D GROUND SMU1 B
  ig         I  G GROUND SMU2 B
  ib         I  B GROUND SMU4 B
  is         I  S GROUND SMU3 B
 ICCAP_VALUES
  MASTER_SETUP_TYPE "~dc_idvd~"
  LINVT_VALUE "|idvg|100.0n|100.0m|1.000m|5|1.350|"
  LISTVT_VALUE ""
  TYPE "1"
  TEMP " 27.0000 "
  IS_TNOM " 1.00000 "
  MAIN.W "10.00u"
  MAIN.L "140.0n"
  MAIN.AD "3.400p"
  MAIN.AS "3.400p"
  MAIN.PD "20.68u"
  MAIN.PS "20.68u"
  MAIN.NF "1.000"
  MAIN.M "1"
  MAIN.NRD "0.000"
  MAIN.NRS "0.000"
  MAIN.LDRIFT1 "1E-06"
  MAIN.LDRIFT2 "1E-06"
  MAIN.SA "0.000"
  MAIN.SB "0.000"
  MAIN.SD "0.000"
  MAIN.SCA "0.000"
  MAIN.SCB "0.000"
  MAIN.SCC "0.000"
  MAIN.SC "0.000"
  MODULE "S540"
  PIN_D "16"
  PIN_G "5"
  PIN_S "6"
  PIN_B "15"
  PIN_E ""
  PIN_6 ""
  XY_ID ""
  FUNC "L Scale"
  STI "SA ref"
  WPE "WPE ref"
  COMMENT ""
  DIS_MEAS ""
  TypeTCI "10"
END_HEADER

BEGIN_DB
 ICCAP_VAR vg         0.57           
 ICCAP_VAR vb         -1.2           
 ICCAP_VAR vs         0              

 #vd                    id                    ig                    ib                    is                   
  0                     5.2024e-08            1.794e-11             -1.536e-11            -4.1284e-08          
  0.05                  2.1028e-05            1.448e-11             -1.268e-11            -2.1014e-05          
  0.1                   3.0692e-05            1.26e-11              -1.276e-11            -3.0668e-05          
  0.15                  3.5974e-05            1.148e-11             -1.124e-11            -3.5968e-05          
  0.2                   3.9806e-05            1.07e-11              -1.14e-11             -3.981e-05           
  0.25                  4.3176e-05            1.028e-11             -1.154e-11            -4.3154e-05          
  0.3                   4.6358e-05            1.004e-11             -9.86e-12             -4.6344e-05          
  0.35                  4.9542e-05            9.88e-12              -9.6e-12              -4.9522e-05          
  0.4                   5.2758e-05            9.92e-12              -9.86e-12             -5.2744e-05          
  0.45                  5.6072e-05            9.88e-12              -8.26e-12             -5.6006e-05          
  0.5                   5.9436e-05            9.8e-12               -9.16e-12             -5.9424e-05          
  0.55                  6.2906e-05            9.7e-12               -8.72e-12             -6.2902e-05          
  0.6                   6.6524e-05            9.72e-12              -8.1e-12              -6.6438e-05          
  0.65                  7.0234e-05            9.66e-12              -8.58e-12             -7.0182e-05          
  0.7                   7.4046e-05            9.56e-12              -8.5e-12              -7.405e-05           
  0.75                  7.8046e-05            9.58e-12              -7.3e-12              -7.8028e-05          
  0.8                   8.2108e-05            9.48e-12              -7.72e-12             -8.2088e-05          
  0.85                  8.6338e-05            9.32e-12              -1.042e-11            -8.6312e-05          
  0.9                   9.0696e-05            9.32e-12              -7.42e-12             -9.0692e-05          
  0.95                  9.5182e-05            8.94e-12              -1.218e-11            -9.5194e-05          
  1                     9.979e-05             8.68e-12              -1.99e-11             -9.9792e-05          
  1.05                  0.000104578           8.34e-12              -4.296e-11            -0.000104522         
  1.1                   0.000109432           7.96e-12              -1.0468e-10           -0.000109508         
  1.15                  0.000114508           7.24e-12              -2.4454e-10           -0.000114482         
  1.2                   0.00011982            6.62e-12              -5.4168e-10           -0.00011938          
  1.25                  0.00012506            5.68e-12              -1.1248e-09           -0.0001247           
  1.3                   0.00013048            4.72e-12              -2.2018e-09           -0.00013012          
  1.35                  0.00013608            3.42e-12              -4.058e-09            -0.00013564          
END_DB

BEGIN_DB
 ICCAP_VAR vg         0.765          
 ICCAP_VAR vb         -1.2           
 ICCAP_VAR vs         0              

 #vd                    id                    ig                    ib                    is                   
  0                     4.3294e-07            7.618e-11             -3.76e-12             -1.897e-07           
  0.05                  0.00016662            6.566e-11             -4.72e-12             -0.00016622          
  0.1                   0.00028368            5.786e-11             -2.66e-12             -0.0002834           
  0.15                  0.00036298            5.202e-11             -4.52e-12             -0.00036258          
  0.2                   0.0004167             4.786e-11             -4.7e-12              -0.0004162           
  0.25                  0.00045476            4.516e-11             -3.62e-12             -0.00045436          
  0.3                   0.00048374            4.324e-11             -4.28e-12             -0.00048316          
  0.35                  0.00050766            4.198e-11             -4.38e-12             -0.00050726          
  0.4                   0.00052902            4.132e-11             -3.1e-12              -0.0005287           
  0.45                  0.00054862            4.066e-11             -4.84e-12             -0.0005483           
  0.5                   0.0005672             4.002e-11             -3.9e-12              -0.000567            
  0.55                  0.00058544            3.986e-11             -2.86e-12             -0.00058512          
  0.6                   0.00060338            3.958e-11             -4.6e-12              -0.0006029           
  0.65                  0.00062104            3.938e-11             -3.66e-12             -0.00062076          
  0.7                   0.00063842            3.922e-11             -3.42e-12             -0.00063816          
  0.75                  0.00065588            3.91e-11              -4.38e-12             -0.00065554          
  0.8                   0.00067322            3.884e-11             -4.26e-12             -0.00067292          
  0.85                  0.0006906             3.874e-11             -4.4e-12              -0.00069008          
  0.9                   0.00070816            3.87e-11              -8.44e-12             -0.00070778          
  0.95                  0.00072554            3.856e-11             -1.516e-11            -0.00072538          
  1                     0.00074308            3.818e-11             -3.746e-11            -0.00074268          
  1.05                  0.00076074            3.816e-11             -9.4e-11              -0.00076044          
  1.1                   0.0007783             3.784e-11             -2.3052e-10           -0.00077814          
  1.15                  0.00079596            3.748e-11             -5.508e-10            -0.0007955           
  1.2                   0.00081374            3.71e-11              -1.247e-09            -0.00081314          
  1.25                  0.00083126            3.662e-11             -2.6668e-09           -0.00083096          
  1.3                   0.00084882            3.612e-11             -5.3958e-09           -0.00084888          
  1.35                  0.00086692            3.538e-11             -1.03312e-08          -0.00086664          
END_DB

BEGIN_DB
 ICCAP_VAR vg         0.96           
 ICCAP_VAR vb         -1.2           
 ICCAP_VAR vs         0              

 #vd                    id                    ig                    ib                    is                   
  0                     6.002e-07             2.2558e-10            -2.42e-12             -5.38e-08            
  0.05                  0.0003753             2.0106e-10            -1.7e-12              -0.00037502          
  0.1                   0.00068606            1.807e-10             -3.04e-12             -0.00068566          
  0.15                  0.00093026            1.6444e-10            -3.1e-12              -0.00092994          
  0.2                   0.0011158             1.5128e-10            -2.18e-12             -0.00111538          
  0.25                  0.0012548             1.412e-10             -1.58e-12             -0.0012528           
  0.3                   0.0013576             1.3352e-10            -3.76e-12             -0.001356            
  0.35                  0.001436              1.2786e-10            -2.84e-12             -0.0014344           
  0.4                   0.0014976             1.2382e-10            -1.9e-12              -0.0014958           
  0.45                  0.001548              1.2078e-10            -3.22e-12             -0.0015464           
  0.5                   0.0015908             1.1842e-10            -2.68e-12             -0.0015892           
  0.55                  0.0016296             1.1658e-10            -2.9e-12              -0.0016276           
  0.6                   0.001665              1.154e-10             -3.34e-12             -0.0016632           
  0.65                  0.001698              1.1444e-10            -1.86e-12             -0.0016966           
  0.7                   0.00173               1.1356e-10            -2.06e-12             -0.0017282           
  0.75                  0.0017606             1.1288e-10            -3.88e-12             -0.0017588           
  0.8                   0.0017902             1.1226e-10            -3.56e-12             -0.0017882           
  0.85                  0.001819              1.1142e-10            -5.56e-12             -0.0018172           
  0.9                   0.0018476             1.1114e-10            -1.256e-11            -0.001846            
  0.95                  0.001876              1.1066e-10            -2.706e-11            -0.0018742           
  1                     0.0019038             1.1026e-10            -6.77e-11             -0.0019018           
  1.05                  0.0019312             1.0976e-10            -1.6228e-10           -0.0019296           
  1.1                   0.0019584             1.0928e-10            -3.7352e-10           -0.0019568           
  1.15                  0.0019854             1.0894e-10            -8.3936e-10           -0.0019836           
  1.2                   0.0020124             1.0856e-10            -1.8054e-09           -0.0020106           
  1.25                  0.0020386             1.0802e-10            -3.718e-09            -0.0020372           
  1.3                   0.0020652             1.076e-10             -7.3524e-09           -0.0020634           
  1.35                  0.0020916             1.0708e-10            -1.3916e-08           -0.0020892           
END_DB

BEGIN_DB
 ICCAP_VAR vg         1.155          
 ICCAP_VAR vb         -1.2           
 ICCAP_VAR vs         0              

 #vd                    id                    ig                    ib                    is                   
  0                     2.8186e-07            5.3122e-10            -1.82e-12             -4.8404e-07          
  0.05                  0.00055688            4.8364e-10            -1.68e-12             -0.00055648          
  0.1                   0.00105002            4.4264e-10            -6.68e-12             -0.0010496           
  0.15                  0.0014678             4.0766e-10            -1.76e-12             -0.001466            
  0.2                   0.0018092             3.784e-10             -8.8e-13              -0.0018072           
  0.25                  0.002081              3.534e-10             -2.06e-12             -0.0020792           
  0.3                   0.0022956             3.3396e-10            -2.32e-12             -0.0022936           
  0.35                  0.0024626             3.1728e-10            -1.6e-12              -0.002461            
  0.4                   0.0025944             3.0454e-10            -2.24e-12             -0.0025922           
  0.45                  0.0026976             2.9462e-10            -2.16e-12             -0.0026966           
  0.5                   0.0027828             2.867e-10             -1.38e-12             -0.0027808           
  0.55                  0.002853              2.8058e-10            -2.58e-12             -0.0028512           
  0.6                   0.0029134             2.759e-10             -2.26e-12             -0.0029118           
  0.65                  0.0029666             2.72e-10              -1.06e-12             -0.0029652           
  0.7                   0.0030144             2.6902e-10            -3.24e-12             -0.003013            
  0.75                  0.0030594             2.6642e-10            -2.78e-12             -0.0030578           
  0.8                   0.0031002             2.644e-10             -2.72e-12             -0.0030986           
  0.85                  0.0031394             2.6256e-10            -8.32e-12             -0.0031382           
  0.9                   0.0031774             2.609e-10             -1.576e-11            -0.0031752           
  0.95                  0.0032128             2.5966e-10            -3.896e-11            -0.0032114           
  1                     0.0032486             2.5828e-10            -9.366e-11            -0.0032472           
  1.05                  0.003283              2.5706e-10            -2.1442e-10           -0.0032814           
  1.1                   0.0033174             2.562e-10             -4.787e-10            -0.0033152           
  1.15                  0.003351              2.551e-10             -1.03072e-09          -0.0033492           
  1.2                   0.0033836             2.5408e-10            -2.1336e-09           -0.0033816           
  1.25                  0.003416              2.5294e-10            -4.2492e-09           -0.0034138           
  1.3                   0.003448              2.521e-10             -8.1762e-09           -0.0034466           
  1.35                  0.0034794             2.5116e-10            -1.5172e-08           -0.0034774           
END_DB

BEGIN_DB
 ICCAP_VAR vg         1.35           
 ICCAP_VAR vb         -1.2           
 ICCAP_VAR vs         0              

 #vd                    id                    ig                    ib                    is                   
  0                     2.925e-07             1.0868e-09            -2.42e-12             -5.4728e-07          
  0.05                  0.00069618            1.0026e-09            -3.24e-12             -0.0006958           
  0.1                   0.0013354             9.2858e-10            -2.12e-12             -0.0013338           
  0.15                  0.001899              8.6418e-10            -1.84e-12             -0.0018974           
  0.2                   0.0023806             8.0794e-10            -1.22e-12             -0.002379            
  0.25                  0.0027842             7.5952e-10            -2.2e-12              -0.0027822           
  0.3                   0.0031164             7.1782e-10            -1.58e-12             -0.003115            
  0.35                  0.0033874             6.8218e-10            -2.2e-12              -0.0033856           
  0.4                   0.003607              6.5284e-10            -2.32e-12             -0.0036054           
  0.45                  0.003784              6.2768e-10            -1.3e-12              -0.003782            
  0.5                   0.0039282             6.0748e-10            -1.88e-12             -0.0039262           
  0.55                  0.0040472             5.9102e-10            -2.54e-12             -0.004046            
  0.6                   0.0041464             5.7752e-10            -1.8e-12              -0.0041446           
  0.65                  0.0042302             5.6694e-10            -2.56e-12             -0.0042282           
  0.7                   0.0043024             5.5774e-10            -2.54e-12             -0.0043002           
  0.75                  0.0043662             5.504e-10             -2.54e-12             -0.0043646           
  0.8                   0.0044238             5.4426e-10            -4.66e-12             -0.0044222           
  0.85                  0.0044768             5.3914e-10            -8.72e-12             -0.0044748           
  0.9                   0.0045248             5.35e-10              -1.874e-11            -0.0045232           
  0.95                  0.0045708             5.3108e-10            -4.574e-11            -0.0045688           
  1                     0.0046138             5.278e-10             -1.054e-10            -0.0046118           
  1.05                  0.0046554             5.248e-10             -2.3924e-10           -0.0046538           
  1.1                   0.0046958             5.2222e-10            -5.2204e-10           -0.0046942           
  1.15                  0.0047344             5.1964e-10            -1.0951e-09           -0.0047326           
  1.2                   0.0047722             5.1724e-10            -2.2168e-09           -0.0047704           
  1.25                  0.0048092             5.1492e-10            -4.3266e-09           -0.0048076           
  1.3                   0.0048452             5.1304e-10            -8.1656e-09           -0.004843            
  1.35                  0.0048808             5.1128e-10            -1.493e-08            -0.0048792           
END_DB

