! VERSION = 6.00
BEGIN_HEADER
 ICCAP_INPUTS
  vd         V  D GROUND SMU1 0.1 LIN        1    0          1.35       28   0.05      
  vg         V  G GROUND SMU2 0.001 LIST       2 3 -0.039 0.161 0.361
  vb         V  B GROUND SMU4 0.1 CON        0
  vs         V  S GROUND SMU3 0.1 CON        0
 ICCAP_OUTPUTS
  id         I  D GROUND SMU1 B
  ig         I  G GROUND SMU2 B
  ib         I  B GROUND SMU4 B
  is         I  S GROUND SMU3 B
 ICCAP_VALUES
  MASTER_SETUP_TYPE "~dc_idvd~"
  LINVT_VALUE ""
  LISTVT_VALUE "|idvg|100.0n|-200.0m|1.000m|3|200.0m|200.0m|"
  TYPE "1"
  TEMP " 27.0000 "
  IS_TNOM " 1.00000 "
  MAIN.W "5.000u"
  MAIN.L "5.000u"
  MAIN.AD "1.700p"
  MAIN.AS "1.700p"
  MAIN.PD "10.68u"
  MAIN.PS "10.68u"
  MAIN.NF "1.000"
  MAIN.M "1"
  MAIN.NRD "0.000"
  MAIN.NRS "0.000"
  MAIN.LDRIFT1 "1E-06"
  MAIN.LDRIFT2 "1E-06"
  MAIN.SA "0.000"
  MAIN.SB "0.000"
  MAIN.SD "0.000"
  MAIN.SCA "0.000"
  MAIN.SCB "0.000"
  MAIN.SCC "0.000"
  MAIN.SC "0.000"
  MODULE "S542"
  PIN_D "18"
  PIN_G "3"
  PIN_S "4"
  PIN_B "17"
  PIN_E ""
  PIN_6 ""
  XY_ID ""
  FUNC "LW Scale"
  STI "SA ref"
  WPE "WPE ref"
  COMMENT ""
  DIS_MEAS ""
  TypeTCI "10"
END_HEADER

BEGIN_DB
 ICCAP_VAR vg         -0.039         
 ICCAP_VAR vb         0              
 ICCAP_VAR vs         0              

 #vd                    id                    ig                    ib                    is                   
  0                     6.6e-13               -3.4e-13              1.04e-12              -3e-13               
  0.05                  1.5682e-10            -2.2e-13              2.2e-13               -1.5624e-10          
  0.1                   1.8566e-10            -2e-13                -4e-14                -1.8518e-10          
  0.15                  1.9504e-10            -3e-13                1.5e-12               -1.9464e-10          
  0.2                   2.0124e-10            -4e-13                7.8e-13               -2.0044e-10          
  0.25                  2.0648e-10            -4e-13                6.4e-13               -2.058e-10           
  0.3                   2.1156e-10            -3.2e-13              5e-13                 -2.1072e-10          
  0.35                  2.1628e-10            -7e-13                -6.8e-13              -2.1496e-10          
  0.4                   2.2068e-10            -6.8e-13              8.4e-13               -2.196e-10           
  0.45                  2.2506e-10            -9.2e-13              1.12e-12              -2.238e-10           
  0.5                   2.29e-10              -9.6e-13              0                     -2.2742e-10          
  0.55                  2.3296e-10            -1.32e-12             1e-13                 -2.312e-10           
  0.6                   2.3706e-10            -1.7e-12              4e-13                 -2.3452e-10          
  0.65                  2.407e-10             -2.02e-12             1.72e-12              -2.3806e-10          
  0.7                   2.4432e-10            -2.78e-12             2.2e-13               -2.41e-10            
  0.75                  2.478e-10             -3.18e-12             7.6e-13               -2.441e-10           
  0.8                   2.514e-10             -3.82e-12             -2.6e-13              -2.4692e-10          
  0.85                  2.5504e-10            -4.56e-12             -7.4e-13              -2.4942e-10          
  0.9                   2.585e-10             -5.56e-12             5.8e-13               -2.5226e-10          
  0.95                  2.6184e-10            -6.38e-12             1.28e-12              -2.5452e-10          
  1                     2.6534e-10            -7.62e-12             4e-13                 -2.5704e-10          
  1.05                  2.6892e-10            -8.88e-12             -5.4e-13              -2.5918e-10          
  1.1                   2.7224e-10            -1.008e-11            1.2e-13               -2.611e-10           
  1.15                  2.7568e-10            -1.166e-11            4.2e-13               -2.6332e-10          
  1.2                   2.7956e-10            -1.338e-11            4.8e-13               -2.652e-10           
  1.25                  2.8338e-10            -1.534e-11            4.6e-13               -2.669e-10           
  1.3                   2.8736e-10            -1.752e-11            -2e-14                -2.6854e-10          
  1.35                  2.9168e-10            -1.982e-11            -2.2e-13              -2.7026e-10          
END_DB

BEGIN_DB
 ICCAP_VAR vg         0.161          
 ICCAP_VAR vb         0              
 ICCAP_VAR vs         0              

 #vd                    id                    ig                    ib                    is                   
  0                     1.6038e-10            5.34e-12              1.3e-12               -1.6658e-10          
  0.05                  7.1504e-08            3.74e-12              -3e-13                -7.146e-08           
  0.1                   8.7518e-08            3.34e-12              4.8e-13               -8.7566e-08          
  0.15                  9.3086e-08            3.1e-12               1.5e-12               -9.3084e-08          
  0.2                   9.665e-08             3.08e-12              6e-13                 -9.6642e-08          
  0.25                  9.9666e-08            3.04e-12              6e-13                 -9.9638e-08          
  0.3                   1.02402e-07           2.82e-12              4e-14                 -1.02416e-07         
  0.35                  1.04976e-07           2.68e-12              9.2e-13               -1.0498e-07          
  0.4                   1.07378e-07           2.68e-12              9.6e-13               -1.07332e-07         
  0.45                  1.097e-07             2.44e-12              5e-13                 -1.0958e-07          
  0.5                   1.1174e-07            2.36e-12              1.16e-12              -1.11664e-07         
  0.55                  1.1374e-07            2.14e-12              6.2e-13               -1.13684e-07         
  0.6                   1.1562e-07            1.9e-12               0                     -1.15614e-07         
  0.65                  1.174e-07             1.78e-12              1.76e-12              -1.1724e-07          
  0.7                   1.1906e-07            1.52e-12              -2.7e-12              -1.1892e-07          
  0.75                  1.2062e-07            1e-12                 -3.4e-13              -1.205e-07           
  0.8                   1.2212e-07            7.6e-13               -4e-14                -1.22e-07            
  0.85                  1.236e-07             1.4e-13               -1.8e-13              -1.2342e-07          
  0.9                   1.2496e-07            -4.8e-13              1.4e-13               -1.2478e-07          
  0.95                  1.2618e-07            -9.4e-13              2e-14                 -1.2606e-07          
  1                     1.2738e-07            -1.62e-12             -3.8e-13              -1.2732e-07          
  1.05                  1.2862e-07            -2.42e-12             3.8e-13               -1.2844e-07          
  1.1                   1.2976e-07            -3.34e-12             -8.2e-13              -1.295e-07           
  1.15                  1.308e-07             -4.28e-12             -3.4e-12              -1.3052e-07          
  1.2                   1.3172e-07            -5.58e-12             -5.26e-12             -1.3158e-07          
  1.25                  1.3266e-07            -6.6e-12              -7.06e-12             -1.3256e-07          
  1.3                   1.3354e-07            -8.1e-12              -1.304e-11            -1.334e-07           
  1.35                  1.3444e-07            -9.6e-12              -1.978e-11            -1.3422e-07          
END_DB

BEGIN_DB
 ICCAP_VAR vg         0.361          
 ICCAP_VAR vb         0              
 ICCAP_VAR vs         0              

 #vd                    id                    ig                    ib                    is                   
  0                     2.8442e-09            8.14e-11              1.52e-12              -3.0148e-09          
  0.05                  2.4294e-06            6.466e-11             2e-14                 -2.4252e-06          
  0.1                   3.7004e-06            5.608e-11             2e-13                 -3.6964e-06          
  0.15                  4.2064e-06            5.266e-11             1.02e-12              -4.2036e-06          
  0.2                   4.415e-06             5.13e-11              4e-13                 -4.4098e-06          
  0.25                  4.5368e-06            5.036e-11             -8.2e-13              -4.5332e-06          
  0.3                   4.6336e-06            4.976e-11             2.6e-13               -4.6292e-06          
  0.35                  4.7198e-06            4.936e-11             -6e-14                -4.7158e-06          
  0.4                   4.8e-06               4.876e-11             4e-14                 -4.7948e-06          
  0.45                  4.874e-06             4.838e-11             1.36e-12              -4.8694e-06          
  0.5                   4.9428e-06            4.78e-11              -3.6e-13              -4.9394e-06          
  0.55                  5.011e-06             4.744e-11             -4e-13                -5.0086e-06          
  0.6                   5.0732e-06            4.696e-11             9.6e-13               -5.071e-06           
  0.65                  5.135e-06             4.646e-11             8e-14                 -5.1306e-06          
  0.7                   5.194e-06             4.59e-11              0                     -5.19e-06            
  0.75                  5.2522e-06            4.552e-11             4.4e-13               -5.2466e-06          
  0.8                   5.3072e-06            4.518e-11             3.6e-13               -5.3008e-06          
  0.85                  5.3592e-06            4.452e-11             -4e-13                -5.3556e-06          
  0.9                   5.4096e-06            4.396e-11             5e-13                 -5.406e-06           
  0.95                  5.4588e-06            4.348e-11             -3e-13                -5.4556e-06          
  1                     5.5068e-06            4.294e-11             -1.04e-12             -5.5036e-06          
  1.05                  5.5538e-06            4.208e-11             -3.8e-13              -5.55e-06            
  1.1                   5.5976e-06            4.126e-11             -4.4e-12              -5.595e-06           
  1.15                  5.642e-06             4.042e-11             -1.13e-11             -5.6386e-06          
  1.2                   5.6838e-06            3.952e-11             -2.32e-11             -5.6806e-06          
  1.25                  5.7246e-06            3.862e-11             -4.776e-11            -5.7204e-06          
  1.3                   5.7646e-06            3.756e-11             -9.314e-11            -5.7608e-06          
  1.35                  5.803e-06             3.622e-11             -1.681e-10            -5.7988e-06          
END_DB

