! VERSION = 6.00
BEGIN_HEADER
 ICCAP_INPUTS
  vd         V  D GROUND SMU1 0.1 LIN        1    0          1.35       28   0.05      
  vg         V  G GROUND SMU2 0.001 LIST       2 3 0.181 0.381 0.581
  vb         V  B GROUND SMU4 0.1 CON        0
  vs         V  S GROUND SMU3 0.1 CON        0
 ICCAP_OUTPUTS
  id         I  D GROUND SMU1 B
  ig         I  G GROUND SMU2 B
  ib         I  B GROUND SMU4 B
  is         I  S GROUND SMU3 B
 ICCAP_VALUES
  MASTER_SETUP_TYPE "~dc_idvd~"
  LINVT_VALUE ""
  LISTVT_VALUE "|idvg|100.0n|-200.0m|1.000m|3|200.0m|200.0m|"
  TYPE "1"
  TEMP " 27.0000 "
  IS_TNOM " 1.00000 "
  MAIN.W "150.0n"
  MAIN.L "150.0n"
  MAIN.AD "100.5f"
  MAIN.AS "100.5f"
  MAIN.PD "1.340u"
  MAIN.PS "1.340u"
  MAIN.NF "1.000"
  MAIN.M "1"
  MAIN.NRD "0.000"
  MAIN.NRS "0.000"
  MAIN.LDRIFT1 "1E-06"
  MAIN.LDRIFT2 "1E-06"
  MAIN.SA "0.000"
  MAIN.SB "0.000"
  MAIN.SD "0.000"
  MAIN.SCA "0.000"
  MAIN.SCB "0.000"
  MAIN.SCC "0.000"
  MAIN.SC "0.000"
  MODULE "S546"
  PIN_D "12"
  PIN_G "9"
  PIN_S "10"
  PIN_B "11"
  PIN_E ""
  PIN_6 ""
  XY_ID ""
  FUNC "LW Scale"
  STI "SA ref"
  WPE "WPE ref"
  COMMENT ""
  DIS_MEAS ""
  TypeTCI "10"
END_HEADER

BEGIN_DB
 ICCAP_VAR vg         0.181          
 ICCAP_VAR vb         0              
 ICCAP_VAR vs         0              

 #vd                    id                    ig                    ib                    is                   
  0                     9.8e-13               -2.4e-13              1.74e-12              -3.6e-13             
  0.05                  2.7868e-10            -1.2e-13              1.3e-12               -2.7874e-10          
  0.1                   3.3192e-10            -1.8e-13              2.4e-13               -3.3132e-10          
  0.15                  3.4986e-10            -1.8e-13              2.8e-13               -3.494e-10           
  0.2                   3.6214e-10            -1.6e-13              6.6e-13               -3.6164e-10          
  0.25                  3.733e-10             -1.4e-13              7.2e-13               -3.7262e-10          
  0.3                   3.8356e-10            -1.2e-13              1.62e-12              -3.8308e-10          
  0.35                  3.9368e-10            -1.2e-13              4e-13                 -3.9308e-10          
  0.4                   4.0336e-10            -2e-13                2.6e-13               -4.027e-10           
  0.45                  4.1272e-10            -2e-14                5.6e-13               -4.1222e-10          
  0.5                   4.22e-10              -2e-13                7.4e-13               -4.2114e-10          
  0.55                  4.31e-10              -2.2e-13              9.2e-13               -4.3016e-10          
  0.6                   4.395e-10             -1.2e-13              8.2e-13               -4.3884e-10          
  0.65                  4.4816e-10            -8e-14                2.4e-13               -4.4744e-10          
  0.7                   4.5648e-10            -8e-14                -1e-13                -4.5566e-10          
  0.75                  4.6468e-10            -4e-14                1.24e-12              -4.6422e-10          
  0.8                   4.73e-10              -1e-13                1.12e-12              -4.7206e-10          
  0.85                  4.8108e-10            -2.2e-13              2e-13                 -4.801e-10           
  0.9                   4.8916e-10            2e-14                 6.4e-13               -4.8846e-10          
  0.95                  4.9712e-10            -2.4e-13              -1.6e-13              -4.9624e-10          
  1                     5.0544e-10            -1.8e-13              4.2e-13               -5.0448e-10          
  1.05                  5.1342e-10            -2.6e-13              1.52e-12              -5.1242e-10          
  1.1                   5.2154e-10            -2.6e-13              1e-12                 -5.204e-10           
  1.15                  5.3006e-10            -3e-13                -7.4e-13              -5.2872e-10          
  1.2                   5.3786e-10            -5.4e-13              -3.6e-13              -5.366e-10           
  1.25                  5.4658e-10            -3.2e-13              8.8e-13               -5.4532e-10          
  1.3                   5.5512e-10            -5.2e-13              -6e-14                -5.534e-10           
  1.35                  5.6386e-10            -5.8e-13              5.4e-13               -5.6204e-10          
END_DB

BEGIN_DB
 ICCAP_VAR vg         0.381          
 ICCAP_VAR vb         0              
 ICCAP_VAR vs         0              

 #vd                    id                    ig                    ib                    is                   
  0                     1.44e-10              2.4e-13               1.82e-12              -1.4274e-10          
  0.05                  6.689e-08             8e-14                 3.2e-13               -6.6852e-08          
  0.1                   8.5116e-08            8e-14                 8.6e-13               -8.5084e-08          
  0.15                  9.1156e-08            1.4e-13               1.16e-12              -9.1124e-08          
  0.2                   9.4758e-08            8e-14                 2.6e-13               -9.4764e-08          
  0.25                  9.7694e-08            6e-14                 6.8e-13               -9.7606e-08          
  0.3                   1.00328e-07           -2e-14                -2e-13                -1.00322e-07         
  0.35                  1.02838e-07           6e-14                 1.14e-12              -1.0277e-07          
  0.4                   1.05284e-07           0                     5.4e-13               -1.05246e-07         
  0.45                  1.07594e-07           -4e-14                -3.8e-13              -1.0759e-07          
  0.5                   1.0988e-07            0                     5.8e-13               -1.09766e-07         
  0.55                  1.1194e-07            0                     -3.6e-13              -1.11948e-07         
  0.6                   1.1412e-07            8e-14                 6e-14                 -1.14084e-07         
  0.65                  1.1626e-07            0                     1.38e-12              -1.16136e-07         
  0.7                   1.1824e-07            2e-14                 1.2e-13               -1.1808e-07          
  0.75                  1.2022e-07            1e-13                 3.4e-13               -1.2018e-07          
  0.8                   1.2228e-07            0                     5.2e-13               -1.2222e-07          
  0.85                  1.2424e-07            4e-14                 4.8e-13               -1.2414e-07          
  0.9                   1.2632e-07            -8e-14                1e-13                 -1.261e-07           
  0.95                  1.2828e-07            0                     -3e-13                -1.2802e-07          
  1                     1.3022e-07            -4e-14                8.6e-13               -1.3006e-07          
  1.05                  1.3222e-07            -4e-14                -8e-14                -1.3208e-07          
  1.1                   1.3424e-07            -8e-14                -7.4e-13              -1.3408e-07          
  1.15                  1.3618e-07            0                     -7.8e-13              -1.3596e-07          
  1.2                   1.383e-07             0                     -1.18e-12             -1.3804e-07          
  1.25                  1.4018e-07            -8e-14                -3.4e-12              -1.4008e-07          
  1.3                   1.4228e-07            -1.4e-13              -6.66e-12             -1.4212e-07          
  1.35                  1.4448e-07            -2.8e-13              -1.172e-11            -1.4428e-07          
END_DB

BEGIN_DB
 ICCAP_VAR vg         0.581          
 ICCAP_VAR vb         0              
 ICCAP_VAR vs         0              

 #vd                    id                    ig                    ib                    is                   
  0                     1.926e-09             4.2e-13               7.4e-13               -1.7868e-09          
  0.05                  1.313e-06             3.8e-13               8e-14                 -1.3096e-06          
  0.1                   2.055e-06             3e-13                 1.16e-12              -2.0508e-06          
  0.15                  2.459e-06             2.6e-13               1e-13                 -2.4556e-06          
  0.2                   2.6834e-06            3.2e-13               3.6e-13               -2.678e-06           
  0.25                  2.8226e-06            3.4e-13               1.04e-12              -2.8196e-06          
  0.3                   2.9272e-06            3.4e-13               4.6e-13               -2.9224e-06          
  0.35                  3.013e-06             5e-13                 2.4e-13               -3.0072e-06          
  0.4                   3.0888e-06            4e-13                 1e-12                 -3.0862e-06          
  0.45                  3.1622e-06            2.2e-13               6.6e-13               -3.1576e-06          
  0.5                   3.2272e-06            3.2e-13               5.4e-13               -3.23e-06            
  0.55                  3.2924e-06            3.8e-13               6.6e-13               -3.2914e-06          
  0.6                   3.3574e-06            3.4e-13               4.8e-13               -3.353e-06           
  0.65                  3.42e-06              2.8e-13               5e-13                 -3.416e-06           
  0.7                   3.4768e-06            2.8e-13               1.46e-12              -3.4798e-06          
  0.75                  3.5394e-06            2.4e-13               4e-14                 -3.5372e-06          
  0.8                   3.596e-06             3e-13                 -2.8e-13              -3.591e-06           
  0.85                  3.6532e-06            1.8e-13               7.2e-13               -3.6486e-06          
  0.9                   3.708e-06             1.8e-13               6e-13                 -3.709e-06           
  0.95                  3.7632e-06            2.8e-13               2.6e-13               -3.7622e-06          
  1                     3.8196e-06            2.6e-13               5.8e-13               -3.8172e-06          
  1.05                  3.8776e-06            2.4e-13               -1.06e-12             -3.8764e-06          
  1.1                   3.93e-06              2.2e-13               -1.74e-12             -3.9264e-06          
  1.15                  3.9826e-06            2e-13                 -4.34e-12             -3.9758e-06          
  1.2                   4.0414e-06            1.4e-13               -1.282e-11            -4.034e-06           
  1.25                  4.0886e-06            8e-14                 -2.7e-11              -4.0886e-06          
  1.3                   4.146e-06             1e-13                 -5.162e-11            -4.143e-06           
  1.35                  4.1986e-06            8e-14                 -9.852e-11            -4.1976e-06          
END_DB

