! VERSION = 6.00
BEGIN_HEADER
 ICCAP_INPUTS
  vd         V  D GROUND SMU1 0.1 LIN        1    0          1.35       28   0.05      
  vg         V  G GROUND SMU2 0.001 LIN        2    0.438      1.35       5    0.228     
  vb         V  B GROUND SMU4 0.1 CON        -1.2
  vs         V  S GROUND SMU3 0.1 CON        0
 ICCAP_OUTPUTS
  id         I  D GROUND SMU1 B
  ig         I  G GROUND SMU2 B
  ib         I  B GROUND SMU4 B
  is         I  S GROUND SMU3 B
 ICCAP_VALUES
  MASTER_SETUP_TYPE "~dc_idvd~"
  LINVT_VALUE "|idvg|100.0n|100.0m|1.000m|5|1.350|"
  LISTVT_VALUE ""
  TYPE "1"
  TEMP " 27.0000 "
  IS_TNOM " 1.00000 "
  MAIN.W "10.00u"
  MAIN.L "500.0n"
  MAIN.AD "3.400p"
  MAIN.AS "3.400p"
  MAIN.PD "20.68u"
  MAIN.PS "20.68u"
  MAIN.NF "1.000"
  MAIN.M "1"
  MAIN.NRD "0.000"
  MAIN.NRS "0.000"
  MAIN.LDRIFT1 "1E-06"
  MAIN.LDRIFT2 "1E-06"
  MAIN.SA "0.000"
  MAIN.SB "0.000"
  MAIN.SD "0.000"
  MAIN.SCA "0.000"
  MAIN.SCB "0.000"
  MAIN.SCC "0.000"
  MAIN.SC "0.000"
  MODULE "S541"
  PIN_D "20"
  PIN_G "1"
  PIN_S "2"
  PIN_B "19"
  PIN_E ""
  PIN_6 ""
  XY_ID ""
  FUNC "L Scale"
  STI "SA ref"
  WPE "WPE ref"
  COMMENT ""
  DIS_MEAS ""
  TypeTCI "10"
END_HEADER

BEGIN_DB
 ICCAP_VAR vg         0.438          
 ICCAP_VAR vb         -1.2           
 ICCAP_VAR vs         0              

 #vd                    id                    ig                    ib                    is                   
  0                     2.9922e-08            2.628e-11             -1.514e-11            -2.3762e-08          
  0.05                  1.1174e-05            2.068e-11             -1.312e-11            -1.1152e-05          
  0.1                   1.5642e-05            1.812e-11             -1.256e-11            -1.5626e-05          
  0.15                  1.7534e-05            1.698e-11             -1.1e-11              -1.7522e-05          
  0.2                   1.8656e-05            1.62e-11              -1.17e-11             -1.8642e-05          
  0.25                  1.9538e-05            1.58e-11              -1.078e-11            -1.9522e-05          
  0.3                   2.0322e-05            1.528e-11             -8.74e-12             -2.0302e-05          
  0.35                  2.1032e-05            1.498e-11             -1.036e-11            -2.1018e-05          
  0.4                   2.1712e-05            1.462e-11             -1.008e-11            -2.1696e-05          
  0.45                  2.235e-05             1.43e-11              -8e-12                -2.2336e-05          
  0.5                   2.2958e-05            1.4e-11               -8.8e-12              -2.2946e-05          
  0.55                  2.355e-05             1.37e-11              -8.6e-12              -2.3536e-05          
  0.6                   2.4094e-05            1.334e-11             -7.6e-12              -2.4084e-05          
  0.65                  2.4622e-05            1.308e-11             -8.32e-12             -2.4608e-05          
  0.7                   2.5122e-05            1.272e-11             -7.72e-12             -2.5108e-05          
  0.75                  2.5608e-05            1.236e-11             -6.58e-12             -2.5584e-05          
  0.8                   2.6046e-05            1.19e-11              -8.14e-12             -2.6024e-05          
  0.85                  2.6468e-05            1.138e-11             -8.14e-12             -2.6466e-05          
  0.9                   2.6896e-05            1.086e-11             -6.36e-12             -2.688e-05           
  0.95                  2.729e-05             1.024e-11             -9.08e-12             -2.7274e-05          
  1                     2.7668e-05            9.54e-12              -9.26e-12             -2.7644e-05          
  1.05                  2.803e-05             8.84e-12              -1.318e-11            -2.8014e-05          
  1.1                   2.8376e-05            7.74e-12              -2.626e-11            -2.8356e-05          
  1.15                  2.87e-05              6.7e-12               -5.544e-11            -2.8682e-05          
  1.2                   2.901e-05             5.76e-12              -1.1658e-10           -2.9002e-05          
  1.25                  2.9312e-05            4.34e-12              -2.3488e-10           -2.9288e-05          
  1.3                   2.9592e-05            2.82e-12              -4.4844e-10           -2.958e-05           
  1.35                  2.9858e-05            1.26e-12              -8.0788e-10           -2.9848e-05          
END_DB

BEGIN_DB
 ICCAP_VAR vg         0.666          
 ICCAP_VAR vb         -1.2           
 ICCAP_VAR vs         0              

 #vd                    id                    ig                    ib                    is                   
  0                     2.2702e-07            1.8744e-10            -3.14e-12             -1.2022e-07          
  0.05                  8.8208e-05            1.5896e-10            -5.02e-12             -8.8178e-05          
  0.1                   0.00015462            1.3782e-10            -4.16e-12             -0.00015424          
  0.15                  0.0002005             1.2324e-10            -4.06e-12             -0.00020012          
  0.2                   0.00022976            1.1384e-10            -3.44e-12             -0.00022938          
  0.25                  0.00024778            1.0788e-10            -4.42e-12             -0.0002474           
  0.3                   0.00025942            1.0422e-10            -4.02e-12             -0.00025904          
  0.35                  0.0002678             1.017e-10             -3.38e-12             -0.00026744          
  0.4                   0.0002746             9.968e-11             -4.4e-12              -0.00027422          
  0.45                  0.0002805             9.82e-11              -4.14e-12             -0.00028008          
  0.5                   0.00028586            9.672e-11             -3.18e-12             -0.00028542          
  0.55                  0.00029082            9.526e-11             -3.8e-12              -0.00029046          
  0.6                   0.00029562            9.42e-11              -3.7e-12              -0.00029524          
  0.65                  0.00030012            9.31e-11              -3.3e-12              -0.00029978          
  0.7                   0.0003045             9.192e-11             -3.38e-12             -0.0003041           
  0.75                  0.00030868            9.094e-11             -2.86e-12             -0.00030828          
  0.8                   0.0003127             9e-11                 -3.68e-12             -0.00031238          
  0.85                  0.00031662            8.894e-11             -3.86e-12             -0.00031624          
  0.9                   0.00032046            8.796e-11             -3.6e-12              -0.00032008          
  0.95                  0.00032418            8.704e-11             -3.64e-12             -0.00032382          
  1                     0.00032778            8.6e-11               -4.56e-12             -0.00032738          
  1.05                  0.00033124            8.486e-11             -7.36e-12             -0.00033086          
  1.1                   0.00033462            8.39e-11              -1.678e-11            -0.0003343           
  1.15                  0.00033794            8.268e-11             -3.87e-11             -0.00033758          
  1.2                   0.00034116            8.15e-11              -9.844e-11            -0.00034076          
  1.25                  0.00034426            8.034e-11             -2.4256e-10           -0.00034392          
  1.3                   0.00034738            7.89e-11              -5.5956e-10           -0.00034698          
  1.35                  0.00035036            7.742e-11             -1.2136e-09           -0.00034996          
END_DB

BEGIN_DB
 ICCAP_VAR vg         0.894          
 ICCAP_VAR vb         -1.2           
 ICCAP_VAR vs         0              

 #vd                    id                    ig                    ib                    is                   
  0                     4.438e-07             7.3364e-10            -2.32e-12             -2.065e-07           
  0.05                  0.00017864            6.4652e-10            -2.74e-12             -0.00017826          
  0.1                   0.0003361             5.738e-10             -2.64e-12             -0.00033572          
  0.15                  0.00047098            5.1422e-10            -3.26e-12             -0.00047062          
  0.2                   0.00058248            4.6694e-10            -2.28e-12             -0.00058206          
  0.25                  0.00067084            4.3038e-10            -2.92e-12             -0.00067044          
  0.3                   0.00073772            4.032e-10             -2.72e-12             -0.0007373           
  0.35                  0.00078614            3.8342e-10            -2.54e-12             -0.00078578          
  0.4                   0.00082042            3.6968e-10            -2.4e-12              -0.00082008          
  0.45                  0.0008449             3.5994e-10            -3.28e-12             -0.00084454          
  0.5                   0.00086324            3.5276e-10            -1.86e-12             -0.00086286          
  0.55                  0.00087774            3.472e-10             -2.6e-12              -0.00087738          
  0.6                   0.00089006            3.4276e-10            -3.12e-12             -0.00088972          
  0.65                  0.00090098            3.3898e-10            -1.74e-12             -0.00090062          
  0.7                   0.000911              3.3542e-10            -2.86e-12             -0.00091064          
  0.75                  0.00092034            3.3236e-10            -2.3e-12              -0.00091994          
  0.8                   0.0009291             3.2936e-10            -2e-12                -0.00092872          
  0.85                  0.0009375             3.2664e-10            -3.26e-12             -0.00093712          
  0.9                   0.0009455             3.2398e-10            -3.4e-12              -0.00094512          
  0.95                  0.00095322            3.2136e-10            -2.16e-12             -0.00095282          
  1                     0.0009606             3.189e-10             -3.48e-12             -0.00096022          
  1.05                  0.00096782            3.1662e-10            -4.48e-12             -0.0009674           
  1.1                   0.00097484            3.143e-10             -7.1e-12              -0.00097442          
  1.15                  0.00098166            3.121e-10             -1.514e-11            -0.0009813           
  1.2                   0.00098836            3.0992e-10            -3.444e-11            -0.00098798          
  1.25                  0.00099484            3.0758e-10            -8.308e-11            -0.00099454          
  1.3                   0.00100124            3.0536e-10            -1.9876e-10           -0.00100082          
  1.35                  0.00100738            3.0306e-10            -4.5972e-10           -0.001007            
END_DB

BEGIN_DB
 ICCAP_VAR vg         1.122          
 ICCAP_VAR vb         -1.2           
 ICCAP_VAR vs         0              

 #vd                    id                    ig                    ib                    is                   
  0                     7.0222e-07            2.1232e-09            -1.7e-12              -2.5656e-07          
  0.05                  0.0002514             1.9162e-09            -2.28e-12             -0.00025102          
  0.1                   0.00048562            1.7354e-09            -1.9e-12              -0.00048524          
  0.15                  0.00070038            1.5776e-09            -1.42e-12             -0.0007              
  0.2                   0.00089358            1.4426e-09            -2e-12                -0.0008932           
  0.25                  0.00106402            1.3274e-09            -1.88e-12             -0.00106366          
  0.3                   0.0012116             1.2314e-09            -2.58e-12             -0.00121             
  0.35                  0.001335              1.153e-09             -1.16e-12             -0.0013332           
  0.4                   0.0014356             1.0898e-09            -2.18e-12             -0.0014338           
  0.45                  0.0015148             1.0404e-09            -2.34e-12             -0.001513            
  0.5                   0.0015758             1.0028e-09            -1.54e-12             -0.0015742           
  0.55                  0.0016222             9.7368e-10            -2.7e-12              -0.0016204           
  0.6                   0.001657              9.526e-10             -2.62e-12             -0.0016554           
  0.65                  0.001684              9.3646e-10            -1.04e-12             -0.0016822           
  0.7                   0.0017056             9.2386e-10            -2.5e-12              -0.0017036           
  0.75                  0.0017232             9.1334e-10            -1.92e-12             -0.0017216           
  0.8                   0.0017386             9.0468e-10            -1.74e-12             -0.0017368           
  0.85                  0.0017524             8.9676e-10            -2.56e-12             -0.0017508           
  0.9                   0.0017652             8.8986e-10            -1.44e-12             -0.0017634           
  0.95                  0.0017772             8.8338e-10            -2.76e-12             -0.0017754           
  1                     0.001788              8.7732e-10            -2.6e-12              -0.0017866           
  1.05                  0.0017986             8.7164e-10            -1.7e-12              -0.001797            
  1.1                   0.001809              8.662e-10             -3.62e-12             -0.0018072           
  1.15                  0.0018188             8.6086e-10            -6.3e-12              -0.001817            
  1.2                   0.0018282             8.5594e-10            -1.026e-11            -0.0018264           
  1.25                  0.0018372             8.5116e-10            -2.598e-11            -0.0018354           
  1.3                   0.001846              8.4628e-10            -6.04e-11             -0.0018444           
  1.35                  0.0018546             8.419e-10             -1.3798e-10           -0.001853            
END_DB

BEGIN_DB
 ICCAP_VAR vg         1.35           
 ICCAP_VAR vb         -1.2           
 ICCAP_VAR vs         0              

 #vd                    id                    ig                    ib                    is                   
  0                     7.7216e-07            5.0834e-09            -6.64e-12             -3.0504e-07          
  0.05                  0.00030394            4.6632e-09            -5.76e-12             -0.00030356          
  0.1                   0.0005948             4.283e-09             -5.72e-12             -0.00059446          
  0.15                  0.00087006            3.9432e-09            -3.08e-12             -0.00086966          
  0.2                   0.0011271             3.6412e-09            -4.16e-12             -0.00112668          
  0.25                  0.001365              3.3738e-09            -3.24e-12             -0.0013632           
  0.3                   0.0015808             3.138e-09             -2.58e-12             -0.001579            
  0.35                  0.001774              2.9336e-09            -1.72e-12             -0.0017722           
  0.4                   0.0019446             2.7566e-09            -2.68e-12             -0.0019428           
  0.45                  0.002092              2.6068e-09            -2.92e-12             -0.0020902           
  0.5                   0.0022172             2.4816e-09            -1.46e-12             -0.0022156           
  0.55                  0.0023216             2.378e-09             -2.54e-12             -0.0023198           
  0.6                   0.0024062             2.2946e-09            -2.44e-12             -0.0024046           
  0.65                  0.002474              2.2282e-09            -1.74e-12             -0.0024722           
  0.7                   0.0025272             2.1762e-09            -2.76e-12             -0.0025256           
  0.75                  0.002569              2.136e-09             -2.2e-12              -0.0025672           
  0.8                   0.0026018             2.1038e-09            -1.54e-12             -0.0026002           
  0.85                  0.0026284             2.0784e-09            -2.5e-12              -0.0026266           
  0.9                   0.0026506             2.0572e-09            -2.36e-12             -0.0026488           
  0.95                  0.0026696             2.0392e-09            -1.64e-12             -0.0026676           
  1                     0.0026862             2.0238e-09            -1.78e-12             -0.0026844           
  1.05                  0.0027012             2.01e-09              -2.6e-12              -0.0026994           
  1.1                   0.0027148             1.997e-09             -1.4e-12              -0.0027132           
  1.15                  0.0027276             1.9852e-09            -2.82e-12             -0.0027262           
  1.2                   0.0027398             1.9742e-09            -4.68e-12             -0.002738            
  1.25                  0.0027514             1.9642e-09            -1.056e-11            -0.0027496           
  1.3                   0.0027624             1.9542e-09            -1.718e-11            -0.0027608           
  1.35                  0.002773              1.9444e-09            -3.874e-11            -0.0027712           
END_DB

