! VERSION = 6.00
BEGIN_HEADER
 ICCAP_INPUTS
  vg         V  G GROUND SMU2 0.001 LIN        1    -0.5       1.35       38   0.05      
  vb         V  B GROUND SMU4 0.1 LIN        2    0          -1.2       5    -0.3      
  vd         V  D GROUND SMU1 0.1 LIST       3 3 0.05 0.6 1.2
  vs         V  S GROUND SMU3 0.1 CON        0
 ICCAP_OUTPUTS
  id         I  D GROUND SMU1 B
  ig         I  G GROUND SMU2 B
  ib         I  B GROUND SMU4 B
  is         I  S GROUND SMU3 B
 ICCAP_VALUES
  MASTER_SETUP_TYPE "~dc_idvg~"
  LINVT_VALUE ""
  LISTVT_VALUE ""
  TYPE "1"
  TEMP " 27.0000 "
  IS_TNOM " 1.00000 "
  MAIN.W "600.0n"
  MAIN.L "10.00u"
  MAIN.AD "204.0f"
  MAIN.AS "204.0f"
  MAIN.PD "1.880u"
  MAIN.PS "1.880u"
  MAIN.NF "1.000"
  MAIN.M "1"
  MAIN.NRD "0.000"
  MAIN.NRS "0.000"
  MAIN.LDRIFT1 "1E-06"
  MAIN.LDRIFT2 "1E-06"
  MAIN.SA "0.000"
  MAIN.SB "0.000"
  MAIN.SD "0.000"
  MAIN.SCA "0.000"
  MAIN.SCB "0.000"
  MAIN.SCC "0.000"
  MAIN.SC "0.000"
  MODULE "S544"
  PIN_D "20"
  PIN_G "1"
  PIN_S "2"
  PIN_B "19"
  PIN_E ""
  PIN_6 ""
  XY_ID ""
  FUNC "W Scale"
  STI "SA ref"
  WPE "WPE ref"
  COMMENT ""
  DIS_MEAS ""
  TypeTCI "10"
END_HEADER

BEGIN_DB
 ICCAP_VAR vb         0              
 ICCAP_VAR vd         0.05           
 ICCAP_VAR vs         0              

 #vg                    id                    ig                    ib                    is                   
  -0.5                  4e-14                 -4.584e-11            4.616e-11             6.8e-13              
  -0.45                 1e-13                 -7.44e-12             8.96e-12              5e-13                
  -0.4                  1.4e-13               -1.54e-12             3.94e-12              3.4e-13              
  -0.35                 2e-14                 -4e-13                1.94e-12              1.4e-13              
  -0.3                  8e-14                 -8e-14                1.66e-12              1.8e-13              
  -0.25                 8e-14                 -6e-14                9.2e-13               1.2e-13              
  -0.2                  1.4e-13               2.4e-13               1.68e-12              1.2e-13              
  -0.15                 3.2e-13               1.8e-13               3.12e-12              -1.4e-13             
  -0.1                  1.2e-12               2.2e-13               1.7e-12               -1.16e-12            
  -0.05                 5.66e-12              3.2e-13               6.6e-13               -5.52e-12            
  0                     2.72e-11              3.4e-13               1.84e-12              -2.71e-11            
  0.05                  1.2992e-10            4.6e-13               1.64e-12              -1.301e-10           
  0.1                   6.0846e-10            6.2e-13               1.96e-12              -6.085e-10           
  0.15                  2.698e-09             9.6e-13               1.62e-12              -2.6974e-09          
  0.2                   1.0345e-08            2.24e-12              1.26e-12              -1.03494e-08         
  0.25                  3.0496e-08            4.74e-12              1.28e-12              -3.0488e-08          
  0.3                   6.7006e-08            9.16e-12              1.34e-12              -6.7004e-08          
  0.35                  1.1694e-07            1.642e-11             2.3e-12               -1.1682e-07          
  0.4                   1.7558e-07            2.768e-11             1.28e-12              -1.7546e-07          
  0.45                  2.3822e-07            4.464e-11             9e-13                 -2.381e-07           
  0.5                   3.0066e-07            6.904e-11             2.62e-12              -3.0064e-07          
  0.55                  3.613e-07             1.032e-10             1.7e-12               -3.6128e-07          
  0.6                   4.1994e-07            1.5056e-10            6.2e-13               -4.1998e-07          
  0.65                  4.7672e-07            2.1454e-10            1.26e-12              -4.768e-07           
  0.7                   5.3146e-07            2.9964e-10            2.26e-12              -5.317e-07           
  0.75                  5.844e-07             4.103e-10             2.16e-12              -5.8476e-07          
  0.8                   6.3536e-07            5.5236e-10            1.1e-12               -6.358e-07           
  0.85                  6.8428e-07            7.3254e-10            1.14e-12              -6.8496e-07          
  0.9                   7.3106e-07            9.5734e-10            7.4e-13               -7.3196e-07          
  0.95                  7.7564e-07            1.2364e-09            1.4e-12               -7.768e-07           
  1                     8.1796e-07            1.577e-09             2e-12                 -8.1946e-07          
  1.05                  8.5798e-07            1.9902e-09            1.2e-12               -8.599e-07           
  1.1                   8.9562e-07            2.4858e-09            2.6e-13               -8.9804e-07          
  1.15                  9.3094e-07            3.0772e-09            1.12e-12              -9.34e-07            
  1.2                   9.6398e-07            3.7766e-09            1.54e-12              -9.677e-07           
  1.25                  9.9464e-07            4.5986e-09            7.6e-13               -9.9928e-07          
  1.3                   1.02306e-06           5.5574e-09            -9.4e-13              -1.0286e-06          
  1.35                  1.04936e-06           6.674e-09             -3.68e-12             -1.05598e-06         
END_DB

BEGIN_DB
 ICCAP_VAR vb         -0.3           
 ICCAP_VAR vd         0.05           
 ICCAP_VAR vs         0              

 #vg                    id                    ig                    ib                    is                   
  -0.5                  1e-13                 -1.18e-12             -1.96e-12             8.2e-13              
  -0.45                 1.6e-13               -6.8e-13              -2.18e-12             4.4e-13              
  -0.4                  1.2e-13               -5e-13                -3.06e-12             2.8e-13              
  -0.35                 4e-14                 -2.4e-13              -2.26e-12             1.6e-13              
  -0.3                  2.2e-13               -6e-14                -2.78e-12             8e-14                
  -0.25                 2e-14                 1.6e-13               -1.62e-12             1.2e-13              
  -0.2                  1.6e-13               4e-14                 -1.08e-12             1e-13                
  -0.15                 1e-13                 1.2e-13               -1.62e-12             2e-14                
  -0.1                  2.6e-13               2.4e-13               -2.04e-12             -1e-13               
  -0.05                 1.44e-12              2e-13                 -2e-12                -1.18e-12            
  0                     6.7e-12               3.2e-13               -8.4e-13              -6.64e-12            
  0.05                  3.398e-11             3.8e-13               -1.06e-12             -3.378e-11           
  0.1                   1.6738e-10            5.2e-13               -1.72e-12             -1.6742e-10          
  0.15                  8.0728e-10            8.8e-13               -1.86e-12             -8.0722e-10          
  0.2                   3.601e-09             1.84e-12              -1.04e-12             -3.6002e-09          
  0.25                  1.3416e-08            3.98e-12              -6.4e-13              -1.3398e-08          
  0.3                   3.7342e-08            8.3e-12               -2.58e-12             -3.7342e-08          
  0.35                  7.7672e-08            1.52e-11              -1.46e-12             -7.7656e-08          
  0.4                   1.3028e-07            2.622e-11             -2.2e-13              -1.3014e-07          
  0.45                  1.9028e-07            4.298e-11             -2.4e-13              -1.9016e-07          
  0.5                   2.5232e-07            6.7e-11               -1.7e-12              -2.5224e-07          
  0.55                  3.1316e-07            1.0082e-10            -1.22e-12             -3.1314e-07          
  0.6                   3.7202e-07            1.4764e-10            -4.4e-13              -3.7206e-07          
  0.65                  4.2894e-07            2.1132e-10            -5e-13                -4.2906e-07          
  0.7                   4.8386e-07            2.9568e-10            -6.6e-13              -4.8408e-07          
  0.75                  5.37e-07              4.0594e-10            -9.2e-13              -5.373e-07           
  0.8                   5.8816e-07            5.4748e-10            -3.2e-13              -5.886e-07           
  0.85                  6.3742e-07            7.2686e-10            2e-14                 -6.3804e-07          
  0.9                   6.8444e-07            9.5126e-10            -1.14e-12             -6.8538e-07          
  0.95                  7.294e-07             1.2294e-09            -8e-13                -7.305e-07           
  1                     7.7206e-07            1.57e-09              -1.26e-12             -7.7358e-07          
  1.05                  8.1246e-07            1.9826e-09            -9.8e-13              -8.1438e-07          
  1.1                   8.5048e-07            2.4774e-09            1.2e-13               -8.5292e-07          
  1.15                  8.8626e-07            3.0684e-09            -5e-13                -8.893e-07           
  1.2                   9.1972e-07            3.767e-09             -6.2e-13              -9.2348e-07          
  1.25                  9.5086e-07            4.5888e-09            -1.12e-12             -9.5542e-07          
  1.3                   9.7974e-07            5.548e-09             -2.52e-12             -9.8524e-07          
  1.35                  1.00638e-06           6.6648e-09            -3.66e-12             -1.01302e-06         
END_DB

BEGIN_DB
 ICCAP_VAR vb         -0.6           
 ICCAP_VAR vd         0.05           
 ICCAP_VAR vs         0              

 #vg                    id                    ig                    ib                    is                   
  -0.5                  1.8e-13               -1.06e-12             -4.04e-12             6e-13                
  -0.45                 6e-14                 -6.2e-13              -4.28e-12             5e-13                
  -0.4                  1.2e-13               -3.4e-13              -4.82e-12             4.2e-13              
  -0.35                 6e-14                 -1.6e-13              -3.62e-12             2.8e-13              
  -0.3                  6e-14                 -8e-14                -2.74e-12             1.8e-13              
  -0.25                 1.6e-13               8e-14                 -2.86e-12             2e-13                
  -0.2                  0                     1.4e-13               -2.72e-12             2e-14                
  -0.15                 1e-13                 2.2e-13               -3.38e-12             1e-13                
  -0.1                  6e-14                 3.2e-13               -2.88e-12             -6e-14               
  -0.05                 4.8e-13               2.8e-13               -2.42e-12             -3.2e-13             
  0                     2.2e-12               3e-13                 -1.68e-12             -2.1e-12             
  0.05                  1.148e-11             3.8e-13               -2.26e-12             -1.128e-11           
  0.1                   5.884e-11             5.8e-13               -2.66e-12             -5.878e-11           
  0.15                  2.9764e-10            8e-13                 -2.92e-12             -2.9762e-10          
  0.2                   1.4368e-09            1.48e-12              -1.62e-12             -1.4348e-09          
  0.25                  6.1698e-09            3.4e-12               -1.82e-12             -6.1704e-09          
  0.3                   2.0666e-08            7.22e-12              -2.72e-12             -2.0646e-08          
  0.35                  5.114e-08             1.398e-11             -2.52e-12             -5.1138e-08          
  0.4                   9.6426e-08            2.476e-11             -1.66e-12             -9.6462e-08          
  0.45                  1.5208e-07            4.122e-11             -1.74e-12             -1.52e-07            
  0.5                   2.1238e-07            6.48e-11              -2.06e-12             -2.123e-07           
  0.55                  2.7274e-07            9.824e-11             -1.88e-12             -2.7272e-07          
  0.6                   3.3146e-07            1.4464e-10            -7.4e-13              -3.3148e-07          
  0.65                  3.8824e-07            2.078e-10             -1.12e-12             -3.8836e-07          
  0.7                   4.431e-07             2.915e-10             -2.06e-12             -4.4328e-07          
  0.75                  4.962e-07             4.0118e-10            -1.86e-12             -4.9656e-07          
  0.8                   5.4748e-07            5.421e-10             -1.32e-12             -5.4794e-07          
  0.85                  5.9688e-07            7.2092e-10            -1.4e-12              -5.9748e-07          
  0.9                   6.4414e-07            9.4434e-10            -1.54e-12             -6.4498e-07          
  0.95                  6.8932e-07            1.2224e-09            -2.52e-12             -6.9048e-07          
  1                     7.3226e-07            1.5622e-09            -1.84e-12             -7.3376e-07          
  1.05                  7.73e-07              1.9736e-09            -1.46e-12             -7.749e-07           
  1.1                   8.1142e-07            2.4682e-09            -1.78e-12             -8.138e-07           
  1.15                  8.475e-07             3.0584e-09            -1.22e-12             -8.5052e-07          
  1.2                   8.8132e-07            3.7576e-09            -1.96e-12             -8.8506e-07          
  1.25                  9.1282e-07            4.5784e-09            -2.62e-12             -9.1742e-07          
  1.3                   9.4206e-07            5.5368e-09            -4.06e-12             -9.4754e-07          
  1.35                  9.691e-07             6.6538e-09            -4.56e-12             -9.757e-07           
END_DB

BEGIN_DB
 ICCAP_VAR vb         -0.9           
 ICCAP_VAR vd         0.05           
 ICCAP_VAR vs         0              

 #vg                    id                    ig                    ib                    is                   
  -0.5                  1.8e-13               -1.06e-12             -5.26e-12             8e-13                
  -0.45                 2e-14                 -6.6e-13              -5.52e-12             5.4e-13              
  -0.4                  8e-14                 -2.8e-13              -5e-12                3.8e-13              
  -0.35                 1.2e-13               -1e-13                -4.72e-12             3e-13                
  -0.3                  8e-14                 -4e-14                -3.06e-12             2.2e-13              
  -0.25                 1.2e-13               6e-14                 -3.52e-12             2.2e-13              
  -0.2                  2e-14                 2.2e-13               -4.7e-12              1.2e-13              
  -0.15                 -4e-14                2.6e-13               -3.6e-12              -2e-14               
  -0.1                  1.6e-13               2.6e-13               -3.6e-12              1e-13                
  -0.05                 2e-13                 3.6e-13               -2.14e-12             -1e-13               
  0                     1e-12                 4e-13                 -3.54e-12             -8.2e-13             
  0.05                  4.88e-12              3.8e-13               -3.48e-12             -4.68e-12            
  0.1                   2.528e-11             5.2e-13               -2.8e-12              -2.53e-11            
  0.15                  1.3242e-10            6.6e-13               -2.98e-12             -1.3246e-10          
  0.2                   6.7184e-10            1.42e-12              -2.32e-12             -6.7256e-10          
  0.25                  3.1358e-09            2.74e-12              -2.62e-12             -3.1382e-09          
  0.3                   1.1976e-08            6.24e-12              -2.44e-12             -1.196e-08           
  0.35                  3.411e-08             1.27e-11              -1.94e-12             -3.4108e-08          
  0.4                   7.195e-08             2.31e-11              -4.6e-13              -7.1958e-08          
  0.45                  1.2212e-07            3.912e-11             -2.5e-12              -1.2202e-07          
  0.5                   1.7934e-07            6.254e-11             -2.04e-12             -1.7926e-07          
  0.55                  2.383e-07             9.556e-11             -1.22e-12             -2.3826e-07          
  0.6                   2.9634e-07            1.4136e-10            -2.26e-12             -2.9636e-07          
  0.65                  3.5276e-07            2.0394e-10            -2.84e-12             -3.5284e-07          
  0.7                   4.0738e-07            2.8698e-10            -2.28e-12             -4.076e-07           
  0.75                  4.6042e-07            3.9614e-10            -1.36e-12             -4.6072e-07          
  0.8                   5.1164e-07            5.3624e-10            -2.58e-12             -5.1206e-07          
  0.85                  5.6106e-07            7.1446e-10            -2.54e-12             -5.6168e-07          
  0.9                   6.084e-07             9.372e-10             -1.9e-12              -6.0924e-07          
  0.95                  6.5378e-07            1.2146e-09            -2.74e-12             -6.5488e-07          
  1                     6.9696e-07            1.5534e-09            -1.84e-12             -6.9842e-07          
  1.05                  7.379e-07             1.9644e-09            -1.54e-12             -7.398e-07           
  1.1                   7.7658e-07            2.4582e-09            -2e-12                -7.7898e-07          
  1.15                  8.1298e-07            3.0476e-09            -2.82e-12             -8.1602e-07          
  1.2                   8.4712e-07            3.7458e-09            -2.5e-12              -8.5082e-07          
  1.25                  8.7898e-07            4.566e-09             -1.96e-12             -8.8348e-07          
  1.3                   9.0854e-07            5.525e-09             -3.72e-12             -9.1402e-07          
  1.35                  9.3592e-07            6.6412e-09            -6.32e-12             -9.4254e-07          
END_DB

BEGIN_DB
 ICCAP_VAR vb         -1.2           
 ICCAP_VAR vd         0.05           
 ICCAP_VAR vs         0              

 #vg                    id                    ig                    ib                    is                   
  -0.5                  1.2e-13               -1.2e-12              -5.42e-12             7.8e-13              
  -0.45                 1.2e-13               -6.2e-13              -5.04e-12             5.4e-13              
  -0.4                  1.4e-13               -4e-13                -5.06e-12             3.4e-13              
  -0.35                 8e-14                 -1.8e-13              -5.68e-12             3e-13                
  -0.3                  1.6e-13               0                     -5.26e-12             2.8e-13              
