! VERSION = 6.00
BEGIN_HEADER
 ICCAP_INPUTS
  vg         V  G GROUND SMU2 0.001 LIN        1    -0.5       1.35       38   0.05      
  vb         V  B GROUND SMU4 0.1 LIN        2    0          -1.2       5    -0.3      
  vd         V  D GROUND SMU1 0.1 LIST       3 3 0.05 0.6 1.2
  vs         V  S GROUND SMU3 0.1 CON        0
 ICCAP_OUTPUTS
  id         I  D GROUND SMU1 B
  ig         I  G GROUND SMU2 B
  ib         I  B GROUND SMU4 B
  is         I  S GROUND SMU3 B
 ICCAP_VALUES
  MASTER_SETUP_TYPE "~dc_idvg~"
  LINVT_VALUE ""
  LISTVT_VALUE ""
  TYPE "1"
  TEMP " 27.0000 "
  IS_TNOM " 1.00000 "
  MAIN.W "2.000u"
  MAIN.L "2.000u"
  MAIN.AD "680.0f"
  MAIN.AS "680.0f"
  MAIN.PD "4.680u"
  MAIN.PS "4.680u"
  MAIN.NF "1.000"
  MAIN.M "1"
  MAIN.NRD "0.000"
  MAIN.NRS "0.000"
  MAIN.LDRIFT1 "1E-06"
  MAIN.LDRIFT2 "1E-06"
  MAIN.SA "0.000"
  MAIN.SB "0.000"
  MAIN.SD "0.000"
  MAIN.SCA "0.000"
  MAIN.SCB "0.000"
  MAIN.SCC "0.000"
  MAIN.SC "0.000"
  MODULE "S542"
  PIN_D "12"
  PIN_G "9"
  PIN_S "10"
  PIN_B "11"
  PIN_E ""
  PIN_6 ""
  XY_ID ""
  FUNC "LW Scale"
  STI "SA ref"
  WPE "WPE ref"
  COMMENT ""
  DIS_MEAS ""
  TypeTCI "10"
END_HEADER

BEGIN_DB
 ICCAP_VAR vb         0              
 ICCAP_VAR vd         0.05           
 ICCAP_VAR vs         0              

 #vg                    id                    ig                    ib                    is                   
  -0.5                  3.6e-13               -4.354e-11            4.396e-11             5.4e-13              
  -0.45                 2.6e-13               -6.9e-12              9.14e-12              1.6e-13              
  -0.4                  1.2e-13               -1.5e-12              3.48e-12              3e-13                
  -0.35                 1.6e-13               -3.2e-13              1.98e-12              1.6e-13              
  -0.3                  -6e-14                -1e-13                1.5e-12               1.2e-13              
  -0.25                 1e-13                 -1.4e-13              1.48e-12              1.4e-13              
  -0.2                  4.8e-13               1.4e-13               2.42e-12              -3.6e-13             
  -0.15                 1.6e-12               1.2e-13               1.72e-12              -1.6e-12             
  -0.1                  8.22e-12              1.8e-13               1.5e-12               -8.1e-12             
  -0.05                 3.982e-11             1.8e-13               7.4e-13               -3.948e-11           
  0                     1.9236e-10            2.8e-13               1.12e-12              -1.9204e-10          
  0.05                  9.2904e-10            2.4e-13               1.8e-12               -9.2958e-10          
  0.1                   4.364e-09             3.6e-13               1.56e-12              -4.3616e-09          
  0.15                  1.9152e-08            6.2e-13               1.82e-12              -1.9094e-08          
  0.2                   7.4256e-08            1.2e-12               1.62e-12              -7.4232e-08          
  0.25                  2.3944e-07            2.72e-12              1.62e-12              -2.3936e-07          
  0.3                   6.1886e-07            5.04e-12              1.54e-12              -6.1862e-07          
  0.35                  1.28e-06              8.84e-12              8.4e-13               -1.2756e-06          
  0.4                   2.1756e-06            1.484e-11             1.74e-12              -2.1718e-06          
  0.45                  3.2118e-06            2.374e-11             1.62e-12              -3.208e-06           
  0.5                   4.2998e-06            3.71e-11              6.6e-13               -4.295e-06           
  0.55                  5.389e-06             5.558e-11             5.6e-13               -5.3852e-06          
  0.6                   6.4648e-06            8.148e-11             1.56e-12              -6.461e-06           
  0.65                  7.5156e-06            1.1654e-10            1.34e-12              -7.5114e-06          
  0.7                   8.536e-06             1.6286e-10            1.44e-12              -8.531e-06           
  0.75                  9.5232e-06            2.234e-10             9.4e-13               -9.52e-06            
  0.8                   1.0473e-05            3.0088e-10            8.8e-13               -1.0469e-05          
  0.85                  1.13856e-05           3.9996e-10            7.4e-13               -1.13818e-05         
  0.9                   1.2264e-05            5.2322e-10            1.72e-12              -1.2248e-05          
  0.95                  1.3094e-05            6.7664e-10            2.2e-13               -1.3076e-05          
  1                     1.388e-05             8.6474e-10            1.84e-12              -1.3862e-05          
  1.05                  1.4622e-05            1.0936e-09            4.8e-13               -1.4604e-05          
  1.1                   1.5316e-05            1.3674e-09            4.2e-13               -1.53e-05            
  1.15                  1.5966e-05            1.6948e-09            1.88e-12              -1.5952e-05          
  1.2                   1.6574e-05            2.0824e-09            1.18e-12              -1.6558e-05          
  1.25                  1.7136e-05            2.5378e-09            6e-14                 -1.712e-05           
  1.3                   1.7654e-05            3.0694e-09            -5e-13                -1.764e-05           
  1.35                  1.8134e-05            3.6884e-09            -1.28e-12             -1.812e-05           
END_DB

BEGIN_DB
 ICCAP_VAR vb         -0.3           
 ICCAP_VAR vd         0.05           
 ICCAP_VAR vs         0              

 #vg                    id                    ig                    ib                    is                   
  -0.5                  3.4e-13               -8.4e-13              -3.28e-12             3.8e-13              
  -0.45                 1.6e-13               -6.2e-13              -5.1e-12              4.8e-13              
  -0.4                  2.8e-13               -4.2e-13              -3.06e-12             3.2e-13              
  -0.35                 2e-13                 -2.6e-13              -3.4e-12              3e-13                
  -0.3                  -4e-14                -8e-14                -1.74e-12             2.4e-13              
  -0.25                 1.6e-13               1.6e-13               -1.58e-12             8e-14                
  -0.2                  2.4e-13               8e-14                 -2.78e-12             0                    
  -0.15                 3.2e-13               2e-13                 -2.32e-12             -2.4e-13             
  -0.1                  1.78e-12              3.8e-13               -1.62e-12             -1.84e-12            
  -0.05                 9.58e-12              3e-13                 -9.2e-13              -9.46e-12            
  0                     4.864e-11             3.6e-13               -1.62e-12             -4.864e-11           
  0.05                  2.4808e-10            3.8e-13               -1.5e-12              -2.4786e-10          
  0.1                   1.242e-09             2.4e-13               -1.78e-12             -1.2404e-09          
  0.15                  5.9736e-09            4.4e-13               -2.8e-13              -5.9708e-09          
  0.2                   2.638e-08             1.04e-12              -7.8e-13              -2.6392e-08          
  0.25                  1.01024e-07           2.3e-12               -1.04e-12             -1.00884e-07         
  0.3                   3.1306e-07            4.58e-12              -1.58e-12             -3.1292e-07          
  0.35                  7.6876e-07            8.3e-12               3.6e-13               -7.685e-07           
  0.4                   1.505e-06             1.404e-11             -1.44e-12             -1.5006e-06          
  0.45                  2.4518e-06            2.294e-11             -2.2e-13              -2.4482e-06          
  0.5                   3.5068e-06            3.572e-11             1.8e-13               -3.5032e-06          
  0.55                  4.5908e-06            5.398e-11             -3.6e-13              -4.5866e-06          
  0.6                   5.6682e-06            7.974e-11             -1.28e-12             -5.6658e-06          
  0.65                  6.7282e-06            1.1418e-10            -1.08e-12             -6.7246e-06          
  0.7                   7.7552e-06            1.5996e-10            8e-14                 -7.7514e-06          
  0.75                  8.752e-06             2.2012e-10            -3.8e-13              -8.7492e-06          
  0.8                   9.7122e-06            2.9722e-10            -8.4e-13              -9.7098e-06          
  0.85                  1.06348e-05           3.9574e-10            -8.8e-13              -1.06312e-05         
  0.9                   1.1524e-05            5.1856e-10            -1.8e-13              -1.1506e-05          
  0.95                  1.2362e-05            6.7118e-10            -3.4e-13              -1.2346e-05          
  1                     1.3158e-05            8.5816e-10            -5.2e-13              -1.3142e-05          
  1.05                  1.3908e-05            1.0866e-09            -4e-13                -1.3892e-05          
  1.1                   1.4614e-05            1.36e-09              -6.6e-13              -1.4598e-05          
  1.15                  1.5276e-05            1.6864e-09            -7.2e-13              -1.526e-05           
  1.2                   1.5892e-05            2.0734e-09            1.38e-12              -1.5876e-05          
  1.25                  1.6466e-05            2.528e-09             -5.4e-13              -1.645e-05           
  1.3                   1.6994e-05            3.059e-09             -2.04e-12             -1.698e-05           
  1.35                  1.7482e-05            3.677e-09             -3.3e-12              -1.7468e-05          
END_DB

BEGIN_DB
 ICCAP_VAR vb         -0.6           
 ICCAP_VAR vd         0.05           
 ICCAP_VAR vs         0              

 #vg                    id                    ig                    ib                    is                   
  -0.5                  2.2e-13               -1.04e-12             -3.78e-12             3.6e-13              
  -0.45                 2e-13                 -4.6e-13              -4.5e-12              2.6e-13              
  -0.4                  2e-13                 -3.6e-13              -4.52e-12             2e-13                
  -0.35                 1e-13                 -1.6e-13              -4.22e-12             1.8e-13              
  -0.3                  4e-14                 -1.6e-13              -3.68e-12             1.6e-13              
  -0.25                 6e-14                 1.4e-13               -2.12e-12             1.6e-13              
  -0.2                  2e-14                 1e-13                 -3.8e-12              8e-14                
  -0.15                 1.2e-13               1.2e-13               -3.76e-12             0                    
  -0.1                  5.6e-13               2.2e-13               -2.78e-12             -4.2e-13             
  -0.05                 3.18e-12              1.2e-13               -2.3e-12              -2.78e-12            
  0                     1.594e-11             2.6e-13               -2.32e-12             -1.6e-11             
  0.05                  8.43e-11              2.8e-13               -2.42e-12             -8.434e-11           
  0.1                   4.394e-10             2.8e-13               -2.86e-12             -4.3906e-10          
  0.15                  2.2402e-09            4.4e-13               -2.4e-12              -2.2384e-09          
  0.2                   1.07442e-08           7.8e-13               -1.88e-12             -1.07364e-08         
  0.25                  4.634e-08             2.04e-12              -7.6e-13              -4.6318e-08          
  0.3                   1.6566e-07            3.9e-12               -2.56e-12             -1.656e-07           
  0.35                  4.7036e-07            7.4e-12               -2.54e-12             -4.7034e-07          
  0.4                   1.04464e-06           1.32e-11              -1.48e-12             -1.04498e-06         
  0.45                  1.8782e-06            2.172e-11             -2.22e-12             -1.874e-06           
  0.5                   2.8726e-06            3.44e-11              -2.1e-12              -2.869e-06           
  0.55                  3.9324e-06            5.232e-11             -1.38e-12             -3.9284e-06          
  0.6                   5.0038e-06            7.75e-11              -1.64e-12             -5e-06               
  0.65                  6.062e-06             1.1156e-10            -2.84e-12             -6.058e-06           
  0.7                   7.0926e-06            1.5704e-10            -1.76e-12             -7.0888e-06          
  0.75                  8.0932e-06            2.167e-10             -1.7e-12              -8.0904e-06          
  0.8                   9.0594e-06            2.9346e-10            -1.04e-12             -9.0542e-06          
  0.85                  9.9894e-06            3.9118e-10            -1.82e-12             -9.9854e-06          
  0.9                   1.08766e-05           5.1346e-10            -2.14e-12             -1.08728e-05         
  0.95                  1.1732e-05            6.6558e-10            -1.56e-12             -1.1716e-05          
  1                     1.2536e-05            8.5212e-10            -2.36e-12             -1.252e-05           
  1.05                  1.3296e-05            1.0796e-09            -1.14e-12             -1.328e-05           
  1.1                   1.401e-05             1.3522e-09            -8.2e-13              -1.3994e-05          
  1.15                  1.468e-05             1.6782e-09            -1.62e-12             -1.4666e-05          
  1.2                   1.5306e-05            2.0646e-09            -2.02e-12             -1.529e-05           
  1.25                  1.5886e-05            2.5178e-09            -1.58e-12             -1.587e-05           
  1.3                   1.6424e-05            3.0484e-09            -2.34e-12             -1.641e-05           
  1.35                  1.692e-05             3.666e-09             -4.14e-12             -1.6906e-05          
END_DB

BEGIN_DB
 ICCAP_VAR vb         -0.9           
 ICCAP_VAR vd         0.05           
 ICCAP_VAR vs         0              

 #vg                    id                    ig                    ib                    is                   
  -0.5                  2e-13                 -8.8e-13              -5.26e-12             4.8e-13              
  -0.45                 1.8e-13               -6e-13                -4.46e-12             3.6e-13              
  -0.4                  1e-13                 -3.6e-13              -4.38e-12             2.8e-13              
  -0.35                 8e-14                 -1.8e-13              -4.92e-12             2.2e-13              
  -0.3                  2e-14                 -1.6e-13              -4.5e-12              2e-13                
  -0.25                 1.2e-13               -2e-14                -3.92e-12             2.4e-13              
  -0.2                  -4e-14                1.6e-13               -3.04e-12             0                    
  -0.15                 0                     1.6e-13               -3.54e-12             -2e-14               
  -0.1                  2.2e-13               2.6e-13               -3.74e-12             -2.2e-13             
  -0.05                 1.08e-12              2.4e-13               -3.06e-12             -1.14e-12            
  0                     6.44e-12              2.6e-13               -2.98e-12             -6.28e-12            
  0.05                  3.474e-11             3.2e-13               -2.54e-12             -3.466e-11           
  0.1                   1.8634e-10            2e-13                 -3.46e-12             -1.8622e-10          
  0.15                  9.8572e-10            3.2e-13               -3.3e-12              -9.8456e-10          
  0.2                   4.9952e-09            6.6e-13               -3.04e-12             -4.9912e-09          
  0.25                  2.339e-08             1.46e-12              -3.14e-12             -2.338e-08           
  0.3                   9.3478e-08            3.34e-12              -2.36e-12             -9.3486e-08          
  0.35                  2.9896e-07            6.66e-12              -3.56e-12             -2.9884e-07          
  0.4                   7.4126e-07            1.22e-11              -2.76e-12             -7.4114e-07          
  0.45                  1.4556e-06            2.048e-11             -1.68e-12             -1.4514e-06          
  0.5                   2.3708e-06            3.284e-11             -2.48e-12             -2.3672e-06          
  0.55                  3.39e-06              5.048e-11             -2.88e-12             -3.3856e-06          
  0.6                   4.4418e-06            7.518e-11             -2.68e-12             -4.4372e-06          
  0.65                  5.4902e-06            1.09e-10              -1.56e-12             -5.4862e-06          
  0.7                   6.5174e-06            1.538e-10             -2.56e-12             -6.5136e-06          
  0.75                  7.5192e-06            2.1316e-10            -2.72e-12             -7.516e-06           
  0.8                   8.4876e-06            2.8926e-10            -2.84e-12             -8.4846e-06          
  0.85                  9.4204e-06            3.8636e-10            -1.2e-12              -9.4174e-06          
  0.9                   1.03144e-05           5.0822e-10            -2.24e-12             -1.03102e-05         
  0.95                  1.11672e-05           6.5944e-10            -3.22e-12             -1.11636e-05         
  1                     1.1986e-05            8.453e-10             -2.44e-12             -1.197e-05           
  1.05                  1.2754e-05            1.072e-09             -1.28e-12             -1.2736e-05          
  1.1                   1.3474e-05            1.344e-09             -1.4e-12              -1.3456e-05          
  1.15                  1.4152e-05            1.6692e-09            -2.74e-12             -1.4136e-05          
  1.2                   1.4784e-05            2.0546e-09            -2.52e-12             -1.4768e-05          
  1.25                  1.5374e-05            2.508e-09             -1.92e-12             -1.5358e-05          
  1.3                   1.5918e-05            3.0374e-09            -1.4e-12              -1.5904e-05          
  1.35                  1.6422e-05            3.6538e-09            -4.4e-12              -1.6408e-05          
END_DB

BEGIN_DB
 ICCAP_VAR vb         -1.2           
 ICCAP_VAR vd         0.05           
 ICCAP_VAR vs         0              

 #vg                    id                    ig                    ib                    is                   
  -0.5                  3.8e-13               -1e-12                -5.92e-12             4.4e-13              
  -0.45                 1e-13                 -4.8e-13              -2.74e-12             1.8e-13              
  -0.4                  1e-13                 -4.6e-13              -4.94e-12             3.6e-13              
  -0.35                 1.8e-13               -1.8e-13              -4.84e-12             2.8e-13              
  -0.3                  1.4e-13               -8e-14                -5.74e-12             1.4e-13              
