! VERSION = 6.00
BEGIN_HEADER
 ICCAP_INPUTS
  vd         V  D GROUND SMU1 0.1 LIN        1    0          1.35       28   0.05      
  vg         V  G GROUND SMU2 0.001 LIST       2 3 0.062 0.262 0.462
  vb         V  B GROUND SMU4 0.1 CON        -1.2
  vs         V  S GROUND SMU3 0.1 CON        0
 ICCAP_OUTPUTS
  id         I  D GROUND SMU1 B
  ig         I  G GROUND SMU2 B
  ib         I  B GROUND SMU4 B
  is         I  S GROUND SMU3 B
 ICCAP_VALUES
  MASTER_SETUP_TYPE "~dc_idvd~"
  LINVT_VALUE ""
  LISTVT_VALUE "|idvg|100.0n|-200.0m|1.000m|3|200.0m|200.0m|"
  TYPE "1"
  TEMP " 27.0000 "
  IS_TNOM " 1.00000 "
  MAIN.W "150.0n"
  MAIN.L "10.00u"
  MAIN.AD "100.5f"
  MAIN.AS "100.5f"
  MAIN.PD "1.340u"
  MAIN.PS "1.340u"
  MAIN.NF "1.000"
  MAIN.M "1"
  MAIN.NRD "0.000"
  MAIN.NRS "0.000"
  MAIN.LDRIFT1 "1E-06"
  MAIN.LDRIFT2 "1E-06"
  MAIN.SA "0.000"
  MAIN.SB "0.000"
  MAIN.SD "0.000"
  MAIN.SCA "0.000"
  MAIN.SCB "0.000"
  MAIN.SCC "0.000"
  MAIN.SC "0.000"
  MODULE "S547"
  PIN_D "16"
  PIN_G "5"
  PIN_S "6"
  PIN_B "15"
  PIN_E ""
  PIN_6 ""
  XY_ID ""
  FUNC "Narrow"
  STI "SA ref"
  WPE "WPE ref"
  COMMENT ""
  DIS_MEAS ""
  TypeTCI "10"
END_HEADER

BEGIN_DB
 ICCAP_VAR vg         0.062          
 ICCAP_VAR vb         -1.2           
 ICCAP_VAR vs         0              

 #vd                    id                    ig                    ib                    is                   
  0                     -2e-14                -6e-14                -5.66e-12             2e-14                
  0.05                  2.02e-12              -2e-13                -6e-12                -1.54e-12            
  0.1                   2.28e-12              -1.6e-13              -4.64e-12             -1.92e-12            
  0.15                  2.34e-12              -1.6e-13              -5.62e-12             -1.96e-12            
  0.2                   2.5e-12               -2e-13                -4.66e-12             -1.94e-12            
  0.25                  2.62e-12              -1.2e-13              -4.72e-12             -2.06e-12            
  0.3                   2.6e-12               -2.6e-13              -3.94e-12             -2.14e-12            
  0.35                  2.6e-12               -4e-14                -2.88e-12             -2.14e-12            
  0.4                   2.6e-12               -1.4e-13              -3.64e-12             -2.16e-12            
  0.45                  2.8e-12               -2.2e-13              -6.2e-12              -2e-12               
  0.5                   2.66e-12              -2e-13                -3.44e-12             -2.08e-12            
  0.55                  2.88e-12              -1.2e-13              -2.22e-12             -2.1e-12             
  0.6                   2.78e-12              -1.4e-13              -2.1e-12              -2.14e-12            
  0.65                  2.94e-12              -1.8e-13              -3.28e-12             -2.36e-12            
  0.7                   3e-12                 -2e-13                -2.92e-12             -2.1e-12             
  0.75                  2.9e-12               -2.2e-13              -3.28e-12             -2.18e-12            
  0.8                   3.06e-12              -1.6e-13              -1.62e-12             -2.34e-12            
  0.85                  3.16e-12              -3.2e-13              -1.8e-12              -2.12e-12            
  0.9                   3.36e-12              -4e-13                -2.5e-12              -2.12e-12            
  0.95                  3.34e-12              -4e-13                -2.3e-12              -2.32e-12            
  1                     3.42e-12              -5.4e-13              -2.48e-12             -2.12e-12            
  1.05                  3.64e-12              -6.8e-13              -1.78e-12             -2.24e-12            
  1.1                   3.76e-12              -7.8e-13              -1.5e-12              -2.08e-12            
  1.15                  3.86e-12              -7.6e-13              -2.66e-12             -2.26e-12            
  1.2                   3.86e-12              -8.8e-13              -2.08e-12             -2.12e-12            
  1.25                  4.06e-12              -1.14e-12             -1.88e-12             -2.2e-12             
  1.3                   4.2e-12               -1.34e-12             -1.84e-12             -2.26e-12            
  1.35                  4.36e-12              -1.2e-12              -9.4e-13              -2.26e-12            
END_DB

BEGIN_DB
 ICCAP_VAR vg         0.262          
 ICCAP_VAR vb         -1.2           
 ICCAP_VAR vs         0              

 #vd                    id                    ig                    ib                    is                   
  0                     1.96e-12              8.8e-13               -6e-13                -2.82e-12            
  0.05                  1.21e-09              6e-13                 -2.5e-12              -1.2096e-09          
  0.1                   1.4778e-09            5.2e-13               -6.8e-13              -1.4758e-09          
  0.15                  1.5406e-09            3.8e-13               -7.6e-13              -1.5418e-09          
  0.2                   1.5726e-09            3.6e-13               -1.72e-12             -1.5674e-09          
  0.25                  1.5926e-09            4.2e-13               -1.8e-13              -1.5904e-09          
  0.3                   1.6114e-09            2.8e-13               -1.92e-12             -1.6078e-09          
  0.35                  1.6278e-09            2.8e-13               -1.26e-12             -1.6228e-09          
  0.4                   1.6404e-09            4.6e-13               -9.8e-13              -1.6388e-09          
  0.45                  1.6506e-09            3.2e-13               -1.62e-12             -1.65e-09            
  0.5                   1.6632e-09            4.6e-13               -1.14e-12             -1.6614e-09          
  0.55                  1.668e-09             3.2e-13               -1.7e-12              -1.6704e-09          
  0.6                   1.6798e-09            4.2e-13               -6.2e-13              -1.6788e-09          
  0.65                  1.6874e-09            3.4e-13               -6.6e-13              -1.6856e-09          
  0.7                   1.6944e-09            2.6e-13               -2.22e-12             -1.6926e-09          
  0.75                  1.7004e-09            3.2e-13               -1.86e-12             -1.6992e-09          
  0.8                   1.7072e-09            2.2e-13               -1.44e-12             -1.7046e-09          
  0.85                  1.7104e-09            3.2e-13               -3e-13                -1.7084e-09          
  0.9                   1.7154e-09            2.2e-13               -6.6e-13              -1.7128e-09          
  0.95                  1.7182e-09            1.2e-13               -2.46e-12             -1.7158e-09          
  1                     1.7216e-09            1.8e-13               -1.82e-12             -1.7202e-09          
  1.05                  1.7252e-09            0                     -1.46e-12             -1.723e-09           
  1.1                   1.7284e-09            -1.2e-13              -1.04e-12             -1.725e-09           
  1.15                  1.7312e-09            -2e-13                -8e-13                -1.7272e-09          
  1.2                   1.732e-09             -3.4e-13              -1.64e-12             -1.731e-09           
  1.25                  1.736e-09             -3.2e-13              -1.94e-12             -1.7316e-09          
  1.3                   1.7376e-09            -3.2e-13              -1.32e-12             -1.7334e-09          
  1.35                  1.7396e-09            -5e-13                -6.4e-13              -1.7358e-09          
END_DB

BEGIN_DB
 ICCAP_VAR vg         0.462          
 ICCAP_VAR vb         -1.2           
 ICCAP_VAR vs         0              

 #vd                    id                    ig                    ib                    is                   
  0                     4.868e-11             1.246e-11             -3.2e-13              -6.252e-11           
  0.05                  3.6148e-08            9.86e-12              -1.54e-12             -3.6142e-08          
  0.1                   5.9182e-08            8.22e-12              -1.9e-12              -5.9184e-08          
  0.15                  7.0578e-08            7.6e-12               -8.6e-13              -7.0572e-08          
  0.2                   7.486e-08             7.02e-12              -1.26e-12             -7.4862e-08          
  0.25                  7.6682e-08            7.08e-12              -1.76e-12             -7.6478e-08          
  0.3                   7.7648e-08            7.02e-12              -9.6e-13              -7.7656e-08          
  0.35                  7.8576e-08            6.92e-12              -1.16e-12             -7.861e-08           
  0.4                   7.9636e-08            6.98e-12              -7.2e-13              -7.9572e-08          
  0.45                  8.0364e-08            6.86e-12              -1.3e-12              -8.0338e-08          
  0.5                   8.107e-08             6.7e-12               -2.46e-12             -8.1082e-08          
  0.55                  8.176e-08             6.68e-12              -1.24e-12             -8.1748e-08          
  0.6                   8.233e-08             6.64e-12              -1.12e-12             -8.2364e-08          
  0.65                  8.2926e-08            6.72e-12              -1.32e-12             -8.2892e-08          
  0.7                   8.3512e-08            6.62e-12              -1.58e-12             -8.3462e-08          
  0.75                  8.4012e-08            6.58e-12              -1.4e-12              -8.4006e-08          
  0.8                   8.4494e-08            6.46e-12              -8.4e-13              -8.4478e-08          
  0.85                  8.4854e-08            6.62e-12              -1.2e-12              -8.4814e-08          
  0.9                   8.521e-08             6.42e-12              -2.02e-12             -8.5326e-08          
  0.95                  8.5736e-08            6.34e-12              -1.78e-12             -8.5686e-08          
  1                     8.6068e-08            6.26e-12              -1.74e-12             -8.6112e-08          
  1.05                  8.6456e-08            6.22e-12              -1.6e-12              -8.6486e-08          
  1.1                   8.6796e-08            6.22e-12              -1.48e-12             -8.6778e-08          
  1.15                  8.7076e-08            6.06e-12              -2.4e-12              -8.7086e-08          
  1.2                   8.7332e-08            6.12e-12              -4.18e-12             -8.7326e-08          
  1.25                  8.762e-08             6.08e-12              -4.8e-13              -8.7578e-08          
  1.3                   8.7848e-08            5.94e-12              -2.4e-12              -8.7882e-08          
  1.35                  8.8102e-08            5.9e-12               -2.4e-12              -8.8072e-08          
END_DB

