! VERSION = 6.00
BEGIN_HEADER
 ICCAP_INPUTS
  vd         V  D GROUND SMU1 0.1 LIN        1    0          1.35       28   0.05      
  vg         V  G GROUND SMU2 0.001 LIN        2    0.366      1.35       5    0.246     
  vb         V  B GROUND SMU4 0.1 CON        -1.2
  vs         V  S GROUND SMU3 0.1 CON        0
 ICCAP_OUTPUTS
  id         I  D GROUND SMU1 B
  ig         I  G GROUND SMU2 B
  ib         I  B GROUND SMU4 B
  is         I  S GROUND SMU3 B
 ICCAP_VALUES
  MASTER_SETUP_TYPE "~dc_idvd~"
  LINVT_VALUE "|idvg|100.0n|100.0m|1.000m|5|1.350|"
  LISTVT_VALUE ""
  TYPE "1"
  TEMP " 27.0000 "
  IS_TNOM " 1.00000 "
  MAIN.W "5.000u"
  MAIN.L "5.000u"
  MAIN.AD "1.700p"
  MAIN.AS "1.700p"
  MAIN.PD "10.68u"
  MAIN.PS "10.68u"
  MAIN.NF "1.000"
  MAIN.M "1"
  MAIN.NRD "0.000"
  MAIN.NRS "0.000"
  MAIN.LDRIFT1 "1E-06"
  MAIN.LDRIFT2 "1E-06"
  MAIN.SA "0.000"
  MAIN.SB "0.000"
  MAIN.SD "0.000"
  MAIN.SCA "0.000"
  MAIN.SCB "0.000"
  MAIN.SCC "0.000"
  MAIN.SC "0.000"
  MODULE "S542"
  PIN_D "18"
  PIN_G "3"
  PIN_S "4"
  PIN_B "17"
  PIN_E ""
  PIN_6 ""
  XY_ID ""
  FUNC "LW Scale"
  STI "SA ref"
  WPE "WPE ref"
  COMMENT ""
  DIS_MEAS ""
  TypeTCI "10"
END_HEADER

BEGIN_DB
 ICCAP_VAR vg         0.366          
 ICCAP_VAR vb         -1.2           
 ICCAP_VAR vs         0              

 #vd                    id                    ig                    ib                    is                   
  0                     1.5606e-09            6.406e-11             -1.428e-11            -1.1536e-09          
  0.05                  6.7962e-07            5.016e-11             -1.344e-11            -6.7986e-07          
  0.1                   9.1552e-07            4.492e-11             -1.2e-11              -9.1578e-07          
  0.15                  9.9652e-07            4.308e-11             -1.184e-11            -9.9642e-07          
  0.2                   1.03962e-06           4.218e-11             -1.21e-11             -1.03976e-06         
  0.25                  1.0729e-06            4.118e-11             -1.102e-11            -1.07326e-06         
  0.3                   1.10304e-06           4.048e-11             -1.33e-11             -1.10284e-06         
  0.35                  1.12994e-06           3.998e-11             -1.048e-11            -1.1301e-06          
  0.4                   1.1566e-06            3.95e-11              -9.58e-12             -1.1551e-06          
  0.45                  1.1808e-06            3.886e-11             -7.56e-12             -1.1772e-06          
  0.5                   1.2032e-06            3.824e-11             -8.4e-12              -1.1998e-06          
  0.55                  1.2242e-06            3.768e-11             -7.54e-12             -1.221e-06           
  0.6                   1.245e-06             3.712e-11             -7.34e-12             -1.241e-06           
  0.65                  1.2634e-06            3.668e-11             -8.66e-12             -1.2602e-06          
  0.7                   1.2814e-06            3.62e-11              -6.98e-12             -1.278e-06           
  0.75                  1.2986e-06            3.572e-11             -6.82e-12             -1.2948e-06          
  0.8                   1.3142e-06            3.526e-11             -7.38e-12             -1.3108e-06          
  0.85                  1.3296e-06            3.464e-11             -5.72e-12             -1.3258e-06          
  0.9                   1.344e-06             3.406e-11             -6.88e-12             -1.34e-06            
  0.95                  1.3576e-06            3.35e-11              -6.94e-12             -1.3538e-06          
  1                     1.3704e-06            3.278e-11             -6.26e-12             -1.3666e-06          
  1.05                  1.3822e-06            3.222e-11             -7.78e-12             -1.3786e-06          
  1.1                   1.3936e-06            3.128e-11             -9.8e-12              -1.3896e-06          
  1.15                  1.4042e-06            3.058e-11             -1.094e-11            -1.4002e-06          
  1.2                   1.414e-06             2.974e-11             -1.708e-11            -1.4102e-06          
  1.25                  1.4236e-06            2.86e-11              -2.886e-11            -1.4198e-06          
  1.3                   1.4326e-06            2.77e-11              -4.516e-11            -1.4292e-06          
  1.35                  1.4414e-06            2.642e-11             -7.4e-11              -1.4376e-06          
END_DB

BEGIN_DB
 ICCAP_VAR vg         0.612          
 ICCAP_VAR vb         -1.2           
 ICCAP_VAR vs         0              

 #vd                    id                    ig                    ib                    is                   
  0                     3.3056e-09            6.2798e-10            -3.62e-12             -5.2504e-09          
  0.05                  5.3562e-06            5.2644e-10            -2.92e-12             -5.3522e-06          
  0.1                   9.5304e-06            4.5206e-10            -4.06e-12             -9.5272e-06          
  0.15                  1.2496e-05            4.0214e-10            -2.92e-12             -1.2478e-05          
  0.2                   1.429e-05             3.7274e-10            -4.36e-12             -1.4272e-05          
  0.25                  1.5198e-05            3.5802e-10            -3.66e-12             -1.518e-05           
  0.3                   1.564e-05             3.5076e-10            -3.04e-12             -1.5624e-05          
  0.35                  1.5902e-05            3.4654e-10            -4.28e-12             -1.5888e-05          
  0.4                   1.6104e-05            3.434e-10             -4.14e-12             -1.6088e-05          
  0.45                  1.6278e-05            3.4078e-10            -3.5e-12              -1.626e-05           
  0.5                   1.6434e-05            3.385e-10             -3.9e-12              -1.6414e-05          
  0.55                  1.6576e-05            3.3608e-10            -3.6e-12              -1.656e-05           
  0.6                   1.6712e-05            3.3402e-10            -3.02e-12             -1.6694e-05          
  0.65                  1.6838e-05            3.321e-10             -3.72e-12             -1.6822e-05          
  0.7                   1.696e-05             3.302e-10             -3.66e-12             -1.6942e-05          
  0.75                  1.7074e-05            3.2846e-10            -2.38e-12             -1.7058e-05          
  0.8                   1.7184e-05            3.2672e-10            -3.8e-12              -1.7166e-05          
  0.85                  1.729e-05             3.249e-10             -2.8e-12              -1.7272e-05          
  0.9                   1.7388e-05            3.234e-10             -2.36e-12             -1.737e-05           
  0.95                  1.7482e-05            3.2178e-10            -3.66e-12             -1.7466e-05          
  1                     1.7576e-05            3.2052e-10            -3e-12                -1.7558e-05          
  1.05                  1.7662e-05            3.1892e-10            -3.02e-12             -1.7644e-05          
  1.1                   1.7746e-05            3.1746e-10            -3.88e-12             -1.773e-05           
  1.15                  1.7826e-05            3.1602e-10            -4.22e-12             -1.781e-05           
  1.2                   1.7904e-05            3.1444e-10            -7e-12                -1.7886e-05          
  1.25                  1.7978e-05            3.1318e-10            -1.36e-11             -1.796e-05           
  1.3                   1.805e-05             3.1148e-10            -2.808e-11            -1.8032e-05          
  1.35                  1.8116e-05            3.1026e-10            -5.86e-11             -1.8098e-05          
END_DB

BEGIN_DB
 ICCAP_VAR vg         0.858          
 ICCAP_VAR vb         -1.2           
 ICCAP_VAR vs         0              

 #vd                    id                    ig                    ib                    is                   
  0                     1.4236e-08            2.965e-09             -1.56e-12             -1.6468e-08          
  0.05                  1.0286e-05            2.5946e-09            -2.7e-12              -1.0272e-05          
  0.1                   1.9528e-05            2.2874e-09            -2.26e-12             -1.9512e-05          
  0.15                  2.7684e-05            2.0362e-09            -2.86e-12             -2.7668e-05          
  0.2                   3.47e-05              1.835e-09             -3.22e-12             -3.4684e-05          
  0.25                  4.0528e-05            1.6784e-09            -2.2e-12              -4.0512e-05          
  0.3                   4.5106e-05            1.5618e-09            -2.94e-12             -4.509e-05           
  0.35                  4.8412e-05            1.481e-09             -2.94e-12             -4.8396e-05          
  0.4                   5.0544e-05            1.4306e-09            -2.42e-12             -5.053e-05           
  0.45                  5.1778e-05            1.4018e-09            -2.44e-12             -5.1766e-05          
  0.5                   5.2492e-05            1.3848e-09            -3.52e-12             -5.2478e-05          
  0.55                  5.2954e-05            1.3746e-09            -1.52e-12             -5.2944e-05          
  0.6                   5.331e-05             1.3664e-09            -2.22e-12             -5.3294e-05          
  0.65                  5.3608e-05            1.3596e-09            -3.3e-12              -5.3594e-05          
  0.7                   5.3882e-05            1.3536e-09            -2.72e-12             -5.3862e-05          
  0.75                  5.413e-05             1.3482e-09            -2.98e-12             -5.4108e-05          
  0.8                   5.4354e-05            1.3428e-09            -2.96e-12             -5.4344e-05          
  0.85                  5.458e-05             1.338e-09             -1.74e-12             -5.4562e-05          
  0.9                   5.4782e-05            1.3334e-09            -2.24e-12             -5.477e-05           
  0.95                  5.4982e-05            1.3292e-09            -2.86e-12             -5.497e-05           
  1                     5.5172e-05            1.3248e-09            -1.9e-12              -5.5158e-05          
  1.05                  5.5354e-05            1.321e-09             -1.66e-12             -5.5338e-05          
  1.1                   5.5526e-05            1.317e-09             -3.32e-12             -5.551e-05           
  1.15                  5.5692e-05            1.3136e-09            -1.92e-12             -5.5674e-05          
  1.2                   5.5856e-05            1.3098e-09            -2.08e-12             -5.584e-05           
  1.25                  5.6008e-05            1.3064e-09            -3.36e-12             -5.5994e-05          
  1.3                   5.6156e-05            1.303e-09             -3.62e-12             -5.6138e-05          
  1.35                  5.63e-05              1.2998e-09            -4.72e-12             -5.6284e-05          
END_DB

BEGIN_DB
 ICCAP_VAR vg         1.104          
 ICCAP_VAR vb         -1.2           
 ICCAP_VAR vs         0              

 #vd                    id                    ig                    ib                    is                   
  0                     1.7092e-08            9.7506e-09            -1.74e-12             -2.6168e-08          
  0.05                  1.4316e-05            8.766e-09             -2.52e-12             -1.4306e-05          
  0.1                   2.781e-05             7.9048e-09            -9.8e-13              -2.78e-05            
  0.15                  4.0438e-05            7.1594e-09            -2.44e-12             -4.0428e-05          
  0.2                   5.2138e-05            6.5178e-09            -2.66e-12             -5.2126e-05          
  0.25                  6.287e-05             5.9704e-09            -1.72e-12             -6.286e-05           
  0.3                   7.2578e-05            5.508e-09             -2.72e-12             -7.2564e-05          
  0.35                  8.12e-05              5.1226e-09            -2.06e-12             -8.1188e-05          
  0.4                   8.8688e-05            4.8066e-09            -1.24e-12             -8.8676e-05          
  0.45                  9.497e-05             4.5552e-09            -2.46e-12             -9.4958e-05          
  0.5                   0.000100016           4.362e-09             -4.42e-12             -0.000100004         
  0.55                  0.000103798           4.2224e-09            -1.36e-12             -0.000103786         
  0.6                   0.0001064             4.1288e-09            -2.86e-12             -0.000106384         
  0.65                  0.000108058           4.0698e-09            -2.68e-12             -0.000108046         
  0.7                   0.000109092           4.0334e-09            -2.04e-12             -0.000109078         
  0.75                  0.000109784           4.0088e-09            -1.98e-12             -0.00010977          
  0.8                   0.000110298           3.9914e-09            -2.46e-12             -0.000110288         
  0.85                  0.000110728           3.9764e-09            -1.98e-12             -0.000110716         
  0.9                   0.000111106           3.9634e-09            -2.46e-12             -0.000111096         
  0.95                  0.000111452           3.9518e-09            -3.08e-12             -0.00011144          
  1                     0.000111774           3.941e-09             -1.5e-12              -0.000111762         
  1.05                  0.000112072           3.931e-09             -1.86e-12             -0.000112062         
  1.1                   0.000112356           3.9212e-09            -2.64e-12             -0.000112348         
  1.15                  0.000112632           3.912e-09             -1.16e-12             -0.00011262          
  1.2                   0.00011289            3.9032e-09            -1.4e-12              -0.000112884         
  1.25                  0.000113144           3.8946e-09            -2.72e-12             -0.00011313          
  1.3                   0.000113378           3.8866e-09            -2.52e-12             -0.000113372         
  1.35                  0.00011361            3.8792e-09            -1.88e-12             -0.000113604         
END_DB

BEGIN_DB
 ICCAP_VAR vg         1.35           
 ICCAP_VAR vb         -1.2           
 ICCAP_VAR vs         0              

 #vd                    id                    ig                    ib                    is                   
  0                     1.3234e-08            2.5598e-08            -2.68e-11             -3.7564e-08          
  0.05                  1.724e-05             2.3424e-08            -1.998e-11            -1.7246e-05          
  0.1                   3.39e-05              2.147e-08             -1.592e-11            -3.3904e-05          
  0.15                  4.9928e-05            1.9722e-08            -1.278e-11            -4.993e-05           
  0.2                   6.5262e-05            1.817e-08             -9.94e-12             -6.5264e-05          
  0.25                  7.9868e-05            1.6792e-08            -9.22e-12             -7.987e-05           
  0.3                   9.369e-05             1.5576e-08            -8.26e-12             -9.3688e-05          
  0.35                  0.000106666           1.4504e-08            -6.98e-12             -0.000106666         
  0.4                   0.00011888            1.357e-08             -6.08e-12             -0.0001185           
  0.45                  0.00013002            1.2762e-08            -6.26e-12             -0.00012964          
  0.5                   0.00014014            1.2066e-08            -6.14e-12             -0.00013976          
  0.55                  0.00014922            1.1472e-08            -4.76e-12             -0.00014884          
  0.6                   0.00015718            1.098e-08             -5.2e-12              -0.00015682          
  0.65                  0.00016398            1.0578e-08            -5.94e-12             -0.0001636           
  0.7                   0.00016954            1.026e-08             -4.84e-12             -0.00016916          
  0.75                  0.00017386            1.002e-08             -4.66e-12             -0.00017348          
  0.8                   0.000177              9.8452e-09            -5.4e-12              -0.00017662          
  0.85                  0.00017914            9.733e-09             -4e-12                -0.00017876          
  0.9                   0.00018056            9.659e-09             -5.94e-12             -0.00018018          
  0.95                  0.00018154            9.6076e-09            -4.9e-12              -0.00018116          
  1                     0.00018222            9.572e-09             -3.94e-12             -0.00018184          
  1.05                  0.0001828             9.5424e-09            -5.42e-12             -0.00018242          
  1.1                   0.00018328            9.517e-09             -4.28e-12             -0.0001829           
  1.15                  0.00018372            9.494e-09             -4.28e-12             -0.00018334          
  1.2                   0.00018412            9.4742e-09            -5.88e-12             -0.00018376          
  1.25                  0.0001845             9.4548e-09            -4.62e-12             -0.00018412          
  1.3                   0.00018486            9.4366e-09            -4.44e-12             -0.0001845           
  1.35                  0.0001852             9.4192e-09            -5.2e-12              -0.00018482          
END_DB

