! VERSION = 6.00
BEGIN_HEADER
 ICCAP_INPUTS
  vd         V  D GROUND SMU1 0.1 LIN        1    0          1.35       28   0.05      
  vg         V  G GROUND SMU2 0.001 LIST       2 3 0.046 0.246 0.446
  vb         V  B GROUND SMU4 0.1 CON        0
  vs         V  S GROUND SMU3 0.1 CON        0
 ICCAP_OUTPUTS
  id         I  D GROUND SMU1 B
  ig         I  G GROUND SMU2 B
  ib         I  B GROUND SMU4 B
  is         I  S GROUND SMU3 B
 ICCAP_VALUES
  MASTER_SETUP_TYPE "~dc_idvd~"
  LINVT_VALUE ""
  LISTVT_VALUE "|idvg|100.0n|-200.0m|1.000m|3|200.0m|200.0m|"
  TYPE "1"
  TEMP " 125.000 "
  IS_TNOM " 0.00000 "
  MAIN.W "10.00u"
  MAIN.L "180.0n"
  MAIN.AD "3.400p"
  MAIN.AS "3.400p"
  MAIN.PD "20.68u"
  MAIN.PS "20.68u"
  MAIN.NF "1.000"
  MAIN.M "1"
  MAIN.NRD "0.000"
  MAIN.NRS "0.000"
  MAIN.LDRIFT1 "1E-06"
  MAIN.LDRIFT2 "1E-06"
  MAIN.SA "0.000"
  MAIN.SB "0.000"
  MAIN.SD "0.000"
  MAIN.SCA "0.000"
  MAIN.SCB "0.000"
  MAIN.SCC "0.000"
  MAIN.SC "0.000"
  MODULE "S540"
  PIN_D "12"
  PIN_G "9"
  PIN_S "10"
  PIN_B "11"
  PIN_E ""
  PIN_6 ""
  XY_ID ""
  FUNC "L Scale"
  STI "SA ref"
  WPE "WPE ref"
  COMMENT ""
  DIS_MEAS ""
  TypeTCI "10"
END_HEADER

BEGIN_DB
 ICCAP_VAR vg         0.046          
 ICCAP_VAR vb         0              
 ICCAP_VAR vs         0              

 #vd                    id                    ig                    ib                    is                   
  0                     1.7666e-10            -2.6e-13              3.42e-12              -1.2792e-10          
  0.05                  4.66e-08              -3.6e-13              3.8e-13               -4.6594e-08          
  0.1                   5.9606e-08            -3.2e-13              8.2e-13               -5.9606e-08          
  0.15                  6.436e-08             -3e-13                1.3e-12               -6.4346e-08          
  0.2                   6.7028e-08            -3.6e-13              4e-14                 -6.6996e-08          
  0.25                  6.9166e-08            -5.6e-13              -1.6e-13              -6.9174e-08          
  0.3                   7.1136e-08            -7.2e-13              2.4e-13               -7.1138e-08          
  0.35                  7.3036e-08            -5.8e-13              8e-13                 -7.3024e-08          
  0.4                   7.4872e-08            -8.6e-13              -3.8e-13              -7.4852e-08          
  0.45                  7.6662e-08            -1.02e-12             -1.18e-12             -7.6684e-08          
  0.5                   7.8462e-08            -1.4e-12              -7.4e-13              -7.8426e-08          
  0.55                  8.018e-08             -1.94e-12             -2.4e-13              -8.0186e-08          
  0.6                   8.1902e-08            -2.48e-12             -1.76e-12             -8.1872e-08          
  0.65                  8.3602e-08            -2.94e-12             -1.36e-12             -8.3602e-08          
  0.7                   8.53e-08              -3.8e-12              -2e-12                -8.5244e-08          
  0.75                  8.695e-08             -4.68e-12             -9.4e-13              -8.6922e-08          
  0.8                   8.8544e-08            -5.7e-12              -2.06e-12             -8.8534e-08          
  0.85                  9.0138e-08            -7.1e-12              -3.6e-12              -9.0146e-08          
  0.9                   9.1792e-08            -8.62e-12             -3.76e-12             -9.173e-08           
  0.95                  9.3342e-08            -1.024e-11            -4.4e-12              -9.33e-08            
  1                     9.4928e-08            -1.238e-11            -7.24e-12             -9.4832e-08          
  1.05                  9.6408e-08            -1.456e-11            -1.068e-11            -9.6432e-08          
  1.1                   9.796e-08             -1.716e-11            -1.532e-11            -9.799e-08           
  1.15                  9.9498e-08            -2.026e-11            -2.02e-11             -9.9454e-08          
  1.2                   1.0107e-07            -2.336e-11            -2.892e-11            -1.00996e-07         
  1.25                  1.02508e-07           -2.706e-11            -4.116e-11            -1.02488e-07         
  1.3                   1.04052e-07           -3.152e-11            -5.656e-11            -1.03966e-07         
  1.35                  1.05532e-07           -3.606e-11            -7.478e-11            -1.05424e-07         
END_DB

BEGIN_DB
 ICCAP_VAR vg         0.246          
 ICCAP_VAR vb         0              
 ICCAP_VAR vs         0              

 #vd                    id                    ig                    ib                    is                   
  0                     3.5896e-09            1.3e-12               1.14e-12              -5.1592e-09          
  0.05                  3.4606e-06            9.6e-13               3.2e-13               -3.4552e-06          
  0.1                   4.6068e-06            8e-13                 -6.8e-13              -4.6048e-06          
  0.15                  5.0552e-06            6.8e-13               4e-14                 -5.0526e-06          
  0.2                   5.3056e-06            7.2e-13               1.8e-13               -5.3018e-06          
  0.25                  5.4964e-06            7.4e-13               -8.4e-13              -5.493e-06           
  0.3                   5.6644e-06            7.2e-13               1.2e-13               -5.6626e-06          
  0.35                  5.8248e-06            6.2e-13               -1.1e-12              -5.823e-06           
  0.4                   5.9784e-06            5.6e-13               -1.88e-12             -5.9768e-06          
  0.45                  6.1286e-06            5.4e-13               -2.8e-13              -6.1246e-06          
  0.5                   6.2714e-06            4.6e-13               -1.52e-12             -6.2686e-06          
  0.55                  6.411e-06             1.8e-13               -2.1e-12              -6.4074e-06          
  0.6                   6.5486e-06            2e-14                 -1.18e-12             -6.5438e-06          
  0.65                  6.6812e-06            -3.2e-13              -2.32e-12             -6.6776e-06          
  0.7                   6.8116e-06            -5.6e-13              -2.58e-12             -6.8074e-06          
  0.75                  6.9398e-06            -8.8e-13              -1.9e-12              -6.9348e-06          
  0.8                   7.0644e-06            -1.52e-12             -4.96e-12             -7.0616e-06          
  0.85                  7.1878e-06            -2.16e-12             -7.72e-12             -7.1838e-06          
  0.9                   7.3084e-06            -2.92e-12             -1.284e-11            -7.305e-06           
  0.95                  7.427e-06             -3.76e-12             -2.758e-11            -7.4252e-06          
  1                     7.5444e-06            -5.02e-12             -5.296e-11            -7.5416e-06          
  1.05                  7.6596e-06            -6.28e-12             -9.62e-11             -7.6564e-06          
  1.1                   7.7722e-06            -7.78e-12             -1.7432e-10           -7.7688e-06          
  1.15                  7.8828e-06            -9.34e-12             -2.9796e-10           -7.8806e-06          
  1.2                   7.9946e-06            -1.15e-11             -4.9172e-10           -7.9918e-06          
  1.25                  8.1026e-06            -1.376e-11            -7.8062e-10           -8.0984e-06          
  1.3                   8.2128e-06            -1.608e-11            -1.1956e-09           -8.2086e-06          
  1.35                  8.3204e-06            -1.92e-11             -1.7802e-09           -8.3142e-06          
END_DB

BEGIN_DB
 ICCAP_VAR vg         0.446          
 ICCAP_VAR vb         0              
 ICCAP_VAR vs         0              

 #vd                    id                    ig                    ib                    is                   
  0                     1.04556e-07           1.322e-11             1.8e-13               -9.6326e-08          
  0.05                  5.3796e-05            1.066e-11             -1.6e-12              -5.3762e-05          
  0.1                   8.4754e-05            9e-12                 -1.36e-12             -8.4792e-05          
  0.15                  0.000101314           8.04e-12              -2.4e-13              -0.00010132          
  0.2                   0.00011019            7.42e-12              -1.54e-12             -0.000110194         
  0.25                  0.00011574            6.88e-12              -1.9e-12              -0.000115618         
  0.3                   0.0001197             6.82e-12              -1.26e-12             -0.00011938          
  0.35                  0.00012298            6.78e-12              -1.08e-12             -0.00012266          
  0.4                   0.0001259             6.58e-12              -1.52e-12             -0.00012556          
  0.45                  0.00012858            6.52e-12              -1.16e-12             -0.00012824          
  0.5                   0.00013114            6.44e-12              -2.16e-12             -0.0001308           
  0.55                  0.00013356            6.28e-12              -2.64e-12             -0.00013324          
  0.6                   0.0001359             6.1e-12               -1.68e-12             -0.00013562          
  0.65                  0.00013822            6.18e-12              -2.04e-12             -0.0001379           
  0.7                   0.00014038            6.1e-12               -2.74e-12             -0.00014002          
  0.75                  0.00014254            5.68e-12              -3.2e-12              -0.0001422           
  0.8                   0.00014462            5.5e-12               -6.12e-12             -0.00014432          
  0.85                  0.00014668            5.2e-12               -1.11e-11             -0.00014636          
  0.9                   0.00014864            4.76e-12              -2.41e-11             -0.00014836          
  0.95                  0.00015062            4.34e-12              -5.488e-11            -0.00015032          
  1                     0.00015254            3.78e-12              -1.2122e-10           -0.00015218          
  1.05                  0.0001544             3.08e-12              -2.6228e-10           -0.00015406          
  1.1                   0.00015624            2.28e-12              -5.418e-10            -0.00015594          
  1.15                  0.00015808            1.48e-12              -1.06478e-09          -0.00015774          
  1.2                   0.00015982            2e-13                 -1.9974e-09           -0.00015952          
  1.25                  0.0001616             -1.08e-12             -3.57e-09             -0.00016128          
  1.3                   0.00016334            -2.48e-12             -6.108e-09            -0.00016302          
  1.35                  0.0001651             -4.5e-12              -1.00224e-08          -0.0001647           
END_DB

