! VERSION = 6.00
BEGIN_HEADER
 ICCAP_INPUTS
  vd         V  D GROUND SMU1 0.1 LIN        1    0          1.35       28   0.05      
  vg         V  G GROUND SMU2 0.001 LIN        2    0.394      1.35       5    0.239     
  vb         V  B GROUND SMU4 0.1 CON        -1.2
  vs         V  S GROUND SMU3 0.1 CON        0
 ICCAP_OUTPUTS
  id         I  D GROUND SMU1 B
  ig         I  G GROUND SMU2 B
  ib         I  B GROUND SMU4 B
  is         I  S GROUND SMU3 B
 ICCAP_VALUES
  MASTER_SETUP_TYPE "~dc_idvd~"
  LINVT_VALUE "|idvg|100.0n|100.0m|1.000m|5|1.350|"
  LISTVT_VALUE ""
  TYPE "1"
  TEMP " 27.0000 "
  IS_TNOM " 1.00000 "
  MAIN.W "300.0n"
  MAIN.L "10.00u"
  MAIN.AD "102.0f"
  MAIN.AS "102.0f"
  MAIN.PD "1.280u"
  MAIN.PS "1.280u"
  MAIN.NF "1.000"
  MAIN.M "1"
  MAIN.NRD "0.000"
  MAIN.NRS "0.000"
  MAIN.LDRIFT1 "1E-06"
  MAIN.LDRIFT2 "1E-06"
  MAIN.SA "0.000"
  MAIN.SB "0.000"
  MAIN.SD "0.000"
  MAIN.SCA "0.000"
  MAIN.SCB "0.000"
  MAIN.SCC "0.000"
  MAIN.SC "0.000"
  MODULE "S545"
  PIN_D "18"
  PIN_G "3"
  PIN_S "4"
  PIN_B "17"
  PIN_E ""
  PIN_6 ""
  XY_ID ""
  FUNC "W Scale"
  STI "SA ref"
  WPE "WPE ref"
  COMMENT ""
  DIS_MEAS ""
  TypeTCI "10"
END_HEADER

BEGIN_DB
 ICCAP_VAR vg         0.394          
 ICCAP_VAR vb         -1.2           
 ICCAP_VAR vs         0              

 #vd                    id                    ig                    ib                    is                   
  0                     3.32e-11              1.2e-11               -1.414e-11            -3.65e-11            
  0.05                  2.069e-08             1.008e-11             -1.216e-11            -2.0682e-08          
  0.1                   2.7398e-08            9.42e-12              -1.094e-11            -2.739e-08           
  0.15                  3.0216e-08            9.06e-12              -1.16e-11             -3.0198e-08          
  0.2                   3.2052e-08            8.88e-12              -1.144e-11            -3.2044e-08          
  0.25                  3.366e-08             8.72e-12              -1.014e-11            -3.3646e-08          
  0.3                   3.515e-08             8.5e-12               -9.52e-12             -3.5146e-08          
  0.35                  3.66e-08              8.42e-12              -9.92e-12             -3.6584e-08          
  0.4                   3.797e-08             8.26e-12              -1.006e-11            -3.796e-08           
  0.45                  3.9284e-08            8.08e-12              -9.92e-12             -3.9278e-08          
  0.5                   4.057e-08             7.92e-12              -7.9e-12              -4.0554e-08          
  0.55                  4.1792e-08            7.74e-12              -7.84e-12             -4.1786e-08          
  0.6                   4.2986e-08            7.66e-12              -8.06e-12             -4.2976e-08          
  0.65                  4.4132e-08            7.56e-12              -8.32e-12             -4.4116e-08          
  0.7                   4.523e-08             7.5e-12               -7.46e-12             -4.5228e-08          
  0.75                  4.6306e-08            7.34e-12              -6.3e-12              -4.629e-08           
  0.8                   4.7326e-08            7.28e-12              -7.2e-12              -4.7314e-08          
  0.85                  4.831e-08             7.16e-12              -7.36e-12             -4.8294e-08          
  0.9                   4.9238e-08            6.98e-12              -6.62e-12             -4.9232e-08          
  0.95                  5.013e-08             6.88e-12              -3.6e-12              -5.0124e-08          
  1                     5.1002e-08            6.56e-12              -6.72e-12             -5.0994e-08          
  1.05                  5.1814e-08            6.58e-12              -7.18e-12             -5.181e-08           
  1.1                   5.2596e-08            6.34e-12              -7e-12                -5.2576e-08          
  1.15                  5.332e-08             6.26e-12              -6.52e-12             -5.3324e-08          
  1.2                   5.4014e-08            6.14e-12              -6.48e-12             -5.4014e-08          
  1.25                  5.4672e-08            6.04e-12              -7.98e-12             -5.4664e-08          
  1.3                   5.5288e-08            5.8e-12               -8.44e-12             -5.5272e-08          
  1.35                  5.5864e-08            5.92e-12              -9.76e-12             -5.5858e-08          
END_DB

BEGIN_DB
 ICCAP_VAR vg         0.633          
 ICCAP_VAR vb         -1.2           
 ICCAP_VAR vs         0              

 #vd                    id                    ig                    ib                    is                   
  0                     1.1634e-10            1.01e-10              -3.24e-12             -2.253e-10           
  0.05                  1.5232e-07            8.484e-11             -4.12e-12             -1.5228e-07          
  0.1                   2.721e-07             7.302e-11             -4.8e-12              -2.7204e-07          
  0.15                  3.5582e-07            6.514e-11             -3.3e-12              -3.5578e-07          
  0.2                   4.032e-07             6.096e-11             -3.78e-12             -4.0318e-07          
  0.25                  4.2522e-07            5.894e-11             -4.56e-12             -4.2518e-07          
  0.3                   4.368e-07             5.776e-11             -3.92e-12             -4.3674e-07          
  0.35                  4.4522e-07            5.722e-11             -3.1e-12              -4.4522e-07          
  0.4                   4.5224e-07            5.652e-11             -3.58e-12             -4.5224e-07          
  0.45                  4.5836e-07            5.6e-11               -4.08e-12             -4.5828e-07          
  0.5                   4.639e-07             5.556e-11             -4.78e-12             -4.6394e-07          
  0.55                  4.6928e-07            5.5e-11               -3.52e-12             -4.6926e-07          
  0.6                   4.7438e-07            5.462e-11             -3.16e-12             -4.7428e-07          
  0.65                  4.7914e-07            5.416e-11             -4.32e-12             -4.7912e-07          
  0.7                   4.8382e-07            5.376e-11             -4.22e-12             -4.8378e-07          
  0.75                  4.8822e-07            5.334e-11             -2.84e-12             -4.882e-07           
  0.8                   4.925e-07             5.304e-11             -3.58e-12             -4.9248e-07          
  0.85                  4.9664e-07            5.274e-11             -4.02e-12             -4.9664e-07          
  0.9                   5.0062e-07            5.24e-11              -1.64e-12             -5.0062e-07          
  0.95                  5.0446e-07            5.204e-11             -2.52e-12             -5.0444e-07          
  1                     5.0812e-07            5.17e-11              -3.56e-12             -5.081e-07           
  1.05                  5.1172e-07            5.134e-11             -4.12e-12             -5.1166e-07          
  1.1                   5.151e-07             5.106e-11             -3.4e-12              -5.1502e-07          
  1.15                  5.1836e-07            5.07e-11              -2.52e-12             -5.1828e-07          
  1.2                   5.2146e-07            5.054e-11             -3.58e-12             -5.2138e-07          
  1.25                  5.2446e-07            5.012e-11             -4.1e-12              -5.2442e-07          
  1.3                   5.2738e-07            5.002e-11             -5.5e-12              -5.2732e-07          
  1.35                  5.3014e-07            4.982e-11             -5.42e-12             -5.3006e-07          
END_DB

BEGIN_DB
 ICCAP_VAR vg         0.872          
 ICCAP_VAR vb         -1.2           
 ICCAP_VAR vs         0              

 #vd                    id                    ig                    ib                    is                   
  0                     7.926e-11             4.439e-10             -1.08e-12             -5.4382e-10          
  0.05                  2.7384e-07            3.8826e-10            -3.98e-12             -2.741e-07           
  0.1                   5.2136e-07            3.4208e-10            -2.74e-12             -5.2162e-07          
  0.15                  7.4102e-07            3.043e-10             -2.58e-12             -7.4126e-07          
  0.2                   9.3098e-07            2.7388e-10            -3.68e-12             -9.3124e-07          
  0.25                  1.08924e-06           2.4998e-10            -3e-12                -1.08954e-06         
  0.3                   1.2144e-06            2.3264e-10            -2.14e-12             -1.2108e-06          
  0.35                  1.3004e-06            2.2088e-10            -2.74e-12             -1.2968e-06          
  0.4                   1.352e-06             2.1378e-10            -2.46e-12             -1.3484e-06          
  0.45                  1.3798e-06            2.102e-10             -1.6e-12              -1.3762e-06          
  0.5                   1.3966e-06            2.081e-10             -3.1e-12              -1.3928e-06          
  0.55                  1.409e-06             2.0646e-10            -2.64e-12             -1.4052e-06          
  0.6                   1.4194e-06            2.0522e-10            -2.46e-12             -1.4158e-06          
  0.65                  1.429e-06             2.0386e-10            -2.46e-12             -1.4252e-06          
  0.7                   1.4374e-06            2.028e-10             -2.08e-12             -1.4338e-06          
  0.75                  1.4454e-06            2.0194e-10            -2.56e-12             -1.4418e-06          
  0.8                   1.4532e-06            2.0104e-10            -2.78e-12             -1.4496e-06          
  0.85                  1.4604e-06            1.9996e-10            -2.3e-12              -1.4568e-06          
  0.9                   1.4674e-06            1.9912e-10            -3.02e-12             -1.4636e-06          
  0.95                  1.474e-06             1.9832e-10            -3.26e-12             -1.4704e-06          
  1                     1.4804e-06            1.9756e-10            -1.4e-12              -1.4768e-06          
  1.05                  1.4866e-06            1.968e-10             -2.26e-12             -1.483e-06           
  1.1                   1.4926e-06            1.9594e-10            -2.26e-12             -1.489e-06           
  1.15                  1.4982e-06            1.954e-10             -2.14e-12             -1.4946e-06          
  1.2                   1.5038e-06            1.9476e-10            -2.08e-12             -1.5002e-06          
  1.25                  1.5092e-06            1.9398e-10            -2.48e-12             -1.5054e-06          
  1.3                   1.5142e-06            1.934e-10             -5.8e-13              -1.5106e-06          
  1.35                  1.5192e-06            1.9264e-10            -2.36e-12             -1.5156e-06          
END_DB

BEGIN_DB
 ICCAP_VAR vg         1.111          
 ICCAP_VAR vb         -1.2           
 ICCAP_VAR vs         0              

 #vd                    id                    ig                    ib                    is                   
  0                     -2.718e-10            1.4e-09               -1.76e-12             -1.0926e-09          
  0.05                  3.725e-07             1.2578e-09            -1.4e-12              -3.7366e-07          
  0.1                   7.2452e-07            1.1336e-09            -1.66e-12             -7.256e-07           
  0.15                  1.05404e-06           1.0264e-09            -2.5e-12              -1.0551e-06          
  0.2                   1.3614e-06            9.328e-10             -1e-12                -1.3584e-06          
  0.25                  1.6422e-06            8.5358e-10            -2.38e-12             -1.6392e-06          
  0.3                   1.8972e-06            7.865e-10             -2.7e-12              -1.894e-06           
  0.35                  2.124e-06             7.3034e-10            -6.2e-13              -2.1208e-06          
  0.4                   2.3214e-06            6.8454e-10            -2.68e-12             -2.3182e-06          
  0.45                  2.4866e-06            6.482e-10             -2.16e-12             -2.4834e-06          
  0.5                   2.6172e-06            6.207e-10             -1.46e-12             -2.614e-06           
  0.55                  2.711e-06             6.0164e-10            -2.46e-12             -2.7078e-06          
  0.6                   2.771e-06             5.8962e-10            -2.54e-12             -2.7678e-06          
  0.65                  2.8066e-06            5.8264e-10            -1.36e-12             -2.8034e-06          
  0.7                   2.829e-06             5.7838e-10            -2.12e-12             -2.826e-06           
  0.75                  2.8456e-06            5.7516e-10            -1.74e-12             -2.8422e-06          
  0.8                   2.859e-06             5.7278e-10            -1.62e-12             -2.8556e-06          
  0.85                  2.8708e-06            5.7044e-10            -2.78e-12             -2.8674e-06          
  0.9                   2.8818e-06            5.6832e-10            -1.76e-12             -2.8786e-06          
  0.95                  2.892e-06             5.6626e-10            -1.58e-12             -2.8888e-06          
  1                     2.9018e-06            5.6448e-10            -2.54e-12             -2.8986e-06          
  1.05                  2.9112e-06            5.6292e-10            -1.2e-12              -2.9078e-06          
  1.1                   2.9198e-06            5.6104e-10            -2e-12                -2.9164e-06          
  1.15                  2.9282e-06            5.5974e-10            -2.32e-12             -2.9248e-06          
  1.2                   2.9362e-06            5.5826e-10            -1.32e-12             -2.933e-06           
  1.25                  2.944e-06             5.5672e-10            -1.52e-12             -2.9408e-06          
  1.3                   2.9516e-06            5.55e-10              -2.38e-12             -2.9484e-06          
  1.35                  2.9588e-06            5.5376e-10            -1.2e-12              -2.9558e-06          
END_DB

BEGIN_DB
 ICCAP_VAR vg         1.35           
 ICCAP_VAR vb         -1.2           
 ICCAP_VAR vs         0              

 #vd                    id                    ig                    ib                    is                   
  0                     -1.257e-09            3.5604e-09            -4.56e-12             -2.2178e-09          
  0.05                  4.4604e-07            3.2574e-09            -4.12e-12             -4.492e-07           
  0.1                   8.7788e-07            2.985e-09             -2.96e-12             -8.8084e-07          
  0.15                  1.2942e-06            2.7414e-09            -2.66e-12             -1.293e-06           
  0.2                   1.6906e-06            2.5244e-09            -3.16e-12             -1.6894e-06          
  0.25                  2.0676e-06            2.332e-09             -1.5e-12              -2.0662e-06          
  0.3                   2.4242e-06            2.1616e-09            -2.66e-12             -2.4226e-06          
  0.35                  2.7592e-06            2.0126e-09            -2.78e-12             -2.7574e-06          
  0.4                   3.0712e-06            1.8816e-09            -1.88e-12             -3.0692e-06          
  0.45                  3.3584e-06            1.7688e-09            -2.12e-12             -3.3564e-06          
  0.5                   3.6202e-06            1.6714e-09            -2.38e-12             -3.618e-06           
  0.55                  3.8548e-06            1.5886e-09            -1.8e-12              -3.8528e-06          
  0.6                   4.0604e-06            1.52e-09              -2e-12                -4.0582e-06          
  0.65                  4.235e-06             1.4634e-09            -2.4e-12              -4.2324e-06          
  0.7                   4.3752e-06            1.4204e-09            -1.86e-12             -4.3728e-06          
  0.75                  4.4798e-06            1.3886e-09            -1.5e-12              -4.4774e-06          
  0.8                   4.5502e-06            1.3682e-09            -1.82e-12             -4.548e-06           
  0.85                  4.5954e-06            1.3546e-09            -1.92e-12             -4.5928e-06          
  0.9                   4.6242e-06            1.3466e-09            -1.64e-12             -4.6218e-06          
  0.95                  4.6444e-06            1.3408e-09            -2.46e-12             -4.6422e-06          
  1                     4.6612e-06            1.3362e-09            -2.34e-12             -4.6588e-06          
  1.05                  4.6754e-06            1.332e-09             -1.08e-12             -4.673e-06           
  1.1                   4.6886e-06            1.3282e-09            -2.36e-12             -4.6862e-06          
  1.15                  4.7008e-06            1.3248e-09            8e-14                 -4.6982e-06          
  1.2                   4.7122e-06            1.3216e-09            -1.36e-12             -4.7094e-06          
  1.25                  4.7228e-06            1.319e-09             -2.12e-12             -4.7204e-06          
  1.3                   4.7332e-06            1.316e-09             -2.2e-12              -4.7306e-06          
  1.35                  4.7434e-06            1.3132e-09            -1.36e-12             -4.7408e-06          
END_DB

