! VERSION = 6.00
BEGIN_HEADER
 ICCAP_INPUTS
  vd         V  D GROUND SMU1 0.1 LIN        1    0          1.35       28   0.05      
  vg         V  G GROUND SMU2 0.001 LIN        2    0.514      1.35       5    0.209     
  vb         V  B GROUND SMU4 0.1 CON        -1.2
  vs         V  S GROUND SMU3 0.1 CON        0
 ICCAP_OUTPUTS
  id         I  D GROUND SMU1 B
  ig         I  G GROUND SMU2 B
  ib         I  B GROUND SMU4 B
  is         I  S GROUND SMU3 B
 ICCAP_VALUES
  MASTER_SETUP_TYPE "~dc_idvd~"
  LINVT_VALUE "|idvg|100.0n|100.0m|1.000m|5|1.350|"
  LISTVT_VALUE ""
  TYPE "1"
  TEMP " 125.000 "
  IS_TNOM " 0.00000 "
  MAIN.W "10.00u"
  MAIN.L "130.0n"
  MAIN.AD "3.400p"
  MAIN.AS "3.400p"
  MAIN.PD "20.68u"
  MAIN.PS "20.68u"
  MAIN.NF "1.000"
  MAIN.M "1"
  MAIN.NRD "0.000"
  MAIN.NRS "0.000"
  MAIN.LDRIFT1 "1E-06"
  MAIN.LDRIFT2 "1E-06"
  MAIN.SA "0.000"
  MAIN.SB "0.000"
  MAIN.SD "0.000"
  MAIN.SCA "0.000"
  MAIN.SCB "0.000"
  MAIN.SCC "0.000"
  MAIN.SC "0.000"
  MODULE "S540"
  PIN_D "18"
  PIN_G "3"
  PIN_S "4"
  PIN_B "17"
  PIN_E ""
  PIN_6 ""
  XY_ID ""
  FUNC "Short"
  STI "SA ref"
  WPE "WPE ref"
  COMMENT ""
  DIS_MEAS ""
  TypeTCI "10"
END_HEADER

BEGIN_DB
 ICCAP_VAR vg         0.514          
 ICCAP_VAR vb         -1.2           
 ICCAP_VAR vs         0              

 #vd                    id                    ig                    ib                    is                   
  0                     2.5994e-08            1.404e-11             -5.52e-11             -1.9362e-08          
  0.05                  1.5088e-05            1.172e-11             -5.006e-11            -1.5058e-05          
  0.1                   2.2584e-05            1.018e-11             -4.666e-11            -2.2578e-05          
  0.15                  2.6934e-05            9.2e-12               -4.602e-11            -2.693e-05           
  0.2                   3.0116e-05            8.76e-12              -4.472e-11            -3.0114e-05          
  0.25                  3.2888e-05            8.46e-12              -4.184e-11            -3.2876e-05          
  0.3                   3.5578e-05            8.32e-12              -4.256e-11            -3.5562e-05          
  0.35                  3.827e-05             8.18e-12              -4.094e-11            -3.8264e-05          
  0.4                   4.104e-05             8.16e-12              -3.94e-11             -4.1022e-05          
  0.45                  4.385e-05             8e-12                 -4.006e-11            -4.3866e-05          
  0.5                   4.6814e-05            8.04e-12              -3.77e-11             -4.6806e-05          
  0.55                  4.9838e-05            8.06e-12              -3.702e-11            -4.9822e-05          
  0.6                   5.2966e-05            8.06e-12              -3.674e-11            -5.298e-05           
  0.65                  5.6238e-05            7.92e-12              -3.494e-11            -5.6256e-05          
  0.7                   5.9626e-05            7.88e-12              -3.528e-11            -5.9656e-05          
  0.75                  6.3176e-05            7.76e-12              -3.722e-11            -6.3168e-05          
  0.8                   6.6756e-05            7.7e-12               -3.716e-11            -6.6776e-05          
  0.85                  7.0498e-05            7.42e-12              -4.502e-11            -7.0452e-05          
  0.9                   7.4306e-05            7.24e-12              -6.298e-11            -7.4288e-05          
  0.95                  7.8302e-05            6.74e-12              -1.0074e-10           -7.828e-05           
  1                     8.2414e-05            6.38e-12              -1.8754e-10           -8.2404e-05          
  1.05                  8.6632e-05            5.76e-12              -3.6352e-10           -8.6632e-05          
  1.1                   9.1034e-05            5.18e-12              -7.0136e-10           -9.1074e-05          
  1.15                  9.554e-05             4.16e-12              -1.319e-09            -9.5528e-05          
  1.2                   0.000100138           3.08e-12              -2.3954e-09           -0.00010018          
  1.25                  0.000104936           1.78e-12              -4.1846e-09           -0.000104976         
  1.3                   0.000109864           2.4e-13               -7.0384e-09           -0.000109822         
  1.35                  0.000114834           -1.56e-12             -1.1438e-08           -0.000114878         
END_DB

BEGIN_DB
 ICCAP_VAR vg         0.723          
 ICCAP_VAR vb         -1.2           
 ICCAP_VAR vs         0              

 #vd                    id                    ig                    ib                    is                   
  0                     1.14998e-07           6.686e-11             -2.056e-11            -1.1485e-07          
  0.05                  0.00012284            5.762e-11             -2.268e-11            -0.0001225           
  0.1                   0.00021012            5.082e-11             -2.334e-11            -0.00020978          
  0.15                  0.00027038            4.582e-11             -2.186e-11            -0.00027006          
  0.2                   0.00031258            4.246e-11             -2.244e-11            -0.00031226          
  0.25                  0.00034356            4.002e-11             -2.294e-11            -0.00034328          
  0.3                   0.00036818            3.854e-11             -2.162e-11            -0.0003678           
  0.35                  0.00038892            3.756e-11             -2.212e-11            -0.00038866          
  0.4                   0.0004077             3.678e-11             -2.208e-11            -0.00040748          
  0.45                  0.00042524            3.622e-11             -2.214e-11            -0.00042488          
  0.5                   0.0004424             3.61e-11              -2.286e-11            -0.00044204          
  0.55                  0.00045888            3.578e-11             -2.16e-11             -0.00045854          
  0.6                   0.00047536            3.562e-11             -2.222e-11            -0.00047498          
  0.65                  0.00049152            3.538e-11             -2.354e-11            -0.00049112          
  0.7                   0.00050762            3.546e-11             -2.302e-11            -0.00050718          
  0.75                  0.0005238             3.518e-11             -2.632e-11            -0.00052324          
  0.8                   0.00053984            3.506e-11             -3.196e-11            -0.00053958          
  0.85                  0.00055614            3.51e-11              -4.406e-11            -0.00055584          
  0.9                   0.00057244            3.492e-11             -7.676e-11            -0.00057194          
  0.95                  0.00058832            3.472e-11             -1.5086e-10           -0.00058816          
  1                     0.00060498            3.454e-11             -3.196e-10            -0.0006048           
  1.05                  0.00062162            3.426e-11             -6.7486e-10           -0.00062126          
  1.1                   0.0006382             3.398e-11             -1.3904e-09           -0.00063776          
  1.15                  0.00065478            3.354e-11             -2.7684e-09           -0.0006544           
  1.2                   0.00067122            3.31e-11              -5.2946e-09           -0.00067096          
  1.25                  0.0006882             3.244e-11             -9.704e-09            -0.00068786          
  1.3                   0.00070478            3.18e-11              -1.711e-08            -0.00070456          
  1.35                  0.00072154            3.08e-11              -2.8978e-08           -0.00072118          
END_DB

BEGIN_DB
 ICCAP_VAR vg         0.932          
 ICCAP_VAR vb         -1.2           
 ICCAP_VAR vs         0              

 #vd                    id                    ig                    ib                    is                   
  0                     7.1686e-07            2.1672e-10            -1.79e-11             -2.1124e-07          
  0.05                  0.00029518            1.9304e-10            -1.788e-11            -0.0002949           
  0.1                   0.0005425             1.7322e-10            -1.796e-11            -0.0005421           
  0.15                  0.0007413             1.5748e-10            -1.826e-11            -0.00074104          
  0.2                   0.00089606            1.4482e-10            -1.902e-11            -0.00089586          
  0.25                  0.00101448            1.3516e-10            -1.844e-11            -0.00101442          
  0.3                   0.00110562            1.2786e-10            -1.858e-11            -0.00110528          
  0.35                  0.0011764             1.2262e-10            -1.902e-11            -0.0011762           
  0.4                   0.0012342             1.187e-10             -1.872e-11            -0.0012336           
  0.45                  0.0012824             1.158e-10             -1.8e-11              -0.0012816           
  0.5                   0.0013238             1.1344e-10            -1.952e-11            -0.0013228           
  0.55                  0.0013606             1.1192e-10            -1.94e-11             -0.0013604           
  0.6                   0.0013962             1.108e-10             -1.896e-11            -0.0013948           
  0.65                  0.0014288             1.098e-10             -1.95e-11             -0.001428            
  0.7                   0.0014598             1.09e-10              -2.022e-11            -0.001459            
  0.75                  0.00149               1.0836e-10            -2.392e-11            -0.001489            
  0.8                   0.0015192             1.0804e-10            -3.288e-11            -0.0015188           
  0.85                  0.0015482             1.074e-10             -4.986e-11            -0.0015478           
  0.9                   0.0015766             1.0712e-10            -9.694e-11            -0.001576            
  0.95                  0.001605              1.0656e-10            -2.0094e-10           -0.001604            
  1                     0.0016318             1.0608e-10            -4.2124e-10           -0.0016308           
  1.05                  0.0016594             1.058e-10             -8.8348e-10           -0.0016592           
  1.1                   0.001687              1.054e-10             -1.8022e-09           -0.0016856           
  1.15                  0.0017138             1.05e-10              -3.5628e-09           -0.001713            
  1.2                   0.0017408             1.0466e-10            -6.8e-09              -0.0017402           
  1.25                  0.0017674             1.0418e-10            -1.2524e-08           -0.0017666           
  1.3                   0.0017938             1.0378e-10            -2.2252e-08           -0.0017926           
  1.35                  0.00182               1.0314e-10            -3.8174e-08           -0.0018192           
END_DB

BEGIN_DB
 ICCAP_VAR vg         1.141          
 ICCAP_VAR vb         -1.2           
 ICCAP_VAR vs         0              

 #vd                    id                    ig                    ib                    is                   
  0                     8.84e-07              5.4258e-10            -1.53e-11             -2.9114e-07          
  0.05                  0.00045314            4.937e-10             -1.566e-11            -0.00045272          
  0.1                   0.00085956            4.5132e-10            -1.614e-11            -0.00085928          
  0.15                  0.001212              4.1486e-10            -1.582e-11            -0.0012116           
  0.2                   0.0015074             3.8426e-10            -1.674e-11            -0.0015066           
  0.25                  0.0017498             3.5888e-10            -1.592e-11            -0.0017492           
  0.3                   0.0019458             3.3796e-10            -1.708e-11            -0.0019448           
  0.35                  0.0021028             3.2116e-10            -1.714e-11            -0.0021022           
  0.4                   0.0022286             3.0774e-10            -1.63e-11             -0.0022276           
  0.45                  0.0023304             2.972e-10             -1.788e-11            -0.0023298           
  0.5                   0.002415              2.8886e-10            -1.728e-11            -0.0024148           
  0.55                  0.0024862             2.8246e-10            -1.706e-11            -0.002486            
  0.6                   0.002548              2.7754e-10            -1.882e-11            -0.0025466           
  0.65                  0.0026018             2.7356e-10            -1.784e-11            -0.0026012           
  0.7                   0.0026504             2.7042e-10            -2.016e-11            -0.0026504           
  0.75                  0.0026962             2.6774e-10            -2.474e-11            -0.0026954           
  0.8                   0.0027388             2.6574e-10            -3.298e-11            -0.0027382           
  0.85                  0.0027798             2.6396e-10            -5.914e-11            -0.002779            
  0.9                   0.0028184             2.6228e-10            -1.151e-10            -0.0028176           
  0.95                  0.002856              2.6094e-10            -2.3614e-10           -0.0028554           
  1                     0.002893              2.5956e-10            -4.9322e-10           -0.0028926           
  1.05                  0.002929              2.5838e-10            -1.01258e-09          -0.002928            
  1.1                   0.002963              2.5744e-10            -2.0238e-09           -0.0029632           
  1.15                  0.0029974             2.5648e-10            -3.9306e-09           -0.002997            
  1.2                   0.0030308             2.5552e-10            -7.3888e-09           -0.0030306           
  1.25                  0.0030644             2.5462e-10            -1.3456e-08           -0.0030638           
  1.3                   0.003097              2.5372e-10            -2.3748e-08           -0.0030964           
  1.35                  0.0031288             2.5284e-10            -4.0636e-08           -0.0031284           
END_DB

BEGIN_DB
 ICCAP_VAR vg         1.35           
 ICCAP_VAR vb         -1.2           
 ICCAP_VAR vs         0              

 #vd                    id                    ig                    ib                    is                   
  0                     9.8492e-07            1.1572e-09            -1.638e-11            -3.4356e-07          
  0.05                  0.00057892            1.0686e-09            -1.586e-11            -0.00057846          
  0.1                   0.00111654            9.8946e-10            -1.634e-11            -0.00111612          
  0.15                  0.0016014             9.2002e-10            -1.556e-11            -0.0016008           
  0.2                   0.0020264             8.5938e-10            -1.632e-11            -0.0020256           
  0.25                  0.0023914             8.0636e-10            -1.556e-11            -0.0023908           
  0.3                   0.0026998             7.6072e-10            -1.616e-11            -0.0026994           
  0.35                  0.0029572             7.2154e-10            -1.666e-11            -0.0029564           
  0.4                   0.0031702             6.887e-10             -1.574e-11            -0.0031708           
  0.45                  0.0033466             6.6154e-10            -1.66e-11             -0.0033466           
  0.5                   0.0034932             6.3894e-10            -1.672e-11            -0.0034924           
  0.55                  0.003615              6.2068e-10            -1.616e-11            -0.003614            
  0.6                   0.0037168             6.0574e-10            -1.74e-11             -0.0037162           
  0.65                  0.003805              5.932e-10             -1.742e-11            -0.0038042           
  0.7                   0.0038814             5.835e-10             -1.978e-11            -0.0038804           
  0.75                  0.0039486             5.7522e-10            -2.478e-11            -0.0039474           
  0.8                   0.0040088             5.6844e-10            -3.466e-11            -0.0040086           
  0.85                  0.0040648             5.6286e-10            -6.35e-11             -0.0040642           
  0.9                   0.0041164             5.5816e-10            -1.2428e-10           -0.0041164           
  0.95                  0.004166              5.5406e-10            -2.526e-10            -0.0041646           
  1                     0.004212              5.5046e-10            -5.2276e-10           -0.0042112           
  1.05                  0.0042554             5.473e-10             -1.05734e-09          -0.0042548           
  1.1                   0.0042982             5.4418e-10            -2.0826e-09           -0.004297            
  1.15                  0.0043384             5.4198e-10            -3.987e-09            -0.0043372           
  1.2                   0.0043782             5.394e-10             -7.3992e-09           -0.0043776           
  1.25                  0.004416              5.3716e-10            -1.3326e-08           -0.004416            
  1.3                   0.0044542             5.3508e-10            -2.332e-08            -0.0044542           
  1.35                  0.004491              5.3324e-10            -3.9648e-08           -0.0044902           
END_DB

