! VERSION = 6.00
BEGIN_HEADER
 ICCAP_INPUTS
  vd         V  D GROUND SMU1 0.1 LIN        1    0          1.35       28   0.05      
  vg         V  G GROUND SMU2 0.001 LIN        2    0.362      1.35       5    0.247     
  vb         V  B GROUND SMU4 0.1 CON        0
  vs         V  S GROUND SMU3 0.1 CON        0
 ICCAP_OUTPUTS
  id         I  D GROUND SMU1 B
  ig         I  G GROUND SMU2 B
  ib         I  B GROUND SMU4 B
  is         I  S GROUND SMU3 B
 ICCAP_VALUES
  MASTER_SETUP_TYPE "~dc_idvd~"
  LINVT_VALUE "|idvg|100.0n|100.0m|1.000m|5|1.350|"
  LISTVT_VALUE ""
  TYPE "1"
  TEMP " 125.000 "
  IS_TNOM " 0.00000 "
  MAIN.W "150.0n"
  MAIN.L "180.0n"
  MAIN.AD "100.5f"
  MAIN.AS "100.5f"
  MAIN.PD "1.340u"
  MAIN.PS "1.340u"
  MAIN.NF "1.000"
  MAIN.M "1"
  MAIN.NRD "0.000"
  MAIN.NRS "0.000"
  MAIN.LDRIFT1 "1E-06"
  MAIN.LDRIFT2 "1E-06"
  MAIN.SA "0.000"
  MAIN.SB "0.000"
  MAIN.SD "0.000"
  MAIN.SCA "0.000"
  MAIN.SCB "0.000"
  MAIN.SCC "0.000"
  MAIN.SC "0.000"
  MODULE "S547"
  PIN_D "20"
  PIN_G "1"
  PIN_S "2"
  PIN_B "19"
  PIN_E ""
  PIN_6 ""
  XY_ID ""
  FUNC "LW Scale"
  STI "SA ref"
  WPE "WPE ref"
  COMMENT ""
  DIS_MEAS ""
  TypeTCI "10"
END_HEADER

BEGIN_DB
 ICCAP_VAR vg         0.362          
 ICCAP_VAR vb         0              
 ICCAP_VAR vs         0              

 #vd                    id                    ig                    ib                    is                   
  0                     7.0544e-10            3.2e-13               2.412e-11             -5.6202e-10          
  0.05                  3.0404e-07            1.2e-13               2.17e-11              -3.0406e-07          
  0.1                   4.3726e-07            6e-14                 2.072e-11             -4.3722e-07          
  0.15                  4.9304e-07            1.8e-13               2.042e-11             -4.9302e-07          
  0.2                   5.2006e-07            1e-13                 1.95e-11              -5.2006e-07          
  0.25                  5.3758e-07            1.4e-13               1.85e-11              -5.3766e-07          
  0.3                   5.5198e-07            1.8e-13               1.856e-11             -5.52e-07            
  0.35                  5.6512e-07            8e-14                 1.87e-11              -5.6516e-07          
  0.4                   5.7766e-07            1.2e-13               1.682e-11             -5.7766e-07          
  0.45                  5.8992e-07            1.6e-13               1.638e-11             -5.8992e-07          
  0.5                   6.018e-07             1e-13                 1.696e-11             -6.0192e-07          
  0.55                  6.1368e-07            1.4e-13               1.564e-11             -6.1378e-07          
  0.6                   6.2534e-07            2.2e-13               1.458e-11             -6.2538e-07          
  0.65                  6.3688e-07            6e-14                 1.424e-11             -6.369e-07           
  0.7                   6.483e-07             6e-14                 1.478e-11             -6.484e-07           
  0.75                  6.5986e-07            4e-14                 1.34e-11              -6.598e-07           
  0.8                   6.7112e-07            6e-14                 1.246e-11             -6.711e-07           
  0.85                  6.8248e-07            1.4e-13               1.26e-11              -6.8256e-07          
  0.9                   6.9388e-07            1.2e-13               1.264e-11             -6.94e-07            
  0.95                  7.0536e-07            1e-13                 1.032e-11             -7.0526e-07          
  1                     7.1658e-07            1.2e-13               9.64e-12              -7.1684e-07          
  1.05                  7.2812e-07            1.2e-13               7.46e-12              -7.2834e-07          
  1.1                   7.3972e-07            2e-14                 3.32e-12              -7.3984e-07          
  1.15                  7.5118e-07            2e-14                 -5.38e-12             -7.5124e-07          
  1.2                   7.6274e-07            -4e-14                -1.73e-11             -7.6286e-07          
  1.25                  7.744e-07             2e-14                 -3.49e-11             -7.7442e-07          
  1.3                   7.8606e-07            6e-14                 -6.408e-11            -7.861e-07           
  1.35                  7.9794e-07            -8e-14                -1.0588e-10           -7.9786e-07          
END_DB

BEGIN_DB
 ICCAP_VAR vg         0.609          
 ICCAP_VAR vb         0              
 ICCAP_VAR vs         0              

 #vd                    id                    ig                    ib                    is                   
  0                     2.6304e-09            1.24e-12              9.24e-12              -2.5422e-09          
  0.05                  2.2032e-06            9.8e-13               8.76e-12              -2.2028e-06          
  0.1                   3.8586e-06            9.2e-13               7.82e-12              -3.834e-06           
  0.15                  5.0108e-06            9e-13                 8.24e-12              -5.0142e-06          
  0.2                   5.7842e-06            8.2e-13               7.88e-12              -5.7972e-06          
  0.25                  6.3114e-06            8e-13                 7.02e-12              -6.2882e-06          
  0.3                   6.6528e-06            7.6e-13               7.52e-12              -6.6484e-06          
  0.35                  6.892e-06             7.4e-13               7.08e-12              -6.8912e-06          
  0.4                   7.0818e-06            7.2e-13               6.1e-12               -7.0784e-06          
  0.45                  7.22e-06              6.8e-13               7.34e-12              -7.2358e-06          
  0.5                   7.3794e-06            6.6e-13               6.04e-12              -7.373e-06           
  0.55                  7.5102e-06            7e-13                 6e-12                 -7.5074e-06          
  0.6                   7.6354e-06            7.8e-13               7.38e-12              -7.6322e-06          
  0.65                  7.7544e-06            6.8e-13               5.54e-12              -7.7394e-06          
  0.7                   7.87e-06              7e-13                 6.02e-12              -7.86e-06            
  0.75                  7.9688e-06            7.2e-13               6.82e-12              -7.9644e-06          
  0.8                   8.0902e-06            7e-13                 5.16e-12              -8.077e-06           
  0.85                  8.1998e-06            6.8e-13               5.54e-12              -8.1868e-06          
  0.9                   8.296e-06             7e-13                 5.82e-12              -8.283e-06           
  0.95                  8.4022e-06            7.6e-13               3.78e-12              -8.3912e-06          
  1                     8.5014e-06            7.4e-13               2.98e-12              -8.4856e-06          
  1.05                  8.6144e-06            7.6e-13               -9.6e-13              -8.5994e-06          
  1.1                   8.6808e-06            6.2e-13               -9.02e-12             -8.7116e-06          
  1.15                  8.8146e-06            6.2e-13               -2.34e-11             -8.81e-06            
  1.2                   8.9126e-06            6.2e-13               -5.04e-11             -8.911e-06           
  1.25                  8.995e-06             6.2e-13               -9.98e-11             -9.0014e-06          
  1.3                   9.1042e-06            5.6e-13               -1.8076e-10           -9.103e-06           
  1.35                  9.2032e-06            5.6e-13               -3.12e-10             -9.1946e-06          
END_DB

BEGIN_DB
 ICCAP_VAR vg         0.856          
 ICCAP_VAR vb         0              
 ICCAP_VAR vs         0              

 #vd                    id                    ig                    ib                    is                   
  0                     3.526e-09             4.48e-12              5.68e-12              -4.4008e-09          
  0.05                  4.8348e-06            3.96e-12              4.48e-12              -4.8324e-06          
  0.1                   8.9966e-06            3.66e-12              5.44e-12              -8.9916e-06          
  0.15                  1.247e-05             3.3e-12               5.22e-12              -1.2462e-05          
  0.2                   1.5278e-05            3.1e-12               4.78e-12              -1.5266e-05          
  0.25                  1.7472e-05            2.92e-12              3.7e-12               -1.7472e-05          
  0.3                   1.9154e-05            2.84e-12              5.2e-12               -1.9156e-05          
  0.35                  2.0418e-05            2.58e-12              4.64e-12              -2.0414e-05          
  0.4                   2.137e-05             2.68e-12              3.58e-12              -2.1362e-05          
  0.45                  2.2092e-05            2.42e-12              4.32e-12              -2.2086e-05          
  0.5                   2.2684e-05            2.6e-12               3.82e-12              -2.268e-05           
  0.55                  2.3162e-05            2.36e-12              3.82e-12              -2.3126e-05          
  0.6                   2.3548e-05            2.4e-12               4.1e-12               -2.3532e-05          
  0.65                  2.3896e-05            2.4e-12               3.76e-12              -2.3888e-05          
  0.7                   2.4224e-05            2.38e-12              4.04e-12              -2.4234e-05          
  0.75                  2.4552e-05            2.4e-12               3.58e-12              -2.4524e-05          
  0.8                   2.485e-05             2.34e-12              3.74e-12              -2.4826e-05          
  0.85                  2.5104e-05            2.3e-12               4.18e-12              -2.5098e-05          
  0.9                   2.5382e-05            2.26e-12              3.1e-12               -2.5384e-05          
  0.95                  2.563e-05             2.34e-12              2e-12                 -2.5624e-05          
  1                     2.59e-05              2.34e-12              1.32e-12              -2.588e-05           
  1.05                  2.6134e-05            2.3e-12               -1.84e-12             -2.6188e-05          
  1.1                   2.6424e-05            2.32e-12              -8.04e-12             -2.6374e-05          
  1.15                  2.6618e-05            2.42e-12              -1.984e-11            -2.6634e-05          
  1.2                   2.688e-05             2.22e-12              -4.51e-11             -2.6862e-05          
  1.25                  2.716e-05             2.2e-12               -9.066e-11            -2.708e-05           
  1.3                   2.733e-05             2.26e-12              -1.7058e-10           -2.7312e-05          
  1.35                  2.7546e-05            2.28e-12              -3.0902e-10           -2.7566e-05          
END_DB

BEGIN_DB
 ICCAP_VAR vg         1.103          
 ICCAP_VAR vb         0              
 ICCAP_VAR vs         0              

 #vd                    id                    ig                    ib                    is                   
  0                     1.0744e-08            1.346e-11             4.42e-12              -1.0346e-08          
  0.05                  7.2524e-06            1.23e-11              2.94e-12              -7.2494e-06          
  0.1                   1.388e-05             1.132e-11             2.56e-12              -1.3874e-05          
  0.15                  1.981e-05             1.036e-11             2.84e-12              -1.9804e-05          
  0.2                   2.5e-05               9.7e-12               3.28e-12              -2.4992e-05          
  0.25                  2.9444e-05            9.04e-12              1.88e-12              -2.9438e-05          
  0.3                   3.3164e-05            8.58e-12              3.34e-12              -3.3158e-05          
  0.35                  3.6212e-05            8.08e-12              2.66e-12              -3.6206e-05          
  0.4                   3.8678e-05            7.74e-12              2.48e-12              -3.8662e-05          
  0.45                  4.0618e-05            7.42e-12              3.52e-12              -4.0612e-05          
  0.5                   4.2164e-05            7.32e-12              2.66e-12              -4.2168e-05          
  0.55                  4.3398e-05            7.14e-12              2.06e-12              -4.3392e-05          
  0.6                   4.4392e-05            6.98e-12              3.62e-12              -4.4388e-05          
  0.65                  4.5218e-05            6.94e-12              2.68e-12              -4.521e-05           
  0.7                   4.5916e-05            6.8e-12               2.46e-12              -4.591e-05           
  0.75                  4.6528e-05            6.74e-12              2.28e-12              -4.6522e-05          
  0.8                   4.7086e-05            6.78e-12              2.46e-12              -4.707e-05           
  0.85                  4.7576e-05            6.72e-12              2.54e-12              -4.757e-05           
  0.9                   4.803e-05             6.6e-12               1.74e-12              -4.8046e-05          
  0.95                  4.847e-05             6.58e-12              1.12e-12              -4.8462e-05          
  1                     4.8892e-05            6.52e-12              1.16e-12              -4.8882e-05          
  1.05                  4.93e-05              6.46e-12              -1.88e-12             -4.9292e-05          
  1.1                   4.9686e-05            6.42e-12              -7.06e-12             -4.9676e-05          
  1.15                  5.0058e-05            6.46e-12              -1.532e-11            -5.0052e-05          
  1.2                   5.0412e-05            6.4e-12               -3.434e-11            -5.0416e-05          
  1.25                  5.0774e-05            6.3e-12               -6.938e-11            -5.0776e-05          
  1.3                   5.1128e-05            6.4e-12               -1.316e-10            -5.1114e-05          
  1.35                  5.1462e-05            6.32e-12              -2.4184e-10           -5.1456e-05          
END_DB

BEGIN_DB
 ICCAP_VAR vg         1.35           
 ICCAP_VAR vb         0              
 ICCAP_VAR vs         0              

 #vd                    id                    ig                    ib                    is                   
  0                     1.3682e-08            3.386e-11             3.24e-12              -1.3278e-08          
  0.05                  9.2024e-06            3.126e-11             3.04e-12              -9.1982e-06          
  0.1                   1.786e-05             2.89e-11              2.8e-12               -1.7854e-05          
  0.15                  2.5876e-05            2.692e-11             2.44e-12              -2.587e-05           
  0.2                   3.317e-05             2.512e-11             1.44e-12              -3.3162e-05          
  0.25                  3.97e-05              2.354e-11             2.92e-12              -3.9696e-05          
  0.3                   4.546e-05             2.208e-11             1.74e-12              -4.5454e-05          
  0.35                  5.045e-05             2.092e-11             2.12e-12              -5.0444e-05          
  0.4                   5.4714e-05            1.994e-11             2.92e-12              -5.471e-05           
  0.45                  5.8304e-05            1.906e-11             1.72e-12              -5.8298e-05          
  0.5                   6.1246e-05            1.832e-11             2.06e-12              -6.1282e-05          
  0.55                  6.375e-05             1.782e-11             2.98e-12              -6.3748e-05          
  0.6                   6.5714e-05            1.734e-11             1.2e-12               -6.5764e-05          
  0.65                  6.7428e-05            1.706e-11             2.52e-12              -6.7426e-05          
  0.7                   6.8802e-05            1.682e-11             1.64e-12              -6.8782e-05          
  0.75                  6.995e-05             1.64e-11              1.36e-12              -6.9944e-05          
  0.8                   7.0938e-05            1.63e-11              2.84e-12              -7.093e-05           
  0.85                  7.1792e-05            1.6e-11               1.82e-12              -7.1784e-05          
  0.9                   7.2552e-05            1.592e-11             1.2e-13               -7.2546e-05          
  0.95                  7.3238e-05            1.568e-11             1.94e-12              -7.323e-05           
  1                     7.3864e-05            1.56e-11              6e-14                 -7.386e-05           
  1.05                  7.4448e-05            1.552e-11             -2.06e-12             -7.4446e-05          
  1.1                   7.4998e-05            1.54e-11              -3.72e-12             -7.499e-05           
  1.15                  7.5522e-05            1.528e-11             -1.23e-11             -7.5514e-05          
  1.2                   7.6016e-05            1.532e-11             -2.558e-11            -7.6008e-05          
  1.25                  7.6494e-05            1.528e-11             -5.004e-11            -7.6488e-05          
  1.3                   7.6934e-05            1.514e-11             -9.652e-11            -7.6944e-05          
  1.35                  7.7402e-05            1.498e-11             -1.7648e-10           -7.7394e-05          
END_DB

