! VERSION = 6.00
BEGIN_HEADER
 ICCAP_INPUTS
  vd         V  D GROUND SMU1 0.1 LIN        1    0          1.35       28   0.05      
  vg         V  G GROUND SMU2 0.001 LIN        2    0.566      1.35       5    0.196     
  vb         V  B GROUND SMU4 0.1 CON        -1.2
  vs         V  S GROUND SMU3 0.1 CON        0
 ICCAP_OUTPUTS
  id         I  D GROUND SMU1 B
  ig         I  G GROUND SMU2 B
  ib         I  B GROUND SMU4 B
  is         I  S GROUND SMU3 B
 ICCAP_VALUES
  MASTER_SETUP_TYPE "~dc_idvd~"
  LINVT_VALUE "|idvg|100.0n|100.0m|1.000m|5|1.350|"
  LISTVT_VALUE ""
  TYPE "1"
  TEMP "-40.0000 "
  IS_TNOM " 0.00000 "
  MAIN.W "10.00u"
  MAIN.L "180.0n"
  MAIN.AD "3.400p"
  MAIN.AS "3.400p"
  MAIN.PD "20.68u"
  MAIN.PS "20.68u"
  MAIN.NF "1.000"
  MAIN.M "1"
  MAIN.NRD "0.000"
  MAIN.NRS "0.000"
  MAIN.LDRIFT1 "1E-06"
  MAIN.LDRIFT2 "1E-06"
  MAIN.SA "0.000"
  MAIN.SB "0.000"
  MAIN.SD "0.000"
  MAIN.SCA "0.000"
  MAIN.SCB "0.000"
  MAIN.SCC "0.000"
  MAIN.SC "0.000"
  MODULE "S540"
  PIN_D "12"
  PIN_G "9"
  PIN_S "10"
  PIN_B "11"
  PIN_E ""
  PIN_6 ""
  XY_ID ""
  FUNC "L Scale"
  STI "SA ref"
  WPE "WPE ref"
  COMMENT ""
  DIS_MEAS ""
  TypeTCI "10"
END_HEADER

BEGIN_DB
 ICCAP_VAR vg         0.566          
 ICCAP_VAR vb         -1.2           
 ICCAP_VAR vs         0              

 #vd                    id                    ig                    ib                    is                   
  0                     8.6194e-08            1.574e-11             -7.88e-12             -7.0304e-08          
  0.05                  2.8388e-05            1.252e-11             -8.26e-12             -2.8368e-05          
  0.1                   4.032e-05             1.078e-11             -9.96e-12             -4.0284e-05          
  0.15                  4.6002e-05            9.8e-12               -7.3e-12              -4.5974e-05          
  0.2                   4.9694e-05            9.28e-12              -7.48e-12             -4.9694e-05          
  0.25                  5.2708e-05            8.82e-12              -7.1e-12              -5.2676e-05          
  0.3                   5.5362e-05            8.62e-12              -6.8e-12              -5.5346e-05          
  0.35                  5.7938e-05            8.44e-12              -6.94e-12             -5.7934e-05          
  0.4                   6.0408e-05            8.46e-12              -5.6e-12              -6.0408e-05          
  0.45                  6.286e-05             8.32e-12              -5.94e-12             -6.2844e-05          
  0.5                   6.5266e-05            8.3e-12               -6.26e-12             -6.527e-05           
  0.55                  6.767e-05             8.26e-12              -4.96e-12             -6.7612e-05          
  0.6                   7.0024e-05            8.1e-12               -5.2e-12              -6.994e-05           
  0.65                  7.2306e-05            8.18e-12              -5.08e-12             -7.2324e-05          
  0.7                   7.47e-05              8.18e-12              -4.66e-12             -7.4676e-05          
  0.75                  7.7066e-05            8.02e-12              -6.1e-12              -7.7036e-05          
  0.8                   7.9386e-05            7.8e-12               -4.5e-12              -7.9394e-05          
  0.85                  8.18e-05              7.86e-12              -3.78e-12             -8.1768e-05          
  0.9                   8.414e-05             7.62e-12              -5.24e-12             -8.409e-05           
  0.95                  8.6496e-05            7.48e-12              -4.62e-12             -8.6498e-05          
  1                     8.8886e-05            7.3e-12               -3.96e-12             -8.8892e-05          
  1.05                  9.137e-05             7.06e-12              -6.9e-12              -9.1362e-05          
  1.1                   9.3794e-05            6.68e-12              -1.34e-11             -9.378e-05           
  1.15                  9.6288e-05            6.32e-12              -3.178e-11            -9.6228e-05          
  1.2                   9.8772e-05            5.82e-12              -8.626e-11            -9.8762e-05          
  1.25                  0.000101194           5.2e-12               -2.156e-10            -0.000101182         
  1.3                   0.000103674           4.44e-12              -4.8672e-10           -0.000103666         
  1.35                  0.000106214           3.58e-12              -1.04516e-09          -0.000106204         
END_DB

BEGIN_DB
 ICCAP_VAR vg         0.762          
 ICCAP_VAR vb         -1.2           
 ICCAP_VAR vs         0              

 #vd                    id                    ig                    ib                    is                   
  0                     2.507e-07             7.614e-11             -2.36e-12             -2.779e-07           
  0.05                  0.00020308            6.502e-11             -2.22e-12             -0.0002027           
  0.1                   0.00034816            5.678e-11             -3.92e-12             -0.00034774          
  0.15                  0.00044558            5.066e-11             -2.14e-12             -0.00044516          
  0.2                   0.00050872            4.646e-11             -2.48e-12             -0.00050848          
  0.25                  0.00055038            4.374e-11             -3.4e-12              -0.00055014          
  0.3                   0.00057944            4.206e-11             -1.68e-12             -0.00057904          
  0.35                  0.00060142            4.07e-11              -3.18e-12             -0.00060102          
  0.4                   0.0006196             3.986e-11             -2.56e-12             -0.00061894          
  0.45                  0.0006356             3.926e-11             -1.74e-12             -0.00063532          
  0.5                   0.00065028            3.876e-11             -3.54e-12             -0.00064992          
  0.55                  0.00066408            3.82e-11              -2.26e-12             -0.0006637           
  0.6                   0.0006775             3.8e-11               -2.4e-12              -0.0006771           
  0.65                  0.00069034            3.756e-11             -3.32e-12             -0.00068992          
  0.7                   0.00070236            3.736e-11             -1.9e-12              -0.00070216          
  0.75                  0.00071488            3.716e-11             -2.5e-12              -0.00071452          
  0.8                   0.0007267             3.692e-11             -3.22e-12             -0.00072636          
  0.85                  0.00073848            3.656e-11             -2.3e-12              -0.00073796          
  0.9                   0.00074992            3.644e-11             -2.9e-12              -0.00074954          
  0.95                  0.0007612             3.618e-11             -4.28e-12             -0.00076046          
  1                     0.00077202            3.586e-11             -5.8e-12              -0.00077206          
  1.05                  0.00078364            3.566e-11             -1.204e-11            -0.00078316          
  1.1                   0.00079444            3.53e-11              -3.01e-11             -0.00079384          
  1.15                  0.00080552            3.506e-11             -7.454e-11            -0.00080528          
  1.2                   0.00081652            3.47e-11              -1.9428e-10           -0.0008161           
  1.25                  0.00082712            3.418e-11             -4.843e-10            -0.00082686          
  1.3                   0.00083776            3.38e-11              -1.1414e-09           -0.00083742          
  1.35                  0.00084846            3.34e-11              -2.5324e-09           -0.00084804          
END_DB

BEGIN_DB
 ICCAP_VAR vg         0.958          
 ICCAP_VAR vb         -1.2           
 ICCAP_VAR vs         0              

 #vd                    id                    ig                    ib                    is                   
  0                     3.15e-07              2.3588e-10            -4.2e-13              -4.7724e-07          
  0.05                  0.00042176            2.0906e-10            -1.58e-12             -0.00042134          
  0.1                   0.0007734             1.8658e-10            -1.78e-12             -0.00077304          
  0.15                  0.00105138            1.6888e-10            -2.26e-12             -0.001051            
  0.2                   0.0012622             1.5474e-10            -2.34e-12             -0.0012604           
  0.25                  0.0014162             1.4366e-10            -1.3e-12              -0.0014144           
  0.3                   0.0015272             1.3564e-10            -1.8e-12              -0.0015254           
  0.35                  0.0016074             1.2958e-10            -2.4e-12              -0.0016056           
  0.4                   0.0016668             1.2536e-10            -1.04e-12             -0.001665            
  0.45                  0.0017124             1.221e-10             -1.58e-12             -0.0017102           
  0.5                   0.001749              1.1956e-10            -2.4e-12              -0.0017472           
  0.55                  0.0017804             1.1794e-10            -1.24e-12             -0.0017784           
  0.6                   0.0018078             1.1642e-10            -1.5e-12              -0.001806            
  0.65                  0.0018328             1.1514e-10            -2.38e-12             -0.001831            
  0.7                   0.0018564             1.142e-10             -1.04e-12             -0.0018544           
  0.75                  0.0018784             1.133e-10             -2.36e-12             -0.0018764           
  0.8                   0.0018996             1.1246e-10            -2.02e-12             -0.001898            
  0.85                  0.0019204             1.1168e-10            -9.4e-13              -0.0019184           
  0.9                   0.0019402             1.1098e-10            -3.14e-12             -0.0019386           
  0.95                  0.0019602             1.1022e-10            -4.22e-12             -0.0019582           
  1                     0.0019786             1.096e-10             -8.46e-12             -0.0019768           
  1.05                  0.0019968             1.0894e-10            -2.154e-11            -0.0019954           
  1.1                   0.0020148             1.0832e-10            -5e-11                -0.0020134           
  1.15                  0.0020336             1.078e-10             -1.2288e-10           -0.002031            
  1.2                   0.0020504             1.0722e-10            -2.9104e-10           -0.0020484           
  1.25                  0.0020678             1.0668e-10            -6.642e-10            -0.0020662           
  1.3                   0.0020852             1.0586e-10            -1.4672e-09           -0.0020832           
  1.35                  0.0021016             1.0528e-10            -3.1146e-09           -0.0021              
END_DB

BEGIN_DB
 ICCAP_VAR vg         1.154          
 ICCAP_VAR vb         -1.2           
 ICCAP_VAR vs         0              

 #vd                    id                    ig                    ib                    is                   
  0                     1.121e-06             5.7634e-10            -1.18e-12             -1.111e-06           
  0.05                  0.0006011             5.2168e-10            -1.28e-12             -0.00060068          
  0.1                   0.00113406            4.7526e-10            -1.92e-12             -0.00113382          
  0.15                  0.0015866             4.3532e-10            -1.4e-12              -0.001585            
  0.2                   0.0019558             4.0188e-10            -1.2e-13              -0.001954            
  0.25                  0.0022496             3.7392e-10            -2.34e-12             -0.0022476           
  0.3                   0.0024786             3.5118e-10            -1.8e-12              -0.0024772           
  0.35                  0.0026548             3.33e-10              -1.58e-12             -0.002653            
  0.4                   0.002789              3.185e-10             -2.3e-12              -0.0027872           
  0.45                  0.0028914             3.0742e-10            -1.8e-12              -0.0028894           
  0.5                   0.002971              2.9898e-10            -1.6e-12              -0.002969            
  0.55                  0.0030336             2.9198e-10            -7.6e-12              -0.0030318           
  0.6                   0.0030848             2.8624e-10            -1.78e-12             -0.003083            
  0.65                  0.0031278             2.8224e-10            -2.22e-12             -0.0031262           
  0.7                   0.0031654             2.7858e-10            -2.28e-12             -0.0031634           
  0.75                  0.0031986             2.7586e-10            -1.4e-13              -0.0031974           
  0.8                   0.0032296             2.7398e-10            -1.48e-12             -0.003228            
  0.85                  0.0032586             2.7194e-10            -2.28e-12             -0.0032568           
  0.9                   0.0032856             2.6986e-10            -1.7e-12              -0.003284            
  0.95                  0.0033114             2.6804e-10            -5.24e-12             -0.0033092           
  1                     0.003336              2.6636e-10            -1.02e-11             -0.0033342           
  1.05                  0.00336               2.6496e-10            -2.338e-11            -0.0033578           
  1.1                   0.0033832             2.633e-10             -5.892e-11            -0.0033814           
  1.15                  0.0034064             2.6192e-10            -1.3804e-10           -0.0034044           
  1.2                   0.0034282             2.6066e-10            -3.1354e-10           -0.0034262           
  1.25                  0.00345               2.5946e-10            -6.923e-10            -0.0034488           
  1.3                   0.0034708             2.581e-10             -1.4706e-09           -0.0034694           
  1.35                  0.0034916             2.569e-10             -3.0134e-09           -0.0034904           
END_DB

BEGIN_DB
 ICCAP_VAR vg         1.35           
 ICCAP_VAR vb         -1.2           
 ICCAP_VAR vs         0              

 #vd                    id                    ig                    ib                    is                   
  0                     1.3252e-06            1.2094e-09            -6.2e-13              -1.2952e-06          
  0.05                  0.00073274            1.112e-09             -2.02e-12             -0.0007324           
  0.1                   0.001405              1.0282e-09            -2.48e-12             -0.001403            
  0.15                  0.0019962             9.5232e-10            -3.2e-13              -0.0019944           
  0.2                   0.0025016             8.867e-10             -2.08e-12             -0.0025              
  0.25                  0.0029252             8.2962e-10            -2.34e-12             -0.0029236           
  0.3                   0.0032742             7.8062e-10            -5.8e-13              -0.0032726           
  0.35                  0.0035572             7.3876e-10            -1.78e-12             -0.0035556           
  0.4                   0.003785              7.036e-10             -1.5e-12              -0.0037832           
  0.45                  0.0039652             6.7432e-10            -6.6e-13              -0.0039634           
  0.5                   0.0041092             6.5116e-10            -1.18e-12             -0.004107            
  0.55                  0.0042236             6.3126e-10            -1.52e-12             -0.0042218           
  0.6                   0.0043152             6.1634e-10            3.88e-12              -0.0043136           
  0.65                  0.0043896             6.0398e-10            -1.68e-12             -0.0043882           
  0.7                   0.0044514             5.9398e-10            -1.16e-12             -0.0044494           
  0.75                  0.0045038             5.8568e-10            -1.28e-12             -0.0045018           
  0.8                   0.004549              5.7738e-10            -1.72e-12             -0.0045476           
  0.85                  0.0045896             5.728e-10             -1.12e-12             -0.0045876           
  0.9                   0.0046264             5.6636e-10            -3.02e-12             -0.0046244           
  0.95                  0.0046606             5.6342e-10            -4.44e-12             -0.0046588           
  1                     0.0046918             5.593e-10             -8.26e-12             -0.0046898           
  1.05                  0.0047214             5.5544e-10            -2.374e-11            -0.0047196           
  1.1                   0.00475               5.5092e-10            -5.35e-11             -0.0047484           
  1.15                  0.0047774             5.4794e-10            -1.2226e-10           -0.0047756           
  1.2                   0.0048034             5.4638e-10            -2.7834e-10           -0.0048016           
  1.25                  0.004829              5.4354e-10            -6.0214e-10           -0.0048272           
  1.3                   0.004854              5.41e-10              -1.2592e-09           -0.0048516           
  1.35                  0.0048776             5.3848e-10            -2.5434e-09           -0.0048762           
END_DB

