! VERSION = 6.00
BEGIN_HEADER
 ICCAP_INPUTS
  vd         V  D GROUND SMU1 0.1 LIN        1    0          1.35       28   0.05      
  vg         V  G GROUND SMU2 0.001 LIST       2 3 0.2 0.4 0.6
  vb         V  B GROUND SMU4 0.1 CON        0
  vs         V  S GROUND SMU3 0.1 CON        0
 ICCAP_OUTPUTS
  id         I  D GROUND SMU1 B
  ig         I  G GROUND SMU2 B
  ib         I  B GROUND SMU4 B
  is         I  S GROUND SMU3 B
 ICCAP_VALUES
  MASTER_SETUP_TYPE "~dc_idvd~"
  LINVT_VALUE ""
  LISTVT_VALUE "|idvg|100.0n|-200.0m|1.000m|3|200.0m|200.0m|"
  TYPE "1"
  TEMP " 27.0000 "
  IS_TNOM " 1.00000 "
  MAIN.W "2.000u"
  MAIN.L "130.0n"
  MAIN.AD "680.0f"
  MAIN.AS "680.0f"
  MAIN.PD "4.680u"
  MAIN.PS "4.680u"
  MAIN.NF "1.000"
  MAIN.M "1"
  MAIN.NRD "0.000"
  MAIN.NRS "0.000"
  MAIN.LDRIFT1 "1E-06"
  MAIN.LDRIFT2 "1E-06"
  MAIN.SA "0.000"
  MAIN.SB "0.000"
  MAIN.SD "0.000"
  MAIN.SCA "0.000"
  MAIN.SCB "0.000"
  MAIN.SCC "0.000"
  MAIN.SC "0.000"
  MODULE "S542"
  PIN_D "14"
  PIN_G "7"
  PIN_S "8"
  PIN_B "13"
  PIN_E ""
  PIN_6 ""
  XY_ID ""
  FUNC "LW Scale"
  STI "SA ref"
  WPE "WPE ref"
  COMMENT ""
  DIS_MEAS ""
  TypeTCI "10"
END_HEADER

BEGIN_DB
 ICCAP_VAR vg         0.2            
 ICCAP_VAR vb         0              
 ICCAP_VAR vs         0              

 #vd                    id                    ig                    ib                    is                   
  0                     1.378e-11             -1.4e-13              8e-13                 -8.74e-12            
  0.05                  3.2976e-09            -4e-14                1.2e-12               -3.2958e-09          
  0.1                   4.1476e-09            -6e-14                1.12e-12              -4.1466e-09          
  0.15                  4.5984e-09            -1e-13                8e-13                 -4.596e-09           
  0.2                   4.9876e-09            -8e-14                -2e-13                -4.9836e-09          
  0.25                  5.3708e-09            -3e-13                5.2e-13               -5.3696e-09          
  0.3                   5.7626e-09            -1.6e-13              6.2e-13               -5.7604e-09          
  0.35                  6.1622e-09            8e-14                 4.28e-12              -6.1598e-09          
  0.4                   6.5758e-09            -1.8e-13              1.62e-12              -6.5688e-09          
  0.45                  6.9992e-09            -6e-14                8.6e-13               -6.996e-09           
  0.5                   7.4368e-09            -1.8e-13              0                     -7.4348e-09          
  0.55                  7.8914e-09            -2.2e-13              -4.2e-13              -7.8898e-09          
  0.6                   8.3664e-09            -3e-13                2.06e-12              -8.3644e-09          
  0.65                  8.8592e-09            -4.6e-13              9.6e-13               -8.8548e-09          
  0.7                   9.373e-09             -4.6e-13              4e-14                 -9.3698e-09          
  0.75                  9.9106e-09            -7.4e-13              7.6e-13               -9.9034e-09          
  0.8                   1.04714e-08           -8.8e-13              5e-13                 -1.0464e-08          
  0.85                  1.10528e-08           -6e-13                9.8e-13               -1.105e-08           
  0.9                   1.1664e-08            -1.16e-12             1.76e-12              -1.1634e-08          
  0.95                  1.2298e-08            -1.42e-12             8.4e-13               -1.2266e-08          
  1                     1.2954e-08            -1.78e-12             2e-13                 -1.2932e-08          
  1.05                  1.364e-08             -1.94e-12             4e-13                 -1.3618e-08          
  1.1                   1.4362e-08            -2.68e-12             7.4e-13               -1.433e-08           
  1.15                  1.5102e-08            -3.34e-12             2.8e-13               -1.5074e-08          
  1.2                   1.5874e-08            -3.72e-12             -1.04e-12             -1.5846e-08          
  1.25                  1.668e-08             -4.62e-12             -1.46e-12             -1.6656e-08          
  1.3                   1.753e-08             -5.36e-12             -2.54e-12             -1.7498e-08          
  1.35                  1.8414e-08            -6.14e-12             -3.64e-12             -1.838e-08           
END_DB

BEGIN_DB
 ICCAP_VAR vg         0.4            
 ICCAP_VAR vb         0              
 ICCAP_VAR vs         0              

 #vd                    id                    ig                    ib                    is                   
  0                     1.4744e-09            1.08e-12              2.02e-12              -1.3128e-09          
  0.05                  7.2218e-07            7e-13                 7.6e-13               -7.2246e-07          
  0.1                   9.5852e-07            5.8e-13               4e-13                 -9.5864e-07          
  0.15                  1.07924e-06           3.4e-13               3.2e-13               -1.07916e-06         
  0.2                   1.172e-06             3.4e-13               1.24e-12              -1.1684e-06          
  0.25                  1.2544e-06            3.2e-13               -1.44e-12             -1.2504e-06          
  0.3                   1.3324e-06            3.2e-13               1.36e-12              -1.3288e-06          
  0.35                  1.409e-06             5.8e-13               2.2e-13               -1.4056e-06          
  0.4                   1.486e-06             2.2e-13               6e-13                 -1.4822e-06          
  0.45                  1.5626e-06            2.2e-13               1.44e-12              -1.5584e-06          
  0.5                   1.6396e-06            4.6e-13               3.4e-13               -1.636e-06           
  0.55                  1.7174e-06            3.2e-13               8.2e-13               -1.7138e-06          
  0.6                   1.7964e-06            4.8e-13               1.02e-12              -1.7928e-06          
  0.65                  1.8764e-06            3.6e-13               4e-14                 -1.8728e-06          
  0.7                   1.9576e-06            5.4e-13               2.2e-13               -1.954e-06           
  0.75                  2.0402e-06            3.4e-13               6.8e-13               -2.0368e-06          
  0.8                   2.1242e-06            2.2e-13               3e-13                 -2.1202e-06          
  0.85                  2.2098e-06            3.2e-13               6.8e-13               -2.206e-06           
  0.9                   2.297e-06             -1.2e-13              8.6e-13               -2.293e-06           
  0.95                  2.3866e-06            -1.8e-13              -1.6e-13              -2.3822e-06          
  1                     2.4778e-06            -2e-13                -1.1e-12              -2.4736e-06          
  1.05                  2.5714e-06            -3.6e-13              -2.98e-12             -2.5674e-06          
  1.1                   2.6662e-06            -6.4e-13              -9.96e-12             -2.6624e-06          
  1.15                  2.7632e-06            -1.04e-12             -2.104e-11            -2.7596e-06          
  1.2                   2.8622e-06            -1.34e-12             -4.356e-11            -2.859e-06           
  1.25                  2.9642e-06            -1.62e-12             -8.206e-11            -2.9598e-06          
  1.3                   3.0674e-06            -2.1e-12              -1.4878e-10           -3.0886e-06          
  1.35                  3.1872e-06            -2.82e-12             -2.51e-10             -3.182e-06           
END_DB

BEGIN_DB
 ICCAP_VAR vg         0.6            
 ICCAP_VAR vb         0              
 ICCAP_VAR vs         0              

 #vd                    id                    ig                    ib                    is                   
  0                     2.7132e-08            5.94e-12              3.4e-13               -2.5624e-08          
  0.05                  1.6066e-05            4.82e-12              1.44e-12              -1.6044e-05          
  0.1                   2.5058e-05            4e-12                 6.2e-13               -2.5118e-05          
  0.15                  3.0162e-05            3.46e-12              1e-12                 -3.0136e-05          
  0.2                   3.323e-05             3.18e-12              1.38e-12              -3.3196e-05          
  0.25                  3.5272e-05            3.02e-12              -8e-14                -3.5206e-05          
  0.3                   3.6934e-05            2.96e-12              7.2e-13               -3.6838e-05          
  0.35                  3.8446e-05            2.78e-12              1.4e-12               -3.8444e-05          
  0.4                   3.9878e-05            2.8e-12               -2e-14                -3.988e-05           
  0.45                  4.1174e-05            2.84e-12              -6e-14                -4.113e-05           
  0.5                   4.2376e-05            2.8e-12               1.34e-12              -4.2406e-05          
  0.55                  4.362e-05             2.62e-12              3.6e-13               -4.343e-05           
  0.6                   4.4796e-05            2.72e-12              4.8e-13               -4.4712e-05          
  0.65                  4.5928e-05            2.78e-12              1.26e-12              -4.569e-05           
  0.7                   4.7072e-05            2.46e-12              3e-13                 -4.7032e-05          
  0.75                  4.8054e-05            2.66e-12              5.2e-13               -4.8308e-05          
  0.8                   4.9568e-05            2.62e-12              1.26e-12              -4.9314e-05          
  0.85                  5.063e-05             2.38e-12              -7e-13                -5.073e-05           
  0.9                   5.1746e-05            2.34e-12              2e-13                 -5.1834e-05          
  0.95                  5.3082e-05            2.6e-12               1e-13                 -5.2776e-05          
  1                     5.397e-05             2.18e-12              -5.1e-12              -5.409e-05           
  1.05                  5.5402e-05            2.12e-12              -1.528e-11            -5.5182e-05          
  1.1                   5.6268e-05            2.28e-12              -4.072e-11            -5.6254e-05          
  1.15                  5.7496e-05            2.26e-12              -1.0148e-10           -5.7362e-05          
  1.2                   5.8702e-05            1.92e-12              -2.245e-10            -5.8514e-05          
  1.25                  6.0148e-05            1.58e-12              -4.6968e-10           -5.9972e-05          
  1.3                   6.1208e-05            1.44e-12              -9.1452e-10           -6.1086e-05          
  1.35                  6.243e-05             1.02e-12              -1.681e-09            -6.2304e-05          
END_DB

