! VERSION = 6.00
BEGIN_HEADER
 ICCAP_INPUTS
  vg         V  G GROUND SMU2 0.001 LIN        1    -0.5       1.35       38   0.05      
  vb         V  B GROUND SMU4 0.1 LIN        2    0          -1.2       5    -0.3      
  vd         V  D GROUND SMU1 0.1 LIST       3 3 0.05 0.6 1.2
  vs         V  S GROUND SMU3 0.1 CON        0
 ICCAP_OUTPUTS
  id         I  D GROUND SMU1 B
  ig         I  G GROUND SMU2 B
  ib         I  B GROUND SMU4 B
  is         I  S GROUND SMU3 B
 ICCAP_VALUES
  MASTER_SETUP_TYPE "~dc_idvg~"
  LINVT_VALUE ""
  LISTVT_VALUE ""
  TYPE "1"
  TEMP " 27.0000 "
  IS_TNOM " 1.00000 "
  MAIN.W "180.0n"
  MAIN.L "150.0n"
  MAIN.AD "102.6f"
  MAIN.AS "102.6f"
  MAIN.PD "1.340u"
  MAIN.PS "1.340u"
  MAIN.NF "1.000"
  MAIN.M "1"
  MAIN.NRD "0.000"
  MAIN.NRS "0.000"
  MAIN.LDRIFT1 "1E-06"
  MAIN.LDRIFT2 "1E-06"
  MAIN.SA "0.000"
  MAIN.SB "0.000"
  MAIN.SD "0.000"
  MAIN.SCA "0.000"
  MAIN.SCB "0.000"
  MAIN.SCC "0.000"
  MAIN.SC "0.000"
  MODULE "S545"
  PIN_D "12"
  PIN_G "9"
  PIN_S "10"
  PIN_B "11"
  PIN_E ""
  PIN_6 ""
  XY_ID ""
  FUNC "LW Scale"
  STI "SA ref"
  WPE "WPE ref"
  COMMENT ""
  DIS_MEAS ""
  TypeTCI "10"
END_HEADER

BEGIN_DB
 ICCAP_VAR vb         0              
 ICCAP_VAR vd         0.05           
 ICCAP_VAR vs         0              

 #vg                    id                    ig                    ib                    is                   
  -0.5                  4e-14                 -4.342e-11            4.542e-11             0                    
  -0.45                 1.4e-13               -6.54e-12             8.32e-12              4e-14                
  -0.4                  1e-13                 -1.14e-12             2.24e-12              1.2e-13              
  -0.35                 4e-14                 -1.6e-13              2.3e-12               -8e-14               
  -0.3                  0                     -8e-14                2.94e-12              1.4e-13              
  -0.25                 1.6e-13               2e-14                 2e-12                 4e-14                
  -0.2                  2e-14                 1.4e-13               1.68e-12              2e-14                
  -0.15                 0                     1e-13                 1.9e-12               4e-14                
  -0.1                  1.2e-13               2.4e-13               1.62e-12              1e-13                
  -0.05                 1.2e-13               1.6e-13               2.3e-12               6e-14                
  0                     5.6e-13               3.6e-13               1.8e-12               -5.6e-13             
  0.05                  3.06e-12              3e-13                 1.5e-12               -2.82e-12            
  0.1                   1.312e-11             2.6e-13               8.2e-13               -1.282e-11           
  0.15                  5.82e-11              4.2e-13               1.38e-12              -5.804e-11           
  0.2                   2.5882e-10            4.6e-13               2.7e-12               -2.5872e-10          
  0.25                  1.14734e-09           4.2e-13               1.62e-12              -1.14716e-09         
  0.3                   4.986e-09             3.8e-13               1.54e-12              -4.9846e-09          
  0.35                  2.063e-08             3.6e-13               7.6e-13               -2.0612e-08          
  0.4                   7.6254e-08            4.8e-13               3.8e-13               -7.6244e-08          
  0.45                  2.322e-07             6.4e-13               2.1e-12               -2.319e-07           
  0.5                   5.525e-07             9.2e-13               1.06e-12              -5.5244e-07          
  0.55                  1.05006e-06           9.8e-13               4.6e-13               -1.04998e-06         
  0.6                   1.698e-06             1.3e-12               2.32e-12              -1.6938e-06          
  0.65                  2.4464e-06            2.08e-12              6.2e-13               -2.4426e-06          
  0.7                   3.257e-06             2.78e-12              1.38e-12              -3.253e-06           
  0.75                  4.1038e-06            3.78e-12              1.16e-12              -4.1002e-06          
  0.8                   4.966e-06             4.96e-12              5.06e-12              -4.9622e-06          
  0.85                  5.8308e-06            6.58e-12              1.38e-12              -5.827e-06           
  0.9                   6.6846e-06            8.48e-12              9.4e-13               -6.681e-06           
  0.95                  7.5204e-06            1.096e-11             1.38e-12              -7.5168e-06          
  1                     8.3306e-06            1.36e-11              1.6e-12               -8.3268e-06          
  1.05                  9.1094e-06            1.678e-11             1.54e-12              -9.105e-06           
  1.1                   9.85e-06              2.05e-11              1.24e-12              -9.8466e-06          
  1.15                  1.056e-05             2.44e-11              1.4e-13               -1.05552e-05         
  1.2                   1.12312e-05           2.9e-11               1.46e-12              -1.12292e-05         
  1.25                  1.188e-05             3.394e-11             1.04e-12              -1.1862e-05          
  1.3                   1.2426e-05            3.948e-11             6.4e-13               -1.2462e-05          
  1.35                  1.3054e-05            4.56e-11              5e-13                 -1.3038e-05          
END_DB

BEGIN_DB
 ICCAP_VAR vb         -0.3           
 ICCAP_VAR vd         0.05           
 ICCAP_VAR vs         0              

 #vg                    id                    ig                    ib                    is                   
  -0.5                  6e-14                 -4.2e-13              -2.54e-12             1e-13                
  -0.45                 2e-13                 -1.4e-13              -2.04e-12             6e-14                
  -0.4                  -6e-14                -1.2e-13              -2.42e-12             1.2e-13              
  -0.35                 -2.2e-13              -2e-14                -2.56e-12             1e-13                
  -0.3                  1.8e-13               0                     -2.9e-12              1.6e-13              
  -0.25                 0                     1.8e-13               -1.7e-12              6e-14                
  -0.2                  6e-14                 1.6e-13               -1.58e-12             2.6e-13              
  -0.15                 -1.2e-13              2.2e-13               -2.08e-12             1e-13                
  -0.1                  1.4e-13               2.2e-13               -1.7e-12              1.6e-13              
  -0.05                 -2e-14                1.8e-13               -2.12e-12             1.4e-13              
  0                     8e-14                 3.6e-13               -6.4e-13              -1e-13               
  0.05                  4.6e-13               2.2e-13               -2.84e-12             -2.8e-13             
  0.1                   2.14e-12              3.4e-13               -1.22e-12             -2.22e-12            
  0.15                  1.054e-11             3e-13                 -1.68e-12             -1.024e-11           
  0.2                   4.858e-11             4.8e-13               -1.06e-12             -4.856e-11           
  0.25                  2.265e-10             5e-13                 -4.6e-13              -2.2634e-10          
  0.3                   1.0442e-09            3e-13                 -6.4e-13              -1.04384e-09         
  0.35                  4.706e-09             3e-13                 -1.2e-12              -4.7042e-09          
  0.4                   1.9998e-08            3.8e-13               -7.2e-13              -1.9976e-08          
  0.45                  7.5544e-08            6.2e-13               -6e-13                -7.5522e-08          
  0.5                   2.3246e-07            6.4e-13               -2.6e-13              -2.3236e-07          
  0.55                  5.5446e-07            1.02e-12              -1.02e-12             -5.5436e-07          
  0.6                   1.05556e-06           1.42e-12              -1.1e-12              -1.05552e-06         
  0.65                  1.705e-06             1.64e-12              -1e-13                -1.701e-06           
  0.7                   2.4494e-06            2.7e-12               -4.4e-13              -2.4456e-06          
  0.75                  3.2552e-06            3.48e-12              -1.16e-12             -3.2512e-06          
  0.8                   4.0924e-06            4.88e-12              6e-14                 -4.0884e-06          
  0.85                  4.9436e-06            6.48e-12              2.8e-13               -4.9396e-06          
  0.9                   5.7924e-06            8.28e-12              -8e-13                -5.7882e-06          
  0.95                  6.6288e-06            1.076e-11             -7.6e-13              -6.6242e-06          
  1                     7.4452e-06            1.332e-11             -6.4e-13              -7.441e-06           
  1.05                  8.2316e-06            1.664e-11             3.2e-13               -8.2292e-06          
  1.1                   8.9872e-06            2.024e-11             -6.2e-13              -8.983e-06           
  1.15                  9.7074e-06            2.414e-11             -5.6e-13              -9.7044e-06          
  1.2                   1.03952e-05           2.88e-11              -6.4e-13              -1.03906e-05         
  1.25                  1.10482e-05           3.37e-11              3.4e-13               -1.10376e-05         
  1.3                   1.1674e-05            3.916e-11             -3e-13                -1.1658e-05          
  1.35                  1.2264e-05            4.524e-11             -8.8e-13              -1.2244e-05          
END_DB

BEGIN_DB
 ICCAP_VAR vb         -0.6           
 ICCAP_VAR vd         0.05           
 ICCAP_VAR vs         0              

 #vg                    id                    ig                    ib                    is                   
  -0.5                  1e-13                 -5.2e-13              -3.4e-12              6e-14                
  -0.45                 -6e-14                -1.6e-13              -3.7e-12              1.6e-13              
  -0.4                  4e-14                 -6e-14                -4.34e-12             0                    
  -0.35                 4e-14                 0                     -4.32e-12             1.2e-13              
  -0.3                  2e-14                 0                     -3e-12                1.8e-13              
  -0.25                 1.8e-13               1e-13                 -1.96e-12             4e-14                
  -0.2                  -2e-14                0                     -3.12e-12             2.6e-13              
  -0.15                 -1.6e-13              1.8e-13               -3.28e-12             1.4e-13              
  -0.1                  1.2e-13               1.8e-13               -3.04e-12             2e-13                
  -0.05                 -6e-14                1.6e-13               -2.78e-12             2e-13                
  0                     2e-14                 2.6e-13               -2.12e-12             -4e-14               
  0.05                  0                     3e-13                 -2.4e-12              1.4e-13              
  0.1                   5e-13                 3e-13                 -2.3e-12              -4e-13               
  0.15                  2.5e-12               3e-13                 -3.04e-12             -2.4e-12             
  0.2                   1.222e-11             4.2e-13               -1.76e-12             -1.22e-11            
  0.25                  5.892e-11             3.6e-13               -1.66e-12             -5.89e-11            
  0.3                   2.8234e-10            2.8e-13               -1.84e-12             -2.8214e-10          
  0.35                  1.3346e-09            3.2e-13               -2.12e-12             -1.3338e-09          
  0.4                   6.0908e-09            4.8e-13               -2e-12                -6.0886e-09          
  0.45                  2.594e-08             5.2e-13               -5.4e-13              -2.5918e-08          
  0.5                   9.5786e-08            5.2e-13               -1.66e-12             -9.5774e-08          
  0.55                  2.8176e-07            9.4e-13               -2.34e-12             -2.8168e-07          
  0.6                   6.416e-07             1.4e-12               -1.5e-12              -6.4156e-07          
  0.65                  1.1796e-06            1.64e-12              -1.8e-12              -1.1754e-06          
  0.7                   1.8486e-06            2.38e-12              -1.36e-12             -1.8448e-06          
  0.75                  2.606e-06             3.32e-12              -1.38e-12             -2.6022e-06          
  0.8                   3.414e-06             4.68e-12              -7.2e-13              -3.41e-06            
  0.85                  4.249e-06             6.26e-12              -1.5e-12              -4.245e-06           
  0.9                   5.0894e-06            8.26e-12              -1.84e-12             -5.0864e-06          
  0.95                  5.925e-06             1.046e-11             -1.84e-12             -5.9214e-06          
  1                     6.7438e-06            1.326e-11             -1e-12                -6.7402e-06          
  1.05                  7.5374e-06            1.642e-11             -1.18e-12             -7.5342e-06          
  1.1                   8.2996e-06            2.004e-11             -1.02e-12             -8.2976e-06          
  1.15                  9.031e-06             2.402e-11             -1.6e-12              -9.027e-06           
  1.2                   9.7296e-06            2.852e-11             -6.4e-13              -9.7266e-06          
  1.25                  1.03924e-05           3.342e-11             -1.4e-12              -1.03914e-05         
  1.3                   1.10242e-05           3.894e-11             -2.24e-12             -1.102e-05           
  1.35                  1.157e-05             4.486e-11             -1.06e-12             -1.1554e-05          
END_DB

BEGIN_DB
 ICCAP_VAR vb         -0.9           
 ICCAP_VAR vd         0.05           
 ICCAP_VAR vs         0              

 #vg                    id                    ig                    ib                    is                   
  -0.5                  -8e-14                -3.6e-13              -5.8e-12              2.4e-13              
  -0.45                 0                     -1.6e-13              -5.6e-12              6e-14                
  -0.4                  -6e-14                -1.2e-13              -4.52e-12             1e-13                
  -0.35                 0                     0                     -3.72e-12             1e-13                
  -0.3                  -1.4e-13              1e-13                 -4.8e-12              -4e-14               
  -0.25                 -8e-14                2e-14                 -4.36e-12             1.4e-13              
  -0.2                  2e-14                 2e-13                 -3.98e-12             -4e-14               
  -0.15                 -6e-14                1.2e-13               -3.48e-12             2e-14                
  -0.1                  -6e-14                1.4e-13               -3.44e-12             1e-13                
  -0.05                 6e-14                 3e-13                 -3.38e-12             -4e-14               
  0                     8e-14                 1.8e-13               -3.3e-12              1.6e-13              
  0.05                  4e-14                 3e-13                 -2.84e-12             2e-14                
  0.1                   1.6e-13               2.2e-13               -2.9e-12              1e-13                
  0.15                  8.2e-13               3.4e-13               -1.92e-12             -7.2e-13             
  0.2                   3.9e-12               2.4e-13               -2.72e-12             -3.82e-12            
  0.25                  2e-11                 3.6e-13               -2.96e-12             -1.968e-11           
  0.3                   9.768e-11             4e-13                 -3.18e-12             -9.756e-11           
  0.35                  4.756e-10             4.6e-13               -2.28e-12             -4.7526e-10          
  0.4                   2.2634e-09            2e-13                 -1.9e-12              -2.2616e-09          
  0.45                  1.02876e-08           4e-13                 -2.88e-12             -1.02838e-08         
  0.5                   4.2404e-08            5.8e-13               -2.8e-12              -4.239e-08           
  0.55                  1.4588e-07            7.8e-13               -1.86e-12             -1.4576e-07          
  0.6                   3.9128e-07            1.12e-12              -2.56e-12             -3.9116e-07          
  0.65                  8.1834e-07            1.6e-12               -2.6e-12              -8.1826e-07          
  0.7                   1.4106e-06            2.3e-12               -1.46e-12             -1.4064e-06          
  0.75                  2.1158e-06            3.26e-12              -1.7e-12              -2.1118e-06          
  0.8                   2.8906e-06            4.54e-12              -3e-12                -2.887e-06           
  0.85                  3.707e-06             6.08e-12              -2.44e-12             -3.7032e-06          
  0.9                   4.5386e-06            8.02e-12              -4.72e-12             -4.5348e-06          
  0.95                  5.3704e-06            1.036e-11             -1.3e-12              -5.3666e-06          
  1                     6.1894e-06            1.308e-11             -1.76e-12             -6.1864e-06          
  1.05                  6.9884e-06            1.636e-11             -2.14e-12             -6.9842e-06          
  1.1                   7.7568e-06            1.986e-11             -2.44e-12             -7.7536e-06          
  1.15                  8.4954e-06            2.382e-11             -1.16e-12             -8.4902e-06          
  1.2                   9.2008e-06            2.832e-11             -2.22e-12             -9.1972e-06          
  1.25                  9.8736e-06            3.322e-11             -2.58e-12             -9.8714e-06          
  1.3                   1.0514e-05            3.876e-11             -1.74e-12             -1.05104e-05         
  1.35                  1.1121e-05            4.478e-11             -1.08e-12             -1.11166e-05         
END_DB

BEGIN_DB
 ICCAP_VAR vb         -1.2           
 ICCAP_VAR vd         0.05           
 ICCAP_VAR vs         0              

 #vg                    id                    ig                    ib                    is                   
  -0.5                  1.4e-13               -3.6e-13              -4.62e-12             1.6e-13              
  -0.45                 1.2e-13               -3.4e-13              -5.6e-12              3.2e-13              
  -0.4                  0                     -4e-14                -6.04e-12             2e-14                
  -0.35                 1.4e-13               -4e-14                -5.74e-12             1.4e-13              
  -0.3                  0                     6e-14                 -5.04e-12             4e-14                
