! VERSION = 6.00
BEGIN_HEADER
 ICCAP_INPUTS
  vd         V  D GROUND SMU1 0.1 LIN        1    0          1.35       28   0.05      
  vg         V  G GROUND SMU2 0.001 LIN        2    0.618      1.35       5    0.183     
  vb         V  B GROUND SMU4 0.1 CON        -1.2
  vs         V  S GROUND SMU3 0.1 CON        0
 ICCAP_OUTPUTS
  id         I  D GROUND SMU1 B
  ig         I  G GROUND SMU2 B
  ib         I  B GROUND SMU4 B
  is         I  S GROUND SMU3 B
 ICCAP_VALUES
  MASTER_SETUP_TYPE "~dc_idvd~"
  LINVT_VALUE "|idvg|100.0n|100.0m|1.000m|5|1.350|"
  LISTVT_VALUE ""
  TYPE "1"
  TEMP " 27.0000 "
  IS_TNOM " 1.00000 "
  MAIN.W "150.0n"
  MAIN.L "120.0n"
  MAIN.AD "100.5f"
  MAIN.AS "100.5f"
  MAIN.PD "1.340u"
  MAIN.PS "1.340u"
  MAIN.NF "1.000"
  MAIN.M "1"
  MAIN.NRD "0.000"
  MAIN.NRS "0.000"
  MAIN.LDRIFT1 "1E-06"
  MAIN.LDRIFT2 "1E-06"
  MAIN.SA "0.000"
  MAIN.SB "0.000"
  MAIN.SD "0.000"
  MAIN.SCA "0.000"
  MAIN.SCB "0.000"
  MAIN.SCC "0.000"
  MAIN.SC "0.000"
  MODULE "S546"
  PIN_D "18"
  PIN_G "3"
  PIN_S "4"
  PIN_B "17"
  PIN_E ""
  PIN_6 ""
  XY_ID ""
  FUNC "Additional"
  STI "SA ref"
  WPE "WPE ref"
  COMMENT ""
  DIS_MEAS ""
  TypeTCI "10"
END_HEADER

BEGIN_DB
 ICCAP_VAR vg         0.618          
 ICCAP_VAR vb         -1.2           
 ICCAP_VAR vs         0              

 #vd                    id                    ig                    ib                    is                   
  0                     5.112e-10             6.4e-13               -1.336e-11            -4.032e-10           
  0.05                  2.2598e-07            4.6e-13               -1.284e-11            -2.2594e-07          
  0.1                   3.4078e-07            4.8e-13               -1.292e-11            -3.4082e-07          
  0.15                  4.18e-07              3.8e-13               -1.172e-11            -4.1796e-07          
  0.2                   4.839e-07             4.4e-13               -1.054e-11            -4.84e-07            
  0.25                  5.4744e-07            4.2e-13               -1.052e-11            -5.4728e-07          
  0.3                   6.1052e-07            4.2e-13               -9.9e-12              -6.1058e-07          
  0.35                  6.7594e-07            3.8e-13               -9.3e-12              -6.7568e-07          
  0.4                   7.4292e-07            4.2e-13               -8.76e-12             -7.429e-07           
  0.45                  8.1252e-07            4.4e-13               -8.32e-12             -8.1228e-07          
  0.5                   8.8422e-07            4.6e-13               -9.88e-12             -8.8444e-07          
  0.55                  9.5954e-07            2.2e-13               -9.06e-12             -9.5916e-07          
  0.6                   1.0377e-06            3.2e-13               -7.78e-12             -1.038e-06           
  0.65                  1.11926e-06           3e-13                 -8.3e-12              -1.11968e-06         
  0.7                   1.2066e-06            3.8e-13               -7.82e-12             -1.2022e-06          
  0.75                  1.2956e-06            3.2e-13               -7.16e-12             -1.292e-06           
  0.8                   1.3892e-06            4e-13                 -7.4e-12              -1.3856e-06          
  0.85                  1.4876e-06            3e-13                 -6.96e-12             -1.483e-06           
  0.9                   1.5888e-06            3.4e-13               -5.84e-12             -1.5856e-06          
  0.95                  1.697e-06             3.4e-13               -6.64e-12             -1.6918e-06          
  1                     1.8088e-06            3.4e-13               -6.72e-12             -1.8042e-06          
  1.05                  1.9256e-06            3.4e-13               -7.4e-12              -1.9218e-06          
  1.1                   2.0488e-06            3.2e-13               -9.62e-12             -2.0456e-06          
  1.15                  2.1788e-06            3.2e-13               -1.412e-11            -2.1748e-06          
  1.2                   2.3156e-06            3.6e-13               -2.376e-11            -2.3116e-06          
  1.25                  2.461e-06             3.2e-13               -4.392e-11            -2.4572e-06          
  1.3                   2.6138e-06            2.4e-13               -7.938e-11            -2.61e-06            
  1.35                  2.7752e-06            1.8e-13               -1.3794e-10           -2.772e-06           
END_DB

BEGIN_DB
 ICCAP_VAR vg         0.801          
 ICCAP_VAR vb         -1.2           
 ICCAP_VAR vs         0              

 #vd                    id                    ig                    ib                    is                   
  0                     2.3808e-09            1.38e-12              -3.64e-12             -2.2596e-09          
  0.05                  2.0272e-06            1.12e-12              -3.62e-12             -2.0236e-06          
  0.1                   3.4316e-06            1.24e-12              -3.18e-12             -3.4264e-06          
  0.15                  4.438e-06             1e-12                 -3.94e-12             -4.434e-06           
  0.2                   5.1932e-06            1e-12                 -4.04e-12             -5.19e-06            
  0.25                  5.795e-06             1.02e-12              -3.48e-12             -5.7906e-06          
  0.3                   6.303e-06             9.4e-13               -4.12e-12             -6.3002e-06          
  0.35                  6.7606e-06            1.02e-12              -3.78e-12             -6.7536e-06          
  0.4                   7.194e-06             8.6e-13               -3.34e-12             -7.1906e-06          
  0.45                  7.6152e-06            8.8e-13               -4.62e-12             -7.6114e-06          
  0.5                   8.0304e-06            8.6e-13               -3.58e-12             -8.0228e-06          
  0.55                  8.4424e-06            8.8e-13               -3.56e-12             -8.4382e-06          
  0.6                   8.8648e-06            9.2e-13               -3.8e-12              -8.857e-06           
  0.65                  9.2806e-06            9.2e-13               -2.76e-12             -9.2762e-06          
  0.7                   9.7128e-06            9.2e-13               -3.44e-12             -9.707e-06           
  0.75                  1.01442e-05           8.6e-13               -4.6e-12              -1.0139e-05          
  0.8                   1.05788e-05           8.8e-13               -3.64e-12             -1.0576e-05          
  0.85                  1.10234e-05           7.8e-13               -3.92e-12             -1.10144e-05         
  0.9                   1.1472e-05            8.2e-13               -4.24e-12             -1.14572e-05         
  0.95                  1.1922e-05            8.6e-13               -3.58e-12             -1.1906e-05          
  1                     1.2378e-05            9e-13                 -5.04e-12             -1.2362e-05          
  1.05                  1.2838e-05            9.8e-13               -6.36e-12             -1.2824e-05          
  1.1                   1.331e-05             8e-13                 -1.336e-11            -1.3298e-05          
  1.15                  1.3792e-05            9.2e-13               -2.714e-11            -1.3776e-05          
  1.2                   1.4284e-05            9e-13                 -5.41e-11             -1.4268e-05          
  1.25                  1.4788e-05            8.6e-13               -1.1198e-10           -1.4774e-05          
  1.3                   1.531e-05             8.4e-13               -2.1474e-10           -1.5294e-05          
  1.35                  1.5836e-05            8.8e-13               -3.9224e-10           -1.5816e-05          
END_DB

BEGIN_DB
 ICCAP_VAR vg         0.984          
 ICCAP_VAR vb         -1.2           
 ICCAP_VAR vs         0              

 #vd                    id                    ig                    ib                    is                   
  0                     3.1734e-09            3.52e-12              -2.06e-12             -4.7282e-09          
  0.05                  5.6804e-06            3.26e-12              -2.1e-12              -5.6744e-06          
  0.1                   1.0238e-05            2.94e-12              -1.52e-12             -1.02326e-05         
  0.15                  1.3836e-05            2.76e-12              -1.76e-12             -1.3814e-05          
  0.2                   1.6638e-05            2.62e-12              -2.78e-12             -1.6622e-05          
  0.25                  1.8842e-05            2.58e-12              -2.76e-12             -1.883e-05           
  0.3                   2.062e-05             2.42e-12              -2.58e-12             -2.0594e-05          
  0.35                  2.2082e-05            2.3e-12               -2.48e-12             -2.205e-05           
  0.4                   2.3276e-05            2.3e-12               -2.28e-12             -2.327e-05           
  0.45                  2.4346e-05            2.14e-12              -1.88e-12             -2.434e-05           
  0.5                   2.533e-05             2.28e-12              -2.74e-12             -2.5312e-05          
  0.55                  2.6248e-05            2.14e-12              -3.26e-12             -2.6232e-05          
  0.6                   2.7134e-05            2.2e-12               -2.44e-12             -2.712e-05           
  0.65                  2.7994e-05            2.26e-12              -2.28e-12             -2.7974e-05          
  0.7                   2.884e-05             2.2e-12               -3.12e-12             -2.8828e-05          
  0.75                  2.9672e-05            2.14e-12              -2.02e-12             -2.9656e-05          
  0.8                   3.05e-05              2.02e-12              -2.18e-12             -3.0482e-05          
  0.85                  3.1318e-05            2.04e-12              -1.9e-12              -3.13e-05            
  0.9                   3.2136e-05            2.2e-12               -2.52e-12             -3.2114e-05          
  0.95                  3.2954e-05            2.12e-12              -3.74e-12             -3.2932e-05          
  1                     3.3766e-05            2.18e-12              -6.04e-12             -3.375e-05           
  1.05                  3.4582e-05            2.22e-12              -1.054e-11            -3.457e-05           
  1.1                   3.5404e-05            2.08e-12              -2.356e-11            -3.539e-05           
  1.15                  3.6246e-05            2.2e-12               -4.914e-11            -3.6228e-05          
  1.2                   3.7086e-05            2.16e-12              -9.798e-11            -3.7072e-05          
  1.25                  3.7934e-05            2.16e-12              -1.9584e-10           -3.792e-05           
  1.3                   3.8806e-05            2.18e-12              -3.7102e-10           -3.8784e-05          
  1.35                  3.9672e-05            2.08e-12              -6.7188e-10           -3.9648e-05          
END_DB

BEGIN_DB
 ICCAP_VAR vg         1.167          
 ICCAP_VAR vb         -1.2           
 ICCAP_VAR vs         0              

 #vd                    id                    ig                    ib                    is                   
  0                     1.3776e-08            7.6e-12               -6.8e-13              -1.3334e-08          
  0.05                  9.6846e-06            6.98e-12              -1.18e-12             -9.6728e-06          
  0.1                   1.802e-05             6.48e-12              -1.8e-12              -1.8002e-05          
  0.15                  2.496e-05             6.06e-12              -1.8e-12              -2.4914e-05          
  0.2                   3.058e-05             5.78e-12              -2.34e-12             -3.0558e-05          
  0.25                  3.5166e-05            5.42e-12              -1.8e-12              -3.5148e-05          
  0.3                   3.889e-05             5.16e-12              -1.9e-12              -3.8916e-05          
  0.35                  4.198e-05             5.14e-12              -2.34e-12             -4.196e-05           
  0.4                   4.4444e-05            4.9e-12               -1.6e-12              -4.4422e-05          
  0.45                  4.6562e-05            4.92e-12              -2e-12                -4.6552e-05          
  0.5                   4.8392e-05            4.92e-12              -2.4e-12              -4.8386e-05          
  0.55                  5.0008e-05            4.74e-12              -1.32e-12             -4.9996e-05          
  0.6                   5.1498e-05            4.74e-12              -1.78e-12             -5.147e-05           
  0.65                  5.2884e-05            4.7e-12               -1.54e-12             -5.2862e-05          
  0.7                   5.4196e-05            4.74e-12              -1.54e-12             -5.4176e-05          
  0.75                  5.5418e-05            4.72e-12              -2.36e-12             -5.5414e-05          
  0.8                   5.6634e-05            4.72e-12              -2.18e-12             -5.6626e-05          
  0.85                  5.7824e-05            4.72e-12              -1.78e-12             -5.7804e-05          
  0.9                   5.8988e-05            4.64e-12              -3.52e-12             -5.896e-05           
  0.95                  6.012e-05             4.52e-12              -5.42e-12             -6.0102e-05          
  1                     6.1246e-05            4.62e-12              -9.14e-12             -6.1232e-05          
  1.05                  6.2348e-05            4.58e-12              -1.85e-11             -6.2342e-05          
  1.1                   6.3468e-05            4.56e-12              -3.756e-11            -6.3466e-05          
  1.15                  6.4584e-05            4.5e-12               -7.548e-11            -6.457e-05           
  1.2                   6.569e-05             4.46e-12              -1.5012e-10           -6.5678e-05          
  1.25                  6.6824e-05            4.5e-12               -2.8612e-10           -6.6794e-05          
  1.3                   6.7948e-05            4.48e-12              -5.2562e-10           -6.792e-05           
  1.35                  6.9068e-05            4.52e-12              -9.3298e-10           -6.9044e-05          
END_DB

BEGIN_DB
 ICCAP_VAR vg         1.35           
 ICCAP_VAR vb         -1.2           
 ICCAP_VAR vs         0              

 #vd                    id                    ig                    ib                    is                   
  0                     1.8e-08               1.47e-11              -2.8e-13              -1.767e-08           
  0.05                  1.33e-05              1.358e-11             -7.2e-13              -1.3278e-05          
  0.1                   2.5206e-05            1.284e-11             -2.4e-13              -2.519e-05           
  0.15                  3.5508e-05            1.208e-11             -2.02e-12             -3.5472e-05          
  0.2                   4.4194e-05            1.158e-11             -1.78e-12             -4.4176e-05          
  0.25                  5.1412e-05            1.104e-11             -1.32e-12             -5.1414e-05          
  0.3                   5.7428e-05            1.056e-11             -1.34e-12             -5.7418e-05          
  0.35                  6.2364e-05            1.024e-11             -1.18e-12             -6.2324e-05          
  0.4                   6.6516e-05            1.012e-11             -7.8e-13              -6.6452e-05          
  0.45                  6.9936e-05            9.82e-12              -2.06e-12             -6.9928e-05          
  0.5                   7.2904e-05            9.56e-12              -1.68e-12             -7.2898e-05          
  0.55                  7.5454e-05            9.62e-12              -1.08e-12             -7.5424e-05          
  0.6                   7.7694e-05            9.36e-12              -2.26e-12             -7.7724e-05          
  0.65                  7.9714e-05            9.14e-12              -1.96e-12             -7.9698e-05          
  0.7                   8.157e-05             9.14e-12              -1.14e-12             -8.155e-05           
  0.75                  8.3328e-05            9.12e-12              -2.52e-12             -8.3266e-05          
  0.8                   8.49e-05              9.08e-12              -2.66e-12             -8.4884e-05          
  0.85                  8.6454e-05            9.02e-12              -1.54e-12             -8.6448e-05          
  0.9                   8.7952e-05            8.96e-12              -4.56e-12             -8.796e-05           
  0.95                  8.9402e-05            8.86e-12              -7.14e-12             -8.9368e-05          
  1                     9.079e-05             8.84e-12              -1.3e-11              -9.0764e-05          
  1.05                  9.2176e-05            8.96e-12              -2.736e-11            -9.216e-05           
  1.1                   9.3526e-05            8.84e-12              -5.3e-11              -9.3508e-05          
  1.15                  9.4866e-05            8.86e-12              -1.0348e-10           -9.488e-05           
  1.2                   9.6204e-05            8.82e-12              -1.9996e-10           -9.6202e-05          
  1.25                  9.7542e-05            8.84e-12              -3.6978e-10           -9.7506e-05          
  1.3                   9.8856e-05            8.76e-12              -6.62e-10             -9.884e-05           
  1.35                  0.000100188           8.72e-12              -1.1492e-09           -9.994e-05           
END_DB

