! VERSION = 6.00
BEGIN_HEADER
 ICCAP_INPUTS
  vd         V  D GROUND SMU1 0.1 LIN        1    0          1.35       28   0.05      
  vg         V  G GROUND SMU2 0.001 LIN        2    0.302      1.35       5    0.262     
  vb         V  B GROUND SMU4 0.1 CON        0
  vs         V  S GROUND SMU3 0.1 CON        0
 ICCAP_OUTPUTS
  id         I  D GROUND SMU1 B
  ig         I  G GROUND SMU2 B
  ib         I  B GROUND SMU4 B
  is         I  S GROUND SMU3 B
 ICCAP_VALUES
  MASTER_SETUP_TYPE "~dc_idvd~"
  LINVT_VALUE "|idvg|100.0n|100.0m|1.000m|5|1.350|"
  LISTVT_VALUE ""
  TYPE "1"
  TEMP " 27.0000 "
  IS_TNOM " 1.00000 "
  MAIN.W "10.00u"
  MAIN.L "1.200u"
  MAIN.AD "3.400p"
  MAIN.AS "3.400p"
  MAIN.PD "20.68u"
  MAIN.PS "20.68u"
  MAIN.NF "1.000"
  MAIN.M "1"
  MAIN.NRD "0.000"
  MAIN.NRS "0.000"
  MAIN.LDRIFT1 "1E-06"
  MAIN.LDRIFT2 "1E-06"
  MAIN.SA "0.000"
  MAIN.SB "0.000"
  MAIN.SD "0.000"
  MAIN.SCA "0.000"
  MAIN.SCB "0.000"
  MAIN.SCC "0.000"
  MAIN.SC "0.000"
  MODULE "S541"
  PIN_D "18"
  PIN_G "3"
  PIN_S "4"
  PIN_B "17"
  PIN_E ""
  PIN_6 ""
  XY_ID ""
  FUNC "L Scale"
  STI "SA ref"
  WPE "WPE ref"
  COMMENT ""
  DIS_MEAS ""
  TypeTCI "10"
END_HEADER

BEGIN_DB
 ICCAP_VAR vg         0.302          
 ICCAP_VAR vb         0              
 ICCAP_VAR vs         0              

 #vd                    id                    ig                    ib                    is                   
  0                     1.3616e-08            1.86e-11              8.8e-12               -1.0492e-08          
  0.05                  4.8918e-06            1.468e-11             6.28e-12              -4.887e-06           
  0.1                   6.554e-06             1.328e-11             6.42e-12              -6.55e-06            
  0.15                  7.1946e-06            1.268e-11             6.8e-12               -7.1916e-06          
  0.2                   7.5814e-06            1.226e-11             5.52e-12              -7.5772e-06          
  0.25                  7.8966e-06            1.192e-11             6.2e-12               -7.894e-06           
  0.3                   8.1842e-06            1.182e-11             6.02e-12              -8.1864e-06          
  0.35                  8.4558e-06            1.148e-11             5.02e-12              -8.449e-06           
  0.4                   8.7072e-06            1.126e-11             5.16e-12              -8.7048e-06          
  0.45                  8.9512e-06            1.108e-11             5.28e-12              -8.9472e-06          
  0.5                   9.1848e-06            1.074e-11             4.5e-12               -9.1814e-06          
  0.55                  9.409e-06             1.048e-11             5.62e-12              -9.4052e-06          
  0.6                   9.6246e-06            1.024e-11             4.58e-12              -9.6222e-06          
  0.65                  9.8346e-06            1.002e-11             3.34e-12              -9.8314e-06          
  0.7                   1.00374e-05           9.48e-12              4.82e-12              -1.00318e-05         
  0.75                  1.02304e-05           9.12e-12              3.32e-12              -1.02278e-05         
  0.8                   1.04196e-05           8.6e-12               3.12e-12              -1.04172e-05         
  0.85                  1.06018e-05           7.94e-12              4.42e-12              -1.0596e-05          
  0.9                   1.07758e-05           7.08e-12              3.74e-12              -1.07712e-05         
  0.95                  1.09456e-05           6.36e-12              2.06e-12              -1.09438e-05         
  1                     1.1118e-05            5.42e-12              -5.8e-13              -1.1105e-05          
  1.05                  1.1276e-05            4.42e-12              -5.96e-12             -1.12652e-05         
  1.1                   1.1432e-05            3.12e-12              -1.996e-11            -1.14168e-05         
  1.15                  1.158e-05             1.72e-12              -5.018e-11            -1.15662e-05         
  1.2                   1.1722e-05            2.2e-13               -1.0722e-10           -1.17094e-05         
  1.25                  1.186e-05             -1.46e-12             -2.0884e-10           -1.1844e-05          
  1.3                   1.1994e-05            -3.58e-12             -3.7944e-10           -1.1974e-05          
  1.35                  1.2126e-05            -5.84e-12             -6.4796e-10           -1.2104e-05          
END_DB

BEGIN_DB
 ICCAP_VAR vg         0.564          
 ICCAP_VAR vb         0              
 ICCAP_VAR vs         0              

 #vd                    id                    ig                    ib                    is                   
  0                     8.318e-08             2.284e-10             3.92e-12              -7.574e-08           
  0.05                  4.8e-05               1.9052e-10            1.76e-12              -4.7978e-05          
  0.1                   8.4724e-05            1.6348e-10            2.52e-12              -8.4712e-05          
  0.15                  0.000110094           1.4572e-10            2.64e-12              -0.00011006          
  0.2                   0.00012562            1.3538e-10            3.22e-12              -0.00012522          
  0.25                  0.00013414            1.2952e-10            2.16e-12              -0.00013372          
  0.3                   0.00013906            1.2632e-10            2.18e-12              -0.00013868          
  0.35                  0.00014246            1.2416e-10            2.58e-12              -0.00014206          
  0.4                   0.00014512            1.2246e-10            1.1e-12               -0.00014476          
  0.45                  0.00014748            1.2098e-10            1.82e-12              -0.0001471           
  0.5                   0.0001496             1.1974e-10            3e-12                 -0.00014924          
  0.55                  0.00015162            1.1854e-10            1.9e-12               -0.00015124          
  0.6                   0.00015352            1.1734e-10            1.4e-12               -0.00015314          
  0.65                  0.00015534            1.1646e-10            1.54e-12              -0.00015496          
  0.7                   0.00015708            1.153e-10             1.3e-12               -0.0001567           
  0.75                  0.00015878            1.1418e-10            2.16e-12              -0.0001584           
  0.8                   0.0001604             1.1328e-10            2.1e-12               -0.00016004          
  0.85                  0.000162              1.123e-10             5.6e-13               -0.00016162          
  0.9                   0.00016356            1.112e-10             1.9e-12               -0.00016316          
  0.95                  0.00016502            1.103e-10             1.34e-12              -0.00016468          
  1                     0.00016652            1.091e-10             2e-13                 -0.00016614          
  1.05                  0.00016794            1.0792e-10            2e-14                 -0.00016756          
  1.1                   0.00016934            1.0682e-10            -5.42e-12             -0.00016894          
  1.15                  0.00017068            1.057e-10             -2.114e-11            -0.00017032          
  1.2                   0.00017202            1.0404e-10            -5.852e-11            -0.00017164          
  1.25                  0.00017332            1.0254e-10            -1.5404e-10           -0.00017294          
  1.3                   0.00017458            1.0108e-10            -3.6538e-10           -0.00017422          
  1.35                  0.00017584            9.936e-11             -7.961e-10            -0.00017546          
END_DB

BEGIN_DB
 ICCAP_VAR vg         0.826          
 ICCAP_VAR vb         0              
 ICCAP_VAR vs         0              

 #vd                    id                    ig                    ib                    is                   
  0                     2.3682e-07            1.243e-09             3.02e-12              -1.17156e-07         
  0.05                  9.4238e-05            1.086e-09             2.08e-12              -9.4212e-05          
  0.1                   0.0001791             9.548e-10             2.44e-12              -0.00017868          
  0.15                  0.00025364            8.4874e-10            1e-12                 -0.00025326          
  0.2                   0.00031732            7.646e-10             1.98e-12              -0.00031694          
  0.25                  0.00036966            6.992e-10             3.8e-13               -0.00036928          
  0.3                   0.00041034            6.511e-10             1.06e-12              -0.00041             
  0.35                  0.0004399             6.1752e-10            2.34e-12              -0.00043952          
  0.4                   0.00045998            5.9536e-10            1.24e-12              -0.0004596           
  0.45                  0.00047312            5.8106e-10            1.1e-12               -0.0004727           
  0.5                   0.00048204            5.7134e-10            1.64e-12              -0.00048164          
  0.55                  0.00048856            5.6454e-10            5.8e-13               -0.00048822          
  0.6                   0.00049382            5.59e-10              1.18e-12              -0.00049346          
  0.65                  0.00049836            5.5442e-10            2.12e-12              -0.00049798          
  0.7                   0.0005024             5.5038e-10            1.34e-12              -0.00050202          
  0.75                  0.00050618            5.4664e-10            1.2e-12               -0.00050578          
  0.8                   0.00050976            5.4318e-10            2.12e-12              -0.0005094           
  0.85                  0.00051314            5.4e-10               4.4e-13               -0.00051278          
  0.9                   0.0005164             5.3668e-10            7.4e-13               -0.00051602          
  0.95                  0.00051954            5.3374e-10            1.64e-12              -0.00051916          
  1                     0.00052258            5.3082e-10            3e-13                 -0.00052222          
  1.05                  0.0005255             5.2788e-10            1.16e-12              -0.00052514          
  1.1                   0.0005284             5.2514e-10            -2.4e-13              -0.00052802          
  1.15                  0.00053116            5.221e-10             -1.26e-12             -0.0005308           
  1.2                   0.0005339             5.1948e-10            -4.5e-12              -0.0005335           
  1.25                  0.00053654            5.1664e-10            -1.412e-11            -0.00053614          
  1.3                   0.00053908            5.1396e-10            -3.994e-11            -0.00053872          
  1.35                  0.00054162            5.1104e-10            -1.0314e-10           -0.00054124          
END_DB

BEGIN_DB
 ICCAP_VAR vg         1.088          
 ICCAP_VAR vb         0              
 ICCAP_VAR vs         0              

 #vd                    id                    ig                    ib                    is                   
  0                     3.5306e-07            4.4586e-09            2e-12                 -1.5282e-07          
  0.05                  0.00013044            4.0112e-09            8.2e-13               -0.00013008          
  0.1                   0.0002535             3.6184e-09            1.4e-12               -0.00025312          
  0.15                  0.00036864            3.2766e-09            1.72e-12              -0.00036828          
  0.2                   0.0004752             2.983e-09             9.2e-13               -0.00047482          
  0.25                  0.0005726             2.7314e-09            6.2e-13               -0.00057222          
  0.3                   0.00066018            2.519e-09             1.5e-12               -0.00065982          
  0.35                  0.00073742            2.3424e-09            4.8e-13               -0.00073702          
  0.4                   0.0008037             2.198e-09             1.1e-12               -0.00080334          
  0.45                  0.0008587             2.0838e-09            1.76e-12              -0.00085832          
  0.5                   0.00090258            1.9956e-09            -1.2e-13              -0.0009023           
  0.55                  0.00093612            1.9304e-09            7.2e-13               -0.0009357           
  0.6                   0.00096052            1.884e-09             1.14e-12              -0.0009602           
  0.65                  0.00097792            1.8508e-09            -5e-13                -0.00097756          
  0.7                   0.00099054            1.8276e-09            9.6e-13               -0.00099012          
  0.75                  0.00100006            1.8102e-09            1.28e-12              -0.00099968          
  0.8                   0.00100772            1.7966e-09            8.8e-13               -0.00100726          
  0.85                  0.00101422            1.7848e-09            3.4e-13               -0.00101384          
  0.9                   0.00102004            1.7744e-09            6e-13                 -0.00101964          
  0.95                  0.00102536            1.765e-09             3.6e-13               -0.00102496          
  1                     0.00103034            1.7562e-09            6.8e-13               -0.00102996          
  1.05                  0.00103506            1.7484e-09            1.58e-12              -0.00103462          
  1.1                   0.00103954            1.74e-09              2e-13                 -0.00103916          
  1.15                  0.00104378            1.7324e-09            3e-13                 -0.0010434           
  1.2                   0.0010479             1.7252e-09            2.8e-13               -0.00104762          
  1.25                  0.001052              1.7184e-09            -1e-12                -0.00105158          
  1.3                   0.00105582            1.712e-09             -3.04e-12             -0.00105548          
  1.35                  0.00105968            1.7052e-09            -7.64e-12             -0.0010593           
END_DB

BEGIN_DB
 ICCAP_VAR vg         1.35           
 ICCAP_VAR vb         0              
 ICCAP_VAR vs         0              

 #vd                    id                    ig                    ib                    is                   
  0                     4.3516e-07            1.2326e-08            -1.006e-11            -1.7592e-07          
  0.05                  0.00015534            1.13e-08              -8.58e-12             -0.00015496          
  0.1                   0.00030546            1.0376e-08            -5.4e-12              -0.0003051           
  0.15                  0.00044988            9.5458e-09            -4.8e-12              -0.0004495           
  0.2                   0.00058792            8.8056e-09            -3.4e-12              -0.00058754          
  0.25                  0.00071906            8.144e-09             -1.78e-12             -0.0007187           
  0.3                   0.00084268            7.5582e-09            -2.1e-12              -0.00084232          
  0.35                  0.00095818            7.0414e-09            -2.18e-12             -0.00095782          
  0.4                   0.00106496            6.588e-09             -9e-13                -0.0010646           
  0.45                  0.0011632             6.1964e-09            -7.2e-13              -0.0011614           
  0.5                   0.0012508             5.859e-09             -1.3e-12              -0.0012492           
  0.55                  0.0013286             5.5738e-09            -1.22e-12             -0.0013268           
  0.6                   0.0013956             5.3358e-09            -2.6e-13              -0.0013938           
  0.65                  0.001452              5.1426e-09            -1.24e-12             -0.0014502           
  0.7                   0.001498              4.9894e-09            -1.14e-12             -0.0014962           
  0.75                  0.001534              4.8704e-09            -2.6e-13              -0.0015322           
  0.8                   0.0015614             4.7826e-09            -1.44e-12             -0.0015598           
  0.85                  0.0015822             4.7164e-09            -1.52e-12             -0.0015804           
  0.9                   0.0015978             4.6668e-09            -8e-14                -0.001596            
  0.95                  0.00161               4.6292e-09            -1.34e-12             -0.0016082           
  1                     0.0016196             4.5988e-09            -8.2e-13              -0.001618            
  1.05                  0.0016278             4.5732e-09            2.4e-13               -0.0016262           
  1.1                   0.0016352             4.5508e-09            -1.46e-12             -0.0016334           
  1.15                  0.0016416             4.5312e-09            -1.42e-12             -0.00164             
  1.2                   0.0016478             4.5128e-09            -3.4e-13              -0.001646            
  1.25                  0.0016534             4.4948e-09            -2.44e-12             -0.0016516           
  1.3                   0.0016588             4.4786e-09            -9.4e-13              -0.001657            
  1.35                  0.0016638             4.4626e-09            -1.14e-12             -0.001662            
END_DB

