! VERSION = 6.00
BEGIN_HEADER
 ICCAP_INPUTS
  vd         V  D GROUND SMU1 0.1 LIN        1    0          1.35       28   0.05      
  vg         V  G GROUND SMU2 0.001 LIN        2    0.382      1.35       5    0.242     
  vb         V  B GROUND SMU4 0.1 CON        -1.2
  vs         V  S GROUND SMU3 0.1 CON        0
 ICCAP_OUTPUTS
  id         I  D GROUND SMU1 B
  ig         I  G GROUND SMU2 B
  ib         I  B GROUND SMU4 B
  is         I  S GROUND SMU3 B
 ICCAP_VALUES
  MASTER_SETUP_TYPE "~dc_idvd~"
  LINVT_VALUE "|idvg|100.0n|100.0m|1.000m|5|1.350|"
  LISTVT_VALUE ""
  TYPE "1"
  TEMP " 27.0000 "
  IS_TNOM " 1.00000 "
  MAIN.W "600.0n"
  MAIN.L "10.00u"
  MAIN.AD "204.0f"
  MAIN.AS "204.0f"
  MAIN.PD "1.880u"
  MAIN.PS "1.880u"
  MAIN.NF "1.000"
  MAIN.M "1"
  MAIN.NRD "0.000"
  MAIN.NRS "0.000"
  MAIN.LDRIFT1 "1E-06"
  MAIN.LDRIFT2 "1E-06"
  MAIN.SA "0.000"
  MAIN.SB "0.000"
  MAIN.SD "0.000"
  MAIN.SCA "0.000"
  MAIN.SCB "0.000"
  MAIN.SCC "0.000"
  MAIN.SC "0.000"
  MODULE "S544"
  PIN_D "20"
  PIN_G "1"
  PIN_S "2"
  PIN_B "19"
  PIN_E ""
  PIN_6 ""
  XY_ID ""
  FUNC "W Scale"
  STI "SA ref"
  WPE "WPE ref"
  COMMENT ""
  DIS_MEAS ""
  TypeTCI "10"
END_HEADER

BEGIN_DB
 ICCAP_VAR vg         0.382          
 ICCAP_VAR vb         -1.2           
 ICCAP_VAR vs         0              

 #vd                    id                    ig                    ib                    is                   
  0                     1.0252e-10            2.168e-11             -1.444e-11            -9.972e-11           
  0.05                  4.1466e-08            1.69e-11              -1.324e-11            -4.1468e-08          
  0.1                   5.7614e-08            1.512e-11             -1.24e-11             -5.7614e-08          
  0.15                  6.3496e-08            1.43e-11              -1.162e-11            -6.349e-08           
  0.2                   6.646e-08             1.39e-11              -1.048e-11            -6.646e-08           
  0.25                  6.8678e-08            1.368e-11             -1.044e-11            -6.8668e-08          
  0.3                   7.0618e-08            1.334e-11             -1.066e-11            -7.061e-08           
  0.35                  7.2394e-08            1.316e-11             -1.024e-11            -7.2372e-08          
  0.4                   7.4016e-08            1.3e-11               -9.12e-12             -7.4006e-08          
  0.45                  7.5572e-08            1.27e-11              -9.08e-12             -7.5572e-08          
  0.5                   7.7068e-08            1.262e-11             -9.22e-12             -7.7066e-08          
  0.55                  7.8436e-08            1.236e-11             -9.16e-12             -7.8438e-08          
  0.6                   7.9738e-08            1.232e-11             -7.72e-12             -7.9752e-08          
  0.65                  8.0972e-08            1.206e-11             -7.08e-12             -8.1006e-08          
  0.7                   8.2124e-08            1.188e-11             -8.04e-12             -8.2138e-08          
  0.75                  8.3178e-08            1.168e-11             -7.78e-12             -8.319e-08           
  0.8                   8.4238e-08            1.144e-11             -7.32e-12             -8.4208e-08          
  0.85                  8.5158e-08            1.14e-11              -6.92e-12             -8.5154e-08          
  0.9                   8.6098e-08            1.122e-11             -6.68e-12             -8.6108e-08          
  0.95                  8.6912e-08            1.112e-11             -7.28e-12             -8.692e-08           
  1                     8.7714e-08            1.088e-11             -6.82e-12             -8.771e-08           
  1.05                  8.8392e-08            1.078e-11             -5.86e-12             -8.8414e-08          
  1.1                   8.9126e-08            1.058e-11             -6.36e-12             -8.9086e-08          
  1.15                  8.9714e-08            1.06e-11              -7.24e-12             -8.9694e-08          
  1.2                   9.0316e-08            1.03e-11              -7.66e-12             -9.0276e-08          
  1.25                  9.081e-08             1.016e-11             -7.48e-12             -9.0844e-08          
  1.3                   9.1302e-08            9.94e-12              -7.62e-12             -9.1318e-08          
  1.35                  9.1774e-08            9.76e-12              -1.024e-11            -9.1738e-08          
END_DB

BEGIN_DB
 ICCAP_VAR vg         0.624          
 ICCAP_VAR vb         -1.2           
 ICCAP_VAR vs         0              

 #vd                    id                    ig                    ib                    is                   
  0                     3.8484e-10            1.9586e-10            -3.28e-12             -5.945e-10           
  0.05                  2.925e-07             1.6482e-10            -4.1e-12              -2.9258e-07          
  0.1                   5.205e-07             1.4224e-10            -2.94e-12             -5.2052e-07          
  0.15                  6.7958e-07            1.2736e-10            -3.94e-12             -6.7968e-07          
  0.2                   7.7404e-07            1.1858e-10            -3.82e-12             -7.741e-07           
  0.25                  8.2386e-07            1.1418e-10            -4e-12                -8.2392e-07          
  0.3                   8.5096e-07            1.118e-10             -3.68e-12             -8.5106e-07          
  0.35                  8.687e-07             1.1018e-10            -4.3e-12              -8.6874e-07          
  0.4                   8.8252e-07            1.0904e-10            -4.5e-12              -8.8262e-07          
  0.45                  8.9448e-07            1.0794e-10            -4.36e-12             -8.9454e-07          
  0.5                   9.053e-07             1.07e-10              -2.58e-12             -9.0538e-07          
  0.55                  9.154e-07             1.061e-10             -3.56e-12             -9.1544e-07          
  0.6                   9.2478e-07            1.0532e-10            -4.12e-12             -9.249e-07           
  0.65                  9.3364e-07            1.0448e-10            -3.74e-12             -9.337e-07           
  0.7                   9.4186e-07            1.0382e-10            -3.02e-12             -9.4196e-07          
  0.75                  9.4974e-07            1.0314e-10            -3.6e-12              -9.4974e-07          
  0.8                   9.571e-07             1.0256e-10            -4.08e-12             -9.5722e-07          
  0.85                  9.6412e-07            1.0196e-10            -3.2e-12              -9.6422e-07          
  0.9                   9.7078e-07            1.0136e-10            -2.2e-12              -9.7084e-07          
  0.95                  9.7706e-07            1.0064e-10            -3.38e-12             -9.7718e-07          
  1                     9.8302e-07            1.0014e-10            -3.62e-12             -9.831e-07           
  1.05                  9.8866e-07            9.974e-11             -2.4e-12              -9.8874e-07          
  1.1                   9.9392e-07            9.924e-11             -2.9e-12              -9.9408e-07          
  1.15                  9.989e-07             9.88e-11              -3.26e-12             -9.9902e-07          
  1.2                   1.00374e-06           9.84e-11              -3.86e-12             -1.00372e-06         
  1.25                  1.00818e-06           9.788e-11             -3.76e-12             -1.00824e-06         
  1.3                   1.01236e-06           9.76e-11              -4.72e-12             -1.01244e-06         
  1.35                  1.0163e-06            9.712e-11             -7.88e-12             -1.01642e-06         
END_DB

BEGIN_DB
 ICCAP_VAR vg         0.866          
 ICCAP_VAR vb         -1.2           
 ICCAP_VAR vs         0              

 #vd                    id                    ig                    ib                    is                   
  0                     4.7668e-10            8.816e-10             -2.32e-12             -1.2916e-09          
  0.05                  5.441e-07             7.7282e-10            -3.14e-12             -5.4484e-07          
  0.1                   1.03438e-06           6.825e-10             -3.6e-12              -1.03508e-06         
  0.15                  1.4698e-06            6.082e-10             -1.9e-12              -1.4664e-06          
  0.2                   1.844e-06             5.4884e-10            -2.9e-12              -1.8406e-06          
  0.25                  2.155e-06             5.0258e-10            -2.44e-12             -2.1516e-06          
  0.3                   2.3974e-06            4.6842e-10            -1.88e-12             -2.3938e-06          
  0.35                  2.567e-06             4.4532e-10            -2.52e-12             -2.5636e-06          
  0.4                   2.6712e-06            4.3174e-10            -1.96e-12             -2.6678e-06          
  0.45                  2.7312e-06            4.2386e-10            -1.62e-12             -2.7276e-06          
  0.5                   2.7686e-06            4.1906e-10            -3.2e-13              -2.765e-06           
  0.55                  2.7958e-06            4.156e-10             -2.8e-12              -2.7924e-06          
  0.6                   2.818e-06             4.1266e-10            -1.06e-12             -2.8146e-06          
  0.65                  2.8374e-06            4.103e-10             -2.88e-12             -2.834e-06           
  0.7                   2.855e-06             4.0816e-10            -2.22e-12             -2.8514e-06          
  0.75                  2.8714e-06            4.061e-10             -1.7e-12              -2.8678e-06          
  0.8                   2.8866e-06            4.0438e-10            -2.92e-12             -2.883e-06           
  0.85                  2.9008e-06            4.0242e-10            -2.86e-12             -2.8974e-06          
  0.9                   2.9144e-06            4.007e-10             -1.78e-12             -2.911e-06           
  0.95                  2.927e-06             3.9934e-10            -3.64e-12             -2.9236e-06          
  1                     2.9394e-06            3.9788e-10            -2.38e-12             -2.9358e-06          
  1.05                  2.951e-06             3.964e-10             -1.16e-12             -2.9476e-06          
  1.1                   2.962e-06             3.9496e-10            -2.58e-12             -2.9586e-06          
  1.15                  2.9724e-06            3.9392e-10            -2.42e-12             -2.969e-06           
  1.2                   2.9824e-06            3.9272e-10            -1.16e-12             -2.9788e-06          
  1.25                  2.992e-06             3.9138e-10            -2.8e-12              -2.9886e-06          
  1.3                   3.0008e-06            3.9024e-10            -2.12e-12             -2.9974e-06          
  1.35                  3.0094e-06            3.891e-10             -1.5e-12              -3.0058e-06          
END_DB

BEGIN_DB
 ICCAP_VAR vg         1.108          
 ICCAP_VAR vb         -1.2           
 ICCAP_VAR vs         0              

 #vd                    id                    ig                    ib                    is                   
  0                     -1.5438e-10           2.8166e-09            -1.52e-12             -2.4712e-09          
  0.05                  7.5112e-07            2.5342e-09            -1.92e-12             -7.5364e-07          
  0.1                   1.4616e-06            2.2874e-09            -2.08e-12             -1.4598e-06          
  0.15                  2.1242e-06            2.0734e-09            -1.32e-12             -2.1224e-06          
  0.2                   2.738e-06             1.8896e-09            -2.2e-12              -2.736e-06           
  0.25                  3.3012e-06            1.7326e-09            -2.9e-12              -3.2992e-06          
  0.3                   3.811e-06             1.5994e-09            -1.62e-12             -3.8088e-06          
  0.35                  4.2644e-06            1.4886e-09            -1.94e-12             -4.262e-06           
  0.4                   4.6586e-06            1.3978e-09            -2.62e-12             -4.6564e-06          
  0.45                  4.9888e-06            1.3254e-09            2e-13                 -4.9862e-06          
  0.5                   5.251e-06             1.2708e-09            -1.76e-12             -5.2484e-06          
  0.55                  5.441e-06             1.2322e-09            -2.56e-12             -5.4382e-06          
  0.6                   5.5646e-06            1.2078e-09            -1.68e-12             -5.5618e-06          
  0.65                  5.6408e-06            1.1932e-09            -1.82e-12             -5.6382e-06          
  0.7                   5.6902e-06            1.1838e-09            -2.4e-12              -5.6874e-06          
  0.75                  5.7258e-06            1.177e-09             -1.7e-12              -5.7228e-06          
  0.8                   5.7546e-06            1.1714e-09            -1.12e-12             -5.7522e-06          
  0.85                  5.78e-06              1.1668e-09            -2.3e-12              -5.7772e-06          
  0.9                   5.8028e-06            1.1622e-09            -2.32e-12             -5.8e-06             
  0.95                  5.8234e-06            1.1586e-09            -5.8e-13              -5.8212e-06          
  1                     5.8434e-06            1.1548e-09            -2.18e-12             -5.8408e-06          
  1.05                  5.8622e-06            1.1512e-09            -2.48e-12             -5.8592e-06          
  1.1                   5.8792e-06            1.148e-09             -6e-13                -5.8766e-06          
  1.15                  5.896e-06             1.145e-09             -1.98e-12             -5.8932e-06          
  1.2                   5.9116e-06            1.142e-09             -2.4e-12              -5.9088e-06          
  1.25                  5.9266e-06            1.1392e-09            -1.02e-12             -5.9238e-06          
  1.3                   5.941e-06             1.1368e-09            -2.1e-12              -5.9386e-06          
  1.35                  5.955e-06             1.1342e-09            -2.08e-12             -5.9524e-06          
END_DB

BEGIN_DB
 ICCAP_VAR vg         1.35           
 ICCAP_VAR vb         -1.2           
 ICCAP_VAR vs         0              

 #vd                    id                    ig                    ib                    is                   
  0                     -1.9832e-09           7.2388e-09            -5.5e-12              -4.6104e-09          
  0.05                  9.059e-07             6.6272e-09            -5.92e-12             -9.125e-07           
  0.1                   1.784e-06             6.078e-09             -5.12e-12             -1.7862e-06          
  0.15                  2.6252e-06            5.587e-09             -3.56e-12             -2.6272e-06          
  0.2                   3.429e-06             5.1502e-09            -3.38e-12             -3.4302e-06          
  0.25                  4.1928e-06            4.7632e-09            -3.62e-12             -4.1936e-06          
  0.3                   4.9146e-06            4.421e-09             -2.54e-12             -4.9152e-06          
  0.35                  5.592e-06             4.1206e-09            -2.9e-12              -5.5922e-06          
  0.4                   6.2222e-06            3.8582e-09            -2.6e-12              -6.2228e-06          
  0.45                  6.8026e-06            3.6308e-09            -2.32e-12             -6.8022e-06          
  0.5                   7.331e-06             3.4352e-09            -2.3e-12              -7.3304e-06          
  0.55                  7.8046e-06            3.2686e-09            -6.6e-13              -7.804e-06           
  0.6                   8.22e-06              3.1298e-09            -2.16e-12             -8.2196e-06          
  0.65                  8.5734e-06            3.0174e-09            -1.6e-12              -8.5724e-06          
  0.7                   8.8594e-06            2.9292e-09            -2.94e-12             -8.8588e-06          
  0.75                  9.0754e-06            2.8642e-09            -3e-12                -9.0746e-06          
  0.8                   9.2256e-06            2.8208e-09            -1.44e-12             -9.2242e-06          
  0.85                  9.3214e-06            2.793e-09             -2.5e-12              -9.3206e-06          
  0.9                   9.385e-06             2.7748e-09            -2.94e-12             -9.3838e-06          
  0.95                  9.4302e-06            2.7618e-09            -1.24e-12             -9.4292e-06          
  1                     9.466e-06             2.7518e-09            -2.36e-12             -9.4656e-06          
  1.05                  9.4974e-06            2.7432e-09            -2.86e-12             -9.4964e-06          
  1.1                   9.5242e-06            2.7358e-09            -1.58e-12             -9.5232e-06          
  1.15                  9.5494e-06            2.7286e-09            -2.14e-12             -9.5482e-06          
  1.2                   9.5724e-06            2.722e-09             -3.12e-12             -9.572e-06           
  1.25                  9.5948e-06            2.716e-09             -2.02e-12             -9.5938e-06          
  1.3                   9.615e-06             2.71e-09              -2.1e-12              -9.6144e-06          
  1.35                  9.635e-06             2.705e-09             -2.3e-12              -9.634e-06           
END_DB

