! VERSION = 6.00
BEGIN_HEADER
 ICCAP_INPUTS
  vd         V  D GROUND SMU1 0.1 LIN        1    0          1.35       28   0.05      
  vg         V  G GROUND SMU2 0.001 LIST       2 3 0.271 0.471 0.671
  vb         V  B GROUND SMU4 0.1 CON        -1.2
  vs         V  S GROUND SMU3 0.1 CON        0
 ICCAP_OUTPUTS
  id         I  D GROUND SMU1 B
  ig         I  G GROUND SMU2 B
  ib         I  B GROUND SMU4 B
  is         I  S GROUND SMU3 B
 ICCAP_VALUES
  MASTER_SETUP_TYPE "~dc_idvd~"
  LINVT_VALUE ""
  LISTVT_VALUE "|idvg|100.0n|-200.0m|1.000m|3|200.0m|200.0m|"
  TYPE "1"
  TEMP " 27.0000 "
  IS_TNOM " 1.00000 "
  MAIN.W "5.000u"
  MAIN.L "130.0n"
  MAIN.AD "1.700p"
  MAIN.AS "1.700p"
  MAIN.PD "10.68u"
  MAIN.PS "10.68u"
  MAIN.NF "1.000"
  MAIN.M "1"
  MAIN.NRD "0.000"
  MAIN.NRS "0.000"
  MAIN.LDRIFT1 "1E-06"
  MAIN.LDRIFT2 "1E-06"
  MAIN.SA "0.000"
  MAIN.SB "0.000"
  MAIN.SD "0.000"
  MAIN.SCA "0.000"
  MAIN.SCB "0.000"
  MAIN.SCC "0.000"
  MAIN.SC "0.000"
  MODULE "S542"
  PIN_D "20"
  PIN_G "1"
  PIN_S "2"
  PIN_B "19"
  PIN_E ""
  PIN_6 ""
  XY_ID ""
  FUNC "LW Scale"
  STI "SA ref"
  WPE "WPE ref"
  COMMENT ""
  DIS_MEAS ""
  TypeTCI "10"
END_HEADER

BEGIN_DB
 ICCAP_VAR vg         0.271          
 ICCAP_VAR vb         -1.2           
 ICCAP_VAR vs         0              

 #vd                    id                    ig                    ib                    is                   
  0                     1.286e-11             3e-13                 -6.36e-12             -8.68e-12            
  0.05                  3.3134e-09            3e-13                 -4.44e-12             -3.3104e-09          
  0.1                   4.3466e-09            2e-13                 -5.08e-12             -4.3386e-09          
  0.15                  5.0284e-09            2.4e-13               -5.4e-12              -5.0268e-09          
  0.2                   5.7138e-09            2.4e-13               -5.08e-12             -5.7132e-09          
  0.25                  6.4658e-09            2.6e-13               -4.04e-12             -6.4584e-09          
  0.3                   7.3008e-09            1.2e-13               -3.96e-12             -7.296e-09           
  0.35                  8.2192e-09            2e-13                 -3.8e-12              -8.2144e-09          
  0.4                   9.2516e-09            1.2e-13               -3.66e-12             -9.2422e-09          
  0.45                  1.03812e-08           0                     -3.7e-12              -1.0374e-08          
  0.5                   1.165e-08             1.2e-13               -2.7e-12              -1.1628e-08          
  0.55                  1.3048e-08            6e-14                 -3.6e-12              -1.302e-08           
  0.6                   1.4598e-08            0                     -3.1e-12              -1.458e-08           
  0.65                  1.6314e-08            -1.6e-13              -2.04e-12             -1.6304e-08          
  0.7                   1.8232e-08            -2.2e-13              -2.68e-12             -1.8206e-08          
  0.75                  2.0328e-08            -4.6e-13              -2.16e-12             -2.0306e-08          
  0.8                   2.2652e-08            -6.2e-13              -3.02e-12             -2.266e-08           
  0.85                  2.5248e-08            -1e-12                -3.08e-12             -2.521e-08           
  0.9                   2.808e-08             -1.3e-12              -1.48e-12             -2.8068e-08          
  0.95                  3.121e-08             -1.74e-12             -2.82e-12             -3.1192e-08          
  1                     3.4674e-08            -2.36e-12             -3.08e-12             -3.465e-08           
  1.05                  3.8516e-08            -3.02e-12             -2.94e-12             -3.8474e-08          
  1.1                   4.2724e-08            -3.8e-12              -2.78e-12             -4.271e-08           
  1.15                  4.7424e-08            -4.74e-12             -3.48e-12             -4.736e-08           
  1.2                   5.252e-08             -5.78e-12             -5.36e-12             -5.2488e-08          
  1.25                  5.8144e-08            -6.96e-12             -8.48e-12             -5.8102e-08          
  1.3                   6.4368e-08            -8.32e-12             -1.162e-11            -6.4282e-08          
  1.35                  7.1214e-08            -1.004e-11            -1.7e-11              -7.1126e-08          
END_DB

BEGIN_DB
 ICCAP_VAR vg         0.471          
 ICCAP_VAR vb         -1.2           
 ICCAP_VAR vs         0              

 #vd                    id                    ig                    ib                    is                   
  0                     2.23e-09              3.24e-12              -6e-13                -2.0604e-09          
  0.05                  1.11478e-06           2.72e-12              -1.7e-12              -1.11386e-06         
  0.1                   1.53e-06              2.28e-12              -1.92e-12             -1.524e-06           
  0.15                  1.788e-06             2.14e-12              -1.74e-12             -1.7844e-06          
  0.2                   2.0242e-06            1.94e-12              -2.06e-12             -2.0216e-06          
  0.25                  2.2652e-06            1.94e-12              -9.6e-13              -2.2604e-06          
  0.3                   2.5158e-06            1.82e-12              -1.64e-12             -2.511e-06           
  0.35                  2.7904e-06            1.9e-12               -2.02e-12             -2.7844e-06          
  0.4                   3.083e-06             1.96e-12              -7.8e-13              -3.077e-06           
  0.45                  3.3958e-06            1.84e-12              -2.12e-12             -3.3926e-06          
  0.5                   3.7298e-06            1.96e-12              -2.2e-12              -3.7254e-06          
  0.55                  4.094e-06             1.84e-12              -4.4e-13              -4.0892e-06          
  0.6                   4.4782e-06            1.88e-12              -1.18e-12             -4.4728e-06          
  0.65                  4.8982e-06            1.84e-12              -1.94e-12             -4.8934e-06          
  0.7                   5.3412e-06            1.82e-12              -1.54e-12             -5.3386e-06          
  0.75                  5.81e-06              1.82e-12              -1.74e-12             -5.8118e-06          
  0.8                   6.3088e-06            1.72e-12              -1.56e-12             -6.3198e-06          
  0.85                  6.8652e-06            1.5e-12               -8.6e-13              -6.8608e-06          
  0.9                   7.4424e-06            1.42e-12              -2.06e-12             -7.434e-06           
  0.95                  8.0508e-06            1.2e-12               -3.1e-12              -8.0514e-06          
  1                     8.7044e-06            1.02e-12              -5.16e-12             -8.6952e-06          
  1.05                  9.385e-06             7.8e-13               -1.24e-11             -9.3864e-06          
  1.1                   1.01226e-05           3e-13                 -2.822e-11            -1.01082e-05         
  1.15                  1.08984e-05           -8e-14                -6.086e-11            -1.08762e-05         
  1.2                   1.173e-05             -6.8e-13              -1.2948e-10           -1.1698e-05          
  1.25                  1.2538e-05            -1.26e-12             -2.5678e-10           -1.2548e-05          
  1.3                   1.3478e-05            -2.08e-12             -4.804e-10            -1.3472e-05          
  1.35                  1.4442e-05            -3.04e-12             -8.5202e-10           -1.4412e-05          
END_DB

BEGIN_DB
 ICCAP_VAR vg         0.671          
 ICCAP_VAR vb         -1.2           
 ICCAP_VAR vs         0              

 #vd                    id                    ig                    ib                    is                   
  0                     7.1966e-08            1.862e-11             -1.6e-13              -6.4946e-08          
  0.05                  3.6416e-05            1.564e-11             -1.4e-12              -3.6348e-05          
  0.1                   5.8212e-05            1.358e-11             -1.04e-12             -5.8202e-05          
  0.15                  7.1976e-05            1.214e-11             -1.34e-12             -7.1952e-05          
  0.2                   8.1604e-05            1.124e-11             -9.2e-13              -8.162e-05           
  0.25                  8.9142e-05            1.072e-11             -7.2e-13              -8.924e-05           
  0.3                   9.5708e-05            1.04e-11              -1.4e-12              -9.5788e-05          
  0.35                  0.000101862           1.018e-11             -2.04e-12             -0.00010189          
  0.4                   0.000107884           1.004e-11             -4e-13                -0.000107854         
  0.45                  0.000113746           9.92e-12              -1.76e-12             -0.000113678         
  0.5                   0.00011968            9.92e-12              -3.8e-13              -0.0001193           
  0.55                  0.00012554            9.88e-12              -1.5e-12              -0.00012508          
  0.6                   0.00013138            9.86e-12              -8.6e-13              -0.00013102          
  0.65                  0.00013736            9.78e-12              -1.52e-12             -0.00013698          
  0.7                   0.00014338            9.76e-12              -1.44e-12             -0.00014306          
  0.75                  0.00014958            9.74e-12              0                     -0.00014918          
  0.8                   0.0001557             9.72e-12              -4.6e-13              -0.0001553           
  0.85                  0.000162              9.7e-12               -2.1e-12              -0.00016162          
  0.9                   0.00016838            9.76e-12              -2.38e-12             -0.00016808          
  0.95                  0.00017492            9.62e-12              -6.64e-12             -0.00017462          
  1                     0.00018144            9.54e-12              -1.654e-11            -0.0001811           
  1.05                  0.00018814            9.44e-12              -4.274e-11            -0.00018776          
  1.1                   0.00019492            9.28e-12              -1.126e-10            -0.0001946           
  1.15                  0.0002018             9.06e-12              -2.7052e-10           -0.0002013           
  1.2                   0.00020866            8.86e-12              -6.1286e-10           -0.00020832          
  1.25                  0.00021574            8.62e-12              -1.3004e-09           -0.00021534          
  1.3                   0.00022278            8.14e-12              -2.586e-09            -0.0002224           
  1.35                  0.0002299             7.84e-12              -4.8516e-09           -0.0002297           
END_DB

