! VERSION = 6.00
BEGIN_HEADER
 ICCAP_INPUTS
  vd         V  D GROUND SMU1 0.1 LIN        1    0          1.35       28   0.05      
  vg         V  G GROUND SMU2 0.001 LIST       2 3 0.29 0.49 0.69
  vb         V  B GROUND SMU4 0.1 CON        -1.2
  vs         V  S GROUND SMU3 0.1 CON        0
 ICCAP_OUTPUTS
  id         I  D GROUND SMU1 B
  ig         I  G GROUND SMU2 B
  ib         I  B GROUND SMU4 B
  is         I  S GROUND SMU3 B
 ICCAP_VALUES
  MASTER_SETUP_TYPE "~dc_idvd~"
  LINVT_VALUE ""
  LISTVT_VALUE "|idvg|100.0n|-200.0m|1.000m|3|200.0m|200.0m|"
  TYPE "1"
  TEMP " 70.0000 "
  IS_TNOM " 0.00000 "
  MAIN.W "150.0n"
  MAIN.L "130.0n"
  MAIN.AD "100.5f"
  MAIN.AS "100.5f"
  MAIN.PD "1.340u"
  MAIN.PS "1.340u"
  MAIN.NF "1.000"
  MAIN.M "1"
  MAIN.NRD "0.000"
  MAIN.NRS "0.000"
  MAIN.LDRIFT1 "1E-06"
  MAIN.LDRIFT2 "1E-06"
  MAIN.SA "0.000"
  MAIN.SB "0.000"
  MAIN.SD "0.000"
  MAIN.SCA "0.000"
  MAIN.SCB "0.000"
  MAIN.SCC "0.000"
  MAIN.SC "0.000"
  MODULE "S546"
  PIN_D "16"
  PIN_G "5"
  PIN_S "6"
  PIN_B "15"
  PIN_E ""
  PIN_6 ""
  XY_ID ""
  FUNC "Small"
  STI "SA ref"
  WPE "WPE ref"
  COMMENT ""
  DIS_MEAS ""
  TypeTCI "10"
END_HEADER

BEGIN_DB
 ICCAP_VAR vg         0.29           
 ICCAP_VAR vb         -1.2           
 ICCAP_VAR vs         0              

 #vd                    id                    ig                    ib                    is                   
  0                     7.4e-13               -2e-14                -1.072e-11            -3e-13               
  0.05                  2.3388e-10            -1.6e-13              -1.02e-11             -2.3362e-10          
  0.1                   2.9906e-10            -6e-14                -9.02e-12             -2.988e-10           
  0.15                  3.3054e-10            -1.2e-13              -7.8e-12              -3.308e-10           
  0.2                   3.5748e-10            0                     -8.48e-12             -3.5702e-10          
  0.25                  3.8208e-10            -1.2e-13              -9.06e-12             -3.8254e-10          
  0.3                   4.1024e-10            -2e-13                -7.36e-12             -4.0986e-10          
  0.35                  4.3872e-10            -2e-14                -6.36e-12             -4.38e-10            
  0.4                   4.6858e-10            -1.8e-13              -6.14e-12             -4.6784e-10          
  0.45                  4.981e-10             -8e-14                -5.18e-12             -4.9978e-10          
  0.5                   5.325e-10             -1.6e-13              -5.56e-12             -5.3292e-10          
  0.55                  5.6942e-10            -2e-14                -6.02e-12             -5.6866e-10          
  0.6                   6.0722e-10            4e-14                 -5.44e-12             -6.0642e-10          
  0.65                  6.4694e-10            -4e-14                -5.04e-12             -6.4642e-10          
  0.7                   6.8978e-10            -1.4e-13              -4.32e-12             -6.8926e-10          
  0.75                  7.3532e-10            -1.2e-13              -4.58e-12             -7.3484e-10          
  0.8                   7.8412e-10            4e-14                 -3.72e-12             -7.8354e-10          
  0.85                  8.3636e-10            -8e-14                -4.66e-12             -8.3544e-10          
  0.9                   8.9216e-10            -8e-14                -4.12e-12             -8.9112e-10          
  0.95                  9.5234e-10            -8e-14                -3.74e-12             -9.5132e-10          
  1                     1.0172e-09            -1.4e-13              -3.64e-12             -1.01326e-09         
  1.05                  1.0868e-09            -1.4e-13              -3.86e-12             -1.08532e-09         
  1.1                   1.1606e-09            -1.8e-13              -3.08e-12             -1.1606e-09          
  1.15                  1.2434e-09            -2.4e-13              -3.54e-12             -1.2416e-09          
  1.2                   1.3304e-09            -2.8e-13              -3.78e-12             -1.3288e-09          
  1.25                  1.4252e-09            -2.2e-13              -4.36e-12             -1.4232e-09          
  1.3                   1.5278e-09            -5e-13                -3.82e-12             -1.5256e-09          
  1.35                  1.6368e-09            -3.6e-13              -2.48e-12             -1.6332e-09          
END_DB

BEGIN_DB
 ICCAP_VAR vg         0.49           
 ICCAP_VAR vb         -1.2           
 ICCAP_VAR vs         0              

 #vd                    id                    ig                    ib                    is                   
  0                     8.978e-11             5e-13                 -2.52e-12             -9.422e-11           
  0.05                  4.9744e-08            4e-13                 -1.9e-12              -4.9636e-08          
  0.1                   6.5682e-08            2.4e-13               -3.54e-12             -6.5682e-08          
  0.15                  7.3448e-08            4.6e-13               -3.32e-12             -7.3284e-08          
  0.2                   7.94e-08              5e-13                 -2.92e-12             -7.938e-08           
  0.25                  8.5014e-08            5.4e-13               -9.6e-13              -8.5042e-08          
  0.3                   9.0762e-08            5.4e-13               -2.02e-12             -9.0762e-08          
  0.35                  9.6586e-08            4.2e-13               -3.82e-12             -9.6572e-08          
  0.4                   1.02642e-07           3.2e-13               -3.38e-12             -1.02646e-07         
  0.45                  1.08958e-07           3e-13                 -2.14e-12             -1.08854e-07         
  0.5                   1.1554e-07            3.8e-13               -2.12e-12             -1.15536e-07         
  0.55                  1.2244e-07            4.4e-13               -2.84e-12             -1.2242e-07          
  0.6                   1.2964e-07            5.8e-13               -1.7e-12              -1.295e-07           
  0.65                  1.3728e-07            4.8e-13               -3.8e-12              -1.3724e-07          
  0.7                   1.4532e-07            4e-13                 -3.7e-12              -1.4522e-07          
  0.75                  1.537e-07             3.2e-13               -1.46e-12             -1.5368e-07          
  0.8                   1.6262e-07            3.4e-13               -3.12e-12             -1.6258e-07          
  0.85                  1.7202e-07            3.6e-13               -3.5e-12              -1.7198e-07          
  0.9                   1.8206e-07            4.8e-13               -2.74e-12             -1.82e-07            
  0.95                  1.9262e-07            3.6e-13               -2.56e-12             -1.926e-07           
  1                     2.0386e-07            4.8e-13               -2.66e-12             -2.0378e-07          
  1.05                  2.1572e-07            4.2e-13               -3.68e-12             -2.1576e-07          
  1.1                   2.2836e-07            3e-13                 -5.14e-12             -2.2834e-07          
  1.15                  2.4184e-07            3e-13                 -5.62e-12             -2.4178e-07          
  1.2                   2.554e-07             3e-13                 -1.066e-11            -2.5604e-07          
  1.25                  2.711e-07             3.4e-13               -1.64e-11             -2.7074e-07          
  1.3                   2.8702e-07            3.2e-13               -2.474e-11            -2.8688e-07          
  1.35                  3.0402e-07            2.8e-13               -3.88e-11             -3.0368e-07          
END_DB

BEGIN_DB
 ICCAP_VAR vg         0.69           
 ICCAP_VAR vb         -1.2           
 ICCAP_VAR vs         0              

 #vd                    id                    ig                    ib                    is                   
  0                     1.8562e-09            2.52e-12              -1.8e-12              -1.6828e-09          
  0.05                  1.4084e-06            2.38e-12              -2.34e-12             -1.4046e-06          
  0.1                   2.2196e-06            2.3e-12               -1.62e-12             -2.2164e-06          
  0.15                  2.6782e-06            2.3e-12               -2.82e-12             -2.6746e-06          
  0.2                   2.952e-06             2.1e-12               -2.38e-12             -2.95e-06            
  0.25                  3.1508e-06            2.14e-12              -2.22e-12             -3.1466e-06          
  0.3                   3.3094e-06            2.28e-12              -2.98e-12             -3.3034e-06          
  0.35                  3.4538e-06            2.2e-12               -2.36e-12             -3.4504e-06          
  0.4                   3.5902e-06            2.24e-12              -2.02e-12             -3.5874e-06          
  0.45                  3.7252e-06            2.18e-12              -2.42e-12             -3.7212e-06          
  0.5                   3.856e-06             2.12e-12              -1.54e-12             -3.8552e-06          
  0.55                  3.9916e-06            2.12e-12              -2.34e-12             -3.989e-06           
  0.6                   4.1266e-06            2.06e-12              -2.34e-12             -4.124e-06           
  0.65                  4.2584e-06            2.14e-12              -1.3e-12              -4.2606e-06          
  0.7                   4.403e-06             2.18e-12              -2.64e-12             -4.3994e-06          
  0.75                  4.5466e-06            2.18e-12              -2.84e-12             -4.5426e-06          
  0.8                   4.6914e-06            2.1e-12               -1.86e-12             -4.6856e-06          
  0.85                  4.8412e-06            2e-12                 -2.74e-12             -4.8378e-06          
  0.9                   4.9942e-06            2.12e-12              -1.94e-12             -4.9902e-06          
  0.95                  5.1522e-06            2.16e-12              -2.88e-12             -5.1496e-06          
  1                     5.312e-06             2.12e-12              -4.54e-12             -5.3084e-06          
  1.05                  5.4802e-06            2.08e-12              -6.44e-12             -5.476e-06           
  1.1                   5.6416e-06            2.04e-12              -9.64e-12             -5.6464e-06          
  1.15                  5.8232e-06            2.12e-12              -2.032e-11            -5.8204e-06          
  1.2                   6.0036e-06            2.06e-12              -3.848e-11            -5.9922e-06          
  1.25                  6.1842e-06            2.18e-12              -7.266e-11            -6.1776e-06          
  1.3                   6.3762e-06            2.06e-12              -1.3416e-10           -6.374e-06           
  1.35                  6.5658e-06            2.1e-12               -2.342e-10            -6.5706e-06          
END_DB

