! VERSION = 6.00
BEGIN_HEADER
 ICCAP_INPUTS
  vd         V  D GROUND SMU1 0.1 LIN        1    0          1.35       28   0.05      
  vg         V  G GROUND SMU2 0.001 LIN        2    0.366      1.35       5    0.246     
  vb         V  B GROUND SMU4 0.1 CON        -1.2
  vs         V  S GROUND SMU3 0.1 CON        0
 ICCAP_OUTPUTS
  id         I  D GROUND SMU1 B
  ig         I  G GROUND SMU2 B
  ib         I  B GROUND SMU4 B
  is         I  S GROUND SMU3 B
 ICCAP_VALUES
  MASTER_SETUP_TYPE "~dc_idvd~"
  LINVT_VALUE "|idvg|100.0n|100.0m|1.000m|5|1.350|"
  LISTVT_VALUE ""
  TYPE "1"
  TEMP " 27.0000 "
  IS_TNOM " 1.00000 "
  MAIN.W "150.0n"
  MAIN.L "10.00u"
  MAIN.AD "100.5f"
  MAIN.AS "100.5f"
  MAIN.PD "1.340u"
  MAIN.PS "1.340u"
  MAIN.NF "1.000"
  MAIN.M "1"
  MAIN.NRD "0.000"
  MAIN.NRS "0.000"
  MAIN.LDRIFT1 "1E-06"
  MAIN.LDRIFT2 "1E-06"
  MAIN.SA "0.000"
  MAIN.SB "0.000"
  MAIN.SD "0.000"
  MAIN.SCA "0.000"
  MAIN.SCB "0.000"
  MAIN.SCC "0.000"
  MAIN.SC "0.000"
  MODULE "S547"
  PIN_D "16"
  PIN_G "5"
  PIN_S "6"
  PIN_B "15"
  PIN_E ""
  PIN_6 ""
  XY_ID ""
  FUNC "Narrow"
  STI "SA ref"
  WPE "WPE ref"
  COMMENT ""
  DIS_MEAS ""
  TypeTCI "10"
END_HEADER

BEGIN_DB
 ICCAP_VAR vg         0.366          
 ICCAP_VAR vb         -1.2           
 ICCAP_VAR vs         0              

 #vd                    id                    ig                    ib                    is                   
  0                     2.818e-11             4.64e-12              -1.44e-11             -2.598e-11           
  0.05                  1.3172e-08            3.38e-12              -1.29e-11             -1.3152e-08          
  0.1                   1.8492e-08            2.86e-12              -1.132e-11            -1.8492e-08          
  0.15                  2.0194e-08            2.74e-12              -1.134e-11            -2.013e-08           
  0.2                   2.077e-08             2.64e-12              -1.194e-11            -2.0778e-08          
  0.25                  2.1296e-08            2.54e-12              -1.07e-11             -2.1244e-08          
  0.3                   2.1618e-08            2.5e-12               -9.46e-12             -2.16e-08            
  0.35                  2.199e-08             2.44e-12              -9.68e-12             -2.191e-08           
  0.4                   2.2242e-08            2.46e-12              -9.74e-12             -2.2238e-08          
  0.45                  2.245e-08             2.48e-12              -9e-12                -2.2478e-08          
  0.5                   2.2744e-08            2.32e-12              -7.84e-12             -2.2736e-08          
  0.55                  2.2948e-08            2.34e-12              -7.46e-12             -2.2998e-08          
  0.6                   2.317e-08             2.44e-12              -7.26e-12             -2.3162e-08          
  0.65                  2.3352e-08            2.4e-12               -8.46e-12             -2.3334e-08          
  0.7                   2.3516e-08            2.42e-12              -7.18e-12             -2.3496e-08          
  0.75                  2.369e-08             2.18e-12              -7.14e-12             -2.3688e-08          
  0.8                   2.3904e-08            2.12e-12              -7.54e-12             -2.3834e-08          
  0.85                  2.3944e-08            2.12e-12              -7.96e-12             -2.3958e-08          
  0.9                   2.411e-08             2.16e-12              -6.78e-12             -2.411e-08           
  0.95                  2.4226e-08            2.06e-12              -6.04e-12             -2.4196e-08          
  1                     2.4346e-08            2.1e-12               -5.64e-12             -2.4324e-08          
  1.05                  2.4444e-08            2.04e-12              -6.7e-12              -2.4406e-08          
  1.1                   2.4508e-08            1.96e-12              -6.42e-12             -2.4466e-08          
  1.15                  2.4582e-08            1.94e-12              -6.1e-12              -2.4608e-08          
  1.2                   2.4698e-08            1.8e-12               -5.2e-12              -2.4664e-08          
  1.25                  2.4776e-08            1.82e-12              -5.94e-12             -2.474e-08           
  1.3                   2.4846e-08            1.68e-12              -5.94e-12             -2.4818e-08          
  1.35                  2.4886e-08            1.62e-12              -6.2e-12              -2.4886e-08          
END_DB

BEGIN_DB
 ICCAP_VAR vg         0.612          
 ICCAP_VAR vb         -1.2           
 ICCAP_VAR vs         0              

 #vd                    id                    ig                    ib                    is                   
  0                     8.8e-11               4.18e-11              -2.3e-12              -1.33e-10            
  0.05                  7.4396e-08            3.508e-11             -3.94e-12             -7.442e-08           
  0.1                   1.3504e-07            2.994e-11             -3.4e-12              -1.3492e-07          
  0.15                  1.8148e-07            2.618e-11             -3.72e-12             -1.8138e-07          
  0.2                   2.135e-07             2.372e-11             -3.68e-12             -2.1342e-07          
  0.25                  2.3192e-07            2.248e-11             -3.84e-12             -2.3174e-07          
  0.3                   2.4048e-07            2.18e-11              -2.86e-12             -2.4018e-07          
  0.35                  2.44e-07              2.168e-11             -3.62e-12             -2.4388e-07          
  0.4                   2.4628e-07            2.126e-11             -4.96e-12             -2.4636e-07          
  0.45                  2.4806e-07            2.112e-11             -4.08e-12             -2.4796e-07          
  0.5                   2.498e-07             2.1e-11               -3.34e-12             -2.4978e-07          
  0.55                  2.5128e-07            2.092e-11             -3.4e-12              -2.5118e-07          
  0.6                   2.526e-07             2.08e-11              -3.82e-12             -2.5244e-07          
  0.65                  2.5386e-07            2.092e-11             -3.46e-12             -2.5364e-07          
  0.7                   2.5502e-07            2.074e-11             -2.68e-12             -2.549e-07           
  0.75                  2.5592e-07            2.062e-11             -3.72e-12             -2.5584e-07          
  0.8                   2.5698e-07            2.058e-11             -3.72e-12             -2.568e-07           
  0.85                  2.5772e-07            2.048e-11             -3.68e-12             -2.5776e-07          
  0.9                   2.5872e-07            2.036e-11             -2.98e-12             -2.5848e-07          
  0.95                  2.595e-07             2.026e-11             -2.84e-12             -2.595e-07           
  1                     2.6062e-07            2.024e-11             -3.42e-12             -2.605e-07           
  1.05                  2.614e-07             2.01e-11              -3.32e-12             -2.6128e-07          
  1.1                   2.6194e-07            2.014e-11             -2.14e-12             -2.6186e-07          
  1.15                  2.6254e-07            2.014e-11             -3.74e-12             -2.6244e-07          
  1.2                   2.6326e-07            1.986e-11             -4.22e-12             -2.6324e-07          
  1.25                  2.6392e-07            1.99e-11              -3.42e-12             -2.6384e-07          
  1.3                   2.6448e-07            1.968e-11             -2.48e-12             -2.6442e-07          
  1.35                  2.6522e-07            1.974e-11             -4.08e-12             -2.6514e-07          
END_DB

BEGIN_DB
 ICCAP_VAR vg         0.858          
 ICCAP_VAR vb         -1.2           
 ICCAP_VAR vs         0              

 #vd                    id                    ig                    ib                    is                   
  0                     1.0346e-10            1.8894e-10            -2.3e-12              -2.9714e-10          
  0.05                  1.3224e-07            1.6562e-10            -1.66e-12             -1.3226e-07          
  0.1                   2.5228e-07            1.4614e-10            -2.52e-12             -2.523e-07           
  0.15                  3.596e-07             1.301e-10             -3.2e-12              -3.5964e-07          
  0.2                   4.5376e-07            1.1692e-10            -2.08e-12             -4.5374e-07          
  0.25                  5.3432e-07            1.0654e-10            -2.32e-12             -5.3438e-07          
  0.3                   6.01e-07              9.84e-11              -3.48e-12             -6.0106e-07          
  0.35                  6.5314e-07            9.226e-11             -2.58e-12             -6.532e-07           
  0.4                   6.9038e-07            8.824e-11             -1.7e-12              -6.9046e-07          
  0.45                  7.1356e-07            8.55e-11              -2.2e-12              -7.1356e-07          
  0.5                   7.2598e-07            8.434e-11             -2.92e-12             -7.2596e-07          
  0.55                  7.3242e-07            8.352e-11             -3.38e-12             -7.3254e-07          
  0.6                   7.3652e-07            8.318e-11             -2.6e-12              -7.3656e-07          
  0.65                  7.3952e-07            8.276e-11             -2.26e-12             -7.3944e-07          
  0.7                   7.4158e-07            8.252e-11             -2.98e-12             -7.4164e-07          
  0.75                  7.4428e-07            8.232e-11             -3.56e-12             -7.4406e-07          
  0.8                   7.4606e-07            8.196e-11             -1.74e-12             -7.4642e-07          
  0.85                  7.4836e-07            8.19e-11              -2.56e-12             -7.4842e-07          
  0.9                   7.5024e-07            8.174e-11             -2.16e-12             -7.503e-07           
  0.95                  7.521e-07             8.152e-11             -3.32e-12             -7.5218e-07          
  1                     7.5378e-07            8.118e-11             -2.2e-12              -7.5374e-07          
  1.05                  7.5538e-07            8.12e-11              -2.22e-12             -7.554e-07           
  1.1                   7.5686e-07            8.1e-11               -2.68e-12             -7.5682e-07          
  1.15                  7.5826e-07            8.08e-11              -2.58e-12             -7.5826e-07          
  1.2                   7.5962e-07            8.062e-11             -1.92e-12             -7.5972e-07          
  1.25                  7.61e-07              8.058e-11             -2.6e-12              -7.6102e-07          
  1.3                   7.6198e-07            8.038e-11             -2.88e-12             -7.6218e-07          
  1.35                  7.6342e-07            8.02e-11              -3.42e-12             -7.634e-07           
END_DB

BEGIN_DB
 ICCAP_VAR vg         1.104          
 ICCAP_VAR vb         -1.2           
 ICCAP_VAR vs         0              

 #vd                    id                    ig                    ib                    is                   
  0                     -4.876e-11            6.073e-10             -1.74e-12             -5.6038e-10          
  0.05                  1.7906e-07            5.465e-10             -2e-12                -1.7948e-07          
  0.1                   3.486e-07             4.932e-10             -2.14e-12             -3.49e-07            
  0.15                  5.078e-07             4.471e-10             -1.86e-12             -5.0822e-07          
  0.2                   6.5612e-07            4.0706e-10            -1.04e-12             -6.5652e-07          
  0.25                  7.9314e-07            3.7298e-10            -1.5e-12              -7.9352e-07          
  0.3                   9.1832e-07            3.4362e-10            -2.94e-12             -9.1852e-07          
  0.35                  1.03098e-06           3.1918e-10            -1.52e-12             -1.03122e-06         
  0.4                   1.13096e-06           2.986e-10             -1.16e-12             -1.13114e-06         
  0.45                  1.2192e-06            2.8204e-10            -2.46e-12             -1.2156e-06          
  0.5                   1.292e-06             2.6846e-10            -1.48e-12             -1.2882e-06          
  0.55                  1.3506e-06            2.5824e-10            -1.7e-12              -1.347e-06           
  0.6                   1.3942e-06            2.5084e-10            -2.5e-12              -1.3906e-06          
  0.65                  1.4236e-06            2.4594e-10            -1.14e-12             -1.4198e-06          
  0.7                   1.4408e-06            2.4308e-10            -2.04e-12             -1.4374e-06          
  0.75                  1.451e-06             2.4154e-10            -2.46e-12             -1.4474e-06          
  0.8                   1.457e-06             2.4048e-10            -1.7e-12              -1.4534e-06          
  0.85                  1.4614e-06            2.3972e-10            -2.02e-12             -1.4578e-06          
  0.9                   1.465e-06             2.3926e-10            -2.32e-12             -1.4612e-06          
  0.95                  1.4682e-06            2.3872e-10            -6.8e-13              -1.4644e-06          
  1                     1.471e-06             2.3834e-10            -1.26e-12             -1.4672e-06          
  1.05                  1.4736e-06            2.3794e-10            -2.24e-12             -1.47e-06            
  1.1                   1.4762e-06            2.3742e-10            -1.22e-12             -1.4726e-06          
  1.15                  1.4784e-06            2.3706e-10            -1.86e-12             -1.4748e-06          
  1.2                   1.4806e-06            2.3668e-10            -2.52e-12             -1.4772e-06          
  1.25                  1.4828e-06            2.3638e-10            -9e-13                -1.4792e-06          
  1.3                   1.485e-06             2.361e-10             -1.68e-12             -1.4812e-06          
  1.35                  1.4868e-06            2.359e-10             -2.54e-12             -1.4832e-06          
END_DB

BEGIN_DB
 ICCAP_VAR vg         1.35           
 ICCAP_VAR vb         -1.2           
 ICCAP_VAR vs         0              

 #vd                    id                    ig                    ib                    is                   
  0                     -4.842e-10            1.5726e-09            -1.46e-12             -1.0838e-09          
  0.05                  2.1356e-07            1.4396e-09            -5.48e-12             -2.1488e-07          
  0.1                   4.205e-07             1.3202e-09            -1.58e-12             -4.2172e-07          
  0.15                  6.1958e-07            1.2134e-09            -1.84e-12             -6.2074e-07          
  0.2                   8.1032e-07            1.1192e-09            -2.68e-12             -8.1142e-07          
  0.25                  9.923e-07             1.0344e-09            -2.6e-12              -9.933e-07           
  0.3                   1.1666e-06            9.585e-10             -2.38e-12             -1.1636e-06          
  0.35                  1.3292e-06            8.9302e-10            -1e-12                -1.3262e-06          
  0.4                   1.4814e-06            8.3532e-10            -1.08e-12             -1.4786e-06          
  0.45                  1.6228e-06            7.8526e-10            -2.1e-12              -1.6198e-06          
  0.5                   1.7528e-06            7.4162e-10            -1.28e-12             -1.7498e-06          
  0.55                  1.8712e-06            7.041e-10             -1.48e-12             -1.868e-06           
  0.6                   1.977e-06             6.7306e-10            -1.96e-12             -1.974e-06           
  0.65                  2.07e-06              6.4636e-10            -1.12e-12             -2.067e-06           
  0.7                   2.1492e-06            6.244e-10             -1.46e-12             -2.146e-06           
  0.75                  2.2146e-06            6.0724e-10            -1.9e-12              -2.2112e-06          
  0.8                   2.2652e-06            5.9424e-10            -1.64e-12             -2.2622e-06          
  0.85                  2.3022e-06            5.8524e-10            -1.78e-12             -2.2988e-06          
  0.9                   2.3256e-06            5.7924e-10            -2.16e-12             -2.3224e-06          
  0.95                  2.34e-06              5.7616e-10            -1.32e-12             -2.3368e-06          
  1                     2.349e-06             5.7406e-10            -1.9e-12              -2.3456e-06          
  1.05                  2.3548e-06            5.7222e-10            -1.96e-12             -2.3518e-06          
  1.1                   2.3596e-06            5.7124e-10            -1.16e-12             -2.3564e-06          
  1.15                  2.3636e-06            5.7012e-10            -1.34e-12             -2.3604e-06          
  1.2                   2.367e-06             5.6928e-10            -1.82e-12             -2.3638e-06          
  1.25                  2.3704e-06            5.688e-10             -1.18e-12             -2.3666e-06          
  1.3                   2.373e-06             5.682e-10             -1.86e-12             -2.3704e-06          
  1.35                  2.3766e-06            5.673e-10             -1.4e-12              -2.3734e-06          
END_DB

