! VERSION = 6.00
BEGIN_HEADER
 ICCAP_INPUTS
  vd         V  D GROUND SMU1 0.1 LIN        1    0          1.35       28   0.05      
  vg         V  G GROUND SMU2 0.001 LIN        2    0.546      1.35       5    0.201     
  vb         V  B GROUND SMU4 0.1 CON        -1.2
  vs         V  S GROUND SMU3 0.1 CON        0
 ICCAP_OUTPUTS
  id         I  D GROUND SMU1 B
  ig         I  G GROUND SMU2 B
  ib         I  B GROUND SMU4 B
  is         I  S GROUND SMU3 B
 ICCAP_VALUES
  MASTER_SETUP_TYPE "~dc_idvd~"
  LINVT_VALUE "|idvg|100.0n|100.0m|1.000m|5|1.350|"
  LISTVT_VALUE ""
  TYPE "1"
  TEMP " 27.0000 "
  IS_TNOM " 1.00000 "
  MAIN.W "600.0n"
  MAIN.L "180.0n"
  MAIN.AD "204.0f"
  MAIN.AS "204.0f"
  MAIN.PD "1.880u"
  MAIN.PS "1.880u"
  MAIN.NF "1.000"
  MAIN.M "1"
  MAIN.NRD "0.000"
  MAIN.NRS "0.000"
  MAIN.LDRIFT1 "1E-06"
  MAIN.LDRIFT2 "1E-06"
  MAIN.SA "0.000"
  MAIN.SB "0.000"
  MAIN.SD "0.000"
  MAIN.SCA "0.000"
  MAIN.SCB "0.000"
  MAIN.SCC "0.000"
  MAIN.SC "0.000"
  MODULE "S543"
  PIN_D "16"
  PIN_G "5"
  PIN_S "6"
  PIN_B "15"
  PIN_E ""
  PIN_6 ""
  XY_ID ""
  FUNC "LW Scale"
  STI "SA ref"
  WPE "WPE ref"
  COMMENT ""
  DIS_MEAS ""
  TypeTCI "10"
END_HEADER

BEGIN_DB
 ICCAP_VAR vg         0.546          
 ICCAP_VAR vb         -1.2           
 ICCAP_VAR vs         0              

 #vd                    id                    ig                    ib                    is                   
  0                     2.2912e-09            1.52e-12              -1.426e-11            -1.6354e-09          
  0.05                  1.07646e-06           1.28e-12              -1.34e-11             -1.07682e-06         
  0.1                   1.5584e-06            7.6e-13               -1.252e-11            -1.554e-06           
  0.15                  1.784e-06             9.4e-13               -1.154e-11            -1.7812e-06          
  0.2                   1.9198e-06            8e-13                 -1.004e-11            -1.9158e-06          
  0.25                  2.0308e-06            7e-13                 -1.058e-11            -2.024e-06           
  0.3                   2.1248e-06            6.6e-13               -9.58e-12             -2.1212e-06          
  0.35                  2.2058e-06            7.4e-13               -8.82e-12             -2.2016e-06          
  0.4                   2.2908e-06            7.2e-13               -9.88e-12             -2.287e-06           
  0.45                  2.3726e-06            7.8e-13               -8.3e-12              -2.3752e-06          
  0.5                   2.461e-06             6.2e-13               -8.42e-12             -2.4482e-06          
  0.55                  2.5358e-06            6e-13                 -8.86e-12             -2.5338e-06          
  0.6                   2.6116e-06            7e-13                 -7.78e-12             -2.608e-06           
  0.65                  2.692e-06             5.8e-13               -8.2e-12              -2.6874e-06          
  0.7                   2.7726e-06            7e-13                 -8.26e-12             -2.7684e-06          
  0.75                  2.848e-06             6e-13                 -6.76e-12             -2.8534e-06          
  0.8                   2.9314e-06            6.4e-13               -7.54e-12             -2.922e-06           
  0.85                  3.003e-06             6.4e-13               -7.78e-12             -3.0002e-06          
  0.9                   3.0796e-06            5.4e-13               -6.42e-12             -3.077e-06           
  0.95                  3.164e-06             5.2e-13               -7.22e-12             -3.1536e-06          
  1                     3.2346e-06            5.8e-13               -7e-12                -3.2316e-06          
  1.05                  3.3152e-06            5.2e-13               -6.66e-12             -3.3112e-06          
  1.1                   3.3946e-06            4.8e-13               -8.9e-12              -3.3844e-06          
  1.15                  3.4646e-06            4e-13                 -1.216e-11            -3.4618e-06          
  1.2                   3.5426e-06            3e-13                 -1.974e-11            -3.5442e-06          
  1.25                  3.6316e-06            2.6e-13               -3.51e-11             -3.6276e-06          
  1.3                   3.6972e-06            3e-13                 -6.19e-11             -3.6944e-06          
  1.35                  3.7818e-06            2.4e-13               -1.0788e-10           -3.783e-06           
END_DB

BEGIN_DB
 ICCAP_VAR vg         0.747          
 ICCAP_VAR vb         -1.2           
 ICCAP_VAR vs         0              

 #vd                    id                    ig                    ib                    is                   
  0                     1.2164e-08            9.34e-12              -3.52e-12             -1.2132e-08          
  0.05                  7.5342e-06            7.66e-12              -3.9e-12              -7.5292e-06          
  0.1                   1.2878e-05            6.52e-12              -3.26e-12             -1.2862e-05          
  0.15                  1.6452e-05            5.92e-12              -4.44e-12             -1.643e-05           
  0.2                   1.8736e-05            5.38e-12              -4.08e-12             -1.8724e-05          
  0.25                  2.0248e-05            5.14e-12              -3.2e-12              -2.0234e-05          
  0.3                   2.129e-05             4.9e-12               -3.94e-12             -2.127e-05           
  0.35                  2.2104e-05            4.66e-12              -3.54e-12             -2.2088e-05          
  0.4                   2.2784e-05            4.64e-12              -2.82e-12             -2.276e-05           
  0.45                  2.3388e-05            4.58e-12              -3.12e-12             -2.3382e-05          
  0.5                   2.3936e-05            4.5e-12               -3.96e-12             -2.3924e-05          
  0.55                  2.446e-05             4.4e-12               -3.1e-12              -2.446e-05           
  0.6                   2.4986e-05            4.34e-12              -3.72e-12             -2.4972e-05          
  0.65                  2.5496e-05            4.28e-12              -4.14e-12             -2.5466e-05          
  0.7                   2.596e-05             4.28e-12              -2.48e-12             -2.593e-05           
  0.75                  2.6426e-05            4.26e-12              -3.72e-12             -2.6412e-05          
  0.8                   2.69e-05              4.14e-12              -3.34e-12             -2.6868e-05          
  0.85                  2.735e-05             4.02e-12              -3.12e-12             -2.7332e-05          
  0.9                   2.78e-05              4.18e-12              -3.2e-12              -2.7778e-05          
  0.95                  2.825e-05             4e-12                 -4.28e-12             -2.8224e-05          
  1                     2.8686e-05            4.08e-12              -2.96e-12             -2.8666e-05          
  1.05                  2.9126e-05            3.94e-12              -4.56e-12             -2.9102e-05          
  1.1                   2.9542e-05            3.78e-12              -6.74e-12             -2.9536e-05          
  1.15                  2.9978e-05            4e-12                 -1.104e-11            -2.9962e-05          
  1.2                   3.0396e-05            3.88e-12              -2.476e-11            -3.0356e-05          
  1.25                  3.0816e-05            3.68e-12              -5.4e-11              -3.0794e-05          
  1.3                   3.1226e-05            3.68e-12              -1.1064e-10           -3.1208e-05          
  1.35                  3.164e-05             3.56e-12              -2.2152e-10           -3.1634e-05          
END_DB

BEGIN_DB
 ICCAP_VAR vg         0.948          
 ICCAP_VAR vb         -1.2           
 ICCAP_VAR vs         0              

 #vd                    id                    ig                    ib                    is                   
  0                     2.6982e-08            2.544e-11             -2.42e-12             -2.5924e-08          
  0.05                  1.6714e-05            2.308e-11             -2.92e-12             -1.6698e-05          
  0.1                   3.0798e-05            2.094e-11             -2.52e-12             -3.0804e-05          
  0.15                  4.2234e-05            1.904e-11             -1.38e-12             -4.222e-05           
  0.2                   5.1106e-05            1.774e-11             -2.96e-12             -5.1074e-05          
  0.25                  5.7744e-05            1.64e-11              -3.34e-12             -5.771e-05           
  0.3                   6.2558e-05            1.544e-11             -1.62e-12             -6.2546e-05          
  0.35                  6.6094e-05            1.494e-11             -2.26e-12             -6.6082e-05          
  0.4                   6.8724e-05            1.45e-11              -2.92e-12             -6.8694e-05          
  0.45                  7.0756e-05            1.406e-11             -2.3e-12              -7.0692e-05          
  0.5                   7.2384e-05            1.388e-11             -2.3e-12              -7.2384e-05          
  0.55                  7.3818e-05            1.356e-11             -3.04e-12             -7.3798e-05          
  0.6                   7.5062e-05            1.346e-11             -2.26e-12             -7.503e-05           
  0.65                  7.6242e-05            1.32e-11              -2.68e-12             -7.6178e-05          
  0.7                   7.7338e-05            1.306e-11             -2.76e-12             -7.73e-05            
  0.75                  7.8332e-05            1.296e-11             -1.94e-12             -7.8326e-05          
  0.8                   7.933e-05             1.286e-11             -2.52e-12             -7.9336e-05          
  0.85                  8.0322e-05            1.258e-11             -3.02e-12             -8.0326e-05          
  0.9                   8.1286e-05            1.25e-11              -1.84e-12             -8.1284e-05          
  0.95                  8.221e-05             1.246e-11             -3.36e-12             -8.2146e-05          
  1                     8.3062e-05            1.238e-11             -3.88e-12             -8.3062e-05          
  1.05                  8.396e-05             1.222e-11             -2.94e-12             -8.4e-05             
  1.1                   8.4856e-05            1.214e-11             -6.96e-12             -8.4822e-05          
  1.15                  8.569e-05             1.192e-11             -1.226e-11            -8.5686e-05          
  1.2                   8.6524e-05            1.182e-11             -2.446e-11            -8.6502e-05          
  1.25                  8.7364e-05            1.19e-11              -5.356e-11            -8.7336e-05          
  1.3                   8.8184e-05            1.164e-11             -1.124e-10            -8.8184e-05          
  1.35                  8.9008e-05            1.16e-11              -2.2772e-10           -8.9038e-05          
END_DB

BEGIN_DB
 ICCAP_VAR vg         1.149          
 ICCAP_VAR vb         -1.2           
 ICCAP_VAR vs         0              

 #vd                    id                    ig                    ib                    is                   
  0                     3.906e-08             5.456e-11             -1.76e-12             -3.8468e-08          
  0.05                  2.5042e-05            5.006e-11             -1.56e-12             -2.5008e-05          
  0.1                   4.7556e-05            4.59e-11              -2.26e-12             -4.754e-05           
  0.15                  6.7276e-05            4.242e-11             -1.42e-12             -6.7216e-05          
  0.2                   8.39e-05              3.946e-11             -2.52e-12             -8.3886e-05          
  0.25                  9.774e-05             3.674e-11             -2.58e-12             -9.7692e-05          
  0.3                   0.000108812           3.476e-11             -1.88e-12             -0.000108772         
  0.35                  0.00011776            3.318e-11             -2.3e-12              -0.00011738          
  0.4                   0.00012454            3.17e-11              -1.66e-12             -0.00012404          
  0.45                  0.00012964            3.062e-11             -1.8e-12              -0.00012926          
  0.5                   0.00013368            2.96e-11              -1.7e-12              -0.00013342          
  0.55                  0.00013688            2.91e-11              -1.02e-12             -0.00013652          
  0.6                   0.00013948            2.862e-11             -1.48e-12             -0.0001392           
  0.65                  0.0001418             2.822e-11             -1.54e-12             -0.00014144          
  0.7                   0.00014376            2.782e-11             -2.58e-12             -0.00014328          
  0.75                  0.00014538            2.742e-11             -2.44e-12             -0.00014514          
  0.8                   0.00014698            2.734e-11             -1.18e-12             -0.00014656          
  0.85                  0.00014848            2.708e-11             -2.14e-12             -0.00014818          
  0.9                   0.0001499             2.696e-11             -2.24e-12             -0.00014968          
  0.95                  0.00015128            2.67e-11              -2.14e-12             -0.0001509           
  1                     0.00015274            2.636e-11             -3.06e-12             -0.00015222          
  1.05                  0.00015386            2.622e-11             -3.84e-12             -0.00015348          
  1.1                   0.00015528            2.584e-11             -4.96e-12             -0.00015486          
  1.15                  0.0001565             2.58e-11              -1.152e-11            -0.00015612          
  1.2                   0.0001577             2.564e-11             -2.39e-11             -0.00015732          
  1.25                  0.0001588             2.548e-11             -4.85e-11             -0.00015846          
  1.3                   0.00016               2.52e-11              -1.011e-10            -0.00015964          
  1.35                  0.000161              2.512e-11             -2.0204e-10           -0.00016072          
END_DB

BEGIN_DB
 ICCAP_VAR vg         1.35           
 ICCAP_VAR vb         -1.2           
 ICCAP_VAR vs         0              

 #vd                    id                    ig                    ib                    is                   
  0                     4.6888e-08            1.0876e-10            -1.32e-12             -4.4836e-08          
  0.05                  3.1766e-05            1.002e-10             -1.52e-12             -3.1764e-05          
  0.1                   6.1348e-05            9.29e-11              -1.58e-12             -6.1332e-05          
  0.15                  8.8154e-05            8.618e-11             -1.52e-12             -8.8134e-05          
  0.2                   0.000111872           8.028e-11             -1.4e-12              -0.000111854         
  0.25                  0.00013258            7.506e-11             -4.8e-13              -0.0001322           
  0.3                   0.00015006            7.086e-11             -1.74e-12             -0.0001497           
  0.35                  0.0001647             6.696e-11             -1.78e-12             -0.00016432          
  0.4                   0.00017674            6.376e-11             -5.4e-13              -0.00017636          
  0.45                  0.0001865             6.124e-11             -2.08e-12             -0.00018614          
  0.5                   0.00019436            5.9e-11               -1.92e-12             -0.000194            
  0.55                  0.00020066            5.724e-11             -1.24e-12             -0.0002003           
  0.6                   0.00020572            5.586e-11             -1.9e-12              -0.0002054           
  0.65                  0.00020988            5.472e-11             -1.74e-12             -0.0002095           
  0.7                   0.0002133             5.374e-11             -1.58e-12             -0.00021292          
  0.75                  0.00021628            5.302e-11             -1.9e-12              -0.00021594          
  0.8                   0.00021882            5.242e-11             -1.68e-12             -0.00021844          
  0.85                  0.00022106            5.184e-11             -1.64e-12             -0.00022068          
  0.9                   0.0002231             5.14e-11              -2.18e-12             -0.00022272          
  0.95                  0.000225              5.086e-11             1.26e-12              -0.0002246           
  1                     0.00022676            5.044e-11             -2.68e-12             -0.00022636          
  1.05                  0.00022842            5.012e-11             -3.16e-12             -0.00022804          
  1.1                   0.00023002            4.994e-11             -3.7e-12              -0.00022966          
  1.15                  0.00023158            4.944e-11             -1.014e-11            -0.00023122          
  1.2                   0.00023316            4.934e-11             -2.01e-11             -0.00023278          
  1.25                  0.00023454            4.896e-11             -4.014e-11            -0.00023418          
  1.3                   0.00023596            4.856e-11             -8.354e-11            -0.0002356           
  1.35                  0.00023742            4.846e-11             -1.6638e-10           -0.00023706          
END_DB

