! VERSION = 6.00
BEGIN_HEADER
 ICCAP_INPUTS
  vd         V  D GROUND SMU1 0.1 LIN        1    0          1.35       28   0.05      
  vg         V  G GROUND SMU2 0.001 LIN        2    0.374      1.35       5    0.244     
  vb         V  B GROUND SMU4 0.1 CON        -1.2
  vs         V  S GROUND SMU3 0.1 CON        0
 ICCAP_OUTPUTS
  id         I  D GROUND SMU1 B
  ig         I  G GROUND SMU2 B
  ib         I  B GROUND SMU4 B
  is         I  S GROUND SMU3 B
 ICCAP_VALUES
  MASTER_SETUP_TYPE "~dc_idvd~"
  LINVT_VALUE "|idvg|100.0n|100.0m|1.000m|5|1.350|"
  LISTVT_VALUE ""
  TYPE "1"
  TEMP " 27.0000 "
  IS_TNOM " 1.00000 "
  MAIN.W "10.00u"
  MAIN.L "5.000u"
  MAIN.AD "3.400p"
  MAIN.AS "3.400p"
  MAIN.PD "20.68u"
  MAIN.PS "20.68u"
  MAIN.NF "1.000"
  MAIN.M "1"
  MAIN.NRD "0.000"
  MAIN.NRS "0.000"
  MAIN.LDRIFT1 "1E-06"
  MAIN.LDRIFT2 "1E-06"
  MAIN.SA "0.000"
  MAIN.SB "0.000"
  MAIN.SD "0.000"
  MAIN.SCA "0.000"
  MAIN.SCB "0.000"
  MAIN.SCC "0.000"
  MAIN.SC "0.000"
  MODULE "S541"
  PIN_D "14"
  PIN_G "7"
  PIN_S "8"
  PIN_B "13"
  PIN_E ""
  PIN_6 ""
  XY_ID ""
  FUNC "L Scale"
  STI "SA ref"
  WPE "WPE ref"
  COMMENT ""
  DIS_MEAS ""
  TypeTCI "10"
END_HEADER

BEGIN_DB
 ICCAP_VAR vg         0.374          
 ICCAP_VAR vb         -1.2           
 ICCAP_VAR vs         0              

 #vd                    id                    ig                    ib                    is                   
  0                     3.3806e-09            1.249e-10             -1.472e-11            -2.704e-09           
  0.05                  1.5572e-06            9.806e-11             -1.232e-11            -1.5528e-06          
  0.1                   2.101e-06             8.764e-11             -1.072e-11            -2.0966e-06          
  0.15                  2.292e-06             8.378e-11             -1.096e-11            -2.2886e-06          
  0.2                   2.3998e-06            8.166e-11             -1.114e-11            -2.3964e-06          
  0.25                  2.4854e-06            8.02e-11              -9.8e-12              -2.482e-06           
  0.3                   2.5622e-06            7.83e-11              -9.76e-12             -2.5584e-06          
  0.35                  2.6336e-06            7.718e-11             -1.022e-11            -2.6296e-06          
  0.4                   2.6996e-06            7.584e-11             -8.36e-12             -2.6964e-06          
  0.45                  2.7626e-06            7.432e-11             -8.78e-12             -2.759e-06           
  0.5                   2.8216e-06            7.32e-11              -8.68e-12             -2.8184e-06          
  0.55                  2.8772e-06            7.224e-11             -8.18e-12             -2.8744e-06          
  0.6                   2.9302e-06            7.118e-11             -8.3e-12              -2.925e-06           
  0.65                  2.9778e-06            6.968e-11             -8.58e-12             -2.9738e-06          
  0.7                   3.024e-06             6.86e-11              -6.94e-12             -3.0202e-06          
  0.75                  3.0676e-06            6.746e-11             -7.22e-12             -3.0636e-06          
  0.8                   3.1084e-06            6.644e-11             -7.54e-12             -3.105e-06           
  0.85                  3.146e-06             6.562e-11             -6.2e-12              -3.1418e-06          
  0.9                   3.1822e-06            6.462e-11             -6.9e-12              -3.1788e-06          
  0.95                  3.2172e-06            6.334e-11             -6.9e-12              -3.2134e-06          
  1                     3.249e-06             6.204e-11             -6.4e-12              -3.2452e-06          
  1.05                  3.278e-06             6.102e-11             -8.62e-12             -3.2754e-06          
  1.1                   3.3062e-06            5.972e-11             -1.21e-11             -3.303e-06           
  1.15                  3.3328e-06            5.83e-11              -1.728e-11            -3.3292e-06          
  1.2                   3.3578e-06            5.702e-11             -3.098e-11            -3.3536e-06          
  1.25                  3.3808e-06            5.556e-11             -5.568e-11            -3.377e-06           
  1.3                   3.402e-06             5.39e-11              -9.458e-11            -3.3986e-06          
  1.35                  3.4228e-06            5.202e-11             -1.588e-10            -3.4192e-06          
END_DB

BEGIN_DB
 ICCAP_VAR vg         0.618          
 ICCAP_VAR vb         -1.2           
 ICCAP_VAR vs         0              

 #vd                    id                    ig                    ib                    is                   
  0                     1.8422e-08            1.1564e-09            -4.3e-12              -1.8958e-08          
  0.05                  1.1446e-05            9.6892e-10            -3.46e-12             -1.1428e-05          
  0.1                   2.045e-05             8.3158e-10            -4.56e-12             -2.0434e-05          
  0.15                  2.6914e-05            7.378e-10             -4.04e-12             -2.6898e-05          
  0.2                   3.088e-05             6.8236e-10            -3.04e-12             -3.0862e-05          
  0.25                  3.2908e-05            6.5412e-10            -3.9e-12              -3.289e-05           
  0.3                   3.391e-05             6.4056e-10            -3.86e-12             -3.3894e-05          
  0.35                  3.4514e-05            6.321e-10             -2.74e-12             -3.4498e-05          
  0.4                   3.498e-05             6.261e-10             -3.76e-12             -3.4964e-05          
  0.45                  3.5378e-05            6.2052e-10            -3.34e-12             -3.5364e-05          
  0.5                   3.5742e-05            6.1578e-10            -2.92e-12             -3.5724e-05          
  0.55                  3.6078e-05            6.1138e-10            -3.64e-12             -3.6062e-05          
  0.6                   3.6392e-05            6.0716e-10            -4.14e-12             -3.6378e-05          
  0.65                  3.669e-05             6.033e-10             -3.24e-12             -3.6676e-05          
  0.7                   3.6974e-05            5.9958e-10            -3.18e-12             -3.6958e-05          
  0.75                  3.7242e-05            5.9612e-10            -3.4e-12              -3.7226e-05          
  0.8                   3.7498e-05            5.9282e-10            -3.34e-12             -3.748e-05           
  0.85                  3.7738e-05            5.895e-10             -3.18e-12             -3.772e-05           
  0.9                   3.7968e-05            5.863e-10             -3.74e-12             -3.7952e-05          
  0.95                  3.8188e-05            5.8348e-10            -3.62e-12             -3.817e-05           
  1                     3.8396e-05            5.8068e-10            -2.7e-12              -3.838e-05           
  1.05                  3.8594e-05            5.7776e-10            -3.26e-12             -3.858e-05           
  1.1                   3.8786e-05            5.7496e-10            -3.88e-12             -3.8768e-05          
  1.15                  3.897e-05             5.7262e-10            -6.16e-12             -3.8952e-05          
  1.2                   3.9144e-05            5.695e-10             -9.78e-12             -3.9126e-05          
  1.25                  3.9308e-05            5.6714e-10            -2.26e-11             -3.9292e-05          
  1.3                   3.9466e-05            5.6434e-10            -5.17e-11             -3.9452e-05          
  1.35                  3.962e-05             5.6206e-10            -1.1468e-10           -3.9602e-05          
END_DB

BEGIN_DB
 ICCAP_VAR vg         0.862          
 ICCAP_VAR vb         -1.2           
 ICCAP_VAR vs         0              

 #vd                    id                    ig                    ib                    is                   
  0                     3.03e-08              5.338e-09             -1.92e-12             -3.44e-08            
  0.05                  2.1466e-05            4.6694e-09            -2.68e-12             -2.145e-05           
  0.1                   4.0814e-05            4.1144e-09            -3.78e-12             -4.08e-05            
  0.15                  5.7946e-05            3.6612e-09            -2.98e-12             -5.7932e-05          
  0.2                   7.2748e-05            3.2958e-09            -2.78e-12             -7.2732e-05          
  0.25                  8.511e-05             3.0112e-09            -3.14e-12             -8.5096e-05          
  0.3                   9.49e-05              2.7974e-09            -2.72e-12             -9.4888e-05          
  0.35                  0.000102032           2.6484e-09            -2.52e-12             -0.00010202          
  0.4                   0.000106662           2.5546e-09            -3.12e-12             -0.000106646         
  0.45                  0.00010935            2.5012e-09            -2.3e-12              -0.000109336         
  0.5                   0.000110908           2.4698e-09            -2.16e-12             -0.000110894         
  0.55                  0.00011193            2.4504e-09            -2.84e-12             -0.000111922         
  0.6                   0.000112718           2.4352e-09            -2.96e-12             -0.000112706         
  0.65                  0.000113388           2.4222e-09            -2.06e-12             -0.000113378         
  0.7                   0.00011412            2.4108e-09            -2.68e-12             -0.000113972         
  0.75                  0.00011468            2.4002e-09            -2.44e-12             -0.000114526         
  0.8                   0.00011518            2.3906e-09            -2.08e-12             -0.000115042         
  0.85                  0.00011568            2.3814e-09            -2.54e-12             -0.000115526         
  0.9                   0.00011614            2.3724e-09            -3.14e-12             -0.00011599          
  0.95                  0.00011658            2.3642e-09            -1.12e-12             -0.00011643          
  1                     0.000117              2.356e-09             -2.68e-12             -0.000116852         
  1.05                  0.0001174             2.3492e-09            -1.46e-12             -0.000117            
  1.1                   0.00011778            2.3416e-09            -2.5e-12              -0.0001174           
  1.15                  0.00011814            2.335e-09             -1.8e-12              -0.00011776          
  1.2                   0.0001185             2.328e-09             -1.56e-12             -0.00011812          
  1.25                  0.00011884            2.3216e-09            -3.48e-12             -0.00011844          
  1.3                   0.00011916            2.3154e-09            -3.32e-12             -0.00011878          
  1.35                  0.00011948            2.3098e-09            -7.82e-12             -0.00011908          
END_DB

BEGIN_DB
 ICCAP_VAR vg         1.106          
 ICCAP_VAR vb         -1.2           
 ICCAP_VAR vs         0              

 #vd                    id                    ig                    ib                    is                   
  0                     3.7646e-08            1.7462e-08            -2.48e-12             -5.281e-08           
  0.05                  2.959e-05             1.5666e-08            -2.76e-12             -2.9586e-05          
  0.1                   5.7526e-05            1.41e-08              -2.6e-12              -5.7524e-05          
  0.15                  8.3706e-05            1.275e-08             -8e-13                -8.3702e-05          
  0.2                   0.000107998           1.1592e-08            -2.02e-12             -0.000107996         
  0.25                  0.00013046            1.0608e-08            -1.04e-12             -0.00013008          
  0.3                   0.00015068            9.7724e-09            -2.74e-12             -0.00015032          
  0.35                  0.00016872            9.0818e-09            -1.88e-12             -0.00016834          
  0.4                   0.0001844             8.5138e-09            -2.12e-12             -0.00018404          
  0.45                  0.00019764            8.06e-09              -2.34e-12             -0.00019726          
  0.5                   0.0002083             7.7096e-09            -1.04e-12             -0.00020792          
  0.55                  0.00021636            7.455e-09             -2.02e-12             -0.00021598          
  0.6                   0.00022192            7.284e-09             -2.46e-12             -0.00022154          
  0.65                  0.00022546            7.1764e-09            -1.2e-12              -0.00022508          
  0.7                   0.00022768            7.1104e-09            -2.26e-12             -0.0002273           
  0.75                  0.00022916            7.0658e-09            -2.62e-12             -0.00022878          
  0.8                   0.00023028            7.0332e-09            -9.6e-13              -0.0002299           
  0.85                  0.0002312             7.0062e-09            3.8e-13               -0.00023082          
  0.9                   0.00023202            6.9814e-09            -2.08e-12             -0.00023164          
  0.95                  0.00023276            6.9602e-09            -1.48e-12             -0.0002324           
  1                     0.00023346            6.94e-09              -2.24e-12             -0.00023308          
  1.05                  0.00023412            6.9216e-09            -2.56e-12             -0.00023374          
  1.1                   0.00023474            6.9034e-09            -1.1e-12              -0.00023436          
  1.15                  0.00023532            6.8862e-09            -1.58e-12             -0.00023494          
  1.2                   0.00023588            6.87e-09              -2.34e-12             -0.00023552          
  1.25                  0.00023642            6.8554e-09            -9.8e-13              -0.00023606          
  1.3                   0.00023692            6.841e-09             -1.82e-12             -0.00023656          
  1.35                  0.00023744            6.8262e-09            -2.18e-12             -0.00023706          
END_DB

BEGIN_DB
 ICCAP_VAR vg         1.35           
 ICCAP_VAR vb         -1.2           
 ICCAP_VAR vs         0              

 #vd                    id                    ig                    ib                    is                   
  0                     3.1352e-08            4.5608e-08            -4.658e-11            -7.2564e-08          
  0.05                  3.5446e-05            4.1712e-08            -3.46e-11             -3.5468e-05          
  0.1                   6.973e-05             3.82e-08              -2.578e-11            -6.9752e-05          
  0.15                  0.000102738           3.5054e-08            -2.106e-11            -0.000102758         
  0.2                   0.00013448            3.2246e-08            -1.686e-11            -0.00013414          
  0.25                  0.00016462            2.975e-08             -1.364e-11            -0.00016426          
  0.3                   0.00019316            2.7546e-08            -1.122e-11            -0.0001928           
  0.35                  0.00022               2.5612e-08            -1.108e-11            -0.00021964          
  0.4                   0.000245              2.3926e-08            -9.9e-12              -0.00024466          
  0.45                  0.00026806            2.247e-08             -8.72e-12             -0.0002677           
  0.5                   0.00028908            2.122e-08             -8.64e-12             -0.00028872          
  0.55                  0.00030794            2.016e-08             -8.42e-12             -0.00030758          
  0.6                   0.00032452            1.9276e-08            -7.1e-12              -0.00032416          
  0.65                  0.0003387             1.8556e-08            -7.38e-12             -0.00033834          
  0.7                   0.00035036            1.7984e-08            -7.1e-12              -0.00035             
  0.75                  0.00035944            1.7552e-08            -6.38e-12             -0.00035908          
  0.8                   0.00036604            1.7246e-08            -6.58e-12             -0.00036568          
  0.85                  0.00037054            1.7042e-08            -7.18e-12             -0.00037018          
  0.9                   0.0003735             1.6906e-08            -6.68e-12             -0.00037314          
  0.95                  0.00037554            1.6816e-08            -6.7e-12              -0.00037518          
  1                     0.00037704            1.675e-08             -6.62e-12             -0.00037668          
  1.05                  0.00037824            1.6696e-08            -5.8e-12              -0.00037788          
  1.1                   0.00037926            1.665e-08             -7.02e-12             -0.0003789           
  1.15                  0.0003802             1.661e-08             -6.42e-12             -0.00037984          
  1.2                   0.00038106            1.6572e-08            -5.92e-12             -0.0003807           
  1.25                  0.00038186            1.6536e-08            -6.94e-12             -0.0003815           
  1.3                   0.0003826             1.6504e-08            -6.96e-12             -0.00038224          
  1.35                  0.00038332            1.6472e-08            -4.9e-12              -0.00038298          
END_DB

