! VERSION = 6.00
BEGIN_HEADER
 ICCAP_INPUTS
  vd         V  D GROUND SMU1 0.1 LIN        1    0          1.35       28   0.05      
  vg         V  G GROUND SMU2 0.001 LIST       2 3 0.144 0.344 0.544
  vb         V  B GROUND SMU4 0.1 CON        0
  vs         V  S GROUND SMU3 0.1 CON        0
 ICCAP_OUTPUTS
  id         I  D GROUND SMU1 B
  ig         I  G GROUND SMU2 B
  ib         I  B GROUND SMU4 B
  is         I  S GROUND SMU3 B
 ICCAP_VALUES
  MASTER_SETUP_TYPE "~dc_idvd~"
  LINVT_VALUE ""
  LISTVT_VALUE "|idvg|100.0n|-200.0m|1.000m|3|200.0m|200.0m|"
  TYPE "1"
  TEMP " 70.0000 "
  IS_TNOM " 0.00000 "
  MAIN.W "10.00u"
  MAIN.L "130.0n"
  MAIN.AD "3.400p"
  MAIN.AS "3.400p"
  MAIN.PD "20.68u"
  MAIN.PS "20.68u"
  MAIN.NF "1.000"
  MAIN.M "1"
  MAIN.NRD "0.000"
  MAIN.NRS "0.000"
  MAIN.LDRIFT1 "1E-06"
  MAIN.LDRIFT2 "1E-06"
  MAIN.SA "0.000"
  MAIN.SB "0.000"
  MAIN.SD "0.000"
  MAIN.SCA "0.000"
  MAIN.SCB "0.000"
  MAIN.SCC "0.000"
  MAIN.SC "0.000"
  MODULE "S540"
  PIN_D "18"
  PIN_G "3"
  PIN_S "4"
  PIN_B "17"
  PIN_E ""
  PIN_6 ""
  XY_ID ""
  FUNC "Short"
  STI "SA ref"
  WPE "WPE ref"
  COMMENT ""
  DIS_MEAS ""
  TypeTCI "10"
END_HEADER

BEGIN_DB
 ICCAP_VAR vg         0.144          
 ICCAP_VAR vb         0              
 ICCAP_VAR vs         0              

 #vd                    id                    ig                    ib                    is                   
  0                     9.758e-11             8e-14                 2.12e-12              -5.784e-11           
  0.05                  3.2356e-08            0                     4.6e-13               -3.2332e-08          
  0.1                   4.072e-08             1e-13                 1.4e-13               -4.0786e-08          
  0.15                  4.4446e-08            -4e-14                1.16e-12              -4.4316e-08          
  0.2                   4.701e-08             -4e-14                1.74e-12              -4.7006e-08          
  0.25                  4.956e-08             -2e-14                -1e-13                -4.955e-08           
  0.3                   5.2128e-08            -2e-13                6e-13                 -5.2228e-08          
  0.35                  5.4854e-08            -2.4e-13              3.6e-13               -5.4846e-08          
  0.4                   5.7496e-08            -3.2e-13              7.4e-13               -5.743e-08           
  0.45                  6.0222e-08            -5e-13                -1.2e-13              -6.0342e-08          
  0.5                   6.3248e-08            -6.4e-13              -2.8e-13              -6.3176e-08          
  0.55                  6.6086e-08            -9.6e-13              3e-13                 -6.6088e-08          
  0.6                   6.9216e-08            -1.32e-12             1.42e-12              -6.9194e-08          
  0.65                  7.2414e-08            -1.8e-12              2.4e-13               -7.2388e-08          
  0.7                   7.5744e-08            -2.34e-12             -4e-14                -7.5734e-08          
  0.75                  7.9192e-08            -3.02e-12             4e-13                 -7.9174e-08          
  0.8                   8.2774e-08            -4.02e-12             9.8e-13               -8.2776e-08          
  0.85                  8.6508e-08            -5.04e-12             -4e-14                -8.6488e-08          
  0.9                   9.0378e-08            -6.28e-12             -9e-13                -9.0344e-08          
  0.95                  9.4362e-08            -7.92e-12             -8.8e-13              -9.4366e-08          
  1                     9.8562e-08            -9.6e-12              -3.6e-13              -9.852e-08           
  1.05                  1.02902e-07           -1.164e-11            -2.88e-12             -1.0291e-07          
  1.1                   1.07444e-07           -1.4e-11              -6.28e-12             -1.07398e-07         
  1.15                  1.122e-07             -1.688e-11            -9.56e-12             -1.12166e-07         
  1.2                   1.1704e-07            -1.994e-11            -1.486e-11            -1.1702e-07          
  1.25                  1.2214e-07            -2.358e-11            -2.546e-11            -1.221e-07           
  1.3                   1.275e-07             -2.77e-11             -3.676e-11            -1.274e-07           
  1.35                  1.332e-07             -3.22e-11             -5.378e-11            -1.331e-07           
END_DB

BEGIN_DB
 ICCAP_VAR vg         0.344          
 ICCAP_VAR vb         0              
 ICCAP_VAR vs         0              

 #vd                    id                    ig                    ib                    is                   
  0                     2.7428e-09            2.78e-12              1.74e-12              -3.6826e-09          
  0.05                  3.919e-06             2.1e-12               1.88e-12              -3.9096e-06          
  0.1                   5.1824e-06            1.9e-12               5.6e-13               -5.1876e-06          
  0.15                  5.7562e-06            1.7e-12               1.14e-12              -5.7548e-06          
  0.2                   6.1472e-06            1.72e-12              5.6e-13               -6.1396e-06          
  0.25                  6.4908e-06            1.66e-12              -1.04e-12             -6.481e-06           
  0.3                   6.818e-06             1.42e-12              5.8e-13               -6.8222e-06          
  0.35                  7.143e-06             1.44e-12              2.6e-13               -7.1398e-06          
  0.4                   7.4752e-06            1.48e-12              -5e-13                -7.464e-06           
  0.45                  7.7994e-06            1.44e-12              8.4e-13               -7.8064e-06          
  0.5                   8.1422e-06            1.36e-12              -6.2e-13              -8.1464e-06          
  0.55                  8.499e-06             1.3e-12               -4e-14                -8.5006e-06          
  0.6                   8.8462e-06            1.18e-12              1.02e-12              -8.837e-06           
  0.65                  9.2028e-06            1.04e-12              -3e-13                -9.2004e-06          
  0.7                   9.5778e-06            8e-13                 6e-14                 -9.5724e-06          
  0.75                  9.9522e-06            6.2e-13               1.58e-12              -9.9596e-06          
  0.8                   1.03402e-05           1e-13                 -1.1e-12              -1.03406e-05         
  0.85                  1.0735e-05            -2.6e-13              -1.94e-12             -1.0742e-05          
  0.9                   1.11438e-05           -8.6e-13              -3.38e-12             -1.11376e-05         
  0.95                  1.1558e-05            -1.52e-12             -1.152e-11            -1.15532e-05         
  1                     1.199e-05             -2.4e-12              -2.556e-11            -1.1976e-05          
  1.05                  1.241e-05             -3.62e-12             -5.778e-11            -1.24e-05            
  1.1                   1.2866e-05            -4.74e-12             -1.1754e-10           -1.288e-05           
  1.15                  1.3344e-05            -6.12e-12             -2.3126e-10           -1.3334e-05          
  1.2                   1.3816e-05            -8.04e-12             -4.2512e-10           -1.38e-05            
  1.25                  1.4292e-05            -1.01e-11             -7.3808e-10           -1.4286e-05          
  1.3                   1.4814e-05            -1.238e-11            -1.2316e-09           -1.481e-05           
  1.35                  1.5344e-05            -1.516e-11            -1.973e-09            -1.534e-05           
END_DB

BEGIN_DB
 ICCAP_VAR vg         0.544          
 ICCAP_VAR vb         0              
 ICCAP_VAR vs         0              

 #vd                    id                    ig                    ib                    is                   
  0                     1.0303e-07            1.906e-11             3.2e-13               -8.8478e-08          
  0.05                  7.6526e-05            1.568e-11             1.2e-12               -7.6486e-05          
  0.1                   0.00011972            1.35e-11              5.6e-13               -0.00011936          
  0.15                  0.00014352            1.206e-11             9.8e-13               -0.00014322          
  0.2                   0.00015774            1.124e-11             -4.2e-13              -0.00015734          
  0.25                  0.00016734            1.062e-11             6e-13                 -0.00016702          
  0.3                   0.00017484            1.04e-11              2.8e-13               -0.00017456          
  0.35                  0.0001815             1.012e-11             6e-14                 -0.00018124          
  0.4                   0.00018754            1.008e-11             2e-13                 -0.00018736          
  0.45                  0.0001934             9.84e-12              -2.8e-13              -0.00019304          
  0.5                   0.00019886            9.78e-12              1.4e-13               -0.00019868          
  0.55                  0.00020436            9.74e-12              3.6e-13               -0.00020406          
  0.6                   0.00020974            9.7e-12               -4.6e-13              -0.00020946          
  0.65                  0.00021512            9.68e-12              -4.2e-13              -0.00021472          
  0.7                   0.0002204             9.54e-12              -5.4e-13              -0.00021996          
  0.75                  0.00022556            9.42e-12              -6.6e-13              -0.00022528          
  0.8                   0.00023102            9.28e-12              -1.26e-12             -0.0002307           
  0.85                  0.00023636            9.12e-12              -4.24e-12             -0.00023614          
  0.9                   0.00024166            9.02e-12              -1.286e-11            -0.00024146          
  0.95                  0.00024702            8.72e-12              -3.246e-11            -0.00024682          
  1                     0.00025238            8.26e-12              -8.708e-11            -0.00025214          
  1.05                  0.00025768            7.84e-12              -2.1358e-10           -0.00025736          
  1.1                   0.00026334            7.26e-12              -4.9016e-10           -0.00026294          
  1.15                  0.0002688             6.4e-12               -1.06134e-09          -0.00026846          
  1.2                   0.00027434            5.7e-12               -2.1548e-09           -0.00027408          
  1.25                  0.00028006            4.56e-12              -4.127e-09            -0.0002796           
  1.3                   0.0002856             3.3e-12               -7.4912e-09           -0.00028534          
  1.35                  0.00029154            1.8e-12               -1.2954e-08           -0.00029104          
END_DB

