! VERSION = 6.00
BEGIN_HEADER
 ICCAP_INPUTS
  vg         V  G GROUND SMU2 0.001 LIN        1    -0.5       1.35       38   0.05      
  vb         V  B GROUND SMU4 0.1 LIN        2    0          -1.2       5    -0.3      
  vd         V  D GROUND SMU1 0.1 LIST       3 3 0.05 0.6 1.2
  vs         V  S GROUND SMU3 0.1 CON        0
 ICCAP_OUTPUTS
  id         I  D GROUND SMU1 B
  ig         I  G GROUND SMU2 B
  ib         I  B GROUND SMU4 B
  is         I  S GROUND SMU3 B
 ICCAP_VALUES
  MASTER_SETUP_TYPE "~dc_idvg~"
  LINVT_VALUE ""
  LISTVT_VALUE ""
  TYPE "1"
  TEMP " 125.000 "
  IS_TNOM " 0.00000 "
  MAIN.W "150.0n"
  MAIN.L "180.0n"
  MAIN.AD "100.5f"
  MAIN.AS "100.5f"
  MAIN.PD "1.340u"
  MAIN.PS "1.340u"
  MAIN.NF "1.000"
  MAIN.M "1"
  MAIN.NRD "0.000"
  MAIN.NRS "0.000"
  MAIN.LDRIFT1 "1E-06"
  MAIN.LDRIFT2 "1E-06"
  MAIN.SA "0.000"
  MAIN.SB "0.000"
  MAIN.SD "0.000"
  MAIN.SCA "0.000"
  MAIN.SCB "0.000"
  MAIN.SCC "0.000"
  MAIN.SC "0.000"
  MODULE "S547"
  PIN_D "20"
  PIN_G "1"
  PIN_S "2"
  PIN_B "19"
  PIN_E ""
  PIN_6 ""
  XY_ID ""
  FUNC "LW Scale"
  STI "SA ref"
  WPE "WPE ref"
  COMMENT ""
  DIS_MEAS ""
  TypeTCI "10"
END_HEADER

BEGIN_DB
 ICCAP_VAR vb         0              
 ICCAP_VAR vd         0.05           
 ICCAP_VAR vs         0              

 #vg                    id                    ig                    ib                    is                   
  -0.5                  8e-14                 -5.6424e-08           5.64e-08              4e-13                
  -0.45                 -1.62e-12             -1.3262e-08           1.327e-08             2.2e-13              
  -0.4                  -1.5e-12              -3.1158e-09           3.1248e-09            2.2e-13              
  -0.35                 2.8e-13               -7.2926e-10           7.3758e-10            4e-14                
  -0.3                  1.4e-13               -1.7074e-10           1.7944e-10            -2e-13               
  -0.25                 7.4e-13               -3.986e-11            4.812e-11             -5.2e-13             
  -0.2                  1.86e-12              -9.16e-12             1.62e-11              -1.58e-12            
  -0.15                 5.62e-12              -1.78e-12             9.04e-12              -5.16e-12            
  -0.1                  1.666e-11             -2e-14                7.7e-12               -1.634e-11           
  -0.05                 5.094e-11             4.6e-13               6.64e-12              -5.102e-11           
  0                     1.5918e-10            5.4e-13               7.58e-12              -1.5874e-10          
  0.05                  4.9988e-10            5e-13                 6.56e-12              -4.9986e-10          
  0.1                   1.5754e-09            4.4e-13               5.32e-12              -1.574e-09           
  0.15                  4.9504e-09            5.6e-13               5.52e-12              -4.9498e-09          
  0.2                   1.5194e-08            5.6e-13               5.5e-12               -1.5178e-08          
  0.25                  4.4176e-08            6.2e-13               7.12e-12              -4.4168e-08          
  0.3                   1.1522e-07            7.2e-13               6.08e-12              -1.1522e-07          
  0.35                  2.5724e-07            7.8e-13               5.4e-12               -2.5728e-07          
  0.4                   4.8638e-07            8.6e-13               6.34e-12              -4.864e-07           
  0.45                  8.0208e-07            1e-12                 6.26e-12              -8.0206e-07          
  0.5                   1.1926e-06            8.6e-13               4.64e-12              -1.1896e-06          
  0.55                  1.6338e-06            1.18e-12              5.22e-12              -1.6306e-06          
  0.6                   2.1196e-06            1.66e-12              5.94e-12              -2.1134e-06          
  0.65                  2.6268e-06            1.9e-12               6.06e-12              -2.6326e-06          
  0.7                   3.154e-06             2.4e-12               4.66e-12              -3.1556e-06          
  0.75                  3.7008e-06            2.76e-12              4.46e-12              -3.6966e-06          
  0.8                   4.2374e-06            3.6e-12               4.84e-12              -4.24e-06            
  0.85                  4.7722e-06            4.48e-12              5.7e-12               -4.7686e-06          
  0.9                   5.2954e-06            5.62e-12              4.46e-12              -5.292e-06           
  0.95                  5.8042e-06            6.98e-12              3.38e-12              -5.8012e-06          
  1                     6.2968e-06            8.62e-12              3.82e-12              -6.2938e-06          
  1.05                  6.7712e-06            1.056e-11             4.86e-12              -6.7676e-06          
  1.1                   7.2258e-06            1.29e-11              4.08e-12              -7.2222e-06          
  1.15                  7.6616e-06            1.566e-11             3.36e-12              -7.6596e-06          
  1.2                   8.0768e-06            1.884e-11             3.46e-12              -8.074e-06           
  1.25                  8.4714e-06            2.25e-11              3.62e-12              -8.4686e-06          
  1.3                   8.8468e-06            2.696e-11             4.24e-12              -8.843e-06           
  1.35                  9.2026e-06            3.206e-11             3.82e-12              -9.1998e-06          
END_DB

BEGIN_DB
 ICCAP_VAR vb         -0.3           
 ICCAP_VAR vd         0.05           
 ICCAP_VAR vs         0              

 #vg                    id                    ig                    ib                    is                   
  -0.5                  1.2e-13               -1.006e-11            3.6e-13               2.2e-13              
  -0.45                 4e-14                 -2.4e-12              -6.22e-12             2e-13                
  -0.4                  1.6e-13               -5.8e-13              -7.98e-12             2e-13                
  -0.35                 6e-14                 6e-14                 -7.56e-12             1e-13                
  -0.3                  6e-14                 1.6e-13               -6.5e-12              -2e-14               
  -0.25                 2.8e-13               2.6e-13               -7.04e-12             1.4e-13              
  -0.2                  4e-13                 3.4e-13               -4.32e-12             -3.2e-13             
  -0.15                 1.24e-12              4.4e-13               -5.12e-12             -9.4e-13             
  -0.1                  3.74e-12              4.2e-13               -5.78e-12             -3.4e-12             
  -0.05                 1.194e-11             4e-13                 -5.32e-12             -1.16e-11            
  0                     3.878e-11             4.8e-13               -5.18e-12             -3.854e-11           
  0.05                  1.277e-10             4.2e-13               -2.46e-12             -1.2762e-10          
  0.1                   4.2158e-10            5.8e-13               -3.92e-12             -4.211e-10           
  0.15                  1.3912e-09            4.6e-13               -3.64e-12             -1.391e-09           
  0.2                   4.5432e-09            5e-13                 -4.28e-12             -4.5412e-09          
  0.25                  1.4472e-08            5.4e-13               -3.12e-12             -1.4458e-08          
  0.3                   4.3288e-08            7e-13                 -2.24e-12             -4.3272e-08          
  0.35                  1.154e-07             7e-13                 -3.48e-12             -1.1536e-07          
  0.4                   2.6008e-07            8.2e-13               -2.48e-12             -2.5998e-07          
  0.45                  4.9362e-07            1e-12                 -2.88e-12             -4.935e-07           
  0.5                   8.1364e-07            1.04e-12              -2.22e-12             -8.1348e-07          
  0.55                  1.206e-06             1.12e-12              -3.44e-12             -1.1998e-06          
  0.6                   1.6408e-06            1.48e-12              -2.9e-12              -1.6412e-06          
  0.65                  2.1274e-06            1.8e-12               -1.48e-12             -2.127e-06           
  0.7                   2.6362e-06            2.24e-12              -2.32e-12             -2.6302e-06          
  0.75                  3.1618e-06            2.8e-12               -1.94e-12             -3.1664e-06          
  0.8                   3.6904e-06            3.52e-12              -2.06e-12             -3.6896e-06          
  0.85                  4.2242e-06            4.44e-12              -2.34e-12             -4.2184e-06          
  0.9                   4.7456e-06            5.46e-12              -1.64e-12             -4.7424e-06          
  0.95                  5.2566e-06            6.84e-12              -1.12e-12             -5.254e-06           
  1                     5.7538e-06            8.42e-12              -2.12e-12             -5.7512e-06          
  1.05                  6.2322e-06            1.028e-11             -2.38e-12             -6.2294e-06          
  1.1                   6.6916e-06            1.282e-11             -1.54e-12             -6.6882e-06          
  1.15                  7.1324e-06            1.542e-11             -8.6e-13              -7.1288e-06          
  1.2                   7.5534e-06            1.866e-11             -2.2e-12              -7.5506e-06          
  1.25                  7.9548e-06            2.25e-11              -1.88e-12             -7.9516e-06          
  1.3                   8.3352e-06            2.666e-11             -2.26e-12             -8.332e-06           
  1.35                  8.6984e-06            3.164e-11             -1.48e-12             -8.6948e-06          
END_DB

BEGIN_DB
 ICCAP_VAR vb         -0.6           
 ICCAP_VAR vd         0.05           
 ICCAP_VAR vs         0              

 #vg                    id                    ig                    ib                    is                   
  -0.5                  -8e-14                -6e-13                -1.386e-11            1.4e-13              
  -0.45                 -6e-14                -3.6e-13              -1.368e-11            1.4e-13              
  -0.4                  1.6e-13               2e-14                 -1.294e-11            3.4e-13              
  -0.35                 0                     1.2e-13               -1.26e-11             2.6e-13              
  -0.3                  6e-14                 3.2e-13               -1.166e-11            1e-13                
  -0.25                 1e-13                 3.2e-13               -9.08e-12             4e-14                
  -0.2                  1.2e-13               1.6e-13               -8.96e-12             1e-13                
  -0.15                 4e-13                 3.8e-13               -1.014e-11            -1.4e-13             
  -0.1                  1.2e-12               3.6e-13               -9.08e-12             -9e-13               
  -0.05                 3.72e-12              5.4e-13               -8.76e-12             -3.54e-12            
  0                     1.266e-11             6e-13                 -8.52e-12             -1.222e-11           
  0.05                  4.238e-11             5e-13                 -7.84e-12             -4.21e-11            
  0.1                   1.4354e-10            5.8e-13               -7.64e-12             -1.4332e-10          
  0.15                  4.8772e-10            6.4e-13               -8.02e-12             -4.8752e-10          
  0.2                   1.6468e-09            3.6e-13               -7.34e-12             -1.6458e-09          
  0.25                  5.4968e-09            6e-13                 -7.22e-12             -5.495e-09           
  0.3                   1.7704e-08            5.6e-13               -5.32e-12             -1.7688e-08          
  0.35                  5.2966e-08            7e-13                 -6.74e-12             -5.2954e-08          
  0.4                   1.3842e-07            6.4e-13               -6.46e-12             -1.384e-07           
  0.45                  3.029e-07             7.8e-13               -6.42e-12             -3.0294e-07          
  0.5                   5.5794e-07            9.8e-13               -5.34e-12             -5.5794e-07          
  0.55                  8.942e-07             1.22e-12              -6.48e-12             -8.9474e-07          
  0.6                   1.2998e-06            1.38e-12              -5.98e-12             -1.2974e-06          
  0.65                  1.752e-06             1.8e-12               -5.2e-12              -1.738e-06           
  0.7                   2.2286e-06            2.26e-12              -5.32e-12             -2.2326e-06          
  0.75                  2.7506e-06            2.74e-12              -5.24e-12             -2.741e-06           
  0.8                   3.2662e-06            3.5e-12               -6.8e-12              -3.258e-06           
  0.85                  3.7906e-06            4.34e-12              -5.34e-12             -3.7868e-06          
  0.9                   4.3134e-06            5.36e-12              -4.42e-12             -4.3076e-06          
  0.95                  4.8238e-06            6.74e-12              -5.92e-12             -4.8202e-06          
  1                     5.3224e-06            8.32e-12              -6.38e-12             -5.3188e-06          
  1.05                  5.805e-06             1.024e-11             -5.1e-12              -5.8032e-06          
  1.1                   6.2698e-06            1.258e-11             -4.1e-12              -6.266e-06           
  1.15                  6.714e-06             1.522e-11             -3.96e-12             -6.7114e-06          
  1.2                   7.141e-06             1.844e-11             -5e-12                -7.137e-06           
  1.25                  7.5468e-06            2.21e-11              -4.96e-12             -7.5434e-06          
  1.3                   7.9304e-06            2.654e-11             -5.14e-12             -7.9244e-06          
  1.35                  8.3006e-06            3.146e-11             -4.28e-12             -8.2964e-06          
END_DB

BEGIN_DB
 ICCAP_VAR vb         -0.9           
 ICCAP_VAR vd         0.05           
 ICCAP_VAR vs         0              

 #vg                    id                    ig                    ib                    is                   
  -0.5                  1.2e-13               -7e-13                -1.616e-11            2.4e-13              
  -0.45                 1.6e-13               -1.2e-13              -1.632e-11            2.8e-13              
  -0.4                  2.4e-13               -4e-14                -1.572e-11            3e-13                
  -0.35                 -2e-14                1.2e-13               -1.47e-11             1.6e-13              
  -0.3                  1e-13                 1.6e-13               -1.378e-11            1.4e-13              
  -0.25                 4e-14                 2.8e-13               -1.262e-11            1.8e-13              
  -0.2                  8e-14                 2.8e-13               -1.184e-11            1.6e-13              
  -0.15                 2.8e-13               3.6e-13               -1.102e-11            0                    
  -0.1                  5.8e-13               5.6e-13               -1.246e-11            -1.6e-13             
  -0.05                 1.54e-12              5.2e-13               -1.164e-11            -1.36e-12            
  0                     5.02e-12              5.2e-13               -1.004e-11            -4.86e-12            
  0.05                  1.738e-11             5.2e-13               -9.64e-12             -1.688e-11           
  0.1                   5.928e-11             5.8e-13               -1.046e-11            -5.92e-11            
  0.15                  2.0576e-10            6e-13                 -9.82e-12             -2.0544e-10          
  0.2                   7.0988e-10            6e-13                 -9.9e-12              -7.0938e-10          
  0.25                  2.4362e-09            5.4e-13               -9.6e-12              -2.4356e-09          
  0.3                   8.1772e-09            6e-13                 -8.9e-12              -8.1758e-09          
  0.35                  2.6196e-08            6e-13                 -8.34e-12             -2.6182e-08          
  0.4                   7.5988e-08            8e-13                 -8.26e-12             -7.5986e-08          
  0.45                  1.883e-07             8.2e-13               -8.98e-12             -1.883e-07           
  0.5                   3.873e-07             1.06e-12              -8.96e-12             -3.8722e-07          
  0.55                  6.7562e-07            1.22e-12              -7.02e-12             -6.7564e-07          
  0.6                   1.04094e-06           1.5e-12               -8.24e-12             -1.04012e-06         
  0.65                  1.4552e-06            1.56e-12              -8.56e-12             -1.4614e-06          
  0.7                   1.918e-06             2.08e-12              -7.64e-12             -1.9134e-06          
  0.75                  2.4128e-06            2.6e-12               -6.46e-12             -2.4064e-06          
  0.8                   2.926e-06             3.42e-12              -8.1e-12              -2.9206e-06          
  0.85                  3.446e-06             4.28e-12              -8.62e-12             -3.4432e-06          
  0.9                   3.9672e-06            5.36e-12              -8.4e-12              -3.964e-06           
  0.95                  4.4802e-06            6.66e-12              -6.38e-12             -4.477e-06           
  1                     4.9814e-06            8.16e-12              -6.94e-12             -4.9782e-06          
  1.05                  5.4674e-06            1.03e-11              -9.02e-12             -5.4628e-06          
  1.1                   5.9346e-06            1.236e-11             -7.46e-12             -5.9314e-06          
  1.15                  6.384e-06             1.518e-11             -6.46e-12             -6.3798e-06          
  1.2                   6.8136e-06            1.818e-11             -6.26e-12             -6.8096e-06          
  1.25                  7.2226e-06            2.198e-11             -7.28e-12             -7.2202e-06          
  1.3                   7.6126e-06            2.632e-11             -7.28e-12             -7.6094e-06          
  1.35                  7.9866e-06            3.126e-11             -7.06e-12             -7.981e-06           
END_DB

BEGIN_DB
 ICCAP_VAR vb         -1.2           
 ICCAP_VAR vd         0.05           
 ICCAP_VAR vs         0              

 #vg                    id                    ig                    ib                    is                   
  -0.5                  6e-14                 -5.8e-13              -1.926e-11            3e-13                
  -0.45                 1e-13                 -2.6e-13              -1.814e-11            3.2e-13              
  -0.4                  2.4e-13               8e-14                 -1.72e-11             2.4e-13              
  -0.35                 1.4e-13               1e-13                 -1.504e-11            1.2e-13              
  -0.3                  1e-13                 1.6e-13               -1.486e-11            1.6e-13              
