! VERSION = 6.00
BEGIN_HEADER
 ICCAP_INPUTS
  vg         V  G GROUND SMU2 0.001 LIN        1    -0.5       1.35       38   0.05      
  vb         V  B GROUND SMU4 0.1 LIN        2    0          -1.2       5    -0.3      
  vd         V  D GROUND SMU1 0.1 LIST       3 3 0.05 0.6 1.2
  vs         V  S GROUND SMU3 0.1 CON        0
 ICCAP_OUTPUTS
  id         I  D GROUND SMU1 B
  ig         I  G GROUND SMU2 B
  ib         I  B GROUND SMU4 B
  is         I  S GROUND SMU3 B
 ICCAP_VALUES
  MASTER_SETUP_TYPE "~dc_idvg~"
  LINVT_VALUE ""
  LISTVT_VALUE ""
  TYPE "1"
  TEMP " 125.000 "
  IS_TNOM " 0.00000 "
  MAIN.W "150.0n"
  MAIN.L "10.00u"
  MAIN.AD "100.5f"
  MAIN.AS "100.5f"
  MAIN.PD "1.340u"
  MAIN.PS "1.340u"
  MAIN.NF "1.000"
  MAIN.M "1"
  MAIN.NRD "0.000"
  MAIN.NRS "0.000"
  MAIN.LDRIFT1 "1E-06"
  MAIN.LDRIFT2 "1E-06"
  MAIN.SA "0.000"
  MAIN.SB "0.000"
  MAIN.SD "0.000"
  MAIN.SCA "0.000"
  MAIN.SCB "0.000"
  MAIN.SCC "0.000"
  MAIN.SC "0.000"
  MODULE "S547"
  PIN_D "16"
  PIN_G "5"
  PIN_S "6"
  PIN_B "15"
  PIN_E ""
  PIN_6 ""
  XY_ID ""
  FUNC "Narrow"
  STI "SA ref"
  WPE "WPE ref"
  COMMENT ""
  DIS_MEAS ""
  TypeTCI "10"
END_HEADER

BEGIN_DB
 ICCAP_VAR vb         0              
 ICCAP_VAR vd         0.05           
 ICCAP_VAR vs         0              

 #vg                    id                    ig                    ib                    is                   
  -0.5                  6e-13                 -5.5858e-08           5.583e-08             5.8e-13              
  -0.45                 -1.1e-12              -1.3156e-08           1.316e-08             2.4e-13              
  -0.4                  -1.2e-12              -3.1018e-09           3.1086e-09            8e-14                
  -0.35                 2e-13                 -7.2918e-10           7.3662e-10            1e-13                
  -0.3                  4.6e-13               -1.7192e-10           1.7766e-10            -1e-13               
  -0.25                 9.6e-13               -4.034e-11            4.638e-11             -9.6e-13             
  -0.2                  3.12e-12              -9.22e-12             1.534e-11             -2.74e-12            
  -0.15                 9.84e-12              -2.06e-12             7.12e-12              -9.66e-12            
  -0.1                  3.226e-11             -3e-13                6.54e-12              -3.214e-11           
  -0.05                 1.0604e-10            2e-13                 6.96e-12              -1.057e-10           
  0                     3.409e-10             3e-13                 5.66e-12              -3.408e-10           
  0.05                  1.04292e-09           3.8e-13               4.64e-12              -1.04202e-09         
  0.1                   2.853e-09             4.4e-13               4.64e-12              -2.8518e-09          
  0.15                  6.62e-09              8e-13                 5.1e-12               -6.619e-09           
  0.2                   1.269e-08             1.52e-12              5.92e-12              -1.2674e-08          
  0.25                  2.0562e-08            2.36e-12              5.22e-12              -2.0548e-08          
  0.3                   2.9378e-08            3.88e-12              4.74e-12              -2.937e-08           
  0.35                  3.8562e-08            6.42e-12              4.62e-12              -3.8548e-08          
  0.4                   4.7788e-08            9.86e-12              5.04e-12              -4.7786e-08          
  0.45                  5.695e-08             1.518e-11             5.4e-12               -5.6956e-08          
  0.5                   6.5952e-08            2.242e-11             4.92e-12              -6.5962e-08          
  0.55                  7.4736e-08            3.258e-11             3.28e-12              -7.475e-08           
  0.6                   8.3288e-08            4.622e-11             4.14e-12              -8.332e-08           
  0.65                  9.159e-08             6.42e-11              4.48e-12              -9.1652e-08          
  0.7                   9.962e-08             8.776e-11             5.06e-12              -9.9692e-08          
  0.75                  1.07372e-07           1.1756e-10            3.54e-12              -1.0747e-07          
  0.8                   1.14828e-07           1.5544e-10            3.46e-12              -1.14978e-07         
  0.85                  1.2202e-07            2.0262e-10            5.28e-12              -1.222e-07           
  0.9                   1.289e-07             2.6076e-10            3.9e-12               -1.2912e-07          
  0.95                  1.3548e-07            3.3204e-10            3.54e-12              -1.3576e-07          
  1                     1.4176e-07            4.1826e-10            4e-12                 -1.4214e-07          
  1.05                  1.4774e-07            5.214e-10             4.22e-12              -1.4822e-07          
  1.1                   1.5342e-07            6.4388e-10            4.32e-12              -1.5402e-07          
  1.15                  1.588e-07             7.8926e-10            3.38e-12              -1.5956e-07          
  1.2                   1.639e-07             9.6022e-10            3.14e-12              -1.6484e-07          
  1.25                  1.6872e-07            1.16e-09              3.04e-12              -1.6982e-07          
  1.3                   1.7324e-07            1.3918e-09            3.82e-12              -1.7462e-07          
  1.35                  1.7748e-07            1.6606e-09            1.98e-12              -1.7912e-07          
END_DB

BEGIN_DB
 ICCAP_VAR vb         -0.3           
 ICCAP_VAR vd         0.05           
 ICCAP_VAR vs         0              

 #vg                    id                    ig                    ib                    is                   
  -0.5                  5e-13                 -1.018e-11            -1.02e-12             3e-13                
  -0.45                 2.4e-13               -2.7e-12              -7.28e-12             3.6e-13              
  -0.4                  2.8e-13               -7e-13                -6.92e-12             4e-13                
  -0.35                 1.4e-13               -3.2e-13              -6.02e-12             1.6e-13              
  -0.3                  8e-14                 -6e-14                -7.36e-12             4e-14                
  -0.25                 -2e-13                -4e-14                -5.38e-12             -4.4e-13             
  -0.2                  1.18e-12              0                     -6.66e-12             -4.2e-13             
  -0.15                 3.12e-12              4e-13                 -4.88e-12             -2.88e-12            
  -0.1                  1.002e-11             2e-13                 -4.28e-12             -9.6e-12             
  -0.05                 3.412e-11             3.8e-13               -4.72e-12             -3.348e-11           
  0                     1.1534e-10            4.2e-13               -4.44e-12             -1.15e-10            
  0.05                  3.8198e-10            3.8e-13               -5.22e-12             -3.8126e-10          
  0.1                   1.185e-09             5.4e-13               -2.96e-12             -1.1844e-09          
  0.15                  3.2474e-09            8.8e-13               -4.2e-12              -3.2458e-09          
  0.2                   7.4066e-09            1.32e-12              -3.68e-12             -7.4066e-09          
  0.25                  1.3876e-08            2.08e-12              -3.98e-12             -1.386e-08           
  0.3                   2.1934e-08            3.72e-12              -1.88e-12             -2.1924e-08          
  0.35                  3.0746e-08            6.14e-12              -2.88e-12             -3.0736e-08          
  0.4                   3.9772e-08            9.5e-12               -2.92e-12             -3.9766e-08          
  0.45                  4.8806e-08            1.486e-11             -3.42e-12             -4.8808e-08          
  0.5                   5.7724e-08            2.208e-11             -2.44e-12             -5.7732e-08          
  0.55                  6.6456e-08            3.202e-11             -1.74e-12             -6.6472e-08          
  0.6                   7.498e-08             4.55e-11              -3.04e-12             -7.502e-08           
  0.65                  8.328e-08             6.35e-11              -2.52e-12             -8.3326e-08          
  0.7                   9.129e-08             8.67e-11              -2.68e-12             -9.1366e-08          
  0.75                  9.905e-08             1.1668e-10            -1.44e-12             -9.9154e-08          
  0.8                   1.06516e-07           1.5426e-10            -2.66e-12             -1.06668e-07         
  0.85                  1.1372e-07            2.0128e-10            -3.02e-12             -1.1392e-07          
  0.9                   1.2064e-07            2.5946e-10            -1.64e-12             -1.2086e-07          
  0.95                  1.2726e-07            3.3032e-10            -1.54e-12             -1.2754e-07          
  1                     1.3358e-07            4.1634e-10            -2.54e-12             -1.3396e-07          
  1.05                  1.3958e-07            5.1934e-10            -2.14e-12             -1.4008e-07          
  1.1                   1.453e-07             6.4206e-10            -2.08e-12             -1.459e-07           
  1.15                  1.5072e-07            7.8742e-10            -2.52e-12             -1.5146e-07          
  1.2                   1.5586e-07            9.58e-10              -1.42e-12             -1.5678e-07          
  1.25                  1.607e-07             1.1576e-09            -2.26e-12             -1.6182e-07          
  1.3                   1.6528e-07            1.3896e-09            -2.86e-12             -1.6664e-07          
  1.35                  1.6958e-07            1.658e-09             -2.88e-12             -1.712e-07           
END_DB

BEGIN_DB
 ICCAP_VAR vb         -0.6           
 ICCAP_VAR vd         0.05           
 ICCAP_VAR vs         0              

 #vg                    id                    ig                    ib                    is                   
  -0.5                  2.8e-13               -6.2e-13              -1.41e-11             3e-13                
  -0.45                 3.8e-13               -3.8e-13              -1.324e-11            3e-13                
  -0.4                  3.4e-13               -2e-13                -1.164e-11            3.6e-13              
  -0.35                 2e-13                 0                     -1.152e-11            2.6e-13              
  -0.3                  2.6e-13               -2e-14                -1.106e-11            1.8e-13              
  -0.25                 3.6e-13               8e-14                 -1.186e-11            3.4e-13              
  -0.2                  3.2e-13               1.8e-13               -9.68e-12             -1.6e-13             
  -0.15                 1.26e-12              2.8e-13               -8.28e-12             -7.4e-13             
  -0.1                  4.02e-12              2e-13                 -9.26e-12             -3.42e-12            
  -0.05                 1.328e-11             3.2e-13               -8.42e-12             -1.296e-11           
  0                     4.676e-11             4e-13                 -8.78e-12             -4.644e-11           
  0.05                  1.6174e-10            4.2e-13               -7.88e-12             -1.614e-10           
  0.1                   5.3756e-10            6.8e-13               -7.7e-12              -5.3724e-10          
  0.15                  1.6412e-09            5.4e-13               -6.4e-12              -1.6404e-09          
  0.2                   4.2974e-09            1.3e-12               -7.88e-12             -4.2946e-09          
  0.25                  9.2328e-09            2.02e-12              -7.34e-12             -9.2316e-09          
  0.3                   1.6258e-08            3.44e-12              -7.2e-12              -1.6248e-08          
  0.35                  2.4522e-08            5.72e-12              -6.14e-12             -2.4516e-08          
  0.4                   3.326e-08             9.26e-12              -5.14e-12             -3.3254e-08          
  0.45                  4.212e-08             1.444e-11             -6.86e-12             -4.212e-08           
  0.5                   5.092e-08             2.15e-11              -6.58e-12             -5.0926e-08          
  0.55                  5.9572e-08            3.14e-11              -5.74e-12             -5.9592e-08          
  0.6                   6.8046e-08            4.478e-11             -4.92e-12             -6.808e-08           
  0.65                  7.631e-08             6.268e-11             -6.16e-12             -7.6362e-08          
  0.7                   8.4318e-08            8.568e-11             -6.48e-12             -8.4392e-08          
  0.75                  9.2078e-08            1.1568e-10            -5.8e-12              -9.219e-08           
  0.8                   9.956e-08             1.5304e-10            -5.68e-12             -9.97e-08            
  0.85                  1.06774e-07           2.0002e-10            -4.88e-12             -1.06966e-07         
  0.9                   1.13684e-07           2.5788e-10            -6.28e-12             -1.13944e-07         
  0.95                  1.2034e-07            3.2864e-10            -5.22e-12             -1.2064e-07          
  1                     1.267e-07             4.1446e-10            -3.68e-12             -1.2708e-07          
  1.05                  1.3274e-07            5.1744e-10            -5.38e-12             -1.3322e-07          
  1.1                   1.385e-07             6.4016e-10            -5.5e-12              -1.391e-07           
  1.15                  1.4396e-07            7.8486e-10            -3.72e-12             -1.447e-07           
  1.2                   1.4912e-07            9.556e-10             -5.44e-12             -1.5004e-07          
  1.25                  1.54e-07              1.155e-09             -4.92e-12             -1.5512e-07          
  1.3                   1.5862e-07            1.3868e-09            -5.56e-12             -1.5996e-07          
  1.35                  1.6296e-07            1.6554e-09            -6.58e-12             -1.6458e-07          
END_DB

BEGIN_DB
 ICCAP_VAR vb         -0.9           
 ICCAP_VAR vd         0.05           
 ICCAP_VAR vs         0              

 #vg                    id                    ig                    ib                    is                   
  -0.5                  3.8e-13               -6.8e-13              -1.632e-11            2e-13                
  -0.45                 3e-13                 -3.6e-13              -1.692e-11            3.2e-13              
  -0.4                  2e-13                 -4e-14                -1.45e-11             2.4e-13              
  -0.35                 3.2e-13               4e-14                 -1.372e-11            3e-13                
  -0.3                  2.2e-13               6e-14                 -1.352e-11            3e-13                
  -0.25                 2.2e-13               1.8e-13               -1.33e-11             3e-13                
  -0.2                  4e-13                 1.4e-13               -1.278e-11            1.4e-13              
  -0.15                 5.4e-13               3e-13                 -1.114e-11            -1e-13               
  -0.1                  1.78e-12              2.4e-13               -1.088e-11            -1.32e-12            
  -0.05                 6.36e-12              4.6e-13               -1.108e-11            -5.76e-12            
  0                     2.19e-11              4e-13                 -1.114e-11            -2.15e-11            
  0.05                  7.786e-11             4.8e-13               -1.012e-11            -7.72e-11            
  0.1                   2.6942e-10            6e-13                 -9.74e-12             -2.6886e-10          
  0.15                  8.8176e-10            6.8e-13               -1.018e-11            -8.808e-10           
  0.2                   2.5512e-09            9.4e-13               -8.92e-12             -2.5516e-09          
  0.25                  6.1544e-09            1.86e-12              -9.56e-12             -6.1544e-09          
  0.3                   1.2014e-08            3.24e-12              -1.014e-11            -1.2002e-08          
  0.35                  1.9546e-08            5.58e-12              -9.7e-12              -1.9536e-08          
  0.4                   2.7874e-08            8.8e-12               -7.68e-12             -2.7866e-08          
  0.45                  3.6488e-08            1.388e-11             -8.86e-12             -3.6486e-08          
  0.5                   4.5128e-08            2.096e-11             -8.92e-12             -4.5134e-08          
  0.55                  5.3666e-08            3.072e-11             -8.38e-12             -5.3688e-08          
  0.6                   6.207e-08             4.414e-11             -7.3e-12              -6.2106e-08          
  0.65                  7.0284e-08            6.178e-11             -8.12e-12             -7.0328e-08          
  0.7                   7.8254e-08            8.482e-11             -8.32e-12             -7.833e-08           
  0.75                  8.6016e-08            1.1438e-10            -8.3e-12              -8.6118e-08          
  0.8                   9.349e-08             1.5172e-10            -8.16e-12             -9.3638e-08          
  0.85                  1.0072e-07            1.985e-10             -6.62e-12             -1.00904e-07         
  0.9                   1.0765e-07            2.5638e-10            -8e-12                -1.07896e-07         
  0.95                  1.14298e-07           3.2704e-10            -7.48e-12             -1.14612e-07         
  1                     1.2068e-07            4.1256e-10            -6.5e-12              -1.2106e-07          
  1.05                  1.2676e-07            5.155e-10             -6.82e-12             -1.2724e-07          
  1.1                   1.3254e-07            6.3792e-10            -7.26e-12             -1.3314e-07          
  1.15                  1.3804e-07            7.8268e-10            -7.26e-12             -1.3878e-07          
  1.2                   1.4324e-07            9.5306e-10            -8.06e-12             -1.4416e-07          
  1.25                  1.4816e-07            1.1526e-09            -7e-12                -1.4926e-07          
  1.3                   1.528e-07             1.3842e-09            -7.26e-12             -1.5414e-07          
  1.35                  1.5718e-07            1.652e-09             -8.58e-12             -1.5878e-07          
END_DB

BEGIN_DB
 ICCAP_VAR vb         -1.2           
 ICCAP_VAR vd         0.05           
 ICCAP_VAR vs         0              

 #vg                    id                    ig                    ib                    is                   
  -0.5                  4.4e-13               -6e-13                -1.918e-11            3.4e-13              
  -0.45                 3.6e-13               -2e-13                -1.892e-11            3.2e-13              
  -0.4                  3.4e-13               -1.6e-13              -1.814e-11            3.4e-13              
  -0.35                 3.2e-13               6e-14                 -1.722e-11            3.6e-13              
  -0.3                  3e-13                 6e-14                 -1.524e-11            3.8e-13              
