! VERSION = 6.00
BEGIN_HEADER
 ICCAP_INPUTS
  vd         V  D GROUND SMU1 0.1 LIN        1    0          1.35       28   0.05      
  vg         V  G GROUND SMU2 0.001 LIST       2 3 0.201 0.401 0.601
  vb         V  B GROUND SMU4 0.1 CON        0
  vs         V  S GROUND SMU3 0.1 CON        0
 ICCAP_OUTPUTS
  id         I  D GROUND SMU1 B
  ig         I  G GROUND SMU2 B
  ib         I  B GROUND SMU4 B
  is         I  S GROUND SMU3 B
 ICCAP_VALUES
  MASTER_SETUP_TYPE "~dc_idvd~"
  LINVT_VALUE ""
  LISTVT_VALUE "|idvg|100.0n|-200.0m|1.000m|3|200.0m|200.0m|"
  TYPE "1"
  TEMP " 27.0000 "
  IS_TNOM " 1.00000 "
  MAIN.W "180.0n"
  MAIN.L "140.0n"
  MAIN.AD "102.6f"
  MAIN.AS "102.6f"
  MAIN.PD "1.340u"
  MAIN.PS "1.340u"
  MAIN.NF "1.000"
  MAIN.M "1"
  MAIN.NRD "0.000"
  MAIN.NRS "0.000"
  MAIN.LDRIFT1 "1E-06"
  MAIN.LDRIFT2 "1E-06"
  MAIN.SA "0.000"
  MAIN.SB "0.000"
  MAIN.SD "0.000"
  MAIN.SCA "0.000"
  MAIN.SCB "0.000"
  MAIN.SCC "0.000"
  MAIN.SC "0.000"
  MODULE "S545"
  PIN_D "14"
  PIN_G "7"
  PIN_S "8"
  PIN_B "13"
  PIN_E ""
  PIN_6 ""
  XY_ID ""
  FUNC "LW Scale"
  STI "SA ref"
  WPE "WPE ref"
  COMMENT ""
  DIS_MEAS ""
  TypeTCI "10"
END_HEADER

BEGIN_DB
 ICCAP_VAR vg         0.201          
 ICCAP_VAR vb         0              
 ICCAP_VAR vs         0              

 #vd                    id                    ig                    ib                    is                   
  0                     1.02e-12              -1.8e-13              1.52e-12              -6.6e-13             
  0.05                  2.477e-10             6e-14                 1.06e-12              -2.4174e-10          
  0.1                   3.0128e-10            -3e-13                1.38e-12              -2.972e-10           
  0.15                  3.1498e-10            -2.8e-13              8.8e-13               -3.2642e-10          
  0.2                   3.3932e-10            -1.2e-13              9e-13                 -3.4744e-10          
  0.25                  3.6446e-10            -1e-13                6e-13                 -3.6236e-10          
  0.3                   3.8756e-10            -3.6e-13              1.32e-12              -3.7864e-10          
  0.35                  3.977e-10             0                     1.14e-12              -4.0018e-10          
  0.4                   4.104e-10             -1.6e-13              -1e-13                -4.1472e-10          
  0.45                  4.308e-10             -1.4e-13              2.6e-13               -4.3928e-10          
  0.5                   4.5942e-10            -2e-14                9e-13                 -4.6472e-10          
  0.55                  4.6756e-10            -1.8e-13              9.4e-13               -4.741e-10           
  0.6                   5.0036e-10            6e-14                 1.1e-12               -4.9472e-10          
  0.65                  5.1556e-10            -2.2e-13              4.6e-13               -5.0472e-10          
  0.7                   5.3524e-10            2e-14                 2e-14                 -5.3772e-10          
  0.75                  5.7518e-10            0                     8e-14                 -5.6052e-10          
  0.8                   5.829e-10             0                     1.28e-12              -5.7242e-10          
  0.85                  6.0202e-10            -1.8e-13              3.6e-13               -5.9686e-10          
  0.9                   6.3092e-10            -6e-14                9.2e-13               -6.2862e-10          
  0.95                  6.6672e-10            -2.2e-13              1e-12                 -6.57e-10            
  1                     6.9054e-10            -3.4e-13              1e-13                 -6.7962e-10          
  1.05                  6.952e-10             -6e-14                1e-12                 -7.09e-10            
  1.1                   7.2148e-10            0                     0                     -7.2954e-10          
  1.15                  7.655e-10             -1.8e-13              1.4e-12               -7.6816e-10          
  1.2                   7.9448e-10            -2.8e-13              4e-14                 -8.0696e-10          
  1.25                  8.094e-10             -8e-14                6.6e-13               -8.2398e-10          
  1.3                   8.4806e-10            -3.8e-13              2.6e-13               -8.4022e-10          
  1.35                  8.6774e-10            -4.2e-13              -4e-14                -8.7326e-10          
END_DB

BEGIN_DB
 ICCAP_VAR vg         0.401          
 ICCAP_VAR vb         0              
 ICCAP_VAR vs         0              

 #vd                    id                    ig                    ib                    is                   
  0                     1.9048e-10            1.2e-13               1.4e-12               -1.9e-10             
  0.05                  6.6616e-08            1.8e-13               -2.8e-13              -6.5636e-08          
  0.1                   8.4684e-08            1.2e-13               8.2e-13               -8.5174e-08          
  0.15                  9.281e-08             2e-14                 6.6e-13               -9.4472e-08          
  0.2                   9.8746e-08            2e-14                 2.8e-13               -1.01558e-07         
  0.25                  1.0725e-07            0                     8.2e-13               -1.05956e-07         
  0.3                   1.095e-07             0                     1.04e-12              -1.12058e-07         
  0.35                  1.1852e-07            1.8e-13               6.4e-13               -1.1858e-07          
  0.4                   1.2602e-07            1.4e-13               1.06e-12              -1.2496e-07          
  0.45                  1.2994e-07            8e-14                 1.14e-12              -1.3046e-07          
  0.5                   1.348e-07             0                     3.6e-13               -1.3628e-07          
  0.55                  1.4194e-07            -1.2e-13              3.8e-13               -1.4442e-07          
  0.6                   1.4798e-07            1.4e-13               1.34e-12              -1.5054e-07          
  0.65                  1.5418e-07            4e-14                 1.06e-12              -1.5322e-07          
  0.7                   1.6282e-07            -4e-14                1.2e-13               -1.6286e-07          
  0.75                  1.6684e-07            1e-13                 2.2e-13               -1.6532e-07          
  0.8                   1.762e-07             -6e-14                1.02e-12              -1.76e-07            
  0.85                  1.7814e-07            -8e-14                8e-13                 -1.8098e-07          
  0.9                   1.8972e-07            -1e-13                0                     -1.823e-07           
  0.95                  1.935e-07             -1.4e-13              -1.2e-13              -1.9238e-07          
  1                     1.9978e-07            -6e-14                1.2e-12               -2.0106e-07          
  1.05                  2.0324e-07            -6e-14                5.2e-13               -2.0676e-07          
  1.1                   2.1458e-07            -1.6e-13              -1.32e-12             -2.154e-07           
  1.15                  2.2066e-07            -1.4e-13              -2.1e-12              -2.2198e-07          
  1.2                   2.2694e-07            -2e-14                -2.96e-12             -2.275e-07           
  1.25                  2.3812e-07            1e-13                 -8.08e-12             -2.3314e-07          
  1.3                   2.4152e-07            1.8e-13               -1.446e-11            -2.4042e-07          
  1.35                  2.4902e-07            -1.4e-13              -2.414e-11            -2.5096e-07          
END_DB

BEGIN_DB
 ICCAP_VAR vg         0.601          
 ICCAP_VAR vb         0              
 ICCAP_VAR vs         0              

 #vd                    id                    ig                    ib                    is                   
  0                     2.8222e-09            5e-13                 2.02e-12              -2.6266e-09          
  0.05                  1.7974e-06            4.6e-13               2.6e-13               -1.798e-06           
  0.1                   2.8346e-06            4.6e-13               -2e-14                -2.8224e-06          
  0.15                  3.3804e-06            3e-13                 1.12e-12              -3.3802e-06          
  0.2                   3.7338e-06            3.2e-13               1.2e-12               -3.7368e-06          
  0.25                  3.9964e-06            3.2e-13               -6e-14                -3.9912e-06          
  0.3                   4.1848e-06            5e-13                 8.2e-13               -4.1684e-06          
  0.35                  4.3508e-06            3e-13                 3.4e-13               -4.3382e-06          
  0.4                   4.5184e-06            2.6e-13               5.4e-13               -4.5106e-06          
  0.45                  4.6514e-06            2.4e-13               1.56e-12              -4.6194e-06          
  0.5                   4.7948e-06            4.2e-13               3e-13                 -4.7888e-06          
  0.55                  4.9252e-06            4e-13                 6e-14                 -4.915e-06           
  0.6                   5.0204e-06            2.6e-13               1.32e-12              -5.0476e-06          
  0.65                  5.1702e-06            3.4e-13               5.4e-13               -5.1558e-06          
  0.7                   5.2916e-06            3.6e-13               8e-13                 -5.291e-06           
  0.75                  5.417e-06             1e-13                 1.68e-12              -5.4142e-06          
  0.8                   5.5246e-06            1.8e-13               6.2e-13               -5.5178e-06          
  0.85                  5.644e-06             5.2e-13               2.6e-13               -5.6456e-06          
  0.9                   5.7526e-06            3e-13                 1.3e-12               -5.7306e-06          
  0.95                  5.875e-06             3.2e-13               1e-13                 -5.864e-06           
  1                     5.986e-06             2.4e-13               -2e-14                -5.9798e-06          
  1.05                  6.095e-06             2.8e-13               -4.2e-13              -6.091e-06           
  1.1                   6.2084e-06            3.6e-13               -5.1e-12              -6.1884e-06          
  1.15                  6.3286e-06            5.2e-13               -1.172e-11            -6.3236e-06          
  1.2                   6.4002e-06            3.8e-13               -2.568e-11            -6.4152e-06          
  1.25                  6.5158e-06            1e-13                 -5.604e-11            -6.523e-06           
  1.3                   6.652e-06             4e-14                 -1.0794e-10           -6.6472e-06          
  1.35                  6.7366e-06            2.2e-13               -1.955e-10            -6.7574e-06          
END_DB

