! VERSION = 6.00
BEGIN_HEADER
 ICCAP_INPUTS
  vd         V  D GROUND SMU1 0.1 LIN        1    0          1.35       28   0.05      
  vg         V  G GROUND SMU2 0.001 LIN        2    0.35       1.35       5    0.25      
  vb         V  B GROUND SMU4 0.1 CON        0
  vs         V  S GROUND SMU3 0.1 CON        0
 ICCAP_OUTPUTS
  id         I  D GROUND SMU1 B
  ig         I  G GROUND SMU2 B
  ib         I  B GROUND SMU4 B
  is         I  S GROUND SMU3 B
 ICCAP_VALUES
  MASTER_SETUP_TYPE "~dc_idvd~"
  LINVT_VALUE "|idvg|100.0n|100.0m|1.000m|5|1.350|"
  LISTVT_VALUE ""
  TYPE "1"
  TEMP " 27.0000 "
  IS_TNOM " 1.00000 "
  MAIN.W "150.0n"
  MAIN.L "500.0n"
  MAIN.AD "100.5f"
  MAIN.AS "100.5f"
  MAIN.PD "1.340u"
  MAIN.PS "1.340u"
  MAIN.NF "1.000"
  MAIN.M "1"
  MAIN.NRD "0.000"
  MAIN.NRS "0.000"
  MAIN.LDRIFT1 "1E-06"
  MAIN.LDRIFT2 "1E-06"
  MAIN.SA "0.000"
  MAIN.SB "0.000"
  MAIN.SD "0.000"
  MAIN.SCA "0.000"
  MAIN.SCB "0.000"
  MAIN.SCC "0.000"
  MAIN.SC "0.000"
  MODULE "S547"
  PIN_D "18"
  PIN_G "3"
  PIN_S "4"
  PIN_B "17"
  PIN_E ""
  PIN_6 ""
  XY_ID ""
  FUNC "LW Scale"
  STI "SA ref"
  WPE "WPE ref"
  COMMENT ""
  DIS_MEAS ""
  TypeTCI "10"
END_HEADER

BEGIN_DB
 ICCAP_VAR vg         0.35           
 ICCAP_VAR vb         0              
 ICCAP_VAR vs         0              

 #vd                    id                    ig                    ib                    is                   
  0                     3.842e-10             3e-13                 7.98e-12              -3.0262e-10          
  0.05                  1.4814e-07            1.4e-13               6.88e-12              -1.48e-07            
  0.1                   1.957e-07             2.4e-13               6.34e-12              -1.957e-07           
  0.15                  2.1452e-07            8e-14                 5.78e-12              -2.144e-07           
  0.2                   2.2652e-07            1.2e-13               6.58e-12              -2.2638e-07          
  0.25                  2.3684e-07            1e-13                 6.26e-12              -2.3664e-07          
  0.3                   2.4648e-07            0                     5.4e-12               -2.464e-07           
  0.35                  2.561e-07             2e-13                 5.36e-12              -2.5602e-07          
  0.4                   2.6556e-07            8e-14                 5.36e-12              -2.6554e-07          
  0.45                  2.7498e-07            1.6e-13               5.3e-12               -2.7476e-07          
  0.5                   2.8432e-07            1.8e-13               4.96e-12              -2.8418e-07          
  0.55                  2.9368e-07            2.2e-13               5.14e-12              -2.9358e-07          
  0.6                   3.0298e-07            1.2e-13               5.8e-12               -3.0296e-07          
  0.65                  3.1224e-07            1e-13                 5.1e-12               -3.123e-07           
  0.7                   3.2176e-07            1.6e-13               3.76e-12              -3.2162e-07          
  0.75                  3.3116e-07            1.8e-13               4.5e-12               -3.3096e-07          
  0.8                   3.404e-07             1.4e-13               4.9e-12               -3.402e-07           
  0.85                  3.4978e-07            1.4e-13               3.26e-12              -3.4938e-07          
  0.9                   3.5894e-07            2e-14                 3.92e-12              -3.5884e-07          
  0.95                  3.683e-07             1.6e-13               3.84e-12              -3.6826e-07          
  1                     3.7748e-07            -2e-14                4.56e-12              -3.774e-07           
  1.05                  3.8672e-07            4e-14                 3.46e-12              -3.8674e-07          
  1.1                   3.9596e-07            -1.2e-13              1.4e-12               -3.9584e-07          
  1.15                  4.0522e-07            -8e-14                1.04e-12              -4.051e-07           
  1.2                   4.143e-07             8e-14                 -1.06e-12             -4.142e-07           
  1.25                  4.2336e-07            2e-14                 -6.06e-12             -4.234e-07           
  1.3                   4.3242e-07            -6e-14                -1.416e-11            -4.3224e-07          
  1.35                  4.4126e-07            -1.4e-13              -2.59e-11             -4.4106e-07          
END_DB

BEGIN_DB
 ICCAP_VAR vg         0.6            
 ICCAP_VAR vb         0              
 ICCAP_VAR vs         0              

 #vd                    id                    ig                    ib                    is                   
  0                     1.9232e-09            2.08e-12              3.26e-12              -1.7066e-09          
  0.05                  1.3848e-06            1.74e-12              2.08e-12              -1.3808e-06          
  0.1                   2.4224e-06            1.58e-12              2.74e-12              -2.4186e-06          
  0.15                  3.1278e-06            1.28e-12              1.44e-12              -3.1238e-06          
  0.2                   3.556e-06             1.18e-12              1.86e-12              -3.5522e-06          
  0.25                  3.8006e-06            1.12e-12              2.68e-12              -3.7966e-06          
  0.3                   3.9496e-06            1.22e-12              2.48e-12              -3.9458e-06          
  0.35                  4.055e-06             1.16e-12              2.34e-12              -4.051e-06           
  0.4                   4.1412e-06            1.12e-12              2.58e-12              -4.1374e-06          
  0.45                  4.217e-06             1.1e-12               2.34e-12              -4.2132e-06          
  0.5                   4.287e-06             8.8e-13               1.62e-12              -4.2832e-06          
  0.55                  4.3542e-06            1.22e-12              2.58e-12              -4.3506e-06          
  0.6                   4.419e-06             1.08e-12              2.02e-12              -4.4154e-06          
  0.65                  4.4824e-06            9.8e-13               1.54e-12              -4.4788e-06          
  0.7                   4.5444e-06            1.06e-12              2.4e-12               -4.5406e-06          
  0.75                  4.6048e-06            1.04e-12              1.78e-12              -4.6014e-06          
  0.8                   4.6656e-06            1.04e-12              1.38e-12              -4.6618e-06          
  0.85                  4.7252e-06            9.8e-13               2.88e-12              -4.7214e-06          
  0.9                   4.7846e-06            1.1e-12               1.76e-12              -4.7806e-06          
  0.95                  4.8436e-06            9e-13                 8e-13                 -4.84e-06            
  1                     4.9022e-06            1.04e-12              2.44e-12              -4.898e-06           
  1.05                  4.9602e-06            1e-12                 1.48e-12              -4.9564e-06          
  1.1                   5.0178e-06            8.6e-13               5.4e-13               -5.014e-06           
  1.15                  5.0754e-06            9e-13                 3.2e-13               -5.072e-06           
  1.2                   5.1328e-06            9.2e-13               -2.34e-12             -5.1288e-06          
  1.25                  5.1896e-06            8.2e-13               -7.18e-12             -5.1858e-06          
  1.3                   5.2468e-06            8.2e-13               -1.556e-11            -5.2426e-06          
  1.35                  5.3032e-06            7.6e-13               -3.866e-11            -5.2998e-06          
END_DB

BEGIN_DB
 ICCAP_VAR vg         0.85           
 ICCAP_VAR vb         0              
 ICCAP_VAR vs         0              

 #vd                    id                    ig                    ib                    is                   
  0                     2.8416e-09            9.4e-12               3.08e-12              -2.8024e-09          
  0.05                  2.748e-06             8.34e-12              1.48e-12              -2.7436e-06          
  0.1                   5.1788e-06            7.22e-12              1.24e-12              -5.1754e-06          
  0.15                  7.2792e-06            6.64e-12              2.28e-12              -7.2748e-06          
  0.2                   9.0362e-06            6e-12                 1.28e-12              -9.032e-06           
  0.25                  1.04496e-05           5.48e-12              1.4e-12               -1.04454e-05         
  0.3                   1.1536e-05            5.26e-12              9.2e-13               -1.15244e-05         
  0.35                  1.2318e-05            4.64e-12              -1.3e-12              -1.23e-05            
  0.4                   1.2862e-05            4.68e-12              1.32e-12              -1.2844e-05          
  0.45                  1.3238e-05            4.52e-12              9.8e-13               -1.322e-05           
  0.5                   1.351e-05             4.38e-12              1.34e-12              -1.3494e-05          
  0.55                  1.3724e-05            4.4e-12               1.5e-12               -1.3708e-05          
  0.6                   1.3902e-05            4.36e-12              1.34e-12              -1.3886e-05          
  0.65                  1.4062e-05            4.34e-12              1.2e-12               -1.4046e-05          
  0.7                   1.4208e-05            4.38e-12              1.92e-12              -1.419e-05           
  0.75                  1.4346e-05            4.26e-12              4.8e-13               -1.4332e-05          
  0.8                   1.448e-05             4.28e-12              1.5e-12               -1.4464e-05          
  0.85                  1.461e-05             4.16e-12              1.92e-12              -1.4594e-05          
  0.9                   1.4736e-05            4.1e-12               7e-13                 -1.4718e-05          
  0.95                  1.486e-05             4.16e-12              1.22e-12              -1.4842e-05          
  1                     1.4982e-05            4.06e-12              6.8e-13               -1.4964e-05          
  1.05                  1.51e-05              4.02e-12              4e-13                 -1.5084e-05          
  1.1                   1.5218e-05            4.04e-12              1.04e-12              -1.52e-05            
  1.15                  1.5334e-05            3.84e-12              9e-13                 -1.5318e-05          
  1.2                   1.5452e-05            4.04e-12              -2.8e-13              -1.5432e-05          
  1.25                  1.5562e-05            3.92e-12              -1.08e-12             -1.5546e-05          
  1.3                   1.5676e-05            3.94e-12              -3.68e-12             -1.5658e-05          
  1.35                  1.579e-05             3.9e-12               -1.06e-11             -1.5772e-05          
END_DB

BEGIN_DB
 ICCAP_VAR vg         1.1            
 ICCAP_VAR vb         0              
 ICCAP_VAR vs         0              

 #vd                    id                    ig                    ib                    is                   
  0                     3.6204e-09            3.042e-11             1.28e-12              -3.7544e-09          
  0.05                  3.8524e-06            2.732e-11             1.5e-12               -3.8482e-06          
  0.1                   7.4442e-06            2.468e-11             1.54e-12              -7.4402e-06          
  0.15                  1.07542e-05           2.25e-11              2.8e-13               -1.07504e-05         
  0.2                   1.3768e-05            2.064e-11             1.42e-12              -1.375e-05           
  0.25                  1.6452e-05            1.904e-11             -1.8e-13              -1.6434e-05          
  0.3                   1.8804e-05            1.77e-11              1.66e-12              -1.8786e-05          
  0.35                  2.0818e-05            1.65e-11              6.2e-13               -2.0802e-05          
  0.4                   2.2502e-05            1.57e-11              3.4e-13               -2.2486e-05          
  0.45                  2.3864e-05            1.49e-11              1.34e-12              -2.3848e-05          
  0.5                   2.4938e-05            1.442e-11             1.34e-12              -2.492e-05           
  0.55                  2.5754e-05            1.406e-11             8.8e-13               -2.574e-05           
  0.6                   2.6372e-05            1.368e-11             2.06e-12              -2.6356e-05          
  0.65                  2.6842e-05            1.354e-11             5e-13                 -2.6826e-05          
  0.7                   2.721e-05             1.326e-11             -6e-14                -2.7196e-05          
  0.75                  2.7512e-05            1.322e-11             1.36e-12              -2.7496e-05          
  0.8                   2.7772e-05            1.308e-11             4.2e-13               -2.7756e-05          
  0.85                  2.8006e-05            1.282e-11             3.4e-13               -2.799e-05           
  0.9                   2.8224e-05            1.272e-11             1.68e-12              -2.8204e-05          
  0.95                  2.8418e-05            1.268e-11             7e-13                 -2.8408e-05          
  1                     2.8616e-05            1.26e-11              1e-13                 -2.86e-05            
  1.05                  2.8802e-05            1.252e-11             1.64e-12              -2.8786e-05          
  1.1                   2.8978e-05            1.252e-11             4.4e-13               -2.8962e-05          
  1.15                  2.9152e-05            1.236e-11             3.6e-13               -2.914e-05           
  1.2                   2.933e-05             1.224e-11             1.3e-12               -2.9312e-05          
  1.25                  2.9492e-05            1.22e-11              2e-13                 -2.9474e-05          
  1.3                   2.966e-05             1.208e-11             -9.4e-13              -2.9646e-05          
  1.35                  2.9822e-05            1.198e-11             -1.36e-12             -2.9808e-05          
END_DB

BEGIN_DB
 ICCAP_VAR vg         1.35           
 ICCAP_VAR vb         0              
 ICCAP_VAR vs         0              

 #vd                    id                    ig                    ib                    is                   
  0                     3.6114e-09            7.858e-11             1.38e-12              -4.394e-09           
  0.05                  4.6722e-06            7.214e-11             1.58e-12              -4.6678e-06          
  0.1                   9.1396e-06            6.65e-11              3.4e-13               -9.1358e-06          
  0.15                  1.3384e-05            6.142e-11             6.6e-13               -1.3368e-05          
  0.2                   1.7366e-05            5.686e-11             2.8e-13               -1.735e-05           
  0.25                  2.1076e-05            5.264e-11             3.6e-13               -2.1058e-05          
  0.3                   2.4492e-05            4.918e-11             6.8e-13               -2.4474e-05          
  0.35                  2.7602e-05            4.612e-11             6.2e-13               -2.7586e-05          
  0.4                   3.0398e-05            4.332e-11             2.46e-12              -3.0382e-05          
  0.45                  3.287e-05             4.116e-11             1.08e-12              -3.285e-05           
  0.5                   3.502e-05             3.924e-11             4.6e-13               -3.5006e-05          
  0.55                  3.686e-05             3.772e-11             5.2e-13               -3.6836e-05          
  0.6                   3.8394e-05            3.636e-11             8.2e-13               -3.8374e-05          
  0.65                  3.9648e-05            3.512e-11             5.4e-13               -3.9634e-05          
  0.7                   4.0672e-05            3.436e-11             5.2e-13               -4.0656e-05          
  0.75                  4.1482e-05            3.358e-11             7.4e-13               -4.1458e-05          
  0.8                   4.2122e-05            3.31e-11              -3.2e-13              -4.211e-05           
  0.85                  4.2646e-05            3.274e-11             7.4e-13               -4.2628e-05          
  0.9                   4.3072e-05            3.226e-11             7e-13                 -4.3046e-05          
  0.95                  4.3426e-05            3.212e-11             -3e-13                -4.3418e-05          
  1                     4.3752e-05            3.176e-11             9.2e-13               -4.3726e-05          
  1.05                  4.403e-05             3.16e-11              3.4e-13               -4.4014e-05          
  1.1                   4.4292e-05            3.152e-11             5.2e-13               -4.4278e-05          
  1.15                  4.4542e-05            3.126e-11             7.6e-13               -4.453e-05           
  1.2                   4.4782e-05            3.106e-11             6.2e-13               -4.4758e-05          
  1.25                  4.5004e-05            3.09e-11              -3.4e-13              -4.4986e-05          
  1.3                   4.5222e-05            3.078e-11             1.24e-12              -4.5214e-05          
  1.35                  4.5432e-05            3.052e-11             -6.6e-13              -4.5418e-05          
END_DB

