! VERSION = 6.00
BEGIN_HEADER
 ICCAP_INPUTS
  vd         V  D GROUND SMU1 0.1 LIN        1    0          1.35       28   0.05      
  vg         V  G GROUND SMU2 0.001 LIST       2 3 0.246 0.446 0.646
  vb         V  B GROUND SMU4 0.1 CON        -1.2
  vs         V  S GROUND SMU3 0.1 CON        0
 ICCAP_OUTPUTS
  id         I  D GROUND SMU1 B
  ig         I  G GROUND SMU2 B
  ib         I  B GROUND SMU4 B
  is         I  S GROUND SMU3 B
 ICCAP_VALUES
  MASTER_SETUP_TYPE "~dc_idvd~"
  LINVT_VALUE ""
  LISTVT_VALUE "|idvg|100.0n|-200.0m|1.000m|3|200.0m|200.0m|"
  TYPE "1"
  TEMP " 27.0000 "
  IS_TNOM " 1.00000 "
  MAIN.W "600.0n"
  MAIN.L "180.0n"
  MAIN.AD "204.0f"
  MAIN.AS "204.0f"
  MAIN.PD "1.880u"
  MAIN.PS "1.880u"
  MAIN.NF "1.000"
  MAIN.M "1"
  MAIN.NRD "0.000"
  MAIN.NRS "0.000"
  MAIN.LDRIFT1 "1E-06"
  MAIN.LDRIFT2 "1E-06"
  MAIN.SA "0.000"
  MAIN.SB "0.000"
  MAIN.SD "0.000"
  MAIN.SCA "0.000"
  MAIN.SCB "0.000"
  MAIN.SCC "0.000"
  MAIN.SC "0.000"
  MODULE "S543"
  PIN_D "16"
  PIN_G "5"
  PIN_S "6"
  PIN_B "15"
  PIN_E ""
  PIN_6 ""
  XY_ID ""
  FUNC "LW Scale"
  STI "SA ref"
  WPE "WPE ref"
  COMMENT ""
  DIS_MEAS ""
  TypeTCI "10"
END_HEADER

BEGIN_DB
 ICCAP_VAR vg         0.246          
 ICCAP_VAR vb         -1.2           
 ICCAP_VAR vs         0              

 #vd                    id                    ig                    ib                    is                   
  0                     1.98e-12              0                     -5.78e-12             -9.2e-13             
  0.05                  4.7616e-10            -6e-14                -6.58e-12             -4.7618e-10          
  0.1                   5.9408e-10            -8e-14                -6.24e-12             -5.9362e-10          
  0.15                  6.5556e-10            -4e-14                -4.22e-12             -6.5502e-10          
  0.2                   7.0934e-10            8e-14                 -4.5e-12              -7.0874e-10          
  0.25                  7.616e-10             8e-14                 -3.88e-12             -7.6072e-10          
  0.3                   8.171e-10             2e-14                 -3.52e-12             -8.1518e-10          
  0.35                  8.7374e-10            0                     -3.96e-12             -8.7216e-10          
  0.4                   9.3092e-10            0                     -1.94e-12             -9.3126e-10          
  0.45                  9.892e-10             2e-14                 -2.92e-12             -9.8854e-10          
  0.5                   1.0516e-09            -4e-14                -2.32e-12             -1.05012e-09         
  0.55                  1.1128e-09            2e-14                 -3.08e-12             -1.11332e-09         
  0.6                   1.1778e-09            -1.4e-13              -2.46e-12             -1.173e-09           
  0.65                  1.2424e-09            -4e-14                -1.74e-12             -1.2388e-09          
  0.7                   1.308e-09             -1e-13                -2.1e-12              -1.3062e-09          
  0.75                  1.3726e-09            -2.6e-13              -2.04e-12             -1.372e-09           
  0.8                   1.4442e-09            -2e-14                -3.3e-12              -1.4372e-09          
  0.85                  1.508e-09             -1.8e-13              -2.58e-12             -1.5066e-09          
  0.9                   1.5774e-09            -1.8e-13              -1.36e-12             -1.5762e-09          
  0.95                  1.6498e-09            -3.2e-13              -2.66e-12             -1.6458e-09          
  1                     1.7214e-09            -3.2e-13              -3.14e-12             -1.7206e-09          
  1.05                  1.7978e-09            -4.2e-13              -1.88e-12             -1.7928e-09          
  1.1                   1.8722e-09            -5.6e-13              -1.82e-12             -1.8698e-09          
  1.15                  1.9484e-09            -5.2e-13              -1.42e-12             -1.945e-09           
  1.2                   2.0276e-09            -8.4e-13              -2.52e-12             -2.0258e-09          
  1.25                  2.1084e-09            -8.2e-13              -2.04e-12             -2.1048e-09          
  1.3                   2.191e-09             -9.2e-13              -2.68e-12             -2.1874e-09          
  1.35                  2.2802e-09            -1.08e-12             -2.5e-12              -2.2714e-09          
END_DB

BEGIN_DB
 ICCAP_VAR vg         0.446          
 ICCAP_VAR vb         -1.2           
 ICCAP_VAR vs         0              

 #vd                    id                    ig                    ib                    is                   
  0                     3.4844e-10            3.8e-13               -3.4e-13              -3.5442e-10          
  0.05                  1.7078e-07            3.4e-13               -1.36e-12             -1.7026e-07          
  0.1                   2.267e-07             4.6e-13               -8.2e-13              -2.2658e-07          
  0.15                  2.5242e-07            3.6e-13               -3.2e-13              -2.5214e-07          
  0.2                   2.7098e-07            4.2e-13               -1.88e-12             -2.7102e-07          
  0.25                  2.878e-07             2.6e-13               -1.74e-12             -2.8748e-07          
  0.3                   3.0404e-07            1.2e-13               -1.84e-12             -3.049e-07           
  0.35                  3.204e-07             1.6e-13               -1.3e-12              -3.2048e-07          
  0.4                   3.3604e-07            1.8e-13               -1.44e-12             -3.3512e-07          
  0.45                  3.5214e-07            2e-13                 -2.22e-12             -3.5206e-07          
  0.5                   3.6828e-07            1.6e-13               -1.28e-12             -3.6858e-07          
  0.55                  3.8452e-07            2.6e-13               -1.2e-13              -3.8566e-07          
  0.6                   3.982e-07             1.4e-13               -2.2e-12              -4e-07               
  0.65                  4.1658e-07            1.4e-13               -2.32e-12             -4.1602e-07          
  0.7                   4.3258e-07            6e-14                 -1.8e-12              -4.3214e-07          
  0.75                  4.4966e-07            1.6e-13               -9.4e-13              -4.4772e-07          
  0.8                   4.6562e-07            1.2e-13               -1.74e-12             -4.642e-07           
  0.85                  4.8008e-07            1.6e-13               -2.66e-12             -4.8182e-07          
  0.9                   4.9704e-07            1.8e-13               -1.44e-12             -4.9862e-07          
  0.95                  5.122e-07             1.6e-13               -5.6e-13              -5.1254e-07          
  1                     5.2834e-07            8e-14                 -2.02e-12             -5.2826e-07          
  1.05                  5.4678e-07            1.2e-13               -2.62e-12             -5.4536e-07          
  1.1                   5.639e-07             -6e-14                -2.52e-12             -5.6256e-07          
  1.15                  5.7678e-07            -1.2e-13              -4.42e-12             -5.776e-07           
  1.2                   5.9424e-07            -1.2e-13              -7.76e-12             -5.965e-07           
  1.25                  6.0984e-07            -3.2e-13              -1.312e-11            -6.0958e-07          
  1.3                   6.2688e-07            -3.8e-13              -2.166e-11            -6.262e-07           
  1.35                  6.4294e-07            -4.2e-13              -3.54e-11             -6.4318e-07          
END_DB

BEGIN_DB
 ICCAP_VAR vg         0.646          
 ICCAP_VAR vb         -1.2           
 ICCAP_VAR vs         0              

 #vd                    id                    ig                    ib                    is                   
  0                     3.3064e-09            3.94e-12              -1e-12                -3.8872e-09          
  0.05                  3.568e-06             2.88e-12              -7e-13                -3.565e-06           
  0.1                   5.6636e-06            2.58e-12              -9.6e-13              -5.6636e-06          
  0.15                  6.841e-06             2.18e-12              -1.54e-12             -6.8458e-06          
  0.2                   7.5316e-06            2.14e-12              -9.8e-13              -7.5288e-06          
  0.25                  7.99e-06              1.92e-12              6e-14                 -7.9854e-06          
  0.3                   8.3434e-06            1.92e-12              -1.12e-12             -8.3412e-06          
  0.35                  8.6478e-06            1.88e-12              -7.2e-13              -8.644e-06           
  0.4                   8.9268e-06            1.92e-12              -1.18e-12             -8.9228e-06          
  0.45                  9.1906e-06            1.82e-12              -1.86e-12             -9.1868e-06          
  0.5                   9.4452e-06            1.74e-12              -1.22e-12             -9.4426e-06          
  0.55                  9.6956e-06            1.9e-12               -1.3e-12              -9.689e-06           
  0.6                   9.9408e-06            1.82e-12              -1.36e-12             -9.9464e-06          
  0.65                  1.01742e-05           1.86e-12              -1.3e-12              -1.01696e-05         
  0.7                   1.04084e-05           1.7e-12               -1.44e-12             -1.0404e-05          
  0.75                  1.06422e-05           1.68e-12              -1.7e-12              -1.06352e-05         
  0.8                   1.08662e-05           1.6e-12               -1.2e-12              -1.0863e-05          
  0.85                  1.10936e-05           1.66e-12              -1.42e-12             -1.10896e-05         
  0.9                   1.1324e-05            1.72e-12              -6.2e-13              -1.13164e-05         
  0.95                  1.1556e-05            1.7e-12               -1.82e-12             -1.1542e-05          
  1                     1.1774e-05            1.74e-12              -1.6e-12              -1.1758e-05          
  1.05                  1.1994e-05            1.66e-12              -1.32e-12             -1.1976e-05          
  1.1                   1.2214e-05            1.66e-12              -4.04e-12             -1.2196e-05          
  1.15                  1.2432e-05            1.5e-12               -1.06e-11             -1.2444e-05          
  1.2                   1.2662e-05            1.5e-12               -2.01e-11             -1.2664e-05          
  1.25                  1.2868e-05            1.46e-12              -4.512e-11            -1.2876e-05          
  1.3                   1.3084e-05            1.44e-12              -9.238e-11            -1.3068e-05          
  1.35                  1.33e-05              1.46e-12              -1.77e-10             -1.3282e-05          
END_DB

