! VERSION = 6.00
BEGIN_HEADER
 ICCAP_INPUTS
  vg         V  G GROUND SMU2 0.001 LIN        1    -0.5       1.35       38   0.05      
  vb         V  B GROUND SMU4 0.1 LIN        2    0          -1.2       5    -0.3      
  vd         V  D GROUND SMU1 0.1 LIST       3 3 0.05 0.6 1.2
  vs         V  S GROUND SMU3 0.1 CON        0
 ICCAP_OUTPUTS
  id         I  D GROUND SMU1 B
  ig         I  G GROUND SMU2 B
  ib         I  B GROUND SMU4 B
  is         I  S GROUND SMU3 B
 ICCAP_VALUES
  MASTER_SETUP_TYPE "~dc_idvg~"
  LINVT_VALUE ""
  LISTVT_VALUE ""
  TYPE "1"
  TEMP "-40.0000 "
  IS_TNOM " 0.00000 "
  MAIN.W "10.00u"
  MAIN.L "130.0n"
  MAIN.AD "3.400p"
  MAIN.AS "3.400p"
  MAIN.PD "20.68u"
  MAIN.PS "20.68u"
  MAIN.NF "1.000"
  MAIN.M "1"
  MAIN.NRD "0.000"
  MAIN.NRS "0.000"
  MAIN.LDRIFT1 "1E-06"
  MAIN.LDRIFT2 "1E-06"
  MAIN.SA "0.000"
  MAIN.SB "0.000"
  MAIN.SD "0.000"
  MAIN.SCA "0.000"
  MAIN.SCB "0.000"
  MAIN.SCC "0.000"
  MAIN.SC "0.000"
  MODULE "S540"
  PIN_D "18"
  PIN_G "3"
  PIN_S "4"
  PIN_B "17"
  PIN_E ""
  PIN_6 ""
  XY_ID ""
  FUNC "Short"
  STI "SA ref"
  WPE "WPE ref"
  COMMENT ""
  DIS_MEAS ""
  TypeTCI "10"
END_HEADER

BEGIN_DB
 ICCAP_VAR vb         0              
 ICCAP_VAR vd         0.05           
 ICCAP_VAR vs         0              

 #vg                    id                    ig                    ib                    is                   
  -0.5                  1.76e-12              -4.44e-12             1.5e-12               2.12e-12             
  -0.45                 1.34e-12              -2.88e-12             -5.2e-13              1.72e-12             
  -0.4                  8.8e-13               -1.88e-12             1.82e-12              9.2e-13              
  -0.35                 6.8e-13               -1.18e-12             1.42e-12              6.4e-13              
  -0.3                  4.2e-13               -8.4e-13              6.6e-13               3.4e-13              
  -0.25                 3e-13                 -3.8e-13              -1.8e-13              3.6e-13              
  -0.2                  2.2e-13               -1.6e-13              9.6e-13               2.2e-13              
  -0.15                 2.2e-13               -8e-14                7.4e-13               3e-13                
  -0.1                  4e-14                 2e-13                 5.8e-13               1.4e-13              
  -0.05                 1e-13                 2e-13                 7.2e-13               0                    
  0                     7.8e-13               2e-13                 -1e-13                -7.6e-13             
  0.05                  5.76e-12              2.8e-13               -2.2e-13              -5.72e-12            
  0.1                   3.96e-11              3e-13                 5e-13                 -3.974e-11           
  0.15                  2.726e-10             4.6e-13               1.84e-12              -2.7294e-10          
  0.2                   1.843e-09             4e-13                 6.4e-13               -1.8412e-09          
  0.25                  1.2296e-08            5.4e-13               -4e-13                -1.2278e-08          
  0.3                   7.8808e-08            1.12e-12              3.4e-13               -7.8746e-08          
  0.35                  4.5782e-07            1.74e-12              2.2e-13               -4.5776e-07          
  0.4                   2.1994e-06            2.78e-12              7.4e-13               -2.1904e-06          
  0.45                  8.0898e-06            4.54e-12              4.6e-13               -8.088e-06           
  0.5                   2.2968e-05            7.44e-12              -5.4e-13              -2.2936e-05          
  0.55                  5.148e-05             1.184e-11             -3.4e-13              -5.1468e-05          
  0.6                   9.5512e-05            1.828e-11             2.2e-13               -9.5502e-05          
  0.65                  0.00015306            2.724e-11             8.2e-13               -0.0001526           
  0.7                   0.00021986            3.914e-11             7.6e-13               -0.00021946          
  0.75                  0.00029172            5.518e-11             -5.6e-13              -0.00029132          
  0.8                   0.00036522            7.602e-11             -3e-13                -0.00036492          
  0.85                  0.00043802            1.0244e-10            6.6e-13               -0.00043762          
  0.9                   0.00050818            1.3464e-10            1.26e-12              -0.00050786          
  0.95                  0.00057498            1.7406e-10            3e-13                 -0.00057454          
  1                     0.00063776            2.211e-10             -1.14e-12             -0.00063738          
  1.05                  0.00069642            2.774e-10             6.2e-13               -0.00069608          
  1.1                   0.00075066            3.4386e-10            9.4e-13               -0.0007504           
  1.15                  0.00080092            4.2256e-10            -2.42e-12             -0.00080056          
  1.2                   0.00084738            5.1446e-10            6.6e-13               -0.00084698          
  1.25                  0.00088978            6.211e-10             -5.2e-13              -0.0008895           
  1.3                   0.0009288             7.451e-10             -8.2e-13              -0.00092848          
  1.35                  0.0009646             8.875e-10             2.4e-13               -0.00096414          
END_DB

BEGIN_DB
 ICCAP_VAR vb         -0.3           
 ICCAP_VAR vd         0.05           
 ICCAP_VAR vs         0              

 #vg                    id                    ig                    ib                    is                   
  -0.5                  1.78e-12              -3.98e-12             -1.06e-12             2.02e-12             
  -0.45                 1.36e-12              -2.7e-12              -2.1e-12              1.62e-12             
  -0.4                  9.8e-13               -1.92e-12             -2.56e-12             1.1e-12              
  -0.35                 5.8e-13               -1.28e-12             -1.72e-12             7e-13                
  -0.3                  4.2e-13               -6.2e-13              -1.44e-12             6.2e-13              
  -0.25                 1.2e-13               -3.8e-13              -1.36e-12             3.6e-13              
  -0.2                  1.8e-13               -1e-13                -2.12e-12             1.2e-13              
  -0.15                 1.4e-13               -4e-14                -1.6e-12              1.6e-13              
  -0.1                  1e-13                 1e-13                 -6.8e-13              0                    
  -0.05                 6e-14                 2e-13                 -4.6e-13              8e-14                
  0                     1.6e-13               2.8e-13               -1.18e-12             -2e-13               
  0.05                  9.6e-13               4.2e-13               -8e-13                -8.6e-13             
  0.1                   6.4e-12               2.2e-13               -1.74e-12             -6.28e-12            
  0.15                  4.534e-11             2.6e-13               -1.74e-12             -4.54e-11            
  0.2                   3.2638e-10            4.8e-13               6e-14                 -3.2662e-10          
  0.25                  2.309e-09             5.6e-13               -1e-12                -2.3084e-09          
  0.3                   1.5992e-08            1.02e-12              -4.4e-13              -1.5972e-08          
  0.35                  1.04962e-07           1.6e-12               -1.78e-12             -1.05012e-07         
  0.4                   6.0474e-07            2.88e-12              7e-13                 -6.0474e-07          
  0.45                  2.806e-06             4.1e-12               -1.22e-12             -2.798e-06           
  0.5                   9.8578e-06            6.66e-12              -2e-13                -9.8536e-06          
  0.55                  2.664e-05             1.072e-11             -9.8e-13              -2.6632e-05          
  0.6                   5.7412e-05            1.674e-11             -1.2e-12              -5.7256e-05          
  0.65                  0.000103448           2.528e-11             -7.8e-13              -0.000103374         
  0.7                   0.00016236            3.67e-11              -1.2e-12              -0.000162            
  0.75                  0.00022992            5.22e-11              -1.6e-13              -0.00022946          
  0.8                   0.00030176            7.246e-11             -1.2e-13              -0.00030138          
  0.85                  0.00037478            9.842e-11             -1.1e-12              -0.00037444          
  0.9                   0.00044638            1.3076e-10            -1.4e-12              -0.00044604          
  0.95                  0.00051536            1.6948e-10            -1e-13                -0.00051492          
  1                     0.00058066            2.1604e-10            -4.6e-13              -0.00058028          
  1.05                  0.00064196            2.719e-10             -4.4e-13              -0.00064152          
  1.1                   0.00069882            3.3784e-10            -1.74e-12             -0.00069848          
  1.15                  0.00075164            4.1586e-10            -8e-14                -0.00075136          
  1.2                   0.0008005             5.0704e-10            -1.2e-13              -0.00079998          
  1.25                  0.0008453             6.1334e-10            -1.08e-12             -0.00084486          
  1.3                   0.00088624            7.36e-10              -8.2e-13              -0.00088604          
  1.35                  0.00092406            8.7828e-10            -1.4e-12              -0.00092366          
END_DB

BEGIN_DB
 ICCAP_VAR vb         -0.6           
 ICCAP_VAR vd         0.05           
 ICCAP_VAR vs         0              

 #vg                    id                    ig                    ib                    is                   
  -0.5                  1.92e-12              -3.92e-12             -2.98e-12             2.4e-12              
  -0.45                 1.38e-12              -2.76e-12             -2.08e-12             1.56e-12             
  -0.4                  9e-13                 -1.82e-12             -1.94e-12             1e-12                
  -0.35                 6.8e-13               -1.14e-12             -2.76e-12             5.8e-13              
  -0.3                  3.8e-13               -6.8e-13              -3.06e-12             5.2e-13              
  -0.25                 2.4e-13               -3.2e-13              -2.4e-12              4.2e-13              
  -0.2                  1.6e-13               -1e-13                -9e-13                2e-13                
  -0.15                 -2e-14                0                     -2.12e-12             1.8e-13              
  -0.1                  -2e-14                4e-14                 -3.12e-12             2.4e-13              
  -0.05                 1.2e-13               1.6e-13               -2.22e-12             1.4e-13              
  0                     8e-14                 2.8e-13               -2.14e-12             1.2e-13              
  0.05                  3.2e-13               1.6e-13               -5.4e-13              -2e-13               
  0.1                   1.72e-12              3e-13                 -2.54e-12             -1.42e-12            
  0.15                  1.194e-11             3.2e-13               -1.3e-12              -1.198e-11           
  0.2                   8.894e-11             5.4e-13               -2.24e-12             -8.898e-11           
  0.25                  6.5464e-10            6.4e-13               -1.5e-12              -6.5436e-10          
  0.3                   4.7182e-09            9.4e-13               -1.64e-12             -4.718e-09           
  0.35                  3.2988e-08            1.32e-12              -9.8e-13              -3.2964e-08          
  0.4                   2.1074e-07            2.3e-12               -1.98e-12             -2.1036e-07          
  0.45                  1.13396e-06           3.98e-12              -1.74e-12             -1.13476e-06         
  0.5                   4.728e-06             6.18e-12              -1.18e-12             -4.7228e-06          
  0.55                  1.4962e-05            9.78e-12              -1.64e-12             -1.4922e-05          
  0.6                   3.6814e-05            1.564e-11             -1.64e-12             -3.6804e-05          
  0.65                  7.3526e-05            2.364e-11             -1.54e-12             -7.3532e-05          
  0.7                   0.00012462            3.484e-11             -5.8e-13              -0.00012402          
  0.75                  0.00018656            4.99e-11              -1.66e-12             -0.00018622          
  0.8                   0.0002557             6.964e-11             -1.76e-12             -0.00025532          
  0.85                  0.00032778            9.518e-11             -2.6e-13              -0.0003274           
  0.9                   0.00039992            1.2708e-10            -5e-13                -0.00039958          
  0.95                  0.00047004            1.6594e-10            -7.6e-13              -0.00046978          
  1                     0.00053708            2.1214e-10            -2.24e-12             -0.00053672          
  1.05                  0.0006001             2.6774e-10            -1.24e-12             -0.0005997           
  1.1                   0.00065896            3.3282e-10            -5e-13                -0.00065858          
  1.15                  0.00071376            4.1048e-10            -7.6e-13              -0.0007134           
  1.2                   0.00076448            5.0104e-10            -2.32e-12             -0.0007641           
  1.25                  0.00081092            6.0694e-10            -1.68e-12             -0.0008106           
  1.3                   0.0008538             7.2918e-10            -1.74e-12             -0.00085336          
  1.35                  0.00089294            8.702e-10             -9.2e-13              -0.0008927           
END_DB

BEGIN_DB
 ICCAP_VAR vb         -0.9           
 ICCAP_VAR vd         0.05           
 ICCAP_VAR vs         0              

 #vg                    id                    ig                    ib                    is                   
  -0.5                  1.88e-12              -3.94e-12             -2.78e-12             2.14e-12             
  -0.45                 1.38e-12              -2.7e-12              -3.64e-12             1.54e-12             
  -0.4                  9.4e-13               -1.72e-12             -3.36e-12             9.8e-13              
  -0.35                 6.6e-13               -1.14e-12             -3.22e-12             7.6e-13              
  -0.3                  4e-13                 -6e-13                -1.8e-12              4.6e-13              
  -0.25                 3.6e-13               -4.6e-13              -3.2e-12              2.8e-13              
  -0.2                  2.4e-13               -2e-13                -3.78e-12             2.8e-13              
  -0.15                 4e-14                 8e-14                 -1.62e-12             -1.4e-13             
  -0.1                  4e-14                 8e-14                 -3.02e-12             3e-13                
  -0.05                 -1.4e-13              1.8e-13               -1.38e-12             2e-14                
  0                     -4e-14                2e-13                 -2.28e-12             1.2e-13              
  0.05                  1.8e-13               3.6e-13               -1.8e-12              -1.2e-13             
  0.1                   5.8e-13               3.8e-13               -2.54e-12             -6.8e-13             
  0.15                  4.88e-12              5e-13                 -1.48e-12             -4.86e-12            
  0.2                   3.714e-11             5.4e-13               -8.8e-13              -3.714e-11           
  0.25                  2.8116e-10            6.6e-13               -1.66e-12             -2.8188e-10          
  0.3                   2.0814e-09            8e-13                 -2.56e-12             -2.08e-09            
  0.35                  1.51e-08              1.48e-12              -1.8e-12              -1.5084e-08          
  0.4                   1.02082e-07           2.32e-12              -8.8e-13              -1.01856e-07         
  0.45                  5.998e-07             3.78e-12              -2.26e-12             -6.0008e-07          
  0.5                   2.7906e-06            6e-12                 -1.78e-12             -2.7888e-06          
  0.55                  9.795e-06             9.44e-12              -7e-13                -9.7734e-06          
  0.6                   2.643e-05             1.484e-11             -2.8e-12              -2.6418e-05          
  0.65                  5.6828e-05            2.286e-11             -2.02e-12             -5.6812e-05          
  0.7                   0.00010174            3.368e-11             -1.62e-12             -0.00010173          
  0.75                  0.00015954            4.836e-11             -3e-13                -0.0001592           
  0.8                   0.00022578            6.764e-11             -1.9e-12              -0.00022542          
  0.85                  0.00029664            9.262e-11             -1.76e-12             -0.00029618          
  0.9                   0.00036846            1.2438e-10            -2.18e-12             -0.00036812          
  0.95                  0.00043912            1.6284e-10            -8.6e-13              -0.00043884          
  1                     0.0005071             2.0902e-10            -1.02e-12             -0.0005068           
  1.05                  0.00057148            2.6404e-10            -2.66e-12             -0.00057112          
  1.1                   0.00063168            3.2936e-10            4.06e-12              -0.00063128          
  1.15                  0.00068774            4.065e-10             -1.42e-12             -0.0006874           
  1.2                   0.00073952            4.967e-10             -1.4e-12              -0.00073914          
  1.25                  0.00078734            6.0202e-10            -2.02e-12             -0.00078696          
  1.3                   0.00083136            7.2418e-10            -1.4e-12              -0.00083082          
  1.35                  0.00087154            8.651e-10             -2.42e-12             -0.00087134          
END_DB

BEGIN_DB
 ICCAP_VAR vb         -1.2           
 ICCAP_VAR vd         0.05           
 ICCAP_VAR vs         0              

 #vg                    id                    ig                    ib                    is                   
  -0.5                  1.74e-12              -4e-12                -3.34e-12             2.22e-12             
  -0.45                 1.3e-12               -2.66e-12             -3.32e-12             1.66e-12             
  -0.4                  9.4e-13               -1.74e-12             -2.16e-12             9.4e-13              
  -0.35                 6.8e-13               -1.12e-12             -3.78e-12             7.4e-13              
  -0.3                  4.4e-13               -6.4e-13              -3.28e-12             4.4e-13              
