! VERSION = 6.00
BEGIN_HEADER
 ICCAP_INPUTS
  vg         V  G GROUND SMU2 0.001 LIN        1    -0.5       1.35       38   0.05      
  vb         V  B GROUND SMU4 0.1 LIN        2    0          -1.2       5    -0.3      
  vd         V  D GROUND SMU1 0.1 LIST       3 3 0.05 0.6 1.2
  vs         V  S GROUND SMU3 0.1 CON        0
 ICCAP_OUTPUTS
  id         I  D GROUND SMU1 B
  ig         I  G GROUND SMU2 B
  ib         I  B GROUND SMU4 B
  is         I  S GROUND SMU3 B
 ICCAP_VALUES
  MASTER_SETUP_TYPE "~dc_idvg~"
  LINVT_VALUE ""
  LISTVT_VALUE ""
  TYPE "1"
  TEMP " 27.0000 "
  IS_TNOM " 1.00000 "
  MAIN.W "10.00u"
  MAIN.L "120.0n"
  MAIN.AD "3.400p"
  MAIN.AS "3.400p"
  MAIN.PD "20.68u"
  MAIN.PS "20.68u"
  MAIN.NF "1.000"
  MAIN.M "1"
  MAIN.NRD "0.000"
  MAIN.NRS "0.000"
  MAIN.LDRIFT1 "1E-06"
  MAIN.LDRIFT2 "1E-06"
  MAIN.SA "0.000"
  MAIN.SB "0.000"
  MAIN.SD "0.000"
  MAIN.SCA "0.000"
  MAIN.SCB "0.000"
  MAIN.SCC "0.000"
  MAIN.SC "0.000"
  MODULE "S540"
  PIN_D "20"
  PIN_G "1"
  PIN_S "2"
  PIN_B "19"
  PIN_E ""
  PIN_6 ""
  XY_ID ""
  FUNC "Additional"
  STI "SA ref"
  WPE "WPE ref"
  COMMENT ""
  DIS_MEAS ""
  TypeTCI "10"
END_HEADER

BEGIN_DB
 ICCAP_VAR vb         0              
 ICCAP_VAR vd         0.05           
 ICCAP_VAR vs         0              

 #vg                    id                    ig                    ib                    is                   
  -0.5                  1.98e-12              -5.084e-11            4.8e-11               2.34e-12             
  -0.45                 1.54e-12              -1.046e-11            7.98e-12              1.7e-12              
  -0.4                  1.12e-12              -3.38e-12             2.82e-12              1.32e-12             
  -0.35                 8e-13                 -1.68e-12             2.28e-12              7.2e-13              
  -0.3                  6e-13                 -9.6e-13              1.36e-12              5.8e-13              
  -0.25                 3.8e-13               -5.2e-13              2.18e-12              3.4e-13              
  -0.2                  5.8e-13               -2.8e-13              9e-13                 -4e-14               
  -0.15                 1.44e-12              4e-14                 7.8e-13               -1.22e-12            
  -0.1                  5.7e-12               1.2e-13               1.6e-12               -5.42e-12            
  -0.05                 2.348e-11             3e-13                 2.4e-12               -2.328e-11           
  0                     9.812e-11             3.8e-13               1.76e-12              -9.804e-11           
  0.05                  4.1094e-10            4.4e-13               2.6e-13               -4.1058e-10          
  0.1                   1.7072e-09            3.2e-13               1.54e-12              -1.7046e-09          
  0.15                  7.1304e-09            4.6e-13               1.6e-12               -7.1434e-09          
  0.2                   2.9566e-08            6.8e-13               2.28e-12              -2.9574e-08          
  0.25                  1.1818e-07            1.06e-12              6.6e-13               -1.1806e-07          
  0.3                   4.4496e-07            1.44e-12              6e-13                 -4.4432e-07          
  0.35                  1.5644e-06            2.12e-12              1.74e-12              -1.559e-06           
  0.4                   4.8442e-06            3.38e-12              3.2e-13               -4.8436e-06          
  0.45                  1.2968e-05            5.42e-12              -1.8e-13              -1.2942e-05          
  0.5                   2.936e-05             8.7e-12               1.36e-12              -2.9342e-05          
  0.55                  5.6896e-05            1.364e-11             1.96e-12              -5.6878e-05          
  0.6                   9.6596e-05            2.018e-11             6.4e-13               -9.6574e-05          
  0.65                  0.00014706            2.93e-11              1.42e-12              -0.00014664          
  0.7                   0.00020506            4.142e-11             9.2e-13               -0.00020466          
  0.75                  0.00026772            5.726e-11             1.22e-12              -0.00026732          
  0.8                   0.00033202            7.746e-11             1.14e-12              -0.00033166          
  0.85                  0.0003961             1.0236e-10            5.2e-13               -0.00039566          
  0.9                   0.00045788            1.3312e-10            1.02e-12              -0.00045738          
  0.95                  0.0005171             1.7088e-10            1.14e-12              -0.00051666          
  1                     0.00057338            2.1628e-10            1.26e-12              -0.000573            
  1.05                  0.00062628            2.706e-10             8.6e-13               -0.00062582          
  1.1                   0.00067558            3.3468e-10            6.8e-13               -0.00067508          
  1.15                  0.00072168            4.0992e-10            5.4e-13               -0.00072128          
  1.2                   0.00076454            4.975e-10             1.78e-12              -0.00076412          
  1.25                  0.00080418            5.987e-10             5.8e-13               -0.00080388          
  1.3                   0.00084108            7.1566e-10            9.2e-13               -0.00084068          
  1.35                  0.00087512            8.4906e-10            5.2e-13               -0.00087472          
END_DB

BEGIN_DB
 ICCAP_VAR vb         -0.3           
 ICCAP_VAR vd         0.05           
 ICCAP_VAR vs         0              

 #vg                    id                    ig                    ib                    is                   
  -0.5                  2.02e-12              -4.7e-12              -3.7e-12              2.32e-12             
  -0.45                 1.64e-12              -3.26e-12             -3.02e-12             1.7e-12              
  -0.4                  1.16e-12              -2.24e-12             -3.48e-12             1.22e-12             
  -0.35                 8.2e-13               -1.56e-12             -1.8e-12              1.02e-12             
  -0.3                  5.6e-13               -9.6e-13              -3.3e-12              5.6e-13              
  -0.25                 3.6e-13               -4.6e-13              -6.6e-12              4.8e-13              
  -0.2                  4e-13                 -1.4e-13              -2.44e-12             2.2e-13              
  -0.15                 4.4e-13               6e-14                 -1.6e-12              0                    
  -0.1                  1.08e-12              1.2e-13               -7.8e-13              -8.6e-13             
  -0.05                 4.7e-12               3e-13                 -2.24e-12             -4.54e-12            
  0                     2.076e-11             4.2e-13               -1.58e-12             -2.076e-11           
  0.05                  9.198e-11             4.8e-13               -1.86e-12             -9.186e-11           
  0.1                   4.0168e-10            4.6e-13               -5.6e-13              -4.0232e-10          
  0.15                  1.7564e-09            5e-13                 -9.6e-13              -1.7552e-09          
  0.2                   7.6492e-09            7.6e-13               -2.24e-12             -7.6486e-09          
  0.25                  3.2764e-08            8.6e-13               -1.38e-12             -3.2734e-08          
  0.3                   1.3244e-07            1.44e-12              -8.2e-13              -1.3228e-07          
  0.35                  5.0866e-07            2.14e-12              -6.6e-13              -5.0846e-07          
  0.4                   1.7878e-06            3.14e-12              -1.68e-12             -1.7818e-06          
  0.45                  5.4964e-06            5.22e-12              -5.8e-13              -5.493e-06           
  0.5                   1.4436e-05            8.06e-12              -3.6e-13              -1.4418e-05          
  0.55                  3.1982e-05            1.234e-11             -1.82e-12             -3.197e-05           
  0.6                   6.0866e-05            1.878e-11             -1.56e-12             -6.0842e-05          
  0.65                  0.000101614           2.752e-11             -1.06e-12             -0.000101556         
  0.7                   0.00015274            3.924e-11             -2e-13                -0.00015214          
  0.75                  0.00021094            5.46e-11              -9.6e-13              -0.00021056          
  0.8                   0.00027352            7.42e-11              -7.6e-13              -0.00027308          
  0.85                  0.00033742            9.888e-11             -9.6e-13              -0.00033702          
  0.9                   0.00040064            1.2914e-10            3.6e-13               -0.00040024          
  0.95                  0.00046176            1.6614e-10            -4.2e-13              -0.00046142          
  1                     0.0005203             2.1116e-10            -1.54e-12             -0.00051988          
  1.05                  0.0005753             2.6456e-10            -1.44e-12             -0.00057502          
  1.1                   0.00062706            3.2816e-10            -2.2e-13              -0.00062668          
  1.15                  0.00067546            4.029e-10             -7.4e-13              -0.00067514          
  1.2                   0.00072054            4.8996e-10            -1.38e-12             -0.00072016          
  1.25                  0.00076236            5.9058e-10            -1.64e-12             -0.000762            
  1.3                   0.00080106            7.0594e-10            -1.32e-12             -0.0008007           
  1.35                  0.00083688            8.392e-10             -1.04e-12             -0.00083648          
END_DB

BEGIN_DB
 ICCAP_VAR vb         -0.6           
 ICCAP_VAR vd         0.05           
 ICCAP_VAR vs         0              

 #vg                    id                    ig                    ib                    is                   
  -0.5                  2.12e-12              -4.5e-12              -5.54e-12             2.36e-12             
  -0.45                 1.6e-12               -3.26e-12             -4.94e-12             1.64e-12             
  -0.4                  1.12e-12              -2.18e-12             -3.58e-12             1.22e-12             
  -0.35                 9.2e-13               -1.42e-12             -4.58e-12             9.2e-13              
  -0.3                  5.8e-13               -8.6e-13              -4.6e-12              6e-13                
  -0.25                 3.6e-13               -5e-13                -4.56e-12             3.8e-13              
  -0.2                  2e-13                 -1.6e-13              -3.1e-12              3.6e-13              
  -0.15                 2.2e-13               4e-14                 -2.36e-12             2e-13                
  -0.1                  4.8e-13               1.4e-13               -4.08e-12             -1.8e-13             
  -0.05                 1.5e-12               3.2e-13               -2.9e-12              -1.52e-12            
  0                     7.1e-12               3.2e-13               -3.08e-12             -6.94e-12            
  0.05                  3.23e-11              4.6e-13               -2.56e-12             -3.216e-11           
  0.1                   1.4628e-10            4.4e-13               -1.16e-12             -1.4604e-10          
  0.15                  6.5668e-10            5.2e-13               -2.78e-12             -6.5672e-10          
  0.2                   2.9416e-09            5.8e-13               -2.36e-12             -2.938e-09           
  0.25                  1.308e-08             8.2e-13               -2.38e-12             -1.3054e-08          
  0.3                   5.5676e-08            1.34e-12              -1.1e-12              -5.5694e-08          
  0.35                  2.241e-07             2.02e-12              -2.48e-12             -2.24e-07            
  0.4                   8.458e-07             3.12e-12              -2.28e-12             -8.4616e-07          
  0.45                  2.858e-06             4.78e-12              -2.74e-12             -2.849e-06           
  0.5                   8.2688e-06            7.62e-12              -2.86e-12             -8.265e-06           
  0.55                  2.0214e-05            1.164e-11             7.4e-13               -2.0186e-05          
  0.6                   4.1912e-05            1.778e-11             -1.54e-12             -4.1866e-05          
  0.65                  7.5234e-05            2.614e-11             -1.52e-12             -7.5228e-05          
  0.7                   0.00012006            3.74e-11              -1.76e-12             -0.00011968          
  0.75                  0.00017398            5.244e-11             -2e-12                -0.00017352          
  0.8                   0.00023386            7.166e-11             -1.48e-12             -0.00023352          
  0.85                  0.00029668            9.59e-11              -3e-13                -0.00029634          
  0.9                   0.00036               1.2606e-10            -1.76e-12             -0.00035964          
  0.95                  0.00042218            1.6278e-10            -2.54e-12             -0.0004218           
  1                     0.00048192            2.0696e-10            -2.42e-12             -0.00048144          
  1.05                  0.00053862            2.6022e-10            -1.08e-12             -0.00053826          
  1.1                   0.00059196            3.2322e-10            -1.5e-12              -0.00059158          
  1.15                  0.00064202            3.9744e-10            -2.86e-12             -0.00064162          
  1.2                   0.00068862            4.8404e-10            -1.96e-12             -0.00068818          
  1.25                  0.0007318             5.8432e-10            -1.62e-12             -0.00073148          
  1.3                   0.00077188            6.9996e-10            -1.84e-12             -0.00077146          
  1.35                  0.00080902            8.3186e-10            -3e-12                -0.00080868          
END_DB

BEGIN_DB
 ICCAP_VAR vb         -0.9           
 ICCAP_VAR vd         0.05           
 ICCAP_VAR vs         0              

 #vg                    id                    ig                    ib                    is                   
  -0.5                  2.04e-12              -4.54e-12             -5.38e-12             2.38e-12             
  -0.45                 1.56e-12              -3.12e-12             -5.48e-12             1.62e-12             
  -0.4                  1.1e-12               -2.22e-12             -5.36e-12             1.14e-12             
  -0.35                 7.8e-13               -1.42e-12             -4.84e-12             8.4e-13              
  -0.3                  5.6e-13               -8.8e-13              -5.7e-12              5.6e-13              
  -0.25                 3.6e-13               -4.4e-13              -3.76e-12             3e-13                
  -0.2                  2.8e-13               -2.4e-13              -2.78e-12             2.2e-13              
  -0.15                 1.6e-13               -2e-14                -4.14e-12             8e-14                
  -0.1                  3.6e-13               2e-13                 -4.3e-12              -4e-14               
  -0.05                 9.2e-13               3.4e-13               -3.78e-12             -6.8e-13             
  0                     3.8e-12               3.8e-13               -2.88e-12             -3.56e-12            
  0.05                  1.772e-11             4e-13                 -2.92e-12             -1.762e-11           
  0.1                   8.172e-11             5e-13                 -3.9e-12              -8.158e-11           
  0.15                  3.762e-10             6.4e-13               -3.5e-12              -3.7608e-10          
  0.2                   1.7188e-09            5.6e-13               -2.9e-12              -1.7174e-09          
  0.25                  7.8198e-09            9e-13                 -2.68e-12             -7.8198e-09          
  0.3                   3.4398e-08            1.22e-12              -2.52e-12             -3.4402e-08          
  0.35                  1.4258e-07            1.94e-12              -3.18e-12             -1.4246e-07          
  0.4                   5.6036e-07            3.04e-12              -3.34e-12             -5.6108e-07          
  0.45                  1.9834e-06            4.68e-12              -2.54e-12             -1.979e-06           
  0.5                   6.0372e-06            7.28e-12              -7.8e-13              -6.0342e-06          
  0.55                  1.55e-05              1.118e-11             -2.04e-12             -1.5474e-05          
  0.6                   3.364e-05             1.72e-11              -7.1e-12              -3.3592e-05          
  0.65                  6.2894e-05            2.544e-11             -2.16e-12             -6.2898e-05          
  0.7                   0.000103588           3.646e-11             -3.32e-12             -0.000103512         
  0.75                  0.00015448            5.124e-11             -2.68e-12             -0.00015396          
  0.8                   0.00021216            7.022e-11             -2.16e-12             -0.00021166          
  0.85                  0.00027396            9.42e-11              -2.1e-12              -0.00027364          
  0.9                   0.0003371             1.2398e-10            -2.24e-12             -0.00033676          
  0.95                  0.00039956            1.6038e-10            -2.62e-12             -0.000399            
  1                     0.00045982            2.0462e-10            -2.2e-12              -0.00045942          
  1.05                  0.0005173             2.5742e-10            -1.26e-12             -0.00051694          
  1.1                   0.00057154            3.2022e-10            -1.82e-12             -0.0005711           
  1.15                  0.00062246            3.94e-10              -2.1e-12              -0.00062206          
  1.2                   0.00067               4.8028e-10            -2.96e-12             -0.0006696           
  1.25                  0.00071426            5.8016e-10            -1e-12                -0.00071374          
  1.3                   0.00075508            6.9506e-10            -2.28e-12             -0.00075464          
  1.35                  0.00079288            8.2706e-10            -3.12e-12             -0.00079258          
END_DB

BEGIN_DB
 ICCAP_VAR vb         -1.2           
 ICCAP_VAR vd         0.05           
 ICCAP_VAR vs         0              

 #vg                    id                    ig                    ib                    is                   
  -0.5                  1.98e-12              -4.66e-12             -6.82e-12             2.34e-12             
  -0.45                 1.5e-12               -3.06e-12             -5.46e-12             1.54e-12             
  -0.4                  1.14e-12              -2.2e-12              -5.3e-12              1.22e-12             
  -0.35                 8.4e-13               -1.4e-12              -5.82e-12             9e-13                
  -0.3                  5.6e-13               -7.8e-13              -5.36e-12             6.8e-13              
