! VERSION = 6.00
BEGIN_HEADER
 ICCAP_INPUTS
  vg         V  G GROUND SMU2 0.001 LIN        1    -0.5       1.35       38   0.05      
  vb         V  B GROUND SMU4 0.1 LIN        2    0          -1.2       5    -0.3      
  vd         V  D GROUND SMU1 0.1 LIST       3 3 0.05 0.6 1.2
  vs         V  S GROUND SMU3 0.1 CON        0
 ICCAP_OUTPUTS
  id         I  D GROUND SMU1 B
  ig         I  G GROUND SMU2 B
  ib         I  B GROUND SMU4 B
  is         I  S GROUND SMU3 B
 ICCAP_VALUES
  MASTER_SETUP_TYPE "~dc_idvg~"
  LINVT_VALUE ""
  LISTVT_VALUE ""
  TYPE "1"
  TEMP " 125.000 "
  IS_TNOM " 0.00000 "
  MAIN.W "10.00u"
  MAIN.L "130.0n"
  MAIN.AD "3.400p"
  MAIN.AS "3.400p"
  MAIN.PD "20.68u"
  MAIN.PS "20.68u"
  MAIN.NF "1.000"
  MAIN.M "1"
  MAIN.NRD "0.000"
  MAIN.NRS "0.000"
  MAIN.LDRIFT1 "1E-06"
  MAIN.LDRIFT2 "1E-06"
  MAIN.SA "0.000"
  MAIN.SB "0.000"
  MAIN.SD "0.000"
  MAIN.SCA "0.000"
  MAIN.SCB "0.000"
  MAIN.SCC "0.000"
  MAIN.SC "0.000"
  MODULE "S540"
  PIN_D "18"
  PIN_G "3"
  PIN_S "4"
  PIN_B "17"
  PIN_E ""
  PIN_6 ""
  XY_ID ""
  FUNC "Short"
  STI "SA ref"
  WPE "WPE ref"
  COMMENT ""
  DIS_MEAS ""
  TypeTCI "10"
END_HEADER

BEGIN_DB
 ICCAP_VAR vb         0              
 ICCAP_VAR vd         0.05           
 ICCAP_VAR vs         0              

 #vg                    id                    ig                    ib                    is                   
  -0.5                  5.92e-12              -5.7552e-08           5.7528e-08            3.38e-12             
  -0.45                 2.78e-12              -1.3556e-08           1.3566e-08            1.06e-12             
  -0.4                  3.3e-12               -3.201e-09            3.2076e-09            -1.02e-12            
  -0.35                 7.54e-12              -7.5564e-10           7.6344e-10            -4.86e-12            
  -0.3                  1.568e-11             -1.7964e-10           1.864e-10             -1.358e-11           
  -0.25                 3.848e-11             -4.302e-11            5.142e-11             -3.694e-11           
  -0.2                  1.0316e-10            -1.05e-11             1.934e-11             -1.0178e-10          
  -0.15                 2.8614e-10            -2.58e-12             1.032e-11             -2.8518e-10          
  -0.1                  8.127e-10             -5e-13                7.8e-12               -8.1256e-10          
  -0.05                 2.343e-09             4e-14                 6.94e-12              -2.34e-09            
  0                     6.8062e-09            3.4e-13               6.98e-12              -6.7982e-09          
  0.05                  1.9924e-08            2.4e-13               6.82e-12              -1.9908e-08          
  0.1                   5.851e-08             5e-13                 7.24e-12              -5.8518e-08          
  0.15                  1.7158e-07            7.4e-13               5.58e-12              -1.7144e-07          
  0.2                   4.9518e-07            1.08e-12              5.76e-12              -4.9496e-07          
  0.25                  1.391e-06             1.44e-12              6.2e-12               -1.3856e-06          
  0.3                   3.6614e-06            2.38e-12              4.06e-12              -3.6586e-06          
  0.35                  8.8214e-06            3.82e-12              4.92e-12              -8.8148e-06          
  0.4                   1.8904e-05            5.72e-12              5.46e-12              -1.8896e-05          
  0.45                  3.5758e-05            9.1e-12               5.06e-12              -3.5756e-05          
  0.5                   6.0106e-05            1.398e-11             4.32e-12              -6.0062e-05          
  0.55                  9.123e-05             2.088e-11             3.86e-12              -9.1208e-05          
  0.6                   0.00012788            3.034e-11             3.42e-12              -0.00012756          
  0.65                  0.0001681             4.308e-11             4.5e-12               -0.0001678           
  0.7                   0.00021016            5.956e-11             4.42e-12              -0.00020978          
  0.75                  0.00025292            8.092e-11             3.54e-12              -0.00025258          
  0.8                   0.00029534            1.0756e-10            2.74e-12              -0.00029494          
  0.85                  0.0003368             1.4098e-10            3.38e-12              -0.0003365           
  0.9                   0.00037676            1.8204e-10            4.08e-12              -0.0003764           
  0.95                  0.00041532            2.3158e-10            3.04e-12              -0.00041508          
  1                     0.00045208            2.9116e-10            2.5e-12               -0.00045176          
  1.05                  0.0004871             3.62e-10              2.78e-12              -0.00048682          
  1.1                   0.00052008            4.4542e-10            1.98e-12              -0.00051978          
  1.15                  0.0005513             5.428e-10             2.5e-12               -0.00055084          
  1.2                   0.00058056            6.5624e-10            2.42e-12              -0.00058026          
  1.25                  0.0006082             7.878e-10             1.06e-12              -0.00060786          
  1.3                   0.00063408            9.3876e-10            4.8e-13               -0.00063378          
  1.35                  0.00065848            1.1126e-09            9.6e-13               -0.00065826          
END_DB

BEGIN_DB
 ICCAP_VAR vb         -0.3           
 ICCAP_VAR vd         0.05           
 ICCAP_VAR vs         0              

 #vg                    id                    ig                    ib                    is                   
  -0.5                  3.52e-12              -1.618e-11            -4.84e-12             3.76e-12             
  -0.45                 2.9e-12               -6.8e-12              -1.156e-11            2.78e-12             
  -0.4                  2.44e-12              -3.7e-12              -1.174e-11            1.96e-12             
  -0.35                 2.42e-12              -2.22e-12             -1.148e-11            1.1e-12              
  -0.3                  3.24e-12              -1.4e-12              -1.142e-11            -5.2e-13             
  -0.25                 6.88e-12              -8.8e-13              -1.12e-11             -4.62e-12            
  -0.2                  1.846e-11             -4e-13                -1.084e-11            -1.662e-11           
  -0.15                 5.432e-11             -1.4e-13              -9.5e-12              -5.304e-11           
  -0.1                  1.665e-10             6e-14                 -8.84e-12             -1.6506e-10          
  -0.05                 5.1452e-10            2.4e-13               -8.64e-12             -5.133e-10           
  0                     1.5932e-09            2.4e-13               -8.36e-12             -1.5922e-09          
  0.05                  4.946e-09             4.4e-13               -8.64e-12             -4.947e-09           
  0.1                   1.5344e-08            5.6e-13               -7.78e-12             -1.5334e-08          
  0.15                  4.7586e-08            7.4e-13               -7.36e-12             -4.754e-08           
  0.2                   1.4568e-07            1.02e-12              -7.6e-12              -1.4574e-07          
  0.25                  4.3928e-07            1.46e-12              -7.1e-12              -4.3926e-07          
  0.3                   1.2744e-06            2.02e-12              -6.32e-12             -1.271e-06           
  0.35                  3.454e-06             3.26e-12              -7.5e-12              -3.453e-06           
  0.4                   8.4828e-06            5.28e-12              -7.14e-12             -8.4764e-06          
  0.45                  1.8454e-05            8.1e-12               -6.3e-12              -1.844e-05           
  0.5                   3.5186e-05            1.268e-11             -5.44e-12             -3.5158e-05          
  0.55                  5.9364e-05            1.894e-11             -6.4e-12              -5.9348e-05          
  0.6                   9.0526e-05            2.784e-11             -7.48e-12             -9.0526e-05          
  0.65                  0.00012728            4.004e-11             -6.62e-12             -0.00012686          
  0.7                   0.00016736            5.61e-11              -6.06e-12             -0.00016702          
  0.75                  0.0002094             7.658e-11             -5.2e-12              -0.0002091           
  0.8                   0.00025204            1.0292e-10            -6.02e-12             -0.0002517           
  0.85                  0.00029416            1.3568e-10            -6.44e-12             -0.00029384          
  0.9                   0.0003353             1.7592e-10            -6.38e-12             -0.00033508          
  0.95                  0.0003752             2.2492e-10            -5.9e-12              -0.00037488          
  1                     0.00041316            2.8364e-10            -5.28e-12             -0.00041286          
  1.05                  0.00044946            3.5364e-10            -6.52e-12             -0.00044914          
  1.1                   0.00048382            4.363e-10             -6.64e-12             -0.00048344          
  1.15                  0.00051634            5.3318e-10            -6.38e-12             -0.000516            
  1.2                   0.00054702            6.4578e-10            -5.12e-12             -0.0005467           
  1.25                  0.00057578            7.761e-10             -7.12e-12             -0.00057548          
  1.3                   0.00060282            9.2612e-10            -6.38e-12             -0.00060238          
  1.35                  0.00062808            1.0984e-09            -7.2e-12              -0.0006277           
END_DB

BEGIN_DB
 ICCAP_VAR vb         -0.6           
 ICCAP_VAR vd         0.05           
 ICCAP_VAR vs         0              

 #vg                    id                    ig                    ib                    is                   
  -0.5                  3.88e-12              -6.08e-12             -1.958e-11            3.78e-12             
  -0.45                 3.1e-12               -4.34e-12             -1.924e-11            2.84e-12             
  -0.4                  2.6e-12               -3.08e-12             -1.78e-11             2.18e-12             
  -0.35                 2.34e-12              -2.2e-12              -1.614e-11            1.62e-12             
  -0.3                  2.26e-12              -1.34e-12             -1.672e-11            8.8e-13              
  -0.25                 3.14e-12              -8.2e-13              -1.59e-11             -4.6e-13             
  -0.2                  6.6e-12               -4.2e-13              -1.56e-11             -4.32e-12            
  -0.15                 1.798e-11             -2e-14                -1.426e-11            -1.61e-11            
  -0.1                  5.534e-11             2e-14                 -1.41e-11             -5.356e-11           
  -0.05                 1.756e-10             3.4e-13               -1.306e-11            -1.738e-10           
  0                     5.623e-10             4e-13                 -1.356e-11            -5.6076e-10          
  0.05                  1.8026e-09            2.4e-13               -1.36e-11             -1.8016e-09          
  0.1                   5.7806e-09            5.2e-13               -1.336e-11            -5.7792e-09          
  0.15                  1.8496e-08            6.2e-13               -1.26e-11             -1.8464e-08          
  0.2                   5.867e-08             1.08e-12              -1.076e-11            -5.867e-08           
  0.25                  1.8368e-07            1.24e-12              -1.228e-11            -1.8364e-07          
  0.3                   5.594e-07             2.08e-12              -1.216e-11            -5.6016e-07          
  0.35                  1.6302e-06            3.1e-12               -1.014e-11            -1.6252e-06          
  0.4                   4.3554e-06            4.84e-12              -1.158e-11            -4.3558e-06          
  0.45                  1.04572e-05           7.62e-12              -1.134e-11            -1.04542e-05         
  0.5                   2.204e-05             1.154e-11             -1.064e-11            -2.2032e-05          
  0.55                  4.0666e-05            1.748e-11             -1.144e-11            -4.066e-05           
  0.6                   6.6808e-05            2.626e-11             -1.098e-11            -6.676e-05           
  0.65                  9.9556e-05            3.8e-11               -1.054e-11            -9.9548e-05          
  0.7                   0.00013738            5.34e-11              -1.146e-11            -0.00013698          
  0.75                  0.00017812            7.354e-11             -1.084e-11            -0.00017776          
  0.8                   0.00022018            9.904e-11             -1.038e-11            -0.00021988          
  0.85                  0.00026264            1.312e-10             -9.72e-12             -0.00026232          
  0.9                   0.00030438            1.7088e-10            -1.042e-11            -0.00030398          
  0.95                  0.00034484            2.1932e-10            -1.036e-11            -0.00034454          
  1                     0.00038392            2.7748e-10            -1.012e-11            -0.00038354          
  1.05                  0.00042106            3.4676e-10            -1.074e-11            -0.00042082          
  1.1                   0.00045644            4.2906e-10            -9.12e-12             -0.0004562           
  1.15                  0.00048992            5.2482e-10            -1.016e-11            -0.00048958          
  1.2                   0.0005215             6.3714e-10            -1.056e-11            -0.00052118          
  1.25                  0.0005512             7.6576e-10            -1.034e-11            -0.00055076          
  1.3                   0.00057908            9.1516e-10            -1.028e-11            -0.00057864          
  1.35                  0.00060508            1.0862e-09            -1.13e-11             -0.0006048           
END_DB

BEGIN_DB
 ICCAP_VAR vb         -0.9           
 ICCAP_VAR vd         0.05           
 ICCAP_VAR vs         0              

 #vg                    id                    ig                    ib                    is                   
  -0.5                  4.04e-12              -6.04e-12             -2.404e-11            3.84e-12             
  -0.45                 3.28e-12              -4.18e-12             -2.32e-11             2.96e-12             
  -0.4                  2.82e-12              -3e-12                -2.284e-11            2.26e-12             
  -0.35                 2.58e-12              -1.96e-12             -2.118e-11            1.76e-12             
  -0.3                  2.38e-12              -1.22e-12             -1.964e-11            1.22e-12             
  -0.25                 2.58e-12              -9e-13                -1.968e-11            5.6e-13              
  -0.2                  4.04e-12              -3.2e-13              -1.988e-11            -1.2e-12             
  -0.15                 8.92e-12              -4e-14                -1.888e-11            -6.64e-12            
  -0.1                  2.616e-11             2.2e-13               -1.904e-11            -2.396e-11           
  -0.05                 8.284e-11             2.2e-13               -1.756e-11            -8.09e-11            
  0                     2.6954e-10            4.4e-13               -1.66e-11             -2.6778e-10          
  0.05                  8.8256e-10            4.6e-13               -1.734e-11            -8.8002e-10          
  0.1                   2.8832e-09            5e-13                 -1.708e-11            -2.8822e-09          
  0.15                  9.427e-09             8e-13                 -1.622e-11            -9.4192e-09          
  0.2                   3.051e-08             1e-12                 -1.604e-11            -3.0534e-08          
  0.25                  9.7936e-08            1.34e-12              -1.564e-11            -9.7904e-08          
  0.3                   3.0754e-07            1.96e-12              -1.63e-11             -3.0764e-07          
  0.35                  9.3014e-07            3e-12                 -1.658e-11            -9.2984e-07          
  0.4                   2.6326e-06            4.5e-12               -1.43e-11             -2.6266e-06          
  0.45                  6.7408e-06            7.18e-12              -1.498e-11            -6.7314e-06          
  0.5                   1.524e-05             1.092e-11             -1.49e-11             -1.521e-05           
  0.55                  3.0012e-05            1.668e-11             -1.502e-11            -3.0014e-05          
  0.6                   5.2262e-05            2.488e-11             -1.466e-11            -5.2228e-05          
  0.65                  8.1664e-05            3.628e-11             -1.4e-11              -8.1668e-05          
  0.7                   0.00011698            5.124e-11             -1.446e-11            -0.00011664          
  0.75                  0.0001561             7.084e-11             -1.488e-11            -0.00015584          
  0.8                   0.00019774            9.602e-11             -1.436e-11            -0.00019744          
  0.85                  0.00024006            1.278e-10             -1.378e-11            -0.0002397           
  0.9                   0.000282              1.6686e-10            -1.352e-11            -0.0002816           
  0.95                  0.00032296            2.1476e-10            -1.448e-11            -0.00032254          
  1                     0.00036252            2.726e-10             -1.448e-11            -0.00036222          
  1.05                  0.00040052            3.4112e-10            -1.418e-11            -0.00040012          
  1.1                   0.00043654            4.2256e-10            -1.312e-11            -0.00043622          
  1.15                  0.00047078            5.1832e-10            -1.406e-11            -0.00047036          
  1.2                   0.00050298            6.2964e-10            -1.46e-11             -0.00050264          
  1.25                  0.00053332            7.586e-10             -1.378e-11            -0.000533            
  1.3                   0.00056174            9.0694e-10            -1.54e-11             -0.00056132          
  1.35                  0.00058854            1.0778e-09            -1.436e-11            -0.00058812          
END_DB

BEGIN_DB
 ICCAP_VAR vb         -1.2           
 ICCAP_VAR vd         0.05           
 ICCAP_VAR vs         0              

 #vg                    id                    ig                    ib                    is                   
  -0.5                  4.54e-12              -5.98e-12             -2.896e-11            3.9e-12              
  -0.45                 3.82e-12              -4.22e-12             -2.79e-11             3.16e-12             
  -0.4                  3.24e-12              -3e-12                -2.582e-11            2.46e-12             
  -0.35                 2.74e-12              -2.06e-12             -2.552e-11            1.88e-12             
  -0.3                  2.58e-12              -1.34e-12             -2.514e-11            1.46e-12             
