! VERSION = 6.00
BEGIN_HEADER
 ICCAP_INPUTS
  vg         V  G GROUND SMU2 0.001 LIN        1    -0.5       1.35       38   0.05      
  vb         V  B GROUND SMU4 0.1 LIN        2    0          -1.2       5    -0.3      
  vd         V  D GROUND SMU1 0.1 LIST       3 3 0.05 0.6 1.2
  vs         V  S GROUND SMU3 0.1 CON        0
 ICCAP_OUTPUTS
  id         I  D GROUND SMU1 B
  ig         I  G GROUND SMU2 B
  ib         I  B GROUND SMU4 B
  is         I  S GROUND SMU3 B
 ICCAP_VALUES
  MASTER_SETUP_TYPE "~dc_idvg~"
  LINVT_VALUE ""
  LISTVT_VALUE ""
  TYPE "1"
  TEMP " 70.0000 "
  IS_TNOM " 0.00000 "
  MAIN.W "300.0n"
  MAIN.L "130.0n"
  MAIN.AD "102.0f"
  MAIN.AS "102.0f"
  MAIN.PD "1.280u"
  MAIN.PS "1.280u"
  MAIN.NF "1.000"
  MAIN.M "1"
  MAIN.NRD "0.000"
  MAIN.NRS "0.000"
  MAIN.LDRIFT1 "1E-06"
  MAIN.LDRIFT2 "1E-06"
  MAIN.SA "0.000"
  MAIN.SB "0.000"
  MAIN.SD "0.000"
  MAIN.SCA "0.000"
  MAIN.SCB "0.000"
  MAIN.SCC "0.000"
  MAIN.SC "0.000"
  MODULE "S544"
  PIN_D "18"
  PIN_G "3"
  PIN_S "4"
  PIN_B "17"
  PIN_E ""
  PIN_6 ""
  XY_ID ""
  FUNC "LW Scale"
  STI "SA ref"
  WPE "WPE ref"
  COMMENT ""
  DIS_MEAS ""
  TypeTCI "10"
END_HEADER

BEGIN_DB
 ICCAP_VAR vb         0              
 ICCAP_VAR vd         0.05           
 ICCAP_VAR vs         0              

 #vg                    id                    ig                    ib                    is                   
  -0.5                  2.6e-13               -1.6844e-09           1.6862e-09            1.8e-13              
  -0.45                 -4e-14                -3.1718e-10           3.2118e-10            4e-14                
  -0.4                  -6e-14                -6.032e-11            6.43e-11              1e-13                
  -0.35                 -4e-14                -1.16e-11             1.464e-11             2e-14                
  -0.3                  -8e-14                -2.26e-12             4.78e-12              -6e-14               
  -0.25                 4e-14                 -3.8e-13              2.48e-12              1e-13                
  -0.2                  -2e-14                0                     3.14e-12              0                    
  -0.15                 1.2e-13               2.6e-13               3.96e-12              -1.8e-13             
  -0.1                  6.4e-13               1.6e-13               2.62e-12              -2.8e-13             
  -0.05                 1.82e-12              3e-13                 2.54e-12              -1.84e-12            
  0                     6.3e-12               3e-13                 1.72e-12              -6.24e-12            
  0.05                  2.198e-11             3.6e-13               2.92e-12              -2.196e-11           
  0.1                   7.766e-11             3.4e-13               2.8e-12               -7.718e-11           
  0.15                  2.738e-10             2.8e-13               2.06e-12              -2.7382e-10          
  0.2                   9.5842e-10            4e-13                 2.22e-12              -9.5836e-10          
  0.25                  3.309e-09             3e-13                 1.48e-12              -3.3086e-09          
  0.3                   1.11818e-08           3.8e-13               1.52e-12              -1.11774e-08         
  0.35                  3.6444e-08            3.2e-13               1.58e-12              -3.6006e-08          
  0.4                   1.09268e-07           5e-13                 2.8e-12               -1.09252e-07         
  0.45                  2.9246e-07            5.2e-13               1.72e-12              -2.929e-07           
  0.5                   6.6598e-07            7e-13                 9.4e-13               -6.6222e-07          
  0.55                  1.2826e-06            7.6e-13               2.64e-12              -1.274e-06           
  0.6                   2.1392e-06            9.8e-13               1.62e-12              -2.132e-06           
  0.65                  3.2102e-06            1.3e-12               2.08e-12              -3.2272e-06          
  0.7                   4.4324e-06            1.74e-12              2.06e-12              -4.4486e-06          
  0.75                  5.7604e-06            2.12e-12              2.46e-12              -5.7502e-06          
  0.8                   7.1154e-06            2.8e-12               1.84e-12              -7.13e-06            
  0.85                  8.5058e-06            3.56e-12              7e-13                 -8.5052e-06          
  0.9                   9.8548e-06            4.44e-12              1.96e-12              -9.848e-06           
  0.95                  1.11918e-05           5.66e-12              1.34e-12              -1.11856e-05         
  1                     1.251e-05             7.1e-12               2.86e-12              -1.2502e-05          
  1.05                  1.3752e-05            8.62e-12              1.74e-12              -1.3742e-05          
  1.1                   1.495e-05             1.076e-11             1.26e-12              -1.4942e-05          
  1.15                  1.6076e-05            1.298e-11             1.34e-12              -1.6072e-05          
  1.2                   1.716e-05             1.592e-11             2.76e-12              -1.7154e-05          
  1.25                  1.8186e-05            1.914e-11             1.8e-12               -1.8164e-05          
  1.3                   1.9136e-05            2.296e-11             1.1e-12               -1.9138e-05          
  1.35                  2.0034e-05            2.72e-11              1.44e-12              -2.004e-05           
END_DB

BEGIN_DB
 ICCAP_VAR vb         -0.3           
 ICCAP_VAR vd         0.05           
 ICCAP_VAR vs         0              

 #vg                    id                    ig                    ib                    is                   
  -0.5                  1.4e-13               -5.2e-13              -5.16e-12             2e-13                
  -0.45                 2e-14                 -1.4e-13              -4.96e-12             1.6e-13              
  -0.4                  4e-14                 -4e-14                -4.28e-12             8e-14                
  -0.35                 2e-14                 -2e-14                -4.94e-12             1.2e-13              
  -0.3                  -2e-14                0                     -4.26e-12             1e-13                
  -0.25                 4e-14                 1.2e-13               -3.38e-12             -2e-14               
  -0.2                  0                     2.2e-13               -2.66e-12             1.4e-13              
  -0.15                 0                     2.8e-13               -1.16e-12             -6e-14               
  -0.1                  -2e-14                1.2e-13               -3.3e-12              0                    
  -0.05                 2e-13                 2.4e-13               -2.76e-12             -1.4e-13             
  0                     1.02e-12              1.8e-13               -2.96e-12             -9.8e-13             
  0.05                  4.02e-12              2.8e-13               -2.3e-12              -3.88e-12            
  0.1                   1.47e-11              2.2e-13               -1.02e-12             -1.472e-11           
  0.15                  5.506e-11             3.4e-13               -3.06e-12             -5.498e-11           
  0.2                   2.0322e-10            4e-13                 -2.22e-12             -2.03e-10            
  0.25                  7.613e-10             4.8e-13               -2.38e-12             -7.6162e-10          
  0.3                   2.7244e-09            3.8e-13               -1.46e-12             -2.7214e-09          
  0.35                  9.5368e-09            3.8e-13               -8.6e-13              -9.5338e-09          
  0.4                   3.1908e-08            4.6e-13               -1.88e-12             -3.1628e-08          
  0.45                  9.9658e-08            6.6e-13               -1.82e-12             -9.9708e-08          
  0.5                   2.7462e-07            7e-13                 -1.16e-12             -2.746e-07           
  0.55                  6.3432e-07            9.2e-13               -1.14e-12             -6.3286e-07          
  0.6                   1.2318e-06            8.8e-13               -1.4e-12              -1.23e-06            
  0.65                  2.0884e-06            1.24e-12              -2.32e-12             -2.0872e-06          
  0.7                   3.1514e-06            1.6e-12               -1.4e-13              -3.1346e-06          
  0.75                  4.3368e-06            1.96e-12              -4.2e-13              -4.3434e-06          
  0.8                   5.6578e-06            2.74e-12              -7.2e-13              -5.6546e-06          
  0.85                  6.9882e-06            3.38e-12              -1.38e-12             -6.99e-06            
  0.9                   8.3488e-06            4.34e-12              -7.8e-13              -8.3494e-06          
  0.95                  9.6988e-06            5.52e-12              -5.2e-13              -9.6946e-06          
  1                     1.1021e-05            6.86e-12              -1.42e-12             -1.10172e-05         
  1.05                  1.2304e-05            8.4e-12               -2.04e-12             -1.2308e-05          
  1.1                   1.3546e-05            1.048e-11             -2e-13                -1.3534e-05          
  1.15                  1.4706e-05            1.274e-11             -6.8e-13              -1.4708e-05          
  1.2                   1.5832e-05            1.548e-11             -8.2e-13              -1.5826e-05          
  1.25                  1.6868e-05            1.878e-11             -7.6e-13              -1.6868e-05          
  1.3                   1.7848e-05            2.248e-11             -1.68e-12             -1.7856e-05          
  1.35                  1.8796e-05            2.678e-11             -4.2e-13              -1.8796e-05          
END_DB

BEGIN_DB
 ICCAP_VAR vb         -0.6           
 ICCAP_VAR vd         0.05           
 ICCAP_VAR vs         0              

 #vg                    id                    ig                    ib                    is                   
  -0.5                  1.8e-13               -4e-13                -7.62e-12             1.6e-13              
  -0.45                 2e-14                 -1.8e-13              -5.3e-12              2e-14                
  -0.4                  4e-14                 -1e-13                -6.5e-12              1.6e-13              
  -0.35                 0                     -1.2e-13              -6.42e-12             1.8e-13              
  -0.3                  -1.4e-13              4e-14                 -5.76e-12             -6e-14               
  -0.25                 6e-14                 1.6e-13               -5.24e-12             1.2e-13              
  -0.2                  -1e-13                1.4e-13               -4.98e-12             6e-14                
  -0.15                 -6e-14                1.6e-13               -4.82e-12             1.2e-13              
  -0.1                  -4e-14                2.2e-13               -4.32e-12             1.4e-13              
  -0.05                 2e-14                 2.8e-13               -5.3e-12              -4e-14               
  0                     3.4e-13               3.2e-13               -5.36e-12             -6e-14               
  0.05                  9.4e-13               3e-13                 -3.9e-12              -1.04e-12            
  0.1                   4e-12                 3.4e-13               -3.38e-12             -3.96e-12            
  0.15                  1.582e-11             3.4e-13               -3.22e-12             -1.578e-11           
  0.2                   6.05e-11              4.4e-13               -3.74e-12             -6.062e-11           
  0.25                  2.3058e-10            3.8e-13               -3.58e-12             -2.3052e-10          
  0.3                   8.5902e-10            4.2e-13               -4.18e-12             -8.59e-10            
  0.35                  3.1226e-09            4.4e-13               -2.6e-12              -3.1218e-09          
  0.4                   1.08822e-08           5e-13                 -3e-12                -1.08974e-08         
  0.45                  3.712e-08             6.4e-13               -2.58e-12             -3.7106e-08          
  0.5                   1.1636e-07            6.2e-13               -3.8e-12              -1.1636e-07          
  0.55                  3.1508e-07            8e-13                 -2.96e-12             -3.1496e-07          
  0.6                   7.0918e-07            9.4e-13               -2.32e-12             -7.0598e-07          
  0.65                  1.355e-06             1.12e-12              -2.7e-12              -1.3352e-06          
  0.7                   2.2218e-06            1.52e-12              -3.36e-12             -2.2124e-06          
  0.75                  3.2926e-06            1.94e-12              -2.62e-12             -3.286e-06           
  0.8                   4.5126e-06            2.58e-12              -2.36e-12             -4.5062e-06          
  0.85                  5.8094e-06            3.26e-12              -1.92e-12             -5.815e-06           
  0.9                   7.148e-06             4.22e-12              -2.72e-12             -7.1444e-06          
  0.95                  8.5004e-06            5.16e-12              -3.96e-12             -8.4936e-06          
  1                     9.8418e-06            6.66e-12              -2.28e-12             -9.8458e-06          
  1.05                  1.11486e-05           8.16e-12              -2.16e-12             -1.11298e-05         
  1.1                   1.2394e-05            1.01e-11              -2.9e-12              -1.2382e-05          
  1.15                  1.3594e-05            1.248e-11             -3.58e-12             -1.3598e-05          
  1.2                   1.4736e-05            1.54e-11              -2.4e-12              -1.4708e-05          
  1.25                  1.5812e-05            1.846e-11             -1.52e-12             -1.5808e-05          
  1.3                   1.6832e-05            2.222e-11             -1.68e-12             -1.6834e-05          
  1.35                  1.78e-05              2.65e-11              -2.72e-12             -1.778e-05           
END_DB

BEGIN_DB
 ICCAP_VAR vb         -0.9           
 ICCAP_VAR vd         0.05           
 ICCAP_VAR vs         0              

 #vg                    id                    ig                    ib                    is                   
  -0.5                  1e-13                 -4.2e-13              -8.58e-12             2.6e-13              
  -0.45                 0                     -1.4e-13              -8.64e-12             1.6e-13              
  -0.4                  -2e-14                -4e-14                -8.48e-12             4e-14                
  -0.35                 -4e-14                0                     -6.74e-12             1.6e-13              
  -0.3                  -6e-14                2e-13                 -7.12e-12             1.2e-13              
  -0.25                 0                     1.4e-13               -5.84e-12             1.2e-13              
  -0.2                  -8e-14                1.4e-13               -6.02e-12             1.4e-13              
  -0.15                 -2e-14                2e-13                 -5.96e-12             2e-14                
  -0.1                  -6e-14                2e-13                 -6.14e-12             6e-14                
  -0.05                 -8e-14                2.8e-13               -6.1e-12              -4e-14               
  0                     4e-14                 3e-13                 -5.88e-12             2e-14                
  0.05                  3e-13                 3.6e-13               -4.46e-12             -3e-13               
  0.1                   1.34e-12              3e-13                 -5.26e-12             -1.24e-12            
  0.15                  5.44e-12              4e-13                 -6.16e-12             -5.34e-12            
  0.2                   2.19e-11              3.6e-13               -5e-12                -2.192e-11           
  0.25                  8.572e-11             4.2e-13               -4.64e-12             -8.544e-11           
  0.3                   3.2774e-10            4.4e-13               -4.02e-12             -3.2786e-10          
  0.35                  1.2256e-09            4.2e-13               -4.96e-12             -1.2256e-09          
  0.4                   4.4646e-09            4.8e-13               -4.68e-12             -4.4632e-09          
  0.45                  1.5836e-08            5.2e-13               -4.12e-12             -1.5802e-08          
  0.5                   5.3178e-08            6.2e-13               -4.4e-12              -5.3184e-08          
  0.55                  1.6034e-07            6.6e-13               -5.1e-12              -1.6038e-07          
  0.6                   4.1288e-07            9.8e-13               -3.9e-12              -4.1328e-07          
  0.65                  8.7982e-07            1.14e-12              -4.26e-12             -8.621e-07           
  0.7                   1.5788e-06            1.3e-12               -4.02e-12             -1.5816e-06          
  0.75                  2.5192e-06            1.9e-12               -4.46e-12             -2.5166e-06          
  0.8                   3.6388e-06            2.44e-12              -3.3e-12              -3.65e-06            
  0.85                  4.872e-06             3.22e-12              -3.54e-12             -4.882e-06           
  0.9                   6.187e-06             4.02e-12              -3.58e-12             -6.1808e-06          
  0.95                  7.5234e-06            5e-12                 -4.66e-12             -7.5216e-06          
  1                     8.8618e-06            6.56e-12              -4.16e-12             -8.875e-06           
  1.05                  1.019e-05             8.14e-12              -2.72e-12             -1.0172e-05          
  1.1                   1.14558e-05           1.004e-11             -3.48e-12             -1.14602e-05         
  1.15                  1.2676e-05            1.226e-11             -2.46e-12             -1.2684e-05          
  1.2                   1.3846e-05            1.486e-11             -3.4e-12              -1.3838e-05          
  1.25                  1.4962e-05            1.828e-11             -3.84e-12             -1.4958e-05          
  1.3                   1.5996e-05            2.196e-11             -2.42e-12             -1.597e-05           
  1.35                  1.698e-05             2.62e-11              -3.36e-12             -1.6958e-05          
END_DB

BEGIN_DB
 ICCAP_VAR vb         -1.2           
 ICCAP_VAR vd         0.05           
 ICCAP_VAR vs         0              

 #vg                    id                    ig                    ib                    is                   
  -0.5                  1.2e-13               -5.8e-13              -1.034e-11            3e-13                
  -0.45                 -4e-14                -2e-13                -1.004e-11            1.4e-13              
  -0.4                  2e-14                 0                     -8.98e-12             1.4e-13              
  -0.35                 -2e-14                -4e-14                -7.9e-12              8e-14                
  -0.3                  0                     2e-14                 -7.88e-12             2.8e-13              
