! VERSION = 6.00
BEGIN_HEADER
 ICCAP_INPUTS
  vd         V  D GROUND SMU1 0.1 LIN        1    0          1.35       28   0.05      
  vg         V  G GROUND SMU2 0.001 LIST       2 3 0.205 0.405 0.605
  vb         V  B GROUND SMU4 0.1 CON        -1.2
  vs         V  S GROUND SMU3 0.1 CON        0
 ICCAP_OUTPUTS
  id         I  D GROUND SMU1 B
  ig         I  G GROUND SMU2 B
  ib         I  B GROUND SMU4 B
  is         I  S GROUND SMU3 B
 ICCAP_VALUES
  MASTER_SETUP_TYPE "~dc_idvd~"
  LINVT_VALUE ""
  LISTVT_VALUE "|idvg|100.0n|-200.0m|1.000m|3|200.0m|200.0m|"
  TYPE "1"
  TEMP " 70.0000 "
  IS_TNOM " 0.00000 "
  MAIN.W "10.00u"
  MAIN.L "180.0n"
  MAIN.AD "3.400p"
  MAIN.AS "3.400p"
  MAIN.PD "20.68u"
  MAIN.PS "20.68u"
  MAIN.NF "1.000"
  MAIN.M "1"
  MAIN.NRD "0.000"
  MAIN.NRS "0.000"
  MAIN.LDRIFT1 "1E-06"
  MAIN.LDRIFT2 "1E-06"
  MAIN.SA "0.000"
  MAIN.SB "0.000"
  MAIN.SD "0.000"
  MAIN.SCA "0.000"
  MAIN.SCB "0.000"
  MAIN.SCC "0.000"
  MAIN.SC "0.000"
  MODULE "S540"
  PIN_D "12"
  PIN_G "9"
  PIN_S "10"
  PIN_B "11"
  PIN_E ""
  PIN_6 ""
  XY_ID ""
  FUNC "L Scale"
  STI "SA ref"
  WPE "WPE ref"
  COMMENT ""
  DIS_MEAS ""
  TypeTCI "10"
END_HEADER

BEGIN_DB
 ICCAP_VAR vg         0.205          
 ICCAP_VAR vb         -1.2           
 ICCAP_VAR vs         0              

 #vd                    id                    ig                    ib                    is                   
  0                     5.41e-11              0                     -1.072e-11            -3.826e-11           
  0.05                  1.2534e-08            6e-14                 -1.094e-11            -1.252e-08           
  0.1                   1.5874e-08            8e-14                 -1.018e-11            -1.5854e-08          
  0.15                  1.7376e-08            -4e-14                -9.56e-12             -1.7364e-08          
  0.2                   1.8524e-08            -2e-14                -8.98e-12             -1.8508e-08          
  0.25                  1.9622e-08            -2e-14                -9.54e-12             -1.9602e-08          
  0.3                   2.0734e-08            -6e-14                -7.72e-12             -2.071e-08           
  0.35                  2.184e-08             6e-14                 -7.4e-12              -2.1832e-08          
  0.4                   2.2998e-08            -1.6e-13              -8.02e-12             -2.298e-08           
  0.45                  2.416e-08             -1e-13                -7.5e-12              -2.4146e-08          
  0.5                   2.5364e-08            -3.6e-13              -7.24e-12             -2.5344e-08          
  0.55                  2.658e-08             -4.8e-13              -6.26e-12             -2.6562e-08          
  0.6                   2.7832e-08            -5.6e-13              -7e-12                -2.7822e-08          
  0.65                  2.912e-08             -9e-13                -7e-12                -2.911e-08           
  0.7                   3.044e-08             -1.26e-12             -6.38e-12             -3.0422e-08          
  0.75                  3.179e-08             -1.6e-12              -5.34e-12             -3.1768e-08          
  0.8                   3.3176e-08            -2.24e-12             -6.6e-12              -3.3146e-08          
  0.85                  3.4592e-08            -2.7e-12              -5.7e-12              -3.4572e-08          
  0.9                   3.605e-08             -3.5e-12              -6.54e-12             -3.6036e-08          
  0.95                  3.7552e-08            -4.46e-12             -6.28e-12             -3.7526e-08          
  1                     3.9092e-08            -5.3e-12              -5.6e-12              -3.9068e-08          
  1.05                  4.0658e-08            -6.78e-12             -7.52e-12             -4.065e-08           
  1.1                   4.2294e-08            -8.22e-12             -7.82e-12             -4.2272e-08          
  1.15                  4.3986e-08            -9.92e-12             -8.52e-12             -4.3938e-08          
  1.2                   4.5702e-08            -1.188e-11            -1.034e-11            -4.5686e-08          
  1.25                  4.7454e-08            -1.418e-11            -1.408e-11            -4.742e-08           
  1.3                   4.9306e-08            -1.668e-11            -1.8e-11              -4.926e-08           
  1.35                  5.1198e-08            -1.962e-11            -2.296e-11            -5.1148e-08          
END_DB

BEGIN_DB
 ICCAP_VAR vg         0.405          
 ICCAP_VAR vb         -1.2           
 ICCAP_VAR vs         0              

 #vd                    id                    ig                    ib                    is                   
  0                     3.6984e-09            3.92e-12              -4.22e-12             -5.0112e-09          
  0.05                  2.8608e-06            3.06e-12              -2.86e-12             -2.8526e-06          
  0.1                   3.776e-06             2.68e-12              -4.9e-12              -3.773e-06           
  0.15                  4.1886e-06            2.34e-12              -4.08e-12             -4.1862e-06          
  0.2                   4.4772e-06            2.2e-12               -3.16e-12             -4.474e-06           
  0.25                  4.7336e-06            2.24e-12              -5.04e-12             -4.7308e-06          
  0.3                   4.9802e-06            2.1e-12               -5.18e-12             -4.9754e-06          
  0.35                  5.2264e-06            2e-12                 -3.04e-12             -5.2194e-06          
  0.4                   5.4702e-06            2.2e-12               -4.82e-12             -5.4664e-06          
  0.45                  5.7152e-06            2.1e-12               -4.46e-12             -5.7058e-06          
  0.5                   5.958e-06             2.16e-12              -3.56e-12             -5.957e-06           
  0.55                  6.208e-06             2.16e-12              -4.78e-12             -6.1982e-06          
  0.6                   6.451e-06             1.82e-12              -3.02e-12             -6.4488e-06          
  0.65                  6.6996e-06            1.88e-12              -3.68e-12             -6.6948e-06          
  0.7                   6.95e-06              1.82e-12              -4.92e-12             -6.955e-06           
  0.75                  7.2136e-06            1.62e-12              -4.26e-12             -7.2046e-06          
  0.8                   7.468e-06             1.46e-12              -4e-12                -7.4706e-06          
  0.85                  7.7376e-06            1.2e-12               -4.7e-12              -7.7338e-06          
  0.9                   8.0008e-06            8.4e-13               -5.72e-12             -7.997e-06           
  0.95                  8.2584e-06            2.4e-13               -9.2e-12              -8.261e-06           
  1                     8.5322e-06            -1.8e-13              -1.45e-11             -8.5386e-06          
  1.05                  8.8166e-06            -7.2e-13              -2.616e-11            -8.8076e-06          
  1.1                   9.0814e-06            -1.56e-12             -5.406e-11            -9.081e-06           
  1.15                  9.3842e-06            -2.48e-12             -1.0348e-10           -9.372e-06           
  1.2                   9.656e-06             -3.54e-12             -1.898e-10            -9.6518e-06          
  1.25                  9.951e-06             -4.76e-12             -3.4002e-10           -9.951e-06           
  1.3                   1.0246e-05            -6.34e-12             -5.7348e-10           -1.0238e-05          
  1.35                  1.05438e-05           -8e-12                -9.3334e-10           -1.05392e-05         
END_DB

BEGIN_DB
 ICCAP_VAR vg         0.605          
 ICCAP_VAR vb         -1.2           
 ICCAP_VAR vs         0              

 #vd                    id                    ig                    ib                    is                   
  0                     1.8418e-07            3.12e-11              -1.82e-12             -1.1652e-07          
  0.05                  6.5218e-05            2.582e-11             -2.8e-12              -6.5232e-05          
  0.1                   0.000104168           2.196e-11             -3.88e-12             -0.000104158         
  0.15                  0.00012616            1.958e-11             -3.54e-12             -0.00012578          
  0.2                   0.00013876            1.826e-11             -3.76e-12             -0.00013844          
  0.25                  0.0001471             1.73e-11              -3.5e-12              -0.00014678          
  0.3                   0.00015344            1.686e-11             -3.94e-12             -0.00015308          
  0.35                  0.00015896            1.624e-11             -3.62e-12             -0.0001586           
  0.4                   0.000164              1.61e-11              -3.74e-12             -0.00016364          
  0.45                  0.00016868            1.602e-11             -4.2e-12              -0.00016844          
  0.5                   0.00017336            1.56e-11              -2.8e-12              -0.00017306          
  0.55                  0.00017782            1.544e-11             -3.24e-12             -0.0001775           
  0.6                   0.00018216            1.554e-11             -4.18e-12             -0.00018184          
  0.65                  0.0001864             1.54e-11              -2.04e-12             -0.00018618          
  0.7                   0.00019072            1.528e-11             -4.38e-12             -0.0001904           
  0.75                  0.00019496            1.514e-11             -4.2e-12              -0.00019462          
  0.8                   0.00019908            1.502e-11             -2.72e-12             -0.00019876          
  0.85                  0.0002032             1.48e-11              -5.18e-12             -0.00020286          
  0.9                   0.00020732            1.466e-11             -6.46e-12             -0.000207            
  0.95                  0.00021136            1.444e-11             -1.192e-11            -0.00021102          
  1                     0.00021554            1.42e-11              -2.758e-11            -0.00021524          
  1.05                  0.00021958            1.378e-11             -6.22e-11             -0.00021928          
  1.1                   0.00022362            1.352e-11             -1.474e-10            -0.00022334          
  1.15                  0.00022762            1.304e-11             -3.348e-10            -0.00022728          
  1.2                   0.00023162            1.252e-11             -7.1832e-10           -0.00023126          
  1.25                  0.00023558            1.17e-11              -1.4622e-09           -0.00023524          
  1.3                   0.00023954            1.106e-11             -2.8124e-09           -0.00023928          
  1.35                  0.00024358            9.98e-12              -5.1302e-09           -0.0002433           
END_DB

