! VERSION = 6.00
BEGIN_HEADER
 ICCAP_INPUTS
  vg         V  G GROUND SMU2 0.001 LIN        1    -0.5       1.35       38   0.05      
  vb         V  B GROUND SMU4 0.1 LIN        2    0          -1.2       5    -0.3      
  vd         V  D GROUND SMU1 0.1 LIST       3 3 0.05 0.6 1.2
  vs         V  S GROUND SMU3 0.1 CON        0
 ICCAP_OUTPUTS
  id         I  D GROUND SMU1 B
  ig         I  G GROUND SMU2 B
  ib         I  B GROUND SMU4 B
  is         I  S GROUND SMU3 B
 ICCAP_VALUES
  MASTER_SETUP_TYPE "~dc_idvg~"
  LINVT_VALUE ""
  LISTVT_VALUE ""
  TYPE "1"
  TEMP " 27.0000 "
  IS_TNOM " 1.00000 "
  MAIN.W "150.0n"
  MAIN.L "140.0n"
  MAIN.AD "100.5f"
  MAIN.AS "100.5f"
  MAIN.PD "1.340u"
  MAIN.PS "1.340u"
  MAIN.NF "1.000"
  MAIN.M "1"
  MAIN.NRD "0.000"
  MAIN.NRS "0.000"
  MAIN.LDRIFT1 "1E-06"
  MAIN.LDRIFT2 "1E-06"
  MAIN.SA "0.000"
  MAIN.SB "0.000"
  MAIN.SD "0.000"
  MAIN.SCA "0.000"
  MAIN.SCB "0.000"
  MAIN.SCC "0.000"
  MAIN.SC "0.000"
  MODULE "S546"
  PIN_D "14"
  PIN_G "7"
  PIN_S "8"
  PIN_B "13"
  PIN_E ""
  PIN_6 ""
  XY_ID ""
  FUNC "LW Scale"
  STI "SA ref"
  WPE "WPE ref"
  COMMENT ""
  DIS_MEAS ""
  TypeTCI "10"
END_HEADER

BEGIN_DB
 ICCAP_VAR vb         0              
 ICCAP_VAR vd         0.05           
 ICCAP_VAR vs         0              

 #vg                    id                    ig                    ib                    is                   
  -0.5                  6e-14                 -4.298e-11            4.422e-11             -2e-14               
  -0.45                 -2e-14                -6.6e-12              8.24e-12              8e-14                
  -0.4                  0                     -1.24e-12             2.42e-12              2.2e-13              
  -0.35                 -8e-14                -2.2e-13              1.68e-12              1.4e-13              
  -0.3                  -2e-14                -1e-13                2e-12                 1.2e-13              
  -0.25                 -1e-13                2.2e-13               2.12e-12              -8e-14               
  -0.2                  0                     3.2e-13               1.36e-12              1.4e-13              
  -0.15                 0                     1.8e-13               1.22e-12              6e-14                
  -0.1                  4e-14                 4.4e-13               1.94e-12              -4e-14               
  -0.05                 3.2e-13               1.8e-13               2.4e-12               -3.6e-13             
  0                     1.22e-12              4.6e-13               2.08e-12              -1.12e-12            
  0.05                  5.38e-12              5.8e-13               1.16e-12              -5.32e-12            
  0.1                   2.434e-11             2.8e-13               1.98e-12              -2.438e-11           
  0.15                  1.0982e-10            7e-13                 1.5e-12               -1.0978e-10          
  0.2                   4.92e-10              4.4e-13               1.92e-12              -4.9164e-10          
  0.25                  2.1832e-09            4.6e-13               2.48e-12              -2.1798e-09          
  0.3                   9.272e-09             6.8e-13               1.08e-12              -9.2726e-09          
  0.35                  3.5568e-08            4.8e-13               9.2e-13               -3.5578e-08          
  0.4                   1.13572e-07           5.6e-13               1.2e-12               -1.13568e-07         
  0.45                  2.8822e-07            6.8e-13               2.04e-12              -2.8814e-07          
  0.5                   5.8696e-07            7.6e-13               1.02e-12              -5.8578e-07          
  0.55                  1.00758e-06           1e-12                 6.4e-13               -1.00876e-06         
  0.6                   1.553e-06             1.04e-12              1.48e-12              -1.5494e-06          
  0.65                  2.2118e-06            1.22e-12              9.6e-13               -2.2078e-06          
  0.7                   2.9704e-06            1.64e-12              9.8e-13               -2.9662e-06          
  0.75                  3.8102e-06            2.2e-12               1.58e-12              -3.806e-06           
  0.8                   4.7004e-06            2.52e-12              2.16e-12              -4.6968e-06          
  0.85                  5.6062e-06            3.08e-12              1.4e-12               -5.6022e-06          
  0.9                   6.5332e-06            3.94e-12              4.4e-13               -6.5294e-06          
  0.95                  7.386e-06             4.8e-12               1.02e-12              -7.3818e-06          
  1                     8.2928e-06            5.88e-12              1.8e-12               -8.289e-06           
  1.05                  9.175e-06             7.3e-12               1.28e-12              -9.1704e-06          
  1.1                   1.00228e-05           8.9e-12               3.4e-13               -1.00838e-05         
  1.15                  1.08358e-05           1.056e-11             2.8e-13               -1.0832e-05          
  1.2                   1.1618e-05            1.25e-11              1.98e-12              -1.1598e-05          
  1.25                  1.2348e-05            1.5e-11               8.2e-13               -1.2332e-05          
  1.3                   1.304e-05             1.812e-11             9e-13                 -1.3022e-05          
  1.35                  1.369e-05             2.11e-11              9.8e-13               -1.3672e-05          
END_DB

BEGIN_DB
 ICCAP_VAR vb         -0.3           
 ICCAP_VAR vd         0.05           
 ICCAP_VAR vs         0              

 #vg                    id                    ig                    ib                    is                   
  -0.5                  8e-14                 -3.8e-13              -3.32e-12             2e-14                
  -0.45                 -6e-14                -2e-13                -3.6e-12              1.2e-13              
  -0.4                  2e-14                 6e-14                 -2.74e-12             1e-13                
  -0.35                 2e-14                 2.2e-13               -2.24e-12             6e-14                
  -0.3                  0                     1.4e-13               -1.36e-12             6e-14                
  -0.25                 4e-14                 2.4e-13               -2.04e-12             6e-14                
  -0.2                  -4e-14                1.8e-13               -1.62e-12             4e-14                
  -0.15                 4e-14                 5.6e-13               -1.92e-12             6e-14                
  -0.1                  4e-14                 4.2e-13               -1.6e-12              6e-14                
  -0.05                 6e-14                 1.4e-13               -8.2e-13              1e-13                
  0                     8e-14                 5.4e-13               -1.14e-12             -2e-14               
  0.05                  8.4e-13               4e-13                 -2.54e-12             -6e-13               
  0.1                   3.74e-12              4.6e-13               -1.24e-12             -3.72e-12            
  0.15                  1.8e-11               5.4e-13               -1.34e-12             -1.764e-11           
  0.2                   8.486e-11             4e-13                 -6.6e-13              -8.474e-11           
  0.25                  3.9982e-10            5.8e-13               -7.6e-13              -3.997e-10           
  0.3                   1.851e-09             5.2e-13               -1.24e-12             -1.8482e-09          
  0.35                  8.2078e-09            6.2e-13               -6e-13                -8.1818e-09          
  0.4                   3.2384e-08            5e-13                 -1.16e-12             -3.2438e-08          
  0.45                  1.0684e-07            6.6e-13               -7.6e-13              -1.0681e-07          
  0.5                   2.7548e-07            8e-13                 -1.1e-12              -2.7536e-07          
  0.55                  5.6524e-07            7.6e-13               -1.28e-12             -5.6566e-07          
  0.6                   9.7614e-07            1e-12                 -5.4e-13              -9.7546e-07          
  0.65                  1.5064e-06            1.24e-12              -1.18e-12             -1.5038e-06          
  0.7                   2.146e-06             1.56e-12              -8.2e-13              -2.1428e-06          
  0.75                  2.885e-06             1.92e-12              6e-14                 -2.8814e-06          
  0.8                   3.7002e-06            2.38e-12              -6.8e-13              -3.6964e-06          
  0.85                  4.568e-06             3.2e-12               -1.28e-12             -4.5646e-06          
  0.9                   5.4642e-06            3.8e-12               -1.38e-12             -5.4584e-06          
  0.95                  6.3616e-06            4.56e-12              4.6e-13               -6.3574e-06          
  1                     7.1972e-06            5.72e-12              -2e-13                -7.1936e-06          
  1.05                  8.0886e-06            7e-12                 -7.4e-13              -8.0846e-06          
  1.1                   8.9524e-06            8.7e-12               -4.8e-13              -8.9488e-06          
  1.15                  9.842e-06             1.056e-11             -4.6e-13              -9.8532e-06          
  1.2                   1.058e-05             1.238e-11             4.6e-13               -1.0576e-05          
  1.25                  1.13358e-05           1.48e-11              -8.4e-13              -1.13324e-05         
  1.3                   1.2058e-05            1.754e-11             -7e-13                -1.204e-05           
  1.35                  1.273e-05             2.064e-11             -4.2e-13              -1.2712e-05          
END_DB

BEGIN_DB
 ICCAP_VAR vb         -0.6           
 ICCAP_VAR vd         0.05           
 ICCAP_VAR vs         0              

 #vg                    id                    ig                    ib                    is                   
  -0.5                  4e-14                 -2.2e-13              -3.86e-12             6e-14                
  -0.45                 4e-14                 -3.2e-13              -3.72e-12             2e-13                
  -0.4                  -2e-14                2.2e-13               -3.68e-12             8e-14                
  -0.35                 -8e-14                0                     -3.28e-12             2e-14                
  -0.3                  6e-14                 4e-14                 -6.52e-12             2.4e-13              
  -0.25                 -4e-14                1.4e-13               -2.74e-12             -4e-14               
  -0.2                  6e-14                 4.2e-13               -2.42e-12             1.6e-13              
  -0.15                 -4e-14                3e-13                 -2.3e-12              1.4e-13              
  -0.1                  0                     2.8e-13               -2.36e-12             8e-14                
  -0.05                 6e-14                 4e-13                 -3.18e-12             8e-14                
  0                     4e-14                 4.6e-13               -2.58e-12             1.4e-13              
  0.05                  2e-13                 1.8e-13               -1.78e-12             0                    
  0.1                   8.6e-13               6.2e-13               -2.18e-12             -7e-13               
  0.15                  4.1e-12               5e-13                 -3.16e-12             -3.92e-12            
  0.2                   2.014e-11             4e-13                 -2.78e-12             -1.996e-11           
  0.25                  9.828e-11             6e-13                 -1.78e-12             -9.81e-11            
  0.3                   4.7502e-10            6.8e-13               -1.38e-12             -4.7408e-10          
  0.35                  2.249e-09             4.4e-13               -1e-12                -2.2484e-09          
  0.4                   1.00106e-08           6.2e-13               -2.14e-12             -9.9938e-09          
  0.45                  3.9422e-08            5.2e-13               -2.26e-12             -3.9406e-08          
  0.5                   1.2624e-07            7e-13                 -1.3e-12              -1.2608e-07          
  0.55                  3.1274e-07            9.6e-13               -3.82e-12             -3.1258e-07          
  0.6                   6.2116e-07            1.02e-12              -2.34e-12             -6.2062e-07          
  0.65                  1.04526e-06           1.18e-12              -1.98e-12             -1.046e-06           
  0.7                   1.5866e-06            1.36e-12              -1.74e-12             -1.5828e-06          
  0.75                  2.2316e-06            1.78e-12              -2.2e-12              -2.2272e-06          
  0.8                   2.9682e-06            2.44e-12              -1.94e-12             -2.9644e-06          
  0.85                  3.777e-06             3.1e-12               -7e-13                -3.7734e-06          
  0.9                   4.631e-06             3.66e-12              -3.8e-13              -4.6276e-06          
  0.95                  5.5024e-06            4.68e-12              -1.76e-12             -5.4984e-06          
  1                     6.3994e-06            5.68e-12              -1.82e-12             -6.396e-06           
  1.05                  7.2928e-06            6.84e-12              -7.2e-13              -7.2892e-06          
  1.1                   8.092e-06             8.56e-12              -5.8e-13              -8.0876e-06          
  1.15                  8.9386e-06            1.012e-11             -1.96e-12             -8.9346e-06          
  1.2                   9.7504e-06            1.222e-11             -1.44e-12             -9.7464e-06          
  1.25                  1.05228e-05           1.464e-11             -1.12e-12             -1.05196e-05         
  1.3                   1.12556e-05           1.748e-11             -6.8e-13              -1.12538e-05         
  1.35                  1.1956e-05            2.068e-11             -1.92e-12             -1.1938e-05          
END_DB

BEGIN_DB
 ICCAP_VAR vb         -0.9           
 ICCAP_VAR vd         0.05           
 ICCAP_VAR vs         0              

 #vg                    id                    ig                    ib                    is                   
  -0.5                  2e-14                 -6.2e-13              -5.2e-12              1.4e-13              
  -0.45                 2e-14                 -1.2e-13              -5.22e-12             1.8e-13              
  -0.4                  4e-14                 -6e-14                -3.96e-12             1.2e-13              
  -0.35                 0                     -8e-14                -4.32e-12             1.4e-13              
  -0.3                  -4e-14                1e-13                 -4.76e-12             1.8e-13              
  -0.25                 2e-14                 6e-14                 -4.14e-12             2e-13                
  -0.2                  -2e-14                2.8e-13               -3.52e-12             1e-13                
  -0.15                 0                     3.6e-13               -2.76e-12             4e-14                
  -0.1                  6e-14                 3.6e-13               -3.88e-12             1.6e-13              
  -0.05                 0                     2e-13                 -3.74e-12             2e-14                
  0                     0                     4.2e-13               -3.6e-12              1.8e-13              
  0.05                  6e-14                 6.2e-13               -2.64e-12             6e-14                
  0.1                   2.8e-13               2.8e-13               -2.6e-12              -1.4e-13             
  0.15                  1.24e-12              5.6e-13               -2.88e-12             -1.14e-12            
  0.2                   6.22e-12              7e-13                 -3.02e-12             -6.02e-12            
  0.25                  3.1e-11               5.2e-13               -3.24e-12             -3.072e-11           
  0.3                   1.5362e-10            4.8e-13               -2.88e-12             -1.5358e-10          
  0.35                  7.5342e-10            6.8e-13               -1.86e-12             -7.5222e-10          
  0.4                   3.5654e-09            3.8e-13               -2.2e-12              -3.5604e-09          
  0.45                  1.5578e-08            5.4e-13               -2.92e-12             -1.5518e-08          
  0.5                   5.8334e-08            8e-13                 -2.52e-12             -5.8328e-08          
  0.55                  1.7274e-07            8.4e-13               -1.38e-12             -1.7258e-07          
  0.6                   3.9656e-07            9.8e-13               -2.44e-12             -3.962e-07           
  0.65                  7.4084e-07            1.38e-12              -3.02e-12             -7.413e-07           
  0.7                   1.2002e-06            1.36e-12              -1.78e-12             -1.1944e-06          
  0.75                  1.7656e-06            1.52e-12              -1.9e-12              -1.7626e-06          
  0.8                   2.4312e-06            2.28e-12              -2.22e-12             -2.4194e-06          
  0.85                  3.172e-06             3.08e-12              -2.18e-12             -3.1676e-06          
  0.9                   3.9808e-06            3.26e-12              -5.6e-13              -3.9774e-06          
  0.95                  4.8322e-06            4.58e-12              -2.32e-12             -4.8284e-06          
  1                     5.7104e-06            5.4e-12               -2.58e-12             -5.7064e-06          
  1.05                  6.5962e-06            6.76e-12              -2.74e-12             -6.5924e-06          
  1.1                   7.467e-06             8.24e-12              -1.1e-12              -7.4596e-06          
  1.15                  8.2534e-06            9.98e-12              -1.9e-12              -8.2486e-06          
  1.2                   9.0766e-06            1.202e-11             -2.44e-12             -9.0732e-06          
  1.25                  9.8646e-06            1.45e-11              -2.28e-12             -9.8602e-06          
  1.3                   1.06134e-05           1.71e-11              -1.4e-12              -1.06098e-05         
  1.35                  1.13208e-05           2.04e-11              -1.76e-12             -1.1317e-05          
END_DB

BEGIN_DB
 ICCAP_VAR vb         -1.2           
 ICCAP_VAR vd         0.05           
 ICCAP_VAR vs         0              

 #vg                    id                    ig                    ib                    is                   
  -0.5                  0                     -5.4e-13              -5.26e-12             1.2e-13              
  -0.45                 4e-14                 -8e-14                -5.96e-12             1.8e-13              
  -0.4                  4e-14                 1.2e-13               -6.16e-12             1.2e-13              
  -0.35                 0                     1.2e-13               -4.26e-12             0                    
  -0.3                  2e-14                 2.2e-13               -4.36e-12             2e-13                
