! VERSION = 6.00
BEGIN_HEADER
 ICCAP_INPUTS
  vd         V  D GROUND SMU1 0.1 LIN        1    0          1.35       28   0.05      
  vg         V  G GROUND SMU2 0.001 LIN        2    0.562      1.35       5    0.197     
  vb         V  B GROUND SMU4 0.1 CON        -1.2
  vs         V  S GROUND SMU3 0.1 CON        0
 ICCAP_OUTPUTS
  id         I  D GROUND SMU1 B
  ig         I  G GROUND SMU2 B
  ib         I  B GROUND SMU4 B
  is         I  S GROUND SMU3 B
 ICCAP_VALUES
  MASTER_SETUP_TYPE "~dc_idvd~"
  LINVT_VALUE "|idvg|100.0n|100.0m|1.000m|5|1.350|"
  LISTVT_VALUE ""
  TYPE "1"
  TEMP " 27.0000 "
  IS_TNOM " 1.00000 "
  MAIN.W "150.0n"
  MAIN.L "180.0n"
  MAIN.AD "100.5f"
  MAIN.AS "100.5f"
  MAIN.PD "1.340u"
  MAIN.PS "1.340u"
  MAIN.NF "1.000"
  MAIN.M "1"
  MAIN.NRD "0.000"
  MAIN.NRS "0.000"
  MAIN.LDRIFT1 "1E-06"
  MAIN.LDRIFT2 "1E-06"
  MAIN.SA "0.000"
  MAIN.SB "0.000"
  MAIN.SD "0.000"
  MAIN.SCA "0.000"
  MAIN.SCB "0.000"
  MAIN.SCC "0.000"
  MAIN.SC "0.000"
  MODULE "S547"
  PIN_D "20"
  PIN_G "1"
  PIN_S "2"
  PIN_B "19"
  PIN_E ""
  PIN_6 ""
  XY_ID ""
  FUNC "LW Scale"
  STI "SA ref"
  WPE "WPE ref"
  COMMENT ""
  DIS_MEAS ""
  TypeTCI "10"
END_HEADER

BEGIN_DB
 ICCAP_VAR vg         0.562          
 ICCAP_VAR vb         -1.2           
 ICCAP_VAR vs         0              

 #vd                    id                    ig                    ib                    is                   
  0                     1.0102e-09            5.4e-13               -1.442e-11            -8.384e-10           
  0.05                  3.76e-07              5.4e-13               -1.312e-11            -3.7586e-07          
  0.1                   5.4062e-07            4.8e-13               -1.324e-11            -5.4054e-07          
  0.15                  6.1566e-07            4.4e-13               -1.21e-11             -6.1552e-07          
  0.2                   6.5908e-07            4.6e-13               -1.044e-11            -6.5878e-07          
  0.25                  6.9274e-07            3.2e-13               -1.044e-11            -6.9276e-07          
  0.3                   7.2322e-07            3.2e-13               -1.032e-11            -7.2316e-07          
  0.35                  7.5232e-07            4e-13                 -9.84e-12             -7.5264e-07          
  0.4                   7.8172e-07            4.4e-13               -8.86e-12             -7.8142e-07          
  0.45                  8.11e-07              3.2e-13               -9.56e-12             -8.1096e-07          
  0.5                   8.4012e-07            4.2e-13               -9.34e-12             -8.4022e-07          
  0.55                  8.6912e-07            3.8e-13               -8.66e-12             -8.683e-07           
  0.6                   8.987e-07             4e-13                 -7.52e-12             -8.9886e-07          
  0.65                  9.2842e-07            3.4e-13               -7.68e-12             -9.287e-07           
  0.7                   9.592e-07             4.8e-13               -7.76e-12             -9.583e-07           
  0.75                  9.8878e-07            4.4e-13               -8.1e-12              -9.8866e-07          
  0.8                   1.01922e-06           3.8e-13               -6.52e-12             -1.01878e-06         
  0.85                  1.04922e-06           3.2e-13               -7.22e-12             -1.04932e-06         
  0.9                   1.08048e-06           3.4e-13               -6.98e-12             -1.08032e-06         
  0.95                  1.11074e-06           3.4e-13               -7.04e-12             -1.1115e-06          
  1                     1.14238e-06           3.2e-13               -5.5e-12              -1.1424e-06          
  1.05                  1.175e-06             3.4e-13               -5.64e-12             -1.1712e-06          
  1.1                   1.2062e-06            2.8e-13               -6.8e-12              -1.202e-06           
  1.15                  1.239e-06             3.8e-13               -8.16e-12             -1.2352e-06          
  1.2                   1.271e-06             3e-13                 -1.044e-11            -1.267e-06           
  1.25                  1.3028e-06            2.6e-13               -1.662e-11            -1.2996e-06          
  1.3                   1.3362e-06            1.8e-13               -2.662e-11            -1.3328e-06          
  1.35                  1.3694e-06            2.2e-13               -4.536e-11            -1.3656e-06          
END_DB

BEGIN_DB
 ICCAP_VAR vg         0.759          
 ICCAP_VAR vb         -1.2           
 ICCAP_VAR vs         0              

 #vd                    id                    ig                    ib                    is                   
  0                     3.3246e-09            1.86e-12              -2.8e-12              -3.0388e-09          
  0.05                  2.3462e-06            1.72e-12              -4.14e-12             -2.3414e-06          
  0.1                   4.0496e-06            1.46e-12              -3.96e-12             -4.046e-06           
  0.15                  5.2298e-06            1.3e-12               -4.02e-12             -5.226e-06           
  0.2                   6.0238e-06            1.28e-12              -4.32e-12             -6.0204e-06          
  0.25                  6.56e-06              1.3e-12               -3.84e-12             -6.5578e-06          
  0.3                   6.9392e-06            1.26e-12              -3.66e-12             -6.9344e-06          
  0.35                  7.2264e-06            1.16e-12              -4.08e-12             -7.2214e-06          
  0.4                   7.4608e-06            1.18e-12              -3e-12                -7.4574e-06          
  0.45                  7.6696e-06            1.08e-12              -3.28e-12             -7.6654e-06          
  0.5                   7.8624e-06            1.08e-12              -4.48e-12             -7.8572e-06          
  0.55                  8.0454e-06            1.12e-12              -3.22e-12             -8.0422e-06          
  0.6                   8.2228e-06            1.08e-12              -2.64e-12             -8.218e-06           
  0.65                  8.3936e-06            1.1e-12               -3.82e-12             -8.3926e-06          
  0.7                   8.5642e-06            1.12e-12              -3.08e-12             -8.5608e-06          
  0.75                  8.7322e-06            1.12e-12              -2.58e-12             -8.7268e-06          
  0.8                   8.8944e-06            1.16e-12              -3.48e-12             -8.8922e-06          
  0.85                  9.0586e-06            1.12e-12              -3.34e-12             -9.0534e-06          
  0.9                   9.2216e-06            1.12e-12              -2.64e-12             -9.215e-06           
  0.95                  9.3784e-06            1.1e-12               -7.18e-12             -9.3748e-06          
  1                     9.5368e-06            1.02e-12              -3.78e-12             -9.5316e-06          
  1.05                  9.694e-06             1.1e-12               -2.9e-12              -9.69e-06            
  1.1                   9.8486e-06            1.04e-12              -4.74e-12             -9.8448e-06          
  1.15                  1.00054e-05           1.12e-12              -7.48e-12             -1.00014e-05         
  1.2                   1.01576e-05           1e-12                 -1.166e-11            -1.01588e-05         
  1.25                  1.03146e-05           1.12e-12              -2.37e-11             -1.0309e-05          
  1.3                   1.04664e-05           1.06e-12              -4.622e-11            -1.0461e-05          
  1.35                  1.06222e-05           1.06e-12              -8.778e-11            -1.06152e-05         
END_DB

BEGIN_DB
 ICCAP_VAR vg         0.956          
 ICCAP_VAR vb         -1.2           
 ICCAP_VAR vs         0              

 #vd                    id                    ig                    ib                    is                   
  0                     3.6826e-09            5.5e-12               -1.88e-12             -5.1332e-09          
  0.05                  5.0818e-06            4.82e-12              7.6e-13               -5.0782e-06          
  0.1                   9.3622e-06            4.34e-12              -3.26e-12             -9.3602e-06          
  0.15                  1.285e-05             4.02e-12              -2.02e-12             -1.2832e-05          
  0.2                   1.5574e-05            3.8e-12               -2.86e-12             -1.5558e-05          
  0.25                  1.7658e-05            3.5e-12               -1.3e-12              -1.764e-05           
  0.3                   1.9206e-05            3.38e-12              -2.4e-12              -1.91e-05            
  0.35                  2.0288e-05            3.22e-12              -2.84e-12             -2.0272e-05          
  0.4                   2.1184e-05            3.06e-12              -1.84e-12             -2.1166e-05          
  0.45                  2.189e-05             3.08e-12              -2.14e-12             -2.1874e-05          
  0.5                   2.2476e-05            3e-12                 -2.86e-12             -2.2458e-05          
  0.55                  2.2976e-05            2.96e-12              -1.48e-12             -2.2954e-05          
  0.6                   2.3418e-05            3.04e-12              -2.16e-12             -2.3406e-05          
  0.65                  2.3832e-05            2.98e-12              -2.98e-12             -2.3812e-05          
  0.7                   2.4212e-05            2.92e-12              -1.44e-12             -2.4196e-05          
  0.75                  2.4578e-05            2.9e-12               -2.18e-12             -2.4562e-05          
  0.8                   2.4928e-05            2.88e-12              -2.12e-12             -2.491e-05           
  0.85                  2.5262e-05            2.92e-12              -9.2e-13              -2.5244e-05          
  0.9                   2.5592e-05            2.92e-12              -2.86e-12             -2.5574e-05          
  0.95                  2.5918e-05            2.84e-12              -2.7e-12              -2.5898e-05          
  1                     2.623e-05             2.94e-12              -2.04e-12             -2.6214e-05          
  1.05                  2.6538e-05            2.84e-12              -3.36e-12             -2.6524e-05          
  1.1                   2.6836e-05            2.76e-12              -4.54e-12             -2.682e-05           
  1.15                  2.7142e-05            2.78e-12              -7.44e-12             -2.7126e-05          
  1.2                   2.7436e-05            2.8e-12               -1.194e-11            -2.742e-05           
  1.25                  2.7728e-05            2.76e-12              -2.456e-11            -2.7712e-05          
  1.3                   2.802e-05             2.86e-12              -4.846e-11            -2.8006e-05          
  1.35                  2.8308e-05            2.76e-12              -9.726e-11            -2.8286e-05          
END_DB

BEGIN_DB
 ICCAP_VAR vg         1.153          
 ICCAP_VAR vb         -1.2           
 ICCAP_VAR vs         0              

 #vd                    id                    ig                    ib                    is                   
  0                     1.294e-08             1.33e-11              -1.54e-12             -1.2742e-08          
  0.05                  7.6266e-06            1.22e-11              -2.04e-12             -7.6226e-06          
  0.1                   1.4492e-05            1.116e-11             -2.26e-12             -1.4466e-05          
  0.15                  2.0474e-05            1.03e-11              -1.94e-12             -2.0442e-05          
  0.2                   2.5524e-05            9.58e-12              -1.56e-12             -2.5518e-05          
  0.25                  2.9738e-05            8.98e-12              -2.2e-12              -2.961e-05           
  0.3                   3.3078e-05            8.48e-12              -1.36e-12             -3.3104e-05          
  0.35                  3.5808e-05            8.08e-12              -1.3e-12              -3.5792e-05          
  0.4                   3.7924e-05            7.72e-12              -2.3e-12              -3.7898e-05          
  0.45                  3.9574e-05            7.5e-12               -1.92e-12             -3.9562e-05          
  0.5                   4.0894e-05            7.34e-12              -1.46e-12             -4.0878e-05          
  0.55                  4.196e-05             7.18e-12              -2.52e-12             -4.1954e-05          
  0.6                   4.2862e-05            7.1e-12               -1.92e-12             -4.2816e-05          
  0.65                  4.3588e-05            6.98e-12              -1.2e-12              -4.3602e-05          
  0.7                   4.427e-05             6.9e-12               -2.06e-12             -4.4254e-05          
  0.75                  4.49e-05              6.84e-12              -2.82e-12             -4.487e-05           
  0.8                   4.546e-05             6.78e-12              -1.14e-12             -4.5438e-05          
  0.85                  4.5992e-05            6.84e-12              -1.76e-12             -4.5954e-05          
  0.9                   4.6468e-05            6.74e-12              -2.26e-12             -4.6454e-05          
  0.95                  4.6952e-05            6.66e-12              -9e-13                -4.692e-05           
  1                     4.741e-05             6.56e-12              -2.38e-12             -4.7388e-05          
  1.05                  4.7852e-05            6.62e-12              -5.34e-12             -4.7832e-05          
  1.1                   4.829e-05             6.5e-12               -3.88e-12             -4.8278e-05          
  1.15                  4.8726e-05            6.48e-12              -6.98e-12             -4.8716e-05          
  1.2                   4.914e-05             6.5e-12               -1.206e-11            -4.9122e-05          
  1.25                  4.9554e-05            6.4e-12               -2.308e-11            -4.9538e-05          
  1.3                   4.9952e-05            6.36e-12              -4.69e-11             -4.9944e-05          
  1.35                  5.0354e-05            6.36e-12              -9.04e-11             -5.0338e-05          
END_DB

BEGIN_DB
 ICCAP_VAR vg         1.35           
 ICCAP_VAR vb         -1.2           
 ICCAP_VAR vs         0              

 #vd                    id                    ig                    ib                    is                   
  0                     1.5676e-08            2.89e-11              -9.2e-13              -1.5158e-08          
  0.05                  9.734e-06             2.66e-11              -2.24e-12             -9.7416e-06          
  0.1                   1.88e-05              2.454e-11             -1.7e-12              -1.8786e-05          
  0.15                  2.6996e-05            2.27e-11              -1.3e-12              -2.698e-05           
  0.2                   3.4248e-05            2.126e-11             -8e-13                -3.423e-05           
  0.25                  4.0536e-05            1.99e-11              -2e-12                -4.0516e-05          
  0.3                   4.5726e-05            1.87e-11              -3e-13                -4.5882e-05          
  0.35                  5.0354e-05            1.772e-11             -1.78e-12             -5.0344e-05          
  0.4                   5.405e-05             1.682e-11             -2.1e-12              -5.4036e-05          
  0.45                  5.7072e-05            1.636e-11             -1.18e-12             -5.7038e-05          
  0.5                   5.95e-05              1.568e-11             -1.78e-12             -5.947e-05           
  0.55                  6.1472e-05            1.53e-11              -2.62e-12             -6.1468e-05          
  0.6                   6.3082e-05            1.492e-11             -9.6e-13              -6.309e-05           
  0.65                  6.4416e-05            1.46e-11              -1.46e-12             -6.4398e-05          
  0.7                   6.5536e-05            1.446e-11             -1.94e-12             -6.5528e-05          
  0.75                  6.6522e-05            1.426e-11             -6.2e-13              -6.6494e-05          
  0.8                   6.7368e-05            1.41e-11              -1.2e-12              -6.7368e-05          
  0.85                  6.8142e-05            1.404e-11             -2.5e-12              -6.8126e-05          
  0.9                   6.8862e-05            1.39e-11              -4.4e-13              -6.8846e-05          
  0.95                  6.9518e-05            1.376e-11             -1.76e-12             -6.9494e-05          
  1                     7.0138e-05            1.372e-11             -2.64e-12             -7.0122e-05          
  1.05                  7.0734e-05            1.36e-11              -2.02e-12             -7.0712e-05          
  1.1                   7.1298e-05            1.358e-11             -3.3e-12              -7.1288e-05          
  1.15                  7.1848e-05            1.348e-11             -6.12e-12             -7.1828e-05          
  1.2                   7.2378e-05            1.342e-11             -1.058e-11            -7.2356e-05          
  1.25                  7.2894e-05            1.326e-11             -2.138e-11            -7.2874e-05          
  1.3                   7.339e-05             1.326e-11             -4.172e-11            -7.3384e-05          
  1.35                  7.3886e-05            1.314e-11             -7.856e-11            -7.3876e-05          
END_DB

