! VERSION = 6.00
BEGIN_HEADER
 ICCAP_INPUTS
  vd         V  D GROUND SMU1 0.1 LIN        1    0          1.35       28   0.05      
  vg         V  G GROUND SMU2 0.001 LIN        2    0.486      1.35       5    0.216     
  vb         V  B GROUND SMU4 0.1 CON        -1.2
  vs         V  S GROUND SMU3 0.1 CON        0
 ICCAP_OUTPUTS
  id         I  D GROUND SMU1 B
  ig         I  G GROUND SMU2 B
  ib         I  B GROUND SMU4 B
  is         I  S GROUND SMU3 B
 ICCAP_VALUES
  MASTER_SETUP_TYPE "~dc_idvd~"
  LINVT_VALUE "|idvg|100.0n|100.0m|1.000m|5|1.350|"
  LISTVT_VALUE ""
  TYPE "1"
  TEMP " 27.0000 "
  IS_TNOM " 1.00000 "
  MAIN.W "600.0n"
  MAIN.L "500.0n"
  MAIN.AD "204.0f"
  MAIN.AS "204.0f"
  MAIN.PD "1.880u"
  MAIN.PS "1.880u"
  MAIN.NF "1.000"
  MAIN.M "1"
  MAIN.NRD "0.000"
  MAIN.NRS "0.000"
  MAIN.LDRIFT1 "1E-06"
  MAIN.LDRIFT2 "1E-06"
  MAIN.SA "0.000"
  MAIN.SB "0.000"
  MAIN.SD "0.000"
  MAIN.SCA "0.000"
  MAIN.SCB "0.000"
  MAIN.SCC "0.000"
  MAIN.SC "0.000"
  MODULE "S543"
  PIN_D "14"
  PIN_G "7"
  PIN_S "8"
  PIN_B "13"
  PIN_E ""
  PIN_6 ""
  XY_ID ""
  FUNC "LW Scale"
  STI "SA ref"
  WPE "WPE ref"
  COMMENT ""
  DIS_MEAS ""
  TypeTCI "10"
END_HEADER

BEGIN_DB
 ICCAP_VAR vg         0.486          
 ICCAP_VAR vb         -1.2           
 ICCAP_VAR vs         0              

 #vd                    id                    ig                    ib                    is                   
  0                     1.5594e-09            2.82e-12              -1.456e-11            -1.14e-09            
  0.05                  5.531e-07             2.14e-12              -1.39e-11             -5.525e-07           
  0.1                   7.8326e-07            2.26e-12              -1.312e-11            -7.8332e-07          
  0.15                  8.9958e-07            2.2e-12               -1.256e-11            -8.9952e-07          
  0.2                   9.8168e-07            1.86e-12              -1.222e-11            -9.797e-07           
  0.25                  1.0471e-06            1.96e-12              -1.04e-11             -1.04648e-06         
  0.3                   1.1082e-06            1.86e-12              -1.122e-11            -1.10846e-06         
  0.35                  1.1664e-06            1.66e-12              -1.024e-11            -1.16494e-06         
  0.4                   1.22e-06              1.78e-12              -8.64e-12             -1.2162e-06          
  0.45                  1.2694e-06            1.54e-12              -9.72e-12             -1.2656e-06          
  0.5                   1.3144e-06            1.5e-12               -8.72e-12             -1.3104e-06          
  0.55                  1.3586e-06            1.24e-12              -8.2e-12              -1.355e-06           
  0.6                   1.4008e-06            1.36e-12              -8.18e-12             -1.397e-06           
  0.65                  1.4412e-06            1.52e-12              -7.8e-12              -1.44e-06            
  0.7                   1.4812e-06            1.48e-12              -6.66e-12             -1.4776e-06          
  0.75                  1.5194e-06            1.54e-12              -7.68e-12             -1.5172e-06          
  0.8                   1.555e-06             1.34e-12              -6.88e-12             -1.5504e-06          
  0.85                  1.5872e-06            1.16e-12              -6.38e-12             -1.5836e-06          
  0.9                   1.6192e-06            1.14e-12              -6.62e-12             -1.6152e-06          
  0.95                  1.6502e-06            1.2e-12               -6e-12                -1.6464e-06          
  1                     1.673e-06             1.4e-12               -6.16e-12             -1.6688e-06          
  1.05                  1.7e-06               1.2e-12               -7.24e-12             -1.7022e-06          
  1.1                   1.7328e-06            1.1e-12               -6.64e-12             -1.729e-06           
  1.15                  1.7586e-06            9.8e-13               -9.44e-12             -1.755e-06           
  1.2                   1.7838e-06            1.1e-12               -1.484e-11            -1.7796e-06          
  1.25                  1.8038e-06            9.8e-13               -2.178e-11            -1.7992e-06          
  1.3                   1.8258e-06            8.6e-13               -3.804e-11            -1.8254e-06          
  1.35                  1.8506e-06            8.8e-13               -6.464e-11            -1.8474e-06          
END_DB

BEGIN_DB
 ICCAP_VAR vg         0.702          
 ICCAP_VAR vb         -1.2           
 ICCAP_VAR vs         0              

 #vd                    id                    ig                    ib                    is                   
  0                     3.3676e-09            1.462e-11             -3.68e-12             -4.5256e-09          
  0.05                  4.2686e-06            1.27e-11              -4.02e-12             -4.2642e-06          
  0.1                   7.3862e-06            1.118e-11             -3.5e-12              -7.3832e-06          
  0.15                  9.482e-06             1.004e-11             -3.98e-12             -9.4798e-06          
  0.2                   1.08176e-05           9.34e-12              -4.12e-12             -1.08144e-05         
  0.25                  1.1694e-05            9.12e-12              -3.2e-12              -1.1679e-05          
  0.3                   1.2306e-05            8.6e-12               -3.44e-12             -1.2286e-05          
  0.35                  1.278e-05             8.66e-12              -2.22e-12             -1.2764e-05          
  0.4                   1.3182e-05            8.46e-12              -4.04e-12             -1.3166e-05          
  0.45                  1.355e-05             8.02e-12              -4.18e-12             -1.3524e-05          
  0.5                   1.3876e-05            8.06e-12              -2.6e-12              -1.3858e-05          
  0.55                  1.4198e-05            8.2e-12               -3.86e-12             -1.418e-05           
  0.6                   1.4496e-05            7.76e-12              -3.5e-12              -1.4472e-05          
  0.65                  1.4756e-05            7.42e-12              -2.6e-12              -1.4734e-05          
  0.7                   1.5026e-05            7.64e-12              -3.86e-12             -1.5008e-05          
  0.75                  1.5288e-05            7.8e-12               -3.62e-12             -1.527e-05           
  0.8                   1.5544e-05            7.52e-12              4.4e-13               -1.5528e-05          
  0.85                  1.5796e-05            7.22e-12              -3.54e-12             -1.5776e-05          
  0.9                   1.6038e-05            7.16e-12              -3.52e-12             -1.602e-05           
  0.95                  1.6272e-05            7.18e-12              -2.9e-12              -1.6256e-05          
  1                     1.6504e-05            7.08e-12              -3.4e-12              -1.6494e-05          
  1.05                  1.6732e-05            6.88e-12              -3.24e-12             -1.6718e-05          
  1.1                   1.695e-05             6.54e-12              -3.74e-12             -1.6932e-05          
  1.15                  1.7166e-05            6.88e-12              -5.58e-12             -1.7148e-05          
  1.2                   1.7376e-05            6.94e-12              -9.42e-12             -1.7352e-05          
  1.25                  1.7574e-05            6.6e-12               -1.99e-11             -1.7554e-05          
  1.3                   1.7772e-05            6.48e-12              -4.17e-11             -1.7754e-05          
  1.35                  1.7966e-05            6.58e-12              -8.596e-11            -1.7948e-05          
END_DB

BEGIN_DB
 ICCAP_VAR vg         0.918          
 ICCAP_VAR vb         -1.2           
 ICCAP_VAR vs         0              

 #vd                    id                    ig                    ib                    is                   
  0                     1.3712e-08            5.278e-11             -2.76e-12             -1.386e-08           
  0.05                  8.6636e-06            4.656e-11             -2.36e-12             -8.6564e-06          
  0.1                   1.625e-05             4.126e-11             -1.96e-12             -1.6234e-05          
  0.15                  2.2688e-05            3.734e-11             -3.2e-12              -2.2672e-05          
  0.2                   2.7948e-05            3.384e-11             -2.4e-12              -2.7932e-05          
  0.25                  3.2058e-05            3.13e-11              -2.02e-12             -3.204e-05           
  0.3                   3.513e-05             2.946e-11             -2.44e-12             -3.5114e-05          
  0.35                  3.737e-05             2.818e-11             -2.24e-12             -3.7354e-05          
  0.4                   3.9008e-05            2.734e-11             -2.4e-12              -3.899e-05           
  0.45                  4.024e-05             2.666e-11             -3.06e-12             -4.0224e-05          
  0.5                   4.1222e-05            2.602e-11             -1.64e-12             -4.1202e-05          
  0.55                  4.2042e-05            2.56e-11              -2.08e-12             -4.2022e-05          
  0.6                   4.275e-05             2.518e-11             -2.94e-12             -4.2736e-05          
  0.65                  4.3398e-05            2.494e-11             -1.78e-12             -4.3378e-05          
  0.7                   4.4002e-05            2.468e-11             -2.4e-12              -4.3986e-05          
  0.75                  4.457e-05             2.432e-11             -2.5e-12              -4.4548e-05          
  0.8                   4.5102e-05            2.416e-11             -1.46e-12             -4.5096e-05          
  0.85                  4.564e-05             2.39e-11              -2.38e-12             -4.5618e-05          
  0.9                   4.6144e-05            2.372e-11             -3.04e-12             -4.6128e-05          
  0.95                  4.6628e-05            2.356e-11             -1.38e-12             -4.6618e-05          
  1                     4.7102e-05            2.338e-11             -2.5e-12              -4.7092e-05          
  1.05                  4.7566e-05            2.31e-11              -2.62e-12             -4.7542e-05          
  1.1                   4.8014e-05            2.278e-11             -3.74e-12             -4.799e-05           
  1.15                  4.846e-05             2.296e-11             -3.36e-12             -4.8446e-05          
  1.2                   4.8888e-05            2.272e-11             -4.22e-12             -4.887e-05           
  1.25                  4.931e-05             2.234e-11             -6.06e-12             -4.9288e-05          
  1.3                   4.9716e-05            2.186e-11             -1.564e-11            -4.9696e-05          
  1.35                  5.0122e-05            2.166e-11             -3.29e-11             -5.0102e-05          
END_DB

BEGIN_DB
 ICCAP_VAR vg         1.134          
 ICCAP_VAR vb         -1.2           
 ICCAP_VAR vs         0              

 #vd                    id                    ig                    ib                    is                   
  0                     1.9216e-08            1.4418e-10            -1.32e-12             -1.8374e-08          
  0.05                  1.2302e-05            1.2994e-10            -2.26e-12             -1.2284e-05          
  0.1                   2.3706e-05            1.1766e-10            -5.6e-13              -2.3692e-05          
  0.15                  3.4134e-05            1.07e-10              -2.34e-12             -3.4118e-05          
  0.2                   4.3516e-05            9.774e-11             -1.5e-12              -4.3492e-05          
  0.25                  5.1776e-05            9.022e-11             -1.28e-12             -5.1764e-05          
  0.3                   5.8894e-05            8.396e-11             -2.02e-12             -5.8882e-05          
  0.35                  6.4816e-05            7.868e-11             -2.24e-12             -6.4814e-05          
  0.4                   6.9648e-05            7.45e-11              -8.6e-13              -6.9646e-05          
  0.45                  7.3448e-05            7.136e-11             -1.72e-12             -7.344e-05           
  0.5                   7.6382e-05            6.92e-11              -1.76e-12             -7.6372e-05          
  0.55                  7.8644e-05            6.72e-11              -1.44e-12             -7.8628e-05          
  0.6                   8.041e-05             6.572e-11             -2.28e-12             -8.0392e-05          
  0.65                  8.1836e-05            6.474e-11             -1.42e-12             -8.1816e-05          
  0.7                   8.3026e-05            6.36e-11              -1.78e-12             -8.3008e-05          
  0.75                  8.4054e-05            6.304e-11             -2.58e-12             -8.4038e-05          
  0.8                   8.4978e-05            6.24e-11              -1.6e-12              -8.4958e-05          
  0.85                  8.582e-05             6.168e-11             -1.82e-12             -8.5802e-05          
  0.9                   8.6618e-05            6.142e-11             -2.32e-12             -8.6604e-05          
  0.95                  8.7374e-05            6.062e-11             -8e-13                -8.736e-05           
  1                     8.809e-05             5.996e-11             -2.16e-12             -8.8068e-05          
  1.05                  8.8772e-05            5.972e-11             -1.72e-12             -8.8764e-05          
  1.1                   8.9444e-05            5.93e-11              -1.08e-12             -8.9436e-05          
  1.15                  9.0096e-05            5.894e-11             -1.92e-12             -9.0078e-05          
  1.2                   9.0722e-05            5.87e-11              -2.72e-12             -9.07e-05            
  1.25                  9.1328e-05            5.808e-11             -2.16e-12             -9.1312e-05          
  1.3                   9.1924e-05            5.788e-11             -5.6e-12              -9.1898e-05          
  1.35                  9.2506e-05            5.732e-11             -1.062e-11            -9.2476e-05          
END_DB

BEGIN_DB
 ICCAP_VAR vg         1.35           
 ICCAP_VAR vb         -1.2           
 ICCAP_VAR vs         0              

 #vd                    id                    ig                    ib                    is                   
  0                     2.3382e-08            3.3136e-10            -1.76e-12             -2.2322e-08          
  0.05                  1.5088e-05            3.0378e-10            0                     -1.507e-05           
  0.1                   2.9466e-05            2.7898e-10            -1.36e-12             -2.945e-05           
  0.15                  4.3044e-05            2.5662e-10            -2.32e-12             -4.3026e-05          
  0.2                   5.5732e-05            2.369e-10             -1.68e-12             -5.5714e-05          
  0.25                  6.7446e-05            2.1946e-10            -1.78e-12             -6.7436e-05          
  0.3                   7.8158e-05            2.0428e-10            -1.98e-12             -7.815e-05           
  0.35                  8.778e-05             1.9096e-10            -4.6e-13              -8.777e-05           
  0.4                   9.629e-05             1.7972e-10            -2.04e-12             -9.6272e-05          
  0.45                  0.000103656           1.703e-10             -2e-12                -0.00010364          
  0.5                   0.00010994            1.6224e-10            -8.6e-13              -0.000109914         
  0.55                  0.00011524            1.558e-10             -6.8e-13              -0.00011486          
  0.6                   0.00011946            1.5072e-10            -1.76e-12             -0.00011908          
  0.65                  0.00012288            1.4644e-10            -5e-13                -0.0001225           
  0.7                   0.00012558            1.435e-10             -1.36e-12             -0.00012518          
  0.75                  0.00012776            1.4104e-10            -2.12e-12             -0.00012734          
  0.8                   0.00012948            1.389e-10             -1.08e-12             -0.00012912          
  0.85                  0.000131              1.3718e-10            -1.56e-12             -0.00013058          
  0.9                   0.00013228            1.3552e-10            -1.58e-12             -0.0001319           
  0.95                  0.00013342            1.3452e-10            -7.2e-13              -0.00013304          
  1                     0.00013448            1.3348e-10            -1.98e-12             -0.00013406          
  1.05                  0.00013542            1.3238e-10            -1.38e-12             -0.00013504          
  1.1                   0.0001363             1.3144e-10            -7e-13                -0.00013594          
  1.15                  0.0001372             1.3054e-10            -1.58e-12             -0.0001368           
  1.2                   0.00013802            1.2966e-10            -1.64e-12             -0.00013764          
  1.25                  0.00013882            1.2872e-10            -1.32e-12             -0.00013842          
  1.3                   0.00013958            1.2818e-10            -2.74e-12             -0.0001392           
  1.35                  0.00014032            1.2728e-10            -3.18e-12             -0.00013992          
END_DB

