! VERSION = 6.00
BEGIN_HEADER
 ICCAP_INPUTS
  vd         V  D GROUND SMU1 0.1 LIN        1    0          1.35       28   0.05      
  vg         V  G GROUND SMU2 0.001 LIST       2 3 0.229 0.429 0.629
  vb         V  B GROUND SMU4 0.1 CON        -1.2
  vs         V  S GROUND SMU3 0.1 CON        0
 ICCAP_OUTPUTS
  id         I  D GROUND SMU1 B
  ig         I  G GROUND SMU2 B
  ib         I  B GROUND SMU4 B
  is         I  S GROUND SMU3 B
 ICCAP_VALUES
  MASTER_SETUP_TYPE "~dc_idvd~"
  LINVT_VALUE ""
  LISTVT_VALUE "|idvg|100.0n|-200.0m|1.000m|3|200.0m|200.0m|"
  TYPE "1"
  TEMP " 27.0000 "
  IS_TNOM " 1.00000 "
  MAIN.W "10.00u"
  MAIN.L "180.0n"
  MAIN.AD "3.400p"
  MAIN.AS "3.400p"
  MAIN.PD "20.68u"
  MAIN.PS "20.68u"
  MAIN.NF "1.000"
  MAIN.M "1"
  MAIN.NRD "0.000"
  MAIN.NRS "0.000"
  MAIN.LDRIFT1 "1E-06"
  MAIN.LDRIFT2 "1E-06"
  MAIN.SA "0.000"
  MAIN.SB "0.000"
  MAIN.SD "0.000"
  MAIN.SCA "0.000"
  MAIN.SCB "0.000"
  MAIN.SCC "0.000"
  MAIN.SC "0.000"
  MODULE "S540"
  PIN_D "12"
  PIN_G "9"
  PIN_S "10"
  PIN_B "11"
  PIN_E ""
  PIN_6 ""
  XY_ID ""
  FUNC "L Scale"
  STI "SA ref"
  WPE "WPE ref"
  COMMENT ""
  DIS_MEAS ""
  TypeTCI "10"
END_HEADER

BEGIN_DB
 ICCAP_VAR vg         0.229          
 ICCAP_VAR vb         -1.2           
 ICCAP_VAR vs         0              

 #vd                    id                    ig                    ib                    is                   
  0                     2.936e-11             2.6e-13               -6.16e-12             -1.946e-11           
  0.05                  5.883e-09             3.2e-13               -6.82e-12             -5.8812e-09          
  0.1                   7.2714e-09            2.4e-13               -5.84e-12             -7.2648e-09          
  0.15                  7.949e-09             1e-13                 -6.4e-12              -7.9466e-09          
  0.2                   8.521e-09             1.2e-13               -4.68e-12             -8.521e-09           
  0.25                  9.1002e-09            1.2e-13               -3.54e-12             -9.0958e-09          
  0.3                   9.6844e-09            1.2e-13               -5.56e-12             -9.6804e-09          
  0.35                  1.02826e-08           1.6e-13               -4.94e-12             -1.02808e-08         
  0.4                   1.09066e-08           1.4e-13               -4.92e-12             -1.09032e-08         
  0.45                  1.1548e-08            4e-14                 -4.36e-12             -1.1524e-08          
  0.5                   1.221e-08             -1.6e-13              -4.28e-12             -1.218e-08           
  0.55                  1.2886e-08            -1e-13                -3.4e-12              -1.2866e-08          
  0.6                   1.3588e-08            -2.2e-13              -1.92e-12             -1.357e-08           
  0.65                  1.4318e-08            -5.4e-13              -3.88e-12             -1.4288e-08          
  0.7                   1.5058e-08            -8.4e-13              -3.42e-12             -1.5042e-08          
  0.75                  1.5838e-08            -1.28e-12             -3.54e-12             -1.5812e-08          
  0.8                   1.6636e-08            -1.68e-12             -2.84e-12             -1.661e-08           
  0.85                  1.7458e-08            -2.08e-12             -3.04e-12             -1.7438e-08          
  0.9                   1.8328e-08            -2.88e-12             -3.78e-12             -1.8306e-08          
  0.95                  1.9214e-08            -3.44e-12             -3.48e-12             -1.9184e-08          
  1                     2.0128e-08            -4.34e-12             -3.06e-12             -2.01e-08            
  1.05                  2.1082e-08            -5.46e-12             -2.68e-12             -2.1046e-08          
  1.1                   2.2064e-08            -6.64e-12             -3.4e-12              -2.203e-08           
  1.15                  2.308e-08             -8.16e-12             -4.7e-12              -2.305e-08           
  1.2                   2.4128e-08            -9.9e-12              -5.06e-12             -2.4094e-08          
  1.25                  2.5218e-08            -1.186e-11            -4.58e-12             -2.5162e-08          
  1.3                   2.6334e-08            -1.416e-11            -7.98e-12             -2.6286e-08          
  1.35                  2.7518e-08            -1.674e-11            -8.52e-12             -2.7468e-08          
END_DB

BEGIN_DB
 ICCAP_VAR vg         0.429          
 ICCAP_VAR vb         -1.2           
 ICCAP_VAR vs         0              

 #vd                    id                    ig                    ib                    is                   
  0                     3.6868e-09            4.32e-12              -2.38e-12             -5.195e-09           
  0.05                  2.8164e-06            3.24e-12              -7.4e-13              -2.8102e-06          
  0.1                   3.6496e-06            2.86e-12              -2.56e-12             -3.6484e-06          
  0.15                  4.0404e-06            2.54e-12              -1.98e-12             -4.0354e-06          
  0.2                   4.333e-06             2.28e-12              -1.4e-12              -4.3288e-06          
  0.25                  4.6024e-06            2.32e-12              -2.28e-12             -4.5974e-06          
  0.3                   4.866e-06             2.4e-12               -2.18e-12             -4.862e-06           
  0.35                  5.128e-06             2.36e-12              -1.54e-12             -5.1218e-06          
  0.4                   5.3936e-06            2.36e-12              -2.36e-12             -5.3948e-06          
  0.45                  5.6536e-06            2.46e-12              -2.06e-12             -5.6492e-06          
  0.5                   5.9176e-06            2.26e-12              -4.6e-13              -5.9156e-06          
  0.55                  6.1916e-06            2.2e-12               -2.84e-12             -6.1862e-06          
  0.6                   6.4622e-06            2.36e-12              -2.18e-12             -6.4582e-06          
  0.65                  6.735e-06             2.14e-12              -1.9e-12              -6.7282e-06          
  0.7                   7.0108e-06            2.12e-12              -2.14e-12             -7.0072e-06          
  0.75                  7.289e-06             2.08e-12              -2.38e-12             -7.2842e-06          
  0.8                   7.5786e-06            1.7e-12               -7.8e-13              -7.5758e-06          
  0.85                  7.8618e-06            1.42e-12              -2.92e-12             -7.862e-06           
  0.9                   8.1574e-06            1.26e-12              -2.9e-12              -8.1504e-06          
  0.95                  8.4564e-06            9.2e-13               -2.24e-12             -8.4514e-06          
  1                     8.771e-06             6e-13                 -5.66e-12             -8.7576e-06          
  1.05                  9.0624e-06            -2e-14                -1.048e-11            -9.0552e-06          
  1.1                   9.3808e-06            -6.2e-13              -2.182e-11            -9.3712e-06          
  1.15                  9.7106e-06            -1.3e-12              -4.844e-11            -9.6784e-06          
  1.2                   1.00106e-05           -2.18e-12             -9.738e-11            -1.0003e-05          
  1.25                  1.03364e-05           -3.38e-12             -1.878e-10            -1.03512e-05         
  1.3                   1.06704e-05           -4.64e-12             -3.4328e-10           -1.0681e-05          
  1.35                  1.10124e-05           -6.12e-12             -5.9064e-10           -1.10074e-05         
END_DB

BEGIN_DB
 ICCAP_VAR vg         0.629          
 ICCAP_VAR vb         -1.2           
 ICCAP_VAR vs         0              

 #vd                    id                    ig                    ib                    is                   
  0                     2.4262e-07            3.336e-11             -1.46e-12             -1.3746e-07          
  0.05                  7.737e-05             2.752e-11             -8.2e-13              -7.733e-05           
  0.1                   0.00012352            2.366e-11             -1.02e-12             -0.00012318          
  0.15                  0.00014934            2.11e-11              -5.42e-12             -0.00014906          
  0.2                   0.00016428            1.964e-11             -1.52e-12             -0.00016396          
  0.25                  0.0001744             1.864e-11             -1.08e-12             -0.00017414          
  0.3                   0.00018204            1.782e-11             -2.74e-12             -0.00018166          
  0.35                  0.00018864            1.754e-11             -2.14e-12             -0.00018828          
  0.4                   0.00019464            1.738e-11             -1.26e-12             -0.0001943           
  0.45                  0.00020042            1.708e-11             -2.38e-12             -0.00020002          
  0.5                   0.00020606            1.686e-11             -1.76e-12             -0.00020566          
  0.55                  0.00021136            1.684e-11             -1.32e-12             -0.000211            
  0.6                   0.0002166             1.676e-11             -2.34e-12             -0.00021628          
  0.65                  0.0002219             1.656e-11             -1.08e-12             -0.00022152          
  0.7                   0.00022686            1.654e-11             -1.42e-12             -0.00022652          
  0.75                  0.00023202            1.63e-11              -2.9e-12              -0.00023166          
  0.8                   0.00023696            1.618e-11             -1.48e-12             -0.0002366           
  0.85                  0.00024212            1.608e-11             -1.5e-12              -0.00024166          
  0.9                   0.00024704            1.59e-11              -3.48e-12             -0.00024664          
  0.95                  0.00025192            1.566e-11             -3.44e-12             -0.00025166          
  1                     0.00025678            1.548e-11             -9.72e-12             -0.00025618          
  1.05                  0.0002616             1.522e-11             -2.434e-11            -0.00026122          
  1.1                   0.00026638            1.488e-11             -6.228e-11            -0.00026606          
  1.15                  0.00027136            1.45e-11              -1.5892e-10           -0.00027098          
  1.2                   0.00027624            1.398e-11             -3.7906e-10           -0.00027584          
  1.25                  0.00028104            1.354e-11             -8.468e-10            -0.00028074          
  1.3                   0.0002858             1.264e-11             -1.7716e-09           -0.0002855           
  1.35                  0.00029074            1.174e-11             -3.4686e-09           -0.00029046          
END_DB

