! VERSION = 6.00
BEGIN_HEADER
 ICCAP_INPUTS
  vd         V  D GROUND SMU1 0.1 LIN        1    0          1.35       28   0.05      
  vg         V  G GROUND SMU2 0.001 LIST       2 3 0.149 0.349 0.549
  vb         V  B GROUND SMU4 0.1 CON        -1.2
  vs         V  S GROUND SMU3 0.1 CON        0
 ICCAP_OUTPUTS
  id         I  D GROUND SMU1 B
  ig         I  G GROUND SMU2 B
  ib         I  B GROUND SMU4 B
  is         I  S GROUND SMU3 B
 ICCAP_VALUES
  MASTER_SETUP_TYPE "~dc_idvd~"
  LINVT_VALUE ""
  LISTVT_VALUE "|idvg|100.0n|-200.0m|1.000m|3|200.0m|200.0m|"
  TYPE "1"
  TEMP "-40.0000 "
  IS_TNOM " 0.00000 "
  MAIN.W "300.0n"
  MAIN.L "10.00u"
  MAIN.AD "102.0f"
  MAIN.AS "102.0f"
  MAIN.PD "1.280u"
  MAIN.PS "1.280u"
  MAIN.NF "1.000"
  MAIN.M "1"
  MAIN.NRD "0.000"
  MAIN.NRS "0.000"
  MAIN.LDRIFT1 "1E-06"
  MAIN.LDRIFT2 "1E-06"
  MAIN.SA "0.000"
  MAIN.SB "0.000"
  MAIN.SD "0.000"
  MAIN.SCA "0.000"
  MAIN.SCB "0.000"
  MAIN.SCC "0.000"
  MAIN.SC "0.000"
  MODULE "S545"
  PIN_D "18"
  PIN_G "3"
  PIN_S "4"
  PIN_B "17"
  PIN_E ""
  PIN_6 ""
  XY_ID ""
  FUNC "W Scale"
  STI "SA ref"
  WPE "WPE ref"
  COMMENT ""
  DIS_MEAS ""
  TypeTCI "10"
END_HEADER

BEGIN_DB
 ICCAP_VAR vg         0.149          
 ICCAP_VAR vb         -1.2           
 ICCAP_VAR vs         0              

 #vd                    id                    ig                    ib                    is                   
  0                     -8e-14                -1.8e-13              -3.86e-12             1.4e-13              
  0.05                  5.4e-13               -6e-14                -2.22e-12             -3.8e-13             
  0.1                   6.4e-13               -6e-14                -2.12e-12             -2e-13               
  0.15                  6.4e-13               -8e-14                -3.58e-12             -4.2e-13             
  0.2                   8.4e-13               -2e-14                -3.16e-12             -3.6e-13             
  0.25                  8.8e-13               -1e-13                -2.34e-12             -4.6e-13             
  0.3                   9.8e-13               -8e-14                -1.54e-12             -5e-13               
  0.35                  1.04e-12              -1.4e-13              -6.64e-12             -5.4e-13             
  0.4                   1.16e-12              -6e-14                -2.96e-12             -5.8e-13             
  0.45                  1.16e-12              -1e-13                -2.64e-12             -5e-13               
  0.5                   1.08e-12              -4e-14                -1.68e-12             -7e-13               
  0.55                  1.24e-12              -1e-13                -2.04e-12             -4.4e-13             
  0.6                   1.4e-12               -1.2e-13              -2.14e-12             -6.2e-13             
  0.65                  1.44e-12              -8e-14                -1.92e-12             -8.2e-13             
  0.7                   1.48e-12              -1.8e-13              -2.2e-12              -7.2e-13             
  0.75                  1.5e-12               -1e-13                -1.84e-12             -7.8e-13             
  0.8                   1.62e-12              -1.6e-13              -1.4e-12              -6.6e-13             
  0.85                  1.66e-12              -2.2e-13              4e-14                 -8.8e-13             
  0.9                   1.66e-12              -1.8e-13              -1.76e-12             -7.4e-13             
  0.95                  1.72e-12              -2.2e-13              -1.82e-12             -8e-13               
  1                     1.9e-12               -3.8e-13              -1.34e-12             -9.4e-13             
  1.05                  2.06e-12              -4.2e-13              -7e-13                -9.8e-13             
  1.1                   2.02e-12              -4.6e-13              -3.8e-13              -9.6e-13             
  1.15                  2.16e-12              -5.2e-13              -1.88e-12             -8.4e-13             
  1.2                   2.34e-12              -6.2e-13              -1.74e-12             -8.6e-13             
  1.25                  2.3e-12               -7.2e-13              -1.78e-12             -9.8e-13             
  1.3                   2.64e-12              -1e-12                -1.34e-12             -1.04e-12            
  1.35                  2.8e-12               -1.2e-12              -7.2e-13              -8e-13               
END_DB

BEGIN_DB
 ICCAP_VAR vg         0.349          
 ICCAP_VAR vb         -1.2           
 ICCAP_VAR vs         0              

 #vd                    id                    ig                    ib                    is                   
  0                     1.16e-12              5.12e-12              1e-13                 -6.32e-12            
  0.05                  1.5752e-09            4.3e-12               -9.6e-13              -1.578e-09           
  0.1                   1.9728e-09            4.12e-12              -4e-13                -1.9744e-09          
  0.15                  2.2072e-09            3.86e-12              3.96e-12              -2.2082e-09          
  0.2                   2.4164e-09            3.76e-12              -7.6e-13              -2.417e-09           
  0.25                  2.6158e-09            3.6e-12               -1.08e-12             -2.6188e-09          
  0.3                   2.8094e-09            3.48e-12              -2.3e-12              -2.8078e-09          
  0.35                  2.9902e-09            3.5e-12               -6.2e-13              -2.9934e-09          
  0.4                   3.1666e-09            3.24e-12              -1.2e-13              -3.1668e-09          
  0.45                  3.3322e-09            3.22e-12              -1e-13                -3.3332e-09          
  0.5                   3.4872e-09            3.02e-12              -1.92e-12             -3.4914e-09          
  0.55                  3.636e-09             3e-12                 -1.14e-12             -3.6378e-09          
  0.6                   3.7818e-09            2.82e-12              -1.06e-12             -3.7788e-09          
  0.65                  3.9046e-09            2.78e-12              -3.6e-13              -3.9076e-09          
  0.7                   4.0306e-09            2.7e-12               -6.8e-13              -4.0268e-09          
  0.75                  4.1472e-09            2.58e-12              -6.4e-13              -4.1442e-09          
  0.8                   4.244e-09             2.48e-12              -1.2e-12              -4.2464e-09          
  0.85                  4.348e-09             2.44e-12              -1.48e-12             -4.3406e-09          
  0.9                   4.4286e-09            2.16e-12              2.2e-13               -4.4348e-09          
  0.95                  4.5138e-09            2.2e-12               2e-13                 -4.5102e-09          
  1                     4.5882e-09            1.98e-12              -9e-13                -4.5898e-09          
  1.05                  4.662e-09             1.96e-12              -1.36e-12             -4.6512e-09          
  1.1                   4.718e-09             1.86e-12              -1.08e-12             -4.7162e-09          
  1.15                  4.7686e-09            1.7e-12               7e-13                 -4.7678e-09          
  1.2                   4.8254e-09            1.5e-12               -8e-13                -4.8256e-09          
  1.25                  4.8674e-09            1.32e-12              -1.42e-12             -4.859e-09           
  1.3                   4.9032e-09            1.18e-12              -9e-13                -4.8992e-09          
  1.35                  4.9354e-09            1.12e-12              -1.76e-12             -4.9404e-09          
END_DB

BEGIN_DB
 ICCAP_VAR vg         0.549          
 ICCAP_VAR vb         -1.2           
 ICCAP_VAR vs         0              

 #vd                    id                    ig                    ib                    is                   
  0                     1.44e-10              4.358e-11             6.66e-12              -1.8484e-10          
  0.05                  1.0746e-07            3.602e-11             -4.4e-13              -1.0736e-07          
  0.1                   1.6456e-07            3.23e-11              -8.2e-13              -1.6444e-07          
  0.15                  1.8596e-07            3.072e-11             5.2e-13               -1.8578e-07          
  0.2                   1.959e-07             3.004e-11             -1e-12                -1.958e-07           
  0.25                  2.0328e-07            2.954e-11             -1.16e-12             -2.0318e-07          
  0.3                   2.0974e-07            2.91e-11              -9.8e-13              -2.0964e-07          
  0.35                  2.1548e-07            2.86e-11              1e-13                 -2.155e-07           
  0.4                   2.2084e-07            2.844e-11             -8.4e-13              -2.2068e-07          
  0.45                  2.257e-07             2.812e-11             -1.12e-12             -2.257e-07           
  0.5                   2.3038e-07            2.758e-11             -4.6e-13              -2.3026e-07          
  0.55                  2.349e-07             2.74e-11              2e-13                 -2.348e-07           
  0.6                   2.3908e-07            2.702e-11             -7.8e-13              -2.3906e-07          
  0.65                  2.4312e-07            2.676e-11             -6.8e-13              -2.4306e-07          
  0.7                   2.4718e-07            2.652e-11             -7e-13                -2.4714e-07          
  0.75                  2.5106e-07            2.618e-11             -2.8e-13              -2.51e-07            
  0.8                   2.5476e-07            2.598e-11             -1.12e-12             -2.5464e-07          
  0.85                  2.5832e-07            2.572e-11             -1.28e-12             -2.583e-07           
  0.9                   2.6182e-07            2.546e-11             -1.1e-12              -2.6172e-07          
  0.95                  2.652e-07             2.532e-11             -1.2e-13              -2.6508e-07          
  1                     2.6844e-07            2.522e-11             -8.8e-13              -2.683e-07           
  1.05                  2.7152e-07            2.496e-11             -1.08e-12             -2.7144e-07          
  1.1                   2.7454e-07            2.462e-11             -8.4e-13              -2.7446e-07          
  1.15                  2.7738e-07            2.442e-11             -7.4e-13              -2.7728e-07          
  1.2                   2.7998e-07            2.426e-11             -1.24e-12             -2.7988e-07          
  1.25                  2.8262e-07            2.398e-11             -1.52e-12             -2.8254e-07          
  1.3                   2.857e-07             2.38e-11              -1.86e-12             -2.8572e-07          
  1.35                  2.8824e-07            2.352e-11             -2.36e-12             -2.8812e-07          
END_DB

