! VERSION = 6.00
BEGIN_HEADER
 ICCAP_INPUTS
  vd         V  D GROUND SMU1 0.1 LIN        1    0          1.35       28   0.05      
  vg         V  G GROUND SMU2 0.001 LIST       2 3 -0.014 0.186 0.386
  vb         V  B GROUND SMU4 0.1 CON        -1.2
  vs         V  S GROUND SMU3 0.1 CON        0
 ICCAP_OUTPUTS
  id         I  D GROUND SMU1 B
  ig         I  G GROUND SMU2 B
  ib         I  B GROUND SMU4 B
  is         I  S GROUND SMU3 B
 ICCAP_VALUES
  MASTER_SETUP_TYPE "~dc_idvd~"
  LINVT_VALUE ""
  LISTVT_VALUE "|idvg|100.0n|-200.0m|1.000m|3|200.0m|200.0m|"
  TYPE "1"
  TEMP " 125.000 "
  IS_TNOM " 0.00000 "
  MAIN.W "150.0n"
  MAIN.L "10.00u"
  MAIN.AD "100.5f"
  MAIN.AS "100.5f"
  MAIN.PD "1.340u"
  MAIN.PS "1.340u"
  MAIN.NF "1.000"
  MAIN.M "1"
  MAIN.NRD "0.000"
  MAIN.NRS "0.000"
  MAIN.LDRIFT1 "1E-06"
  MAIN.LDRIFT2 "1E-06"
  MAIN.SA "0.000"
  MAIN.SB "0.000"
  MAIN.SD "0.000"
  MAIN.SCA "0.000"
  MAIN.SCB "0.000"
  MAIN.SCC "0.000"
  MAIN.SC "0.000"
  MODULE "S547"
  PIN_D "16"
  PIN_G "5"
  PIN_S "6"
  PIN_B "15"
  PIN_E ""
  PIN_6 ""
  XY_ID ""
  FUNC "Narrow"
  STI "SA ref"
  WPE "WPE ref"
  COMMENT ""
  DIS_MEAS ""
  TypeTCI "10"
END_HEADER

BEGIN_DB
 ICCAP_VAR vg         -0.014         
 ICCAP_VAR vb         -1.2           
 ICCAP_VAR vs         0              

 #vd                    id                    ig                    ib                    is                   
  0                     8e-14                 -4.4e-13              -1.976e-11            3.6e-13              
  0.05                  8.44e-12              -2.4e-13              -1.86e-11             -7.72e-12            
  0.1                   1.04e-11              -3.2e-13              -1.746e-11            -9.56e-12            
  0.15                  1.094e-11             -3e-13                -1.586e-11            -1.012e-11           
  0.2                   1.14e-11              -3.4e-13              -1.446e-11            -1.022e-11           
  0.25                  1.15e-11              -2.8e-13              -1.326e-11            -1.042e-11           
  0.3                   1.154e-11             -1.6e-13              -1.352e-11            -1.058e-11           
  0.35                  1.2e-11               -2.4e-13              -1.262e-11            -1.052e-11           
  0.4                   1.18e-11              -1.2e-13              -1.224e-11            -1.062e-11           
  0.45                  1.222e-11             -3.2e-13              -1.158e-11            -1.044e-11           
  0.5                   1.236e-11             -1.6e-13              -1.068e-11            -1.072e-11           
  0.55                  1.242e-11             -3.4e-13              -1.144e-11            -1.066e-11           
  0.6                   1.234e-11             -3.6e-13              -1.026e-11            -1.054e-11           
  0.65                  1.256e-11             -3.4e-13              -1.014e-11            -1.078e-11           
  0.7                   1.252e-11             -6.2e-13              -1.06e-11             -1.09e-11            
  0.75                  1.266e-11             -5.2e-13              -9.26e-12             -1.086e-11           
  0.8                   1.298e-11             -7.2e-13              -8.82e-12             -1.088e-11           
  0.85                  1.322e-11             -7.6e-13              -8.96e-12             -1.092e-11           
  0.9                   1.308e-11             -8.2e-13              -9.34e-12             -1.1e-11             
  0.95                  1.348e-11             -8.4e-13              -9.4e-12              -1.1e-11             
  1                     1.338e-11             -1.04e-12             -7.7e-12              -1.128e-11           
  1.05                  1.374e-11             -1.14e-12             -8.22e-12             -1.11e-11            
  1.1                   1.38e-11              -1.3e-12              -7.44e-12             -1.114e-11           
  1.15                  1.422e-11             -1.42e-12             -8.34e-12             -1.114e-11           
  1.2                   1.438e-11             -1.6e-12              -8.64e-12             -1.124e-11           
  1.25                  1.452e-11             -1.76e-12             -8.9e-12              -1.094e-11           
  1.3                   1.452e-11             -1.9e-12              -7.58e-12             -1.118e-11           
  1.35                  1.508e-11             -2.02e-12             -6.3e-12              -1.108e-11           
END_DB

BEGIN_DB
 ICCAP_VAR vg         0.186          
 ICCAP_VAR vb         -1.2           
 ICCAP_VAR vs         0              

 #vd                    id                    ig                    ib                    is                   
  0                     1.98e-12              8.4e-13               -5.5e-12              -2.22e-12            
  0.05                  1.161e-09             3.8e-13               -6.7e-12              -1.1606e-09          
  0.1                   1.5058e-09            2.6e-13               -6.58e-12             -1.505e-09           
  0.15                  1.6084e-09            3.6e-13               -7.12e-12             -1.6066e-09          
  0.2                   1.6466e-09            2.4e-13               -5.44e-12             -1.645e-09           
  0.25                  1.6688e-09            3.6e-13               -5.36e-12             -1.667e-09           
  0.3                   1.6854e-09            2.2e-13               -7.54e-12             -1.6832e-09          
  0.35                  1.6992e-09            3.4e-13               -6.24e-12             -1.6982e-09          
  0.4                   1.7122e-09            2.8e-13               -6.4e-12              -1.7098e-09          
  0.45                  1.7234e-09            2.2e-13               -6.04e-12             -1.7218e-09          
  0.5                   1.7336e-09            3.8e-13               -5.4e-12              -1.7316e-09          
  0.55                  1.7428e-09            2.8e-13               -6.34e-12             -1.7412e-09          
  0.6                   1.7514e-09            1.6e-13               -6.18e-12             -1.7498e-09          
  0.65                  1.7592e-09            1.4e-13               -6.36e-12             -1.7568e-09          
  0.7                   1.7662e-09            1.4e-13               -6.18e-12             -1.7642e-09          
  0.75                  1.7724e-09            1e-13                 -5e-12                -1.7708e-09          
  0.8                   1.7788e-09            2e-14                 -5.92e-12             -1.7764e-09          
  0.85                  1.7844e-09            4e-14                 -6.16e-12             -1.7824e-09          
  0.9                   1.7892e-09            1e-13                 -6.26e-12             -1.7866e-09          
  0.95                  1.7942e-09            -2.4e-13              -6.16e-12             -1.7914e-09          
  1                     1.798e-09             -3.2e-13              -5.08e-12             -1.7952e-09          
  1.05                  1.8024e-09            -4.6e-13              -5.94e-12             -1.7998e-09          
  1.1                   1.8062e-09            -4.2e-13              -6.56e-12             -1.8034e-09          
  1.15                  1.8096e-09            -6e-13                -7.48e-12             -1.8068e-09          
  1.2                   1.813e-09             -7e-13                -6.78e-12             -1.81e-09            
  1.25                  1.8164e-09            -7.4e-13              -6.42e-12             -1.8122e-09          
  1.3                   1.8194e-09            -9.8e-13              -5.86e-12             -1.8158e-09          
  1.35                  1.8226e-09            -1.1e-12              -6.26e-12             -1.818e-09           
END_DB

BEGIN_DB
 ICCAP_VAR vg         0.386          
 ICCAP_VAR vb         -1.2           
 ICCAP_VAR vs         0              

 #vd                    id                    ig                    ib                    is                   
  0                     2.458e-11             8.94e-12              -4.24e-12             -3.51e-11            
  0.05                  2.1118e-08            7.08e-12              -6.48e-12             -2.111e-08           
  0.1                   3.4236e-08            5.78e-12              -5.08e-12             -3.423e-08           
  0.15                  4.0874e-08            5.22e-12              -4.8e-12              -4.0868e-08          
  0.2                   4.3658e-08            4.94e-12              -6.02e-12             -4.3648e-08          
  0.25                  4.483e-08             4.9e-12               -6.32e-12             -4.4832e-08          
  0.3                   4.5462e-08            4.8e-12               -5.94e-12             -4.5464e-08          
  0.35                  4.594e-08             4.72e-12              -4.72e-12             -4.593e-08           
  0.4                   4.6334e-08            4.82e-12              -5.34e-12             -4.6322e-08          
  0.45                  4.6676e-08            4.62e-12              -6.08e-12             -4.6672e-08          
  0.5                   4.701e-08             4.6e-12               -5.54e-12             -4.6992e-08          
  0.55                  4.73e-08              4.6e-12               -4.96e-12             -4.73e-08            
  0.6                   4.7578e-08            4.6e-12               -5.3e-12              -4.7578e-08          
  0.65                  4.7852e-08            4.54e-12              -6.32e-12             -4.7838e-08          
  0.7                   4.8084e-08            4.48e-12              -6.3e-12              -4.8076e-08          
  0.75                  4.8314e-08            4.38e-12              -4.42e-12             -4.8302e-08          
  0.8                   4.852e-08             4.46e-12              -5.28e-12             -4.8508e-08          
  0.85                  4.8702e-08            4.34e-12              -6.6e-12              -4.8702e-08          
  0.9                   4.8892e-08            4.42e-12              -5.26e-12             -4.889e-08           
  0.95                  4.9068e-08            4.32e-12              -4.88e-12             -4.9054e-08          
  1                     4.922e-08             4.22e-12              -4.64e-12             -4.9208e-08          
  1.05                  4.9368e-08            4.2e-12               -5.92e-12             -4.9358e-08          
  1.1                   4.951e-08             4.02e-12              -6.48e-12             -4.9496e-08          
  1.15                  4.9632e-08            4e-12                 -5.02e-12             -4.9628e-08          
  1.2                   4.9762e-08            3.88e-12              -7.36e-12             -4.975e-08           
  1.25                  4.9874e-08            3.7e-12               -7.4e-12              -4.986e-08           
  1.3                   4.9984e-08            3.7e-12               -8.46e-12             -4.997e-08           
  1.35                  5.0084e-08            3.54e-12              -9.28e-12             -5.0072e-08          
END_DB

