! VERSION = 6.00
BEGIN_HEADER
 ICCAP_INPUTS
  vd         V  D GROUND SMU1 0.1 LIN        1    0          1.35       28   0.05      
  vg         V  G GROUND SMU2 0.001 LIST       2 3 -0.051 0.149 0.349
  vb         V  B GROUND SMU4 0.1 CON        0
  vs         V  S GROUND SMU3 0.1 CON        0
 ICCAP_OUTPUTS
  id         I  D GROUND SMU1 B
  ig         I  G GROUND SMU2 B
  ib         I  B GROUND SMU4 B
  is         I  S GROUND SMU3 B
 ICCAP_VALUES
  MASTER_SETUP_TYPE "~dc_idvd~"
  LINVT_VALUE ""
  LISTVT_VALUE "|idvg|100.0n|-200.0m|1.000m|3|200.0m|200.0m|"
  TYPE "1"
  TEMP " 27.0000 "
  IS_TNOM " 1.00000 "
  MAIN.W "2.000u"
  MAIN.L "10.00u"
  MAIN.AD "680.0f"
  MAIN.AS "680.0f"
  MAIN.PD "4.680u"
  MAIN.PS "4.680u"
  MAIN.NF "1.000"
  MAIN.M "1"
  MAIN.NRD "0.000"
  MAIN.NRS "0.000"
  MAIN.LDRIFT1 "1E-06"
  MAIN.LDRIFT2 "1E-06"
  MAIN.SA "0.000"
  MAIN.SB "0.000"
  MAIN.SD "0.000"
  MAIN.SCA "0.000"
  MAIN.SCB "0.000"
  MAIN.SCC "0.000"
  MAIN.SC "0.000"
  MODULE "S543"
  PIN_D "20"
  PIN_G "1"
  PIN_S "2"
  PIN_B "19"
  PIN_E ""
  PIN_6 ""
  XY_ID ""
  FUNC "W Scale"
  STI "SA ref"
  WPE "WPE ref"
  COMMENT ""
  DIS_MEAS ""
  TypeTCI "10"
END_HEADER

BEGIN_DB
 ICCAP_VAR vg         -0.051         
 ICCAP_VAR vb         0              
 ICCAP_VAR vs         0              

 #vd                    id                    ig                    ib                    is                   
  0                     0                     -3.6e-13              1.68e-12              -1.2e-13             
  0.05                  3.118e-11             -2.8e-13              5e-13                 -3.052e-11           
  0.1                   3.686e-11             -3.8e-13              8.6e-13               -3.636e-11           
  0.15                  3.87e-11              -2.4e-13              -1.2e-13              -3.826e-11           
  0.2                   4.016e-11             -1.4e-13              6.4e-13               -3.934e-11           
  0.25                  4.122e-11             -2.6e-13              1.76e-12              -4.038e-11           
  0.3                   4.21e-11              -3.4e-13              9.2e-13               -4.126e-11           
  0.35                  4.324e-11             -4.6e-13              1.2e-13               -4.22e-11            
  0.4                   4.42e-11              -2.8e-13              6e-13                 -4.312e-11           
  0.45                  4.516e-11             -4.2e-13              1e-13                 -4.398e-11           
  0.5                   4.612e-11             -5.8e-13              1.38e-12              -4.472e-11           
  0.55                  4.686e-11             -7.4e-13              1.24e-12              -4.534e-11           
  0.6                   4.766e-11             -8.8e-13              5e-13                 -4.584e-11           
  0.65                  4.866e-11             -1e-12                6e-14                 -4.664e-11           
  0.7                   4.96e-11              -1.34e-12             6e-13                 -4.738e-11           
  0.75                  5.054e-11             -1.62e-12             9.4e-13               -4.794e-11           
  0.8                   5.132e-11             -1.84e-12             7.4e-13               -4.834e-11           
  0.85                  5.232e-11             -2.24e-12             2.4e-13               -4.91e-11            
  0.9                   5.332e-11             -2.7e-12              6e-13                 -4.944e-11           
  0.95                  5.434e-11             -3.32e-12             5.6e-13               -4.992e-11           
  1                     5.53e-11              -3.88e-12             5.6e-13               -5.028e-11           
  1.05                  5.626e-11             -4.52e-12             1.34e-12              -5.074e-11           
  1.1                   5.752e-11             -5.48e-12             3e-13                 -5.108e-11           
  1.15                  5.88e-11              -6.14e-12             -1e-12                -5.14e-11            
  1.2                   6e-11                 -7.08e-12             1.3e-12               -5.2e-11             
  1.25                  6.142e-11             -8.06e-12             1e-12                 -5.206e-11           
  1.3                   6.292e-11             -9.06e-12             1.66e-12              -5.266e-11           
  1.35                  6.438e-11             -1.038e-11            2e-14                 -5.266e-11           
END_DB

BEGIN_DB
 ICCAP_VAR vg         0.149          
 ICCAP_VAR vb         0              
 ICCAP_VAR vs         0              

 #vd                    id                    ig                    ib                    is                   
  0                     3.72e-11              3.36e-12              4.74e-12              -4.152e-11           
  0.05                  1.438e-08             2.48e-12              8.8e-13               -1.436e-08           
  0.1                   1.7536e-08            2.24e-12              6.2e-13               -1.7518e-08          
  0.15                  1.863e-08             2.06e-12              6.2e-13               -1.8618e-08          
  0.2                   1.9352e-08            2.02e-12              8.8e-13               -1.9374e-08          
  0.25                  2.0024e-08            2e-12                 2.6e-13               -1.9972e-08          
  0.3                   2.0558e-08            1.92e-12              2.2e-13               -2.0544e-08          
  0.35                  2.111e-08             1.78e-12              1.02e-12              -2.1082e-08          
  0.4                   2.1624e-08            1.74e-12              1.04e-12              -2.1598e-08          
  0.45                  2.2096e-08            1.7e-12               6.6e-13               -2.2082e-08          
  0.5                   2.2548e-08            1.64e-12              1.6e-13               -2.2564e-08          
  0.55                  2.3044e-08            1.6e-12               5e-13                 -2.2968e-08          
  0.6                   2.3396e-08            1.52e-12              1.44e-12              -2.3368e-08          
  0.65                  2.3764e-08            1.42e-12              7.4e-13               -2.3754e-08          
  0.7                   2.4172e-08            1.24e-12              1.2e-13               -2.418e-08           
  0.75                  2.454e-08             1.08e-12              5e-13                 -2.4524e-08          
  0.8                   2.4872e-08            9e-13                 6.4e-13               -2.4854e-08          
  0.85                  2.511e-08             6.4e-13               9.6e-13               -2.5096e-08          
  0.9                   2.5464e-08            4.6e-13               -2.4e-13              -2.5374e-08          
  0.95                  2.5668e-08            0                     -1.6e-13              -2.5646e-08          
  1                     2.5922e-08            -2.8e-13              8.8e-13               -2.5896e-08          
  1.05                  2.6234e-08            -7.6e-13              1.14e-12              -2.6218e-08          
  1.1                   2.646e-08             -1.24e-12             2.48e-12              -2.644e-08           
  1.15                  2.6592e-08            -1.72e-12             -4.6e-13              -2.657e-08           
  1.2                   2.6786e-08            -2.42e-12             -1.62e-12             -2.6766e-08          
  1.25                  2.7056e-08            -3.06e-12             -5.6e-13              -2.7018e-08          
  1.3                   2.7204e-08            -3.92e-12             -2.66e-12             -2.719e-08           
  1.35                  2.7302e-08            -4.7e-12              -4.74e-12             -2.7264e-08          
END_DB

BEGIN_DB
 ICCAP_VAR vg         0.349          
 ICCAP_VAR vb         0              
 ICCAP_VAR vs         0              

 #vd                    id                    ig                    ib                    is                   
  0                     8.093e-10             6.008e-11             7.2e-13               -8.8478e-10          
  0.05                  4.7428e-07            4.736e-11             1.32e-12              -4.7428e-07          
  0.1                   7.2238e-07            4.092e-11             3.6e-13               -7.2238e-07          
  0.15                  8.1574e-07            3.846e-11             2e-13                 -8.1572e-07          
  0.2                   8.5082e-07            3.756e-11             5.4e-13               -8.5084e-07          
  0.25                  8.7202e-07            3.708e-11             1.38e-12              -8.7116e-07          
  0.3                   8.8792e-07            3.66e-11              5.4e-13               -8.8764e-07          
  0.35                  9.0222e-07            3.628e-11             1.2e-13               -9.0224e-07          
  0.4                   9.1578e-07            3.588e-11             4e-14                 -9.1568e-07          
  0.45                  9.2834e-07            3.564e-11             1.34e-12              -9.283e-07           
  0.5                   9.4024e-07            3.532e-11             5.4e-13               -9.4034e-07          
  0.55                  9.5172e-07            3.5e-11               4e-14                 -9.5188e-07          
  0.6                   9.6274e-07            3.472e-11             -2.4e-13              -9.6268e-07          
  0.65                  9.7322e-07            3.446e-11             8e-13                 -9.7324e-07          
  0.7                   9.8332e-07            3.412e-11             -2e-13                -9.8316e-07          
  0.75                  9.929e-07             3.378e-11             1.4e-13               -9.929e-07           
  0.8                   1.00222e-06           3.358e-11             -4e-14                -1.0023e-06          
  0.85                  1.01114e-06           3.326e-11             4.8e-13               -1.01134e-06         
  0.9                   1.01982e-06           3.296e-11             5.6e-13               -1.01976e-06         
  0.95                  1.0281e-06            3.26e-11              -6.6e-13              -1.02816e-06         
  1                     1.03604e-06           3.228e-11             -2.4e-13              -1.03606e-06         
  1.05                  1.04376e-06           3.176e-11             6.4e-13               -1.0438e-06          
  1.1                   1.05118e-06           3.142e-11             -5.8e-13              -1.05134e-06         
  1.15                  1.05822e-06           3.096e-11             -2.12e-12             -1.05826e-06         
  1.2                   1.06512e-06           3.046e-11             -4.9e-12              -1.0651e-06          
  1.25                  1.07182e-06           2.98e-11              -1.086e-11            -1.07192e-06         
  1.3                   1.07824e-06           2.922e-11             -2.182e-11            -1.0783e-06          
  1.35                  1.0844e-06            2.86e-11              -3.838e-11            -1.08436e-06         
END_DB

