! VERSION = 6.00
BEGIN_HEADER
 ICCAP_INPUTS
  vd         V  D GROUND SMU1 0.1 LIN        1    0          1.35       28   0.05      
  vg         V  G GROUND SMU2 0.001 LIST       2 3 0.036 0.236 0.436
  vb         V  B GROUND SMU4 0.1 CON        0
  vs         V  S GROUND SMU3 0.1 CON        0
 ICCAP_OUTPUTS
  id         I  D GROUND SMU1 B
  ig         I  G GROUND SMU2 B
  ib         I  B GROUND SMU4 B
  is         I  S GROUND SMU3 B
 ICCAP_VALUES
  MASTER_SETUP_TYPE "~dc_idvd~"
  LINVT_VALUE ""
  LISTVT_VALUE "|idvg|100.0n|-200.0m|1.000m|3|200.0m|200.0m|"
  TYPE "1"
  TEMP " 27.0000 "
  IS_TNOM " 1.00000 "
  MAIN.W "10.00u"
  MAIN.L "500.0n"
  MAIN.AD "3.400p"
  MAIN.AS "3.400p"
  MAIN.PD "20.68u"
  MAIN.PS "20.68u"
  MAIN.NF "1.000"
  MAIN.M "1"
  MAIN.NRD "0.000"
  MAIN.NRS "0.000"
  MAIN.LDRIFT1 "1E-06"
  MAIN.LDRIFT2 "1E-06"
  MAIN.SA "0.000"
  MAIN.SB "0.000"
  MAIN.SD "0.000"
  MAIN.SCA "0.000"
  MAIN.SCB "0.000"
  MAIN.SCC "0.000"
  MAIN.SC "0.000"
  MODULE "S541"
  PIN_D "20"
  PIN_G "1"
  PIN_S "2"
  PIN_B "19"
  PIN_E ""
  PIN_6 ""
  XY_ID ""
  FUNC "L Scale"
  STI "SA ref"
  WPE "WPE ref"
  COMMENT ""
  DIS_MEAS ""
  TypeTCI "10"
END_HEADER

BEGIN_DB
 ICCAP_VAR vg         0.036          
 ICCAP_VAR vb         0              
 ICCAP_VAR vs         0              

 #vd                    id                    ig                    ib                    is                   
  0                     1.674e-11             -1.8e-13              1.64e-12              -1.138e-11           
  0.05                  3.5292e-09            -1.8e-13              1.22e-12              -3.5268e-09          
  0.1                   4.2352e-09            -1.2e-13              1.46e-12              -4.235e-09           
  0.15                  4.4956e-09            -2.4e-13              -4.4e-13              -4.492e-09           
  0.2                   4.6794e-09            -2.2e-13              4e-14                 -4.6746e-09          
  0.25                  4.8414e-09            -2.4e-13              7.4e-13               -4.8372e-09          
  0.3                   4.9948e-09            -3.8e-13              4.6e-13               -4.9904e-09          
  0.35                  5.1372e-09            -4.8e-13              1.22e-12              -5.1334e-09          
  0.4                   5.2766e-09            -6.2e-13              -1.8e-13              -5.2736e-09          
  0.45                  5.4096e-09            -7.6e-13              3.4e-13               -5.4054e-09          
  0.5                   5.5356e-09            -1.16e-12             -2.8e-13              -5.5314e-09          
  0.55                  5.657e-09             -1.6e-12              1.14e-12              -5.6486e-09          
  0.6                   5.7664e-09            -2e-12                6.8e-13               -5.7628e-09          
  0.65                  5.8756e-09            -2.68e-12             8e-14                 -5.868e-09           
  0.7                   5.9766e-09            -3.38e-12             -4.4e-13              -5.9686e-09          
  0.75                  6.0738e-09            -4.14e-12             2e-13                 -6.0672e-09          
  0.8                   6.1668e-09            -5.22e-12             1.44e-12              -6.158e-09           
  0.85                  6.2552e-09            -6.5e-12              9.4e-13               -6.2458e-09          
  0.9                   6.3392e-09            -7.72e-12             -6.2e-13              -6.328e-09           
  0.95                  6.419e-09             -9.26e-12             5.6e-13               -6.4068e-09          
  1                     6.4944e-09            -1.096e-11            1.46e-12              -6.483e-09           
  1.05                  6.5662e-09            -1.292e-11            9.6e-13               -6.5496e-09          
  1.1                   6.6366e-09            -1.52e-11             3.4e-13               -6.6172e-09          
  1.15                  6.6996e-09            -1.784e-11            2.86e-12              -6.6782e-09          
  1.2                   6.7666e-09            -2.054e-11            -1.4e-12              -6.7406e-09          
  1.25                  6.8246e-09            -2.374e-11            -9.6e-13              -6.7958e-09          
  1.3                   6.8798e-09            -2.738e-11            -8e-13                -6.848e-09           
  1.35                  6.9358e-09            -3.148e-11            -2.14e-12             -6.8962e-09          
END_DB

BEGIN_DB
 ICCAP_VAR vg         0.236          
 ICCAP_VAR vb         0              
 ICCAP_VAR vs         0              

 #vd                    id                    ig                    ib                    is                   
  0                     2.7778e-09            2.98e-12              6.8e-13               -3.4308e-09          
  0.05                  1.3222e-06            2.2e-12               1.58e-12              -1.3164e-06          
  0.1                   1.6562e-06            1.86e-12              6e-13                 -1.653e-06           
  0.15                  1.7858e-06            1.78e-12              6.6e-13               -1.7816e-06          
  0.2                   1.871e-06             1.66e-12              1.44e-12              -1.8672e-06          
  0.25                  1.9458e-06            1.68e-12              4.8e-13               -1.9424e-06          
  0.3                   2.0146e-06            1.66e-12              -3.8e-13              -2.011e-06           
  0.35                  2.0788e-06            1.6e-12               1.52e-12              -2.075e-06           
  0.4                   2.139e-06             1.54e-12              2e-13                 -2.1352e-06          
  0.45                  2.1948e-06            1.42e-12              -3.4e-13              -2.191e-06           
  0.5                   2.2494e-06            1.24e-12              1.02e-12              -2.2456e-06          
  0.55                  2.3006e-06            1.18e-12              2.6e-13               -2.2968e-06          
  0.6                   2.3492e-06            8.8e-13               -3.4e-13              -2.3452e-06          
  0.65                  2.395e-06             6.2e-13               1.42e-12              -2.391e-06           
  0.7                   2.438e-06             2.6e-13               4e-13                 -2.4336e-06          
  0.75                  2.4786e-06            -2.2e-13              6e-13                 -2.4752e-06          
  0.8                   2.5176e-06            -6.4e-13              7e-13                 -2.5134e-06          
  0.85                  2.5542e-06            -1.3e-12              -2e-13                -2.5506e-06          
  0.9                   2.5902e-06            -2.18e-12             -3e-13                -2.5856e-06          
  0.95                  2.6222e-06            -3e-12                2e-13                 -2.6184e-06          
  1                     2.6538e-06            -3.98e-12             -2.42e-12             -2.6506e-06          
  1.05                  2.6844e-06            -5.22e-12             -5.44e-12             -2.68e-06            
  1.1                   2.712e-06             -6.48e-12             -1.272e-11            -2.708e-06           
  1.15                  2.7392e-06            -8.16e-12             -2.708e-11            -2.7342e-06          
  1.2                   2.762e-06             -9.88e-12             -5.172e-11            -2.7604e-06          
  1.25                  2.7882e-06            -1.188e-11            -9.242e-11            -2.7838e-06          
  1.3                   2.8102e-06            -1.414e-11            -1.5846e-10           -2.8072e-06          
  1.35                  2.8312e-06            -1.668e-11            -2.5396e-10           -2.8276e-06          
END_DB

BEGIN_DB
 ICCAP_VAR vg         0.436          
 ICCAP_VAR vb         0              
 ICCAP_VAR vs         0              

 #vd                    id                    ig                    ib                    is                   
  0                     7.6184e-08            3.412e-11             4.4e-13               -7.0314e-08          
  0.05                  3.7824e-05            2.738e-11             -2e-13                -3.7798e-05          
  0.1                   5.8464e-05            2.356e-11             4e-13                 -5.8452e-05          
  0.15                  6.8454e-05            2.16e-11              6e-14                 -6.844e-05           
  0.2                   7.3558e-05            2.05e-11              0                     -7.3572e-05          
  0.25                  7.6768e-05            1.994e-11             3.8e-13               -7.6766e-05          
  0.3                   7.9304e-05            1.952e-11             4e-14                 -7.9288e-05          
  0.35                  8.1518e-05            1.91e-11              -4.8e-13              -8.1512e-05          
  0.4                   8.3566e-05            1.882e-11             8.4e-13               -8.3546e-05          
  0.45                  8.5448e-05            1.846e-11             2.8e-13               -8.5434e-05          
  0.5                   8.7272e-05            1.82e-11              -6e-13                -8.726e-05           
  0.55                  8.9014e-05            1.788e-11             9.8e-13               -8.9008e-05          
  0.6                   9.0702e-05            1.758e-11             2e-14                 -9.07e-05            
  0.65                  9.2344e-05            1.728e-11             -9.8e-13              -9.233e-05           
  0.7                   9.3916e-05            1.684e-11             3e-13                 -9.3882e-05          
  0.75                  9.5434e-05            1.66e-11              1.04e-12              -9.5424e-05          
  0.8                   9.6912e-05            1.61e-11              -7.4e-13              -9.6898e-05          
  0.85                  9.8362e-05            1.568e-11             2e-13                 -9.8346e-05          
  0.9                   9.979e-05             1.516e-11             -6e-13                -9.9762e-05          
  0.95                  0.000101174           1.446e-11             -1.76e-12             -0.000101144         
  1                     0.000102472           1.39e-11              -4.06e-12             -0.000102446         
  1.05                  0.000103766           1.298e-11             -1.446e-11            -0.00010375          
  1.1                   0.000105052           1.214e-11             -3.932e-11            -0.000105024         
  1.15                  0.000106282           1.118e-11             -1.0054e-10           -0.00010627          
  1.2                   0.000107502           9.9e-12               -2.3936e-10           -0.000107468         
  1.25                  0.00010867            8.52e-12              -5.249e-10            -0.000108636         
  1.3                   0.000109814           7.04e-12              -1.06504e-09          -0.000109788         
  1.35                  0.00011095            5.26e-12              -2.0212e-09           -0.0001107           
END_DB

