! VERSION = 6.00
BEGIN_HEADER
 ICCAP_INPUTS
  vd         V  D GROUND SMU1 0.1 LIN        1    0          1.35       28   0.05      
  vg         V  G GROUND SMU2 0.001 LIN        2    0.562      1.35       5    0.197     
  vb         V  B GROUND SMU4 0.1 CON        -1.2
  vs         V  S GROUND SMU3 0.1 CON        0
 ICCAP_OUTPUTS
  id         I  D GROUND SMU1 B
  ig         I  G GROUND SMU2 B
  ib         I  B GROUND SMU4 B
  is         I  S GROUND SMU3 B
 ICCAP_VALUES
  MASTER_SETUP_TYPE "~dc_idvd~"
  LINVT_VALUE "|idvg|100.0n|100.0m|1.000m|5|1.350|"
  LISTVT_VALUE ""
  TYPE "1"
  TEMP " 27.0000 "
  IS_TNOM " 1.00000 "
  MAIN.W "10.00u"
  MAIN.L "130.0n"
  MAIN.AD "3.400p"
  MAIN.AS "3.400p"
  MAIN.PD "20.68u"
  MAIN.PS "20.68u"
  MAIN.NF "1.000"
  MAIN.M "1"
  MAIN.NRD "0.000"
  MAIN.NRS "0.000"
  MAIN.LDRIFT1 "1E-06"
  MAIN.LDRIFT2 "1E-06"
  MAIN.SA "0.000"
  MAIN.SB "0.000"
  MAIN.SD "0.000"
  MAIN.SCA "0.000"
  MAIN.SCB "0.000"
  MAIN.SCC "0.000"
  MAIN.SC "0.000"
  MODULE "S540"
  PIN_D "18"
  PIN_G "3"
  PIN_S "4"
  PIN_B "17"
  PIN_E ""
  PIN_6 ""
  XY_ID ""
  FUNC "Short"
  STI "SA ref"
  WPE "WPE ref"
  COMMENT ""
  DIS_MEAS ""
  TypeTCI "10"
END_HEADER

BEGIN_DB
 ICCAP_VAR vg         0.562          
 ICCAP_VAR vb         -1.2           
 ICCAP_VAR vs         0              

 #vd                    id                    ig                    ib                    is                   
  0                     4.3568e-08            1.508e-11             -1.582e-11            -3.4108e-08          
  0.05                  1.8148e-05            1.244e-11             -1.328e-11            -1.8082e-05          
  0.1                   2.6802e-05            1.086e-11             -1.436e-11            -2.6824e-05          
  0.15                  3.219e-05             9.96e-12              -1.256e-11            -3.2146e-05          
  0.2                   3.6318e-05            9.28e-12              -1.128e-11            -3.6318e-05          
  0.25                  4.0072e-05            9.04e-12              -1.166e-11            -4.009e-05           
  0.3                   4.3842e-05            8.76e-12              -1.07e-11             -4.3798e-05          
  0.35                  4.7602e-05            8.78e-12              -9.86e-12             -4.7632e-05          
  0.4                   5.1494e-05            8.58e-12              -1.022e-11            -5.1588e-05          
  0.45                  5.5536e-05            8.66e-12              -9.4e-12              -5.5368e-05          
  0.5                   5.9496e-05            8.68e-12              -8.62e-12             -5.9612e-05          
  0.55                  6.3984e-05            8.56e-12              -9.56e-12             -6.3888e-05          
  0.6                   6.8316e-05            8.7e-12               -8.22e-12             -6.8358e-05          
  0.65                  7.2896e-05            8.58e-12              -8.26e-12             -7.3006e-05          
  0.7                   7.7864e-05            8.48e-12              -9.14e-12             -7.7648e-05          
  0.75                  8.2726e-05            8.68e-12              -7.08e-12             -8.2914e-05          
  0.8                   8.807e-05             8.4e-12               -7.82e-12             -8.7762e-05          
  0.85                  9.308e-05             8.48e-12              -8.94e-12             -9.3094e-05          
  0.9                   9.8554e-05            8.12e-12              -8.88e-12             -9.8714e-05          
  0.95                  0.00010445            8.08e-12              -1.316e-11            -0.000104442         
  1                     0.00011015            7.84e-12              -2.562e-11            -0.000110344         
  1.05                  0.00011652            7.18e-12              -5.866e-11            -0.000116396         
  1.1                   0.0001227             6.8e-12               -1.4098e-10           -0.0001225           
  1.15                  0.0001292             6.24e-12              -3.2858e-10           -0.0001287           
  1.2                   0.00013606            5.6e-12               -7.2804e-10           -0.0001354           
  1.25                  0.0001426             4.74e-12              -1.503e-09            -0.00014224          
  1.3                   0.00014958            3.7e-12               -2.9248e-09           -0.00014948          
  1.35                  0.00015678            2.28e-12              -5.365e-09            -0.00015642          
END_DB

BEGIN_DB
 ICCAP_VAR vg         0.759          
 ICCAP_VAR vb         -1.2           
 ICCAP_VAR vs         0              

 #vd                    id                    ig                    ib                    is                   
  0                     4.2392e-07            6.682e-11             -2.88e-12             -1.8078e-07          
  0.05                  0.0001602             5.754e-11             -4.08e-12             -0.00015984          
  0.1                   0.00027202            5.064e-11             -5e-12                -0.00027166          
  0.15                  0.00034876            4.568e-11             -3.52e-12             -0.0003483           
  0.2                   0.00040248            4.236e-11             -4.14e-12             -0.00040208          
  0.25                  0.00044262            3.994e-11             -4.32e-12             -0.00044224          
  0.3                   0.00047478            3.84e-11              -3.74e-12             -0.00047438          
  0.35                  0.00050238            3.744e-11             -4.36e-12             -0.000502            
  0.4                   0.00052746            3.67e-11              -3.78e-12             -0.000527            
  0.45                  0.00055082            3.626e-11             -3.3e-12              -0.00055036          
  0.5                   0.00057322            3.608e-11             -3.98e-12             -0.0005727           
  0.55                  0.00059502            3.556e-11             -3.54e-12             -0.00059478          
  0.6                   0.00061682            3.56e-11              -4.44e-12             -0.00061644          
  0.65                  0.00063826            3.542e-11             -5e-12                -0.00063778          
  0.7                   0.00065954            3.53e-11              -3.68e-12             -0.00065882          
  0.75                  0.00068066            3.528e-11             -3.6e-12              -0.0006803           
  0.8                   0.00070188            3.512e-11             -7.6e-13              -0.00070144          
  0.85                  0.00072294            3.514e-11             -5.76e-12             -0.00072262          
  0.9                   0.00074426            3.502e-11             -1.084e-11            -0.0007439           
  0.95                  0.00076554            3.472e-11             -2.318e-11            -0.00076512          
  1                     0.00078674            3.478e-11             -5.53e-11             -0.00078642          
  1.05                  0.00080818            3.44e-11              -1.4132e-10           -0.0008077           
  1.1                   0.0008296             3.43e-11              -3.487e-10            -0.00082902          
  1.15                  0.00085116            3.41e-11              -8.195e-10            -0.00085074          
  1.2                   0.00087268            3.372e-11             -1.8274e-09           -0.00087202          
  1.25                  0.00089414            3.31e-11              -3.8444e-09           -0.00089364          
  1.3                   0.000916              3.274e-11             -7.6484e-09           -0.0009157           
  1.35                  0.00093788            3.216e-11             -1.4418e-08           -0.00093732          
END_DB

BEGIN_DB
 ICCAP_VAR vg         0.956          
 ICCAP_VAR vb         -1.2           
 ICCAP_VAR vs         0              

 #vd                    id                    ig                    ib                    is                   
  0                     6.082e-07             2.0576e-10            -1.84e-12             -2.826e-08           
  0.05                  0.00038482            1.827e-10             -1.74e-12             -0.00038438          
  0.1                   0.00070078            1.6398e-10            -3.4e-12              -0.00070038          
  0.15                  0.0009477             1.489e-10             -2.02e-12             -0.00094736          
  0.2                   0.0011349             1.372e-10             -2.6e-12              -0.00113486          
  0.25                  0.001277              1.282e-10             -3.06e-12             -0.0012752           
  0.3                   0.0013838             1.214e-10             -3.28e-12             -0.0013824           
  0.35                  0.0014676             1.1666e-10            -1.32e-12             -0.0014658           
  0.4                   0.001535              1.1308e-10            -3.78e-12             -0.0015332           
  0.45                  0.0015918             1.105e-10             -3e-12                -0.0015902           
  0.5                   0.0016418             1.086e-10             -1.7e-12              -0.0016402           
  0.55                  0.001687              1.071e-10             -3.64e-12             -0.0016848           
  0.6                   0.001728              1.0588e-10            -2.58e-12             -0.0017266           
  0.65                  0.0017678             1.051e-10             -2.42e-12             -0.0017662           
  0.7                   0.0018056             1.0434e-10            -3.48e-12             -0.001804            
  0.75                  0.0018422             1.038e-10             -2.74e-12             -0.0018402           
  0.8                   0.0018778             1.032e-10             -4.66e-12             -0.001876            
  0.85                  0.0019122             1.028e-10             -1.008e-11            -0.0019108           
  0.9                   0.0019466             1.0232e-10            -1.908e-11            -0.0019448           
  0.95                  0.0019804             1.02e-10              -4.4e-11              -0.0019788           
  1                     0.0020138             1.0154e-10            -1.1216e-10           -0.0020118           
  1.05                  0.0020466             1.0104e-10            -2.6422e-10           -0.0020446           
  1.1                   0.0020788             1.0062e-10            -6.0712e-10           -0.002077            
  1.15                  0.002111              1.0034e-10            -1.3378e-09           -0.0021086           
  1.2                   0.0021426             1.0002e-10            -2.83e-09             -0.0021412           
  1.25                  0.0021748             9.946e-11             -5.7314e-09           -0.0021734           
  1.3                   0.002207              9.926e-11             -1.11174e-08          -0.0022048           
  1.35                  0.0022382             9.884e-11             -2.0644e-08           -0.0022362           
END_DB

BEGIN_DB
 ICCAP_VAR vg         1.153          
 ICCAP_VAR vb         -1.2           
 ICCAP_VAR vs         0              

 #vd                    id                    ig                    ib                    is                   
  0                     8.954e-07             4.9064e-10            -1.68e-12             6.412e-08            
  0.05                  0.00058474            4.4632e-10            -1.78e-12             -0.0005843           
  0.1                   0.00109998            4.0842e-10            -1.94e-12             -0.00109964          
  0.15                  0.0015344             3.7636e-10            -1.92e-12             -0.0015326           
  0.2                   0.0018862             3.4918e-10            -2.18e-12             -0.0018844           
  0.25                  0.002166              3.2674e-10            -1.66e-12             -0.0021642           
  0.3                   0.0023864             3.0848e-10            -2.28e-12             -0.0023848           
  0.35                  0.0025604             2.9374e-10            -2.42e-12             -0.0025586           
  0.4                   0.0026986             2.8228e-10            -1.68e-12             -0.0026966           
  0.45                  0.0028102             2.7316e-10            -3.2e-12              -0.002808            
  0.5                   0.002902              2.6608e-10            -2.66e-12             -0.0029004           
  0.55                  0.0029796             2.6054e-10            -1.02e-12             -0.0029778           
  0.6                   0.0030478             2.5628e-10            -2.94e-12             -0.003046            
  0.65                  0.0031086             2.5284e-10            -3.36e-12             -0.0031068           
  0.7                   0.0031638             2.5008e-10            -1.9e-12              -0.0031622           
  0.75                  0.003215              2.4764e-10            -3.86e-12             -0.0032136           
  0.8                   0.0032634             2.4574e-10            -6.2e-12              -0.0032616           
  0.85                  0.00331               2.4422e-10            -1.19e-11             -0.003308            
  0.9                   0.003354              2.4268e-10            -2.834e-11            -0.003352            
  0.95                  0.0033966             2.4138e-10            -7.02e-11             -0.0033948           
  1                     0.003439              2.4008e-10            -1.657e-10            -0.003437            
  1.05                  0.0034792             2.3908e-10            -3.783e-10            -0.0034772           
  1.1                   0.0035192             2.379e-10             -8.281e-10            -0.0035178           
  1.15                  0.0035588             2.37e-10              -1.7454e-09           -0.0035576           
  1.2                   0.0035976             2.3606e-10            -3.5448e-09           -0.0035956           
  1.25                  0.0036348             2.352e-10             -6.9274e-09           -0.003633            
  1.3                   0.003673              2.344e-10             -1.3072e-08           -0.0036708           
  1.35                  0.0037102             2.3356e-10            -2.3758e-08           -0.0037084           
END_DB

BEGIN_DB
 ICCAP_VAR vg         1.35           
 ICCAP_VAR vb         -1.2           
 ICCAP_VAR vs         0              

 #vd                    id                    ig                    ib                    is                   
  0                     1.0428e-06            1.0124e-09            -2.9e-12              -1.0792e-06          
  0.05                  0.00073804            9.3364e-10            -2.52e-12             -0.00073758          
  0.1                   0.0014138             8.651e-10             -2.14e-12             -0.0014118           
  0.15                  0.0020058             8.0526e-10            -3.14e-12             -0.0020038           
  0.2                   0.0025092             7.5342e-10            -1.7e-12              -0.0025074           
  0.25                  0.0029282             7.085e-10             -1.7e-12              -0.0029264           
  0.3                   0.003272              6.6978e-10            -2.44e-12             -0.0032706           
  0.35                  0.003552              6.3708e-10            -2.06e-12             -0.0035502           
  0.4                   0.0037794             6.1002e-10            -2.84e-12             -0.0037782           
  0.45                  0.0039656             5.8734e-10            -2.14e-12             -0.0039636           
  0.5                   0.0041174             5.6884e-10            -1.62e-12             -0.0041156           
  0.55                  0.0042444             5.5356e-10            -2.24e-12             -0.0042424           
  0.6                   0.0043514             5.4122e-10            -2.44e-12             -0.0043494           
  0.65                  0.0044432             5.3106e-10            -1.94e-12             -0.004442            
  0.7                   0.0045236             5.2276e-10            -3.18e-12             -0.0045216           
  0.75                  0.0045954             5.1596e-10            -3.74e-12             -0.0045934           
  0.8                   0.0046608             5.1032e-10            -6.4e-12              -0.0046588           
  0.85                  0.0047204             5.0546e-10            -1.574e-11            -0.0047196           
  0.9                   0.0047772             5.0156e-10            -3.74e-11             -0.0047758           
  0.95                  0.0048304             4.9774e-10            -8.656e-11            -0.0048284           
  1                     0.0048808             4.946e-10             -2.0244e-10           -0.004879            
  1.05                  0.00493               4.9174e-10            -4.4762e-10           -0.0049282           
  1.1                   0.0049766             4.8922e-10            -9.558e-10            -0.0049746           
  1.15                  0.005022              4.8706e-10            -1.9646e-09           -0.005021            
  1.2                   0.0050672             4.8474e-10            -3.8904e-09           -0.005065            
  1.25                  0.0051098             4.8278e-10            -7.4332e-09           -0.005108            
  1.3                   0.005152              4.8068e-10            -1.3744e-08           -0.0051506           
  1.35                  0.0051932             4.7872e-10            -2.4596e-08           -0.0051916           
END_DB

