! VERSION = 6.00
BEGIN_HEADER
 ICCAP_INPUTS
  vd         V  D GROUND SMU1 0.1 LIN        1    0          1.35       28   0.05      
  vg         V  G GROUND SMU2 0.001 LIN        2    0.262      1.35       5    0.272     
  vb         V  B GROUND SMU4 0.1 CON        0
  vs         V  S GROUND SMU3 0.1 CON        0
 ICCAP_OUTPUTS
  id         I  D GROUND SMU1 B
  ig         I  G GROUND SMU2 B
  ib         I  B GROUND SMU4 B
  is         I  S GROUND SMU3 B
 ICCAP_VALUES
  MASTER_SETUP_TYPE "~dc_idvd~"
  LINVT_VALUE "|idvg|100.0n|100.0m|1.000m|5|1.350|"
  LISTVT_VALUE ""
  TYPE "1"
  TEMP " 27.0000 "
  IS_TNOM " 1.00000 "
  MAIN.W "5.000u"
  MAIN.L "5.000u"
  MAIN.AD "1.700p"
  MAIN.AS "1.700p"
  MAIN.PD "10.68u"
  MAIN.PS "10.68u"
  MAIN.NF "1.000"
  MAIN.M "1"
  MAIN.NRD "0.000"
  MAIN.NRS "0.000"
  MAIN.LDRIFT1 "1E-06"
  MAIN.LDRIFT2 "1E-06"
  MAIN.SA "0.000"
  MAIN.SB "0.000"
  MAIN.SD "0.000"
  MAIN.SCA "0.000"
  MAIN.SCB "0.000"
  MAIN.SCC "0.000"
  MAIN.SC "0.000"
  MODULE "S542"
  PIN_D "18"
  PIN_G "3"
  PIN_S "4"
  PIN_B "17"
  PIN_E ""
  PIN_6 ""
  XY_ID ""
  FUNC "LW Scale"
  STI "SA ref"
  WPE "WPE ref"
  COMMENT ""
  DIS_MEAS ""
  TypeTCI "10"
END_HEADER

BEGIN_DB
 ICCAP_VAR vg         0.262          
 ICCAP_VAR vb         0              
 ICCAP_VAR vs         0              

 #vd                    id                    ig                    ib                    is                   
  0                     1.814e-09             2.556e-11             8.04e-12              -1.2668e-09          
  0.05                  7.0196e-07            1.976e-11             7.8e-12               -7.0202e-07          
  0.1                   9.296e-07             1.766e-11             7.32e-12              -9.2914e-07          
  0.15                  1.006e-06             1.7e-11               5.66e-12              -1.00582e-06         
  0.2                   1.04712e-06           1.654e-11             5.88e-12              -1.0473e-06          
  0.25                  1.0796e-06            1.622e-11             5.94e-12              -1.07966e-06         
  0.3                   1.10828e-06           1.614e-11             6.74e-12              -1.10828e-06         
  0.35                  1.13486e-06           1.566e-11             5.24e-12              -1.13514e-06         
  0.4                   1.1616e-06            1.544e-11             4.7e-12               -1.16062e-06         
  0.45                  1.1856e-06            1.524e-11             5.22e-12              -1.182e-06           
  0.5                   1.2082e-06            1.504e-11             4.82e-12              -1.2044e-06          
  0.55                  1.229e-06             1.472e-11             6.14e-12              -1.226e-06           
  0.6                   1.2498e-06            1.454e-11             4.52e-12              -1.2462e-06          
  0.65                  1.2698e-06            1.422e-11             4.24e-12              -1.2658e-06          
  0.7                   1.2882e-06            1.376e-11             4.98e-12              -1.2844e-06          
  0.75                  1.3066e-06            1.358e-11             4.14e-12              -1.303e-06           
  0.8                   1.324e-06             1.312e-11             4.3e-12               -1.3202e-06          
  0.85                  1.3406e-06            1.262e-11             4.7e-12               -1.3366e-06          
  0.9                   1.3568e-06            1.228e-11             4.02e-12              -1.353e-06           
  0.95                  1.3722e-06            1.158e-11             3.24e-12              -1.3684e-06          
  1                     1.3872e-06            1.096e-11             3.36e-12              -1.3834e-06          
  1.05                  1.4018e-06            1.03e-11              7.2e-13               -1.398e-06           
  1.1                   1.4156e-06            9.52e-12              -1.26e-12             -1.412e-06           
  1.15                  1.429e-06             8.52e-12              -5.76e-12             -1.425e-06           
  1.2                   1.4418e-06            7.54e-12              -1.614e-11            -1.4382e-06          
  1.25                  1.4544e-06            6.6e-12               -3.296e-11            -1.4504e-06          
  1.3                   1.4664e-06            5.2e-12               -5.872e-11            -1.4626e-06          
  1.35                  1.4778e-06            3.82e-12              -9.898e-11            -1.474e-06           
END_DB

BEGIN_DB
 ICCAP_VAR vg         0.534          
 ICCAP_VAR vb         0              
 ICCAP_VAR vs         0              

 #vd                    id                    ig                    ib                    is                   
  0                     1.0244e-08            3.8514e-10            2.46e-12              -9.928e-09           
  0.05                  6.2458e-06            3.1926e-10            1.78e-12              -6.2412e-06          
  0.1                   1.11936e-05           2.7164e-10            1.84e-12              -1.119e-05           
  0.15                  1.4774e-05            2.3974e-10            2.32e-12              -1.4756e-05          
  0.2                   1.6966e-05            2.211e-10             2.58e-12              -1.6948e-05          
  0.25                  1.8072e-05            2.1188e-10            1.66e-12              -1.8056e-05          
  0.3                   1.8604e-05            2.0756e-10            1.24e-12              -1.8582e-05          
  0.35                  1.891e-05             2.0504e-10            2.38e-12              -1.8894e-05          
  0.4                   1.9142e-05            2.031e-10             2.18e-12              -1.9124e-05          
  0.45                  1.934e-05             2.0158e-10            1.86e-12              -1.9324e-05          
  0.5                   1.9518e-05            2.002e-10             2.5e-12               -1.9502e-05          
  0.55                  1.9684e-05            1.989e-10             1.64e-12              -1.9666e-05          
  0.6                   1.9842e-05            1.976e-10             1.78e-12              -1.9824e-05          
  0.65                  1.9992e-05            1.9638e-10            2.32e-12              -1.9972e-05          
  0.7                   2.0132e-05            1.954e-10             1.78e-12              -2.0114e-05          
  0.75                  2.027e-05             1.9432e-10            1.66e-12              -2.025e-05           
  0.8                   2.0398e-05            1.9318e-10            1.92e-12              -2.0386e-05          
  0.85                  2.0524e-05            1.9226e-10            2e-12                 -2.0508e-05          
  0.9                   2.0646e-05            1.9118e-10            1.34e-12              -2.063e-05           
  0.95                  2.0762e-05            1.9028e-10            2.2e-12               -2.0746e-05          
  1                     2.0878e-05            1.8914e-10            1.22e-12              -2.086e-05           
  1.05                  2.0988e-05            1.8808e-10            1.02e-12              -2.097e-05           
  1.1                   2.1094e-05            1.8724e-10            2.08e-12              -2.1078e-05          
  1.15                  2.1198e-05            1.86e-10              -1.5e-12              -2.118e-05           
  1.2                   2.13e-05              1.8474e-10            -5.72e-12             -2.128e-05           
  1.25                  2.1394e-05            1.837e-10             -1.548e-11            -2.1378e-05          
  1.3                   2.1488e-05            1.8246e-10            -4.178e-11            -2.1476e-05          
  1.35                  2.1582e-05            1.8128e-10            -9.284e-11            -2.1564e-05          
END_DB

BEGIN_DB
 ICCAP_VAR vg         0.806          
 ICCAP_VAR vb         0              
 ICCAP_VAR vs         0              

 #vd                    id                    ig                    ib                    is                   
  0                     1.726e-08             2.3194e-09            3.1e-12               -1.8974e-08          
  0.05                  1.1848e-05            2.0212e-09            1.2e-12               -1.1832e-05          
  0.1                   2.2584e-05            1.7736e-09            4.4e-13               -2.2568e-05          
  0.15                  3.2166e-05            1.5724e-09            5.32e-12              -3.215e-05           
  0.2                   4.0532e-05            1.4104e-09            4.6e-13               -4.0516e-05          
  0.25                  4.7622e-05            1.2836e-09            9.2e-13               -4.7606e-05          
  0.3                   5.335e-05             1.1878e-09            2.58e-12              -5.3334e-05          
  0.35                  5.765e-05             1.1196e-09            7.6e-13               -5.7634e-05          
  0.4                   6.0536e-05            1.0758e-09            5.2e-13               -6.0518e-05          
  0.45                  6.2252e-05            1.0506e-09            2.04e-12              -6.2242e-05          
  0.5                   6.3232e-05            1.0362e-09            1.08e-12              -6.3218e-05          
  0.55                  6.3842e-05            1.0274e-09            8e-13                 -6.3828e-05          
  0.6                   6.4284e-05            1.021e-09             2.04e-12              -6.4268e-05          
  0.65                  6.4656e-05            1.0158e-09            1.64e-12              -6.4642e-05          
  0.7                   6.498e-05             1.0112e-09            1.06e-12              -6.4966e-05          
  0.75                  6.5286e-05            1.007e-09             1.54e-12              -6.527e-05           
  0.8                   6.5568e-05            1.0032e-09            1.24e-12              -6.5552e-05          
  0.85                  6.5834e-05            9.996e-10             3.4e-13               -6.581e-05           
  0.9                   6.6084e-05            9.948e-10             3e-13                 -6.6072e-05          
  0.95                  6.633e-05             9.9182e-10            7.4e-13               -6.6316e-05          
  1                     6.6564e-05            9.8814e-10            5.2e-13               -6.6552e-05          
  1.05                  6.679e-05             9.8528e-10            6.8e-13               -6.6774e-05          
  1.1                   6.7004e-05            9.823e-10             1.6e-12               -6.6986e-05          
  1.15                  6.7216e-05            9.7928e-10            4.6e-13               -6.72e-05            
  1.2                   6.742e-05             9.7644e-10            8.4e-13               -6.7402e-05          
  1.25                  6.7616e-05            9.7362e-10            1.1e-12               -6.76e-05            
  1.3                   6.781e-05             9.7058e-10            -1.12e-12             -6.7794e-05          
  1.35                  6.7986e-05            9.6828e-10            -3.34e-12             -6.7972e-05          
END_DB

BEGIN_DB
 ICCAP_VAR vg         1.078          
 ICCAP_VAR vb         0              
 ICCAP_VAR vs         0              

 #vd                    id                    ig                    ib                    is                   
  0                     2.1104e-08            8.8982e-09            1.58e-12              -2.8904e-08          
  0.05                  1.6318e-05            7.99e-09              1.06e-12              -1.6306e-05          
  0.1                   3.178e-05             7.1968e-09            8.2e-13               -3.177e-05           
  0.15                  4.6342e-05            6.5086e-09            1.58e-12              -4.633e-05           
  0.2                   5.9938e-05            5.9158e-09            1.8e-13               -5.9928e-05          
  0.25                  7.2534e-05            5.4088e-09            3.2e-13               -7.2522e-05          
  0.3                   8.4062e-05            4.9774e-09            1.06e-12              -8.4052e-05          
  0.35                  9.4468e-05            4.6162e-09            -3e-13                -9.4456e-05          
  0.4                   0.000103686           4.316e-09             8.4e-13               -0.000103674         
  0.45                  0.000111636           4.0728e-09            7.2e-13               -0.000111622         
  0.5                   0.0001184             3.8804e-09            5.4e-13               -0.000118            
  0.55                  0.00012362            3.7348e-09            1.28e-12              -0.00012324          
  0.6                   0.00012744            3.6332e-09            1.2e-13               -0.00012706          
  0.65                  0.00013               3.5666e-09            6e-13                 -0.00012962          
  0.7                   0.00013162            3.5246e-09            1.86e-12              -0.00013124          
  0.75                  0.00013264            3.4986e-09            7.4e-13               -0.00013228          
  0.8                   0.00013336            3.4804e-09            9.6e-13               -0.000133            
  0.85                  0.00013394            3.4656e-09            1.5e-12               -0.00013358          
  0.9                   0.00013444            3.4536e-09            2.8e-13               -0.00013406          
  0.95                  0.00013486            3.4428e-09            1.12e-12              -0.0001345           
  1                     0.00013528            3.4328e-09            1.16e-12              -0.0001349           
  1.05                  0.00013566            3.4234e-09            4.4e-13               -0.00013528          
  1.1                   0.00013602            3.4146e-09            1.66e-12              -0.00013566          
  1.15                  0.00013636            3.4064e-09            9.8e-13               -0.000136            
  1.2                   0.0001367             3.3982e-09            2.12e-12              -0.00013634          
  1.25                  0.00013702            3.3904e-09            8.8e-13               -0.00013664          
  1.3                   0.00013732            3.3826e-09            1.36e-12              -0.00013696          
  1.35                  0.00013762            3.3756e-09            1e-13                 -0.00013726          
END_DB

BEGIN_DB
 ICCAP_VAR vg         1.35           
 ICCAP_VAR vb         0              
 ICCAP_VAR vs         0              

 #vd                    id                    ig                    ib                    is                   
  0                     1.7546e-08            2.5888e-08            -2.382e-11            -4.2398e-08          
  0.05                  1.943e-05             2.3704e-08            -1.802e-11            -1.9434e-05          
  0.1                   3.827e-05             2.174e-08             -1.446e-11            -3.8276e-05          
  0.15                  5.6476e-05            1.9978e-08            -9.6e-12              -5.6478e-05          
  0.2                   7.3978e-05            1.8408e-08            -8.38e-12             -7.398e-05           
  0.25                  9.0752e-05            1.7012e-08            -6.38e-12             -9.0754e-05          
  0.3                   0.000106734           1.577e-08             -4.62e-12             -0.000106734         
  0.35                  0.000122              1.4676e-08            -1.68e-12             -0.00012164          
  0.4                   0.00013626            1.3712e-08            -3.24e-12             -0.00013588          
  0.45                  0.00014952            1.2874e-08            -3.76e-12             -0.00014916          
  0.5                   0.0001618             1.2144e-08            -3.4e-12              -0.00016144          
  0.55                  0.000173              1.1516e-08            -1.96e-12             -0.00017264          
  0.6                   0.00018308            1.0982e-08            -4.02e-12             -0.00018272          
  0.65                  0.00019194            1.0534e-08            -2.46e-12             -0.00019158          
  0.7                   0.00019954            1.017e-08             -1.52e-12             -0.00019916          
  0.75                  0.00020578            9.8752e-09            -3.6e-12              -0.00020542          
  0.8                   0.00021064            9.6592e-09            -3.18e-12             -0.00021028          
  0.85                  0.0002142             9.503e-09             -2.34e-12             -0.00021384          
  0.9                   0.00021666            9.3974e-09            -2.2e-12              -0.0002163           
  0.95                  0.0002183             9.3284e-09            -2.02e-12             -0.00021794          
  1                     0.00021944            9.2804e-09            -1.74e-12             -0.00021908          
  1.05                  0.00022028            9.2452e-09            -2.44e-12             -0.00021992          
  1.1                   0.00022098            9.2156e-09            -2.18e-12             -0.0002206           
  1.15                  0.00022156            9.1928e-09            -2.16e-12             -0.0002212           
  1.2                   0.0002221             9.1708e-09            -2.26e-12             -0.00022172          
  1.25                  0.00022258            9.1494e-09            -2.36e-12             -0.00022222          
  1.3                   0.00022304            9.13e-09              -1.28e-12             -0.00022268          
  1.35                  0.00022348            9.112e-09             -2.62e-12             -0.00022312          
END_DB

