! VERSION = 6.00
BEGIN_HEADER
 ICCAP_INPUTS
  vd         V  D GROUND SMU1 0.1 LIN        1    0          1.35       28   0.05      
  vg         V  G GROUND SMU2 0.001 LIN        2    0.354      1.35       5    0.249     
  vb         V  B GROUND SMU4 0.1 CON        -1.2
  vs         V  S GROUND SMU3 0.1 CON        0
 ICCAP_OUTPUTS
  id         I  D GROUND SMU1 B
  ig         I  G GROUND SMU2 B
  ib         I  B GROUND SMU4 B
  is         I  S GROUND SMU3 B
 ICCAP_VALUES
  MASTER_SETUP_TYPE "~dc_idvd~"
  LINVT_VALUE "|idvg|100.0n|100.0m|1.000m|5|1.350|"
  LISTVT_VALUE ""
  TYPE "1"
  TEMP " 27.0000 "
  IS_TNOM " 1.00000 "
  MAIN.W "5.000u"
  MAIN.L "10.00u"
  MAIN.AD "1.700p"
  MAIN.AS "1.700p"
  MAIN.PD "10.68u"
  MAIN.PS "10.68u"
  MAIN.NF "1.000"
  MAIN.M "1"
  MAIN.NRD "0.000"
  MAIN.NRS "0.000"
  MAIN.LDRIFT1 "1E-06"
  MAIN.LDRIFT2 "1E-06"
  MAIN.SA "0.000"
  MAIN.SB "0.000"
  MAIN.SD "0.000"
  MAIN.SCA "0.000"
  MAIN.SCB "0.000"
  MAIN.SCC "0.000"
  MAIN.SC "0.000"
  MODULE "S542"
  PIN_D "16"
  PIN_G "5"
  PIN_S "6"
  PIN_B "15"
  PIN_E ""
  PIN_6 ""
  XY_ID ""
  FUNC "W Scale"
  STI "SA ref"
  WPE "WPE ref"
  COMMENT ""
  DIS_MEAS ""
  TypeTCI "10"
END_HEADER

BEGIN_DB
 ICCAP_VAR vg         0.354          
 ICCAP_VAR vb         -1.2           
 ICCAP_VAR vs         0              

 #vd                    id                    ig                    ib                    is                   
  0                     7.0516e-10            1.1268e-10            -1.336e-11            -6.3888e-10          
  0.05                  3.5312e-07            8.888e-11             -1.224e-11            -3.5306e-07          
  0.1                   4.6978e-07            8.074e-11             -1.152e-11            -4.6974e-07          
  0.15                  5.1018e-07            7.78e-11              -1.192e-11            -5.1028e-07          
  0.2                   5.3352e-07            7.604e-11             -1.098e-11            -5.335e-07           
  0.25                  5.524e-07             7.452e-11             -1.044e-11            -5.5236e-07          
  0.3                   5.6922e-07            7.32e-11              -1.03e-11             -5.6902e-07          
  0.35                  5.8448e-07            7.2e-11               -1.01e-11             -5.8436e-07          
  0.4                   5.9872e-07            7.094e-11             -1e-11                -5.9874e-07          
  0.45                  6.1204e-07            6.998e-11             -8.7e-12              -6.1212e-07          
  0.5                   6.2452e-07            6.906e-11             -8.64e-12             -6.2456e-07          
  0.55                  6.3604e-07            6.822e-11             -9.08e-12             -6.3614e-07          
  0.6                   6.4696e-07            6.722e-11             -8.04e-12             -6.4686e-07          
  0.65                  6.5708e-07            6.644e-11             -7.48e-12             -6.5698e-07          
  0.7                   6.664e-07             6.572e-11             -7.92e-12             -6.665e-07           
  0.75                  6.7526e-07            6.486e-11             -8.58e-12             -6.7528e-07          
  0.8                   6.8344e-07            6.418e-11             -8.2e-12              -6.835e-07           
  0.85                  6.9122e-07            6.342e-11             -6.16e-12             -6.9124e-07          
  0.9                   6.983e-07             6.266e-11             -6.7e-12              -6.9834e-07          
  0.95                  7.049e-07             6.198e-11             -7.92e-12             -7.051e-07           
  1                     7.1124e-07            6.104e-11             -7.26e-12             -7.1124e-07          
  1.05                  7.1712e-07            6.038e-11             -6.68e-12             -7.171e-07           
  1.1                   7.2248e-07            5.948e-11             -8.22e-12             -7.2254e-07          
  1.15                  7.2752e-07            5.862e-11             -1.032e-11            -7.2758e-07          
  1.2                   7.3228e-07            5.762e-11             -1.418e-11            -7.323e-07           
  1.25                  7.367e-07             5.652e-11             -1.914e-11            -7.367e-07           
  1.3                   7.407e-07             5.54e-11              -3.026e-11            -7.4072e-07          
  1.35                  7.446e-07             5.428e-11             -4.782e-11            -7.4456e-07          
END_DB

BEGIN_DB
 ICCAP_VAR vg         0.603          
 ICCAP_VAR vb         -1.2           
 ICCAP_VAR vs         0              

 #vd                    id                    ig                    ib                    is                   
  0                     2.1496e-09            1.1722e-09            -4.04e-12             -2.8986e-09          
  0.05                  2.7048e-06            9.8016e-10            -3.14e-12             -2.7018e-06          
  0.1                   4.8374e-06            8.3918e-10            -4.94e-12             -4.8342e-06          
  0.15                  6.3718e-06            7.4244e-10            -4.64e-12             -6.3684e-06          
  0.2                   7.3026e-06            6.8612e-10            -3.1e-12              -7.2988e-06          
  0.25                  7.7494e-06            6.5926e-10            -4.64e-12             -7.7464e-06          
  0.3                   7.9526e-06            6.4744e-10            -4.2e-12              -7.9502e-06          
  0.35                  8.0732e-06            6.401e-10             -3.68e-12             -8.0698e-06          
  0.4                   8.1644e-06            6.3498e-10            -4.26e-12             -8.1616e-06          
  0.45                  8.244e-06             6.3016e-10            -3.72e-12             -8.2408e-06          
  0.5                   8.3164e-06            6.2614e-10            -2.88e-12             -8.313e-06           
  0.55                  8.3834e-06            6.221e-10             -3.64e-12             -8.3802e-06          
  0.6                   8.4456e-06            6.1864e-10            -3.5e-12              -8.4426e-06          
  0.65                  8.5042e-06            6.153e-10             -2.94e-12             -8.501e-06           
  0.7                   8.559e-06             6.1184e-10            -3.92e-12             -8.5558e-06          
  0.75                  8.611e-06             6.0892e-10            -3.26e-12             -8.6082e-06          
  0.8                   8.6604e-06            6.0604e-10            -3.14e-12             -8.6572e-06          
  0.85                  8.707e-06             6.0336e-10            -4.2e-12              -8.7038e-06          
  0.9                   8.7512e-06            6.0072e-10            -3.56e-12             -8.748e-06           
  0.95                  8.7932e-06            5.983e-10             -6.24e-12             -8.79e-06            
  1                     8.8332e-06            5.9576e-10            -4.26e-12             -8.83e-06            
  1.05                  8.871e-06             5.9356e-10            -3.54e-12             -8.868e-06           
  1.1                   8.9068e-06            5.915e-10             -3.02e-12             -8.9036e-06          
  1.15                  8.941e-06             5.8918e-10            -4.86e-12             -8.9376e-06          
  1.2                   8.9736e-06            5.871e-10             -5.74e-12             -8.97e-06            
  1.25                  9.0042e-06            5.8518e-10            -8.26e-12             -9.001e-06           
  1.3                   9.0334e-06            5.8316e-10            -1.72e-11             -9.0302e-06          
  1.35                  9.0612e-06            5.8134e-10            -3.426e-11            -9.0578e-06          
END_DB

BEGIN_DB
 ICCAP_VAR vg         0.852          
 ICCAP_VAR vb         -1.2           
 ICCAP_VAR vs         0              

 #vd                    id                    ig                    ib                    is                   
  0                     2.1068e-09            5.6808e-09            -2.26e-12             -5.8566e-09          
  0.05                  5.139e-06             4.9676e-09            -2.84e-12             -5.1396e-06          
  0.1                   9.7728e-06            4.3762e-09            -2.42e-12             -9.7732e-06          
  0.15                  1.3886e-05            3.8918e-09            -1.84e-12             -1.3872e-05          
  0.2                   1.744e-05             3.5026e-09            -2.72e-12             -1.7426e-05          
  0.25                  2.0424e-05            3.1966e-09            -2.96e-12             -2.041e-05           
  0.3                   2.281e-05             2.9654e-09            -2.08e-12             -2.2794e-05          
  0.35                  2.4564e-05            2.803e-09             -2e-12                -2.455e-05           
  0.4                   2.5692e-05            2.7018e-09            -2.42e-12             -2.568e-05           
  0.45                  2.6314e-05            2.6472e-09            -2.96e-12             -2.63e-05            
  0.5                   2.664e-05             2.619e-09             -2.22e-12             -2.6624e-05          
  0.55                  2.6842e-05            2.6016e-09            -3.52e-12             -2.6826e-05          
  0.6                   2.6992e-05            2.5884e-09            -3.32e-12             -2.6978e-05          
  0.65                  2.7122e-05            2.5774e-09            -1.92e-12             -2.7106e-05          
  0.7                   2.7238e-05            2.5672e-09            -3.06e-12             -2.7222e-05          
  0.75                  2.7342e-05            2.5582e-09            -2.76e-12             -2.733e-05           
  0.8                   2.7444e-05            2.55e-09              -1.28e-12             -2.743e-05           
  0.85                  2.7538e-05            2.542e-09             -2.8e-12              -2.752e-05           
  0.9                   2.7624e-05            2.5348e-09            -2.94e-12             -2.761e-05           
  0.95                  2.771e-05             2.5274e-09            -1e-12                -2.7694e-05          
  1                     2.7786e-05            2.5206e-09            -2.86e-12             -2.7772e-05          
  1.05                  2.7866e-05            2.5144e-09            -2.54e-12             -2.7852e-05          
  1.1                   2.7938e-05            2.5084e-09            -1.08e-12             -2.7924e-05          
  1.15                  2.8006e-05            2.5028e-09            -2.34e-12             -2.7992e-05          
  1.2                   2.8074e-05            2.4968e-09            -2.48e-12             -2.806e-05           
  1.25                  2.8138e-05            2.4916e-09            -1.9e-12              -2.8124e-05          
  1.3                   2.8198e-05            2.4864e-09            -2.84e-12             -2.8182e-05          
  1.35                  2.8256e-05            2.4814e-09            -4.5e-12              -2.8242e-05          
END_DB

BEGIN_DB
 ICCAP_VAR vg         1.101          
 ICCAP_VAR vb         -1.2           
 ICCAP_VAR vs         0              

 #vd                    id                    ig                    ib                    is                   
  0                     -1.6094e-10           1.9036e-08            -1.32e-12             -1.8192e-08          
  0.05                  7.1436e-06            1.711e-08             -2.58e-12             -7.1562e-06          
  0.1                   1.3902e-05            1.543e-08             -1.56e-12             -1.39e-05            
  0.15                  2.0228e-05            1.3974e-08            -2.58e-12             -2.0224e-05          
  0.2                   2.6098e-05            1.272e-08             -1.22e-12             -2.6094e-05          
  0.25                  3.1498e-05            1.1648e-08            -2.16e-12             -3.1494e-05          
  0.3                   3.6402e-05            1.074e-08             -2.48e-12             -3.6396e-05          
  0.35                  4.0782e-05            9.982e-09             -8e-13                -4.0776e-05          
  0.4                   4.462e-05             9.3522e-09            -2.6e-12              -4.4612e-05          
  0.45                  4.788e-05             8.8494e-09            -2.14e-12             -4.7872e-05          
  0.5                   5.0546e-05            8.4566e-09            -1.18e-12             -5.0538e-05          
  0.55                  5.2586e-05            8.1672e-09            -2.08e-12             -5.2576e-05          
  0.6                   5.3996e-05            7.973e-09             -2.58e-12             -5.3986e-05          
  0.65                  5.4858e-05            7.8568e-09            -1.08e-12             -5.485e-05           
  0.7                   5.535e-05             7.7912e-09            -2.16e-12             -5.5342e-05          
  0.75                  5.5654e-05            7.7508e-09            -2.88e-12             -5.5646e-05          
  0.8                   5.5872e-05            7.722e-09             -2.04e-12             -5.5864e-05          
  0.85                  5.605e-05             7.6984e-09            6.2e-13               -5.604e-05           
  0.9                   5.6208e-05            7.6778e-09            -2.38e-12             -5.6198e-05          
  0.95                  5.6348e-05            7.6594e-09            -1.3e-12              -5.634e-05           
  1                     5.6482e-05            7.6412e-09            -1.86e-12             -5.6476e-05          
  1.05                  5.6608e-05            7.625e-09             -2.84e-12             -5.66e-05            
  1.1                   5.6726e-05            7.6104e-09            -1.92e-12             -5.6718e-05          
  1.15                  5.6836e-05            7.5964e-09            -1.84e-12             -5.6828e-05          
  1.2                   5.6942e-05            7.5824e-09            -2.58e-12             -5.6932e-05          
  1.25                  5.7046e-05            7.5686e-09            -1.68e-12             -5.7036e-05          
  1.3                   5.7142e-05            7.5576e-09            -1.52e-12             -5.7132e-05          
  1.35                  5.7236e-05            7.545e-09             -2.54e-12             -5.7226e-05          
END_DB

BEGIN_DB
 ICCAP_VAR vg         1.35           
 ICCAP_VAR vb         -1.2           
 ICCAP_VAR vs         0              

 #vd                    id                    ig                    ib                    is                   
  0                     -1.402e-08            5.0562e-08            -4.848e-11            -3.617e-08           
  0.05                  8.5968e-06            4.6274e-08            -3.714e-11            -8.6392e-06          
  0.1                   1.6938e-05            4.2426e-08            -2.774e-11            -1.6962e-05          
  0.15                  2.496e-05             3.8986e-08            -2.222e-11            -2.4982e-05          
  0.2                   3.2642e-05            3.5924e-08            -1.744e-11            -3.266e-05           
  0.25                  3.9966e-05            3.3206e-08            -1.472e-11            -3.9982e-05          
  0.3                   4.6908e-05            3.0804e-08            -1.322e-11            -4.6922e-05          
  0.35                  5.344e-05             2.8692e-08            -1.146e-11            -5.3452e-05          
  0.4                   5.954e-05             2.6842e-08            -1.046e-11            -5.9552e-05          
  0.45                  6.5176e-05            2.5238e-08            -1.04e-11             -6.5184e-05          
  0.5                   7.0334e-05            2.3854e-08            -8.6e-12              -7.034e-05           
  0.55                  7.4988e-05            2.267e-08             -8.22e-12             -7.4994e-05          
  0.6                   7.911e-05             2.1676e-08            -8.86e-12             -7.9116e-05          
  0.65                  8.2672e-05            2.0856e-08            -7.98e-12             -8.2676e-05          
  0.7                   8.5644e-05            2.0198e-08            -7.8e-12              -8.565e-05           
  0.75                  8.8004e-05            1.9692e-08            -8.42e-12             -8.8008e-05          
  0.8                   8.9736e-05            1.933e-08             -7.42e-12             -8.9742e-05          
  0.85                  9.0896e-05            1.9092e-08            -7.38e-12             -9.09e-05            
  0.9                   9.1612e-05            1.8948e-08            -8.3e-12              -9.1614e-05          
  0.95                  9.205e-05             1.8858e-08            -6.06e-12             -9.2054e-05          
  1                     9.2354e-05            1.88e-08              -6.98e-12             -9.2354e-05          
  1.05                  9.2586e-05            1.8752e-08            -8.36e-12             -9.2588e-05          
  1.1                   9.2784e-05            1.8714e-08            -1.062e-11            -9.2786e-05          
  1.15                  9.296e-05             1.8678e-08            -6.12e-12             -9.2966e-05          
  1.2                   9.3124e-05            1.8644e-08            -7.76e-12             -9.3126e-05          
  1.25                  9.3276e-05            1.8616e-08            -7.58e-12             -9.328e-05           
  1.3                   9.3422e-05            1.8588e-08            -6.7e-12              -9.3422e-05          
  1.35                  9.3554e-05            1.8562e-08            -7.48e-12             -9.3558e-05          
END_DB

