! VERSION = 6.00
BEGIN_HEADER
 ICCAP_INPUTS
  vd         V  D GROUND SMU1 0.1 LIN        1    0          1.35       28   0.05      
  vg         V  G GROUND SMU2 0.001 LIST       2 3 0.136 0.336 0.536
  vb         V  B GROUND SMU4 0.1 CON        0
  vs         V  S GROUND SMU3 0.1 CON        0
 ICCAP_OUTPUTS
  id         I  D GROUND SMU1 B
  ig         I  G GROUND SMU2 B
  ib         I  B GROUND SMU4 B
  is         I  S GROUND SMU3 B
 ICCAP_VALUES
  MASTER_SETUP_TYPE "~dc_idvd~"
  LINVT_VALUE ""
  LISTVT_VALUE "|idvg|100.0n|-200.0m|1.000m|3|200.0m|200.0m|"
  TYPE "1"
  TEMP " 27.0000 "
  IS_TNOM " 1.00000 "
  MAIN.W "150.0n"
  MAIN.L "180.0n"
  MAIN.AD "100.5f"
  MAIN.AS "100.5f"
  MAIN.PD "1.340u"
  MAIN.PS "1.340u"
  MAIN.NF "1.000"
  MAIN.M "1"
  MAIN.NRD "0.000"
  MAIN.NRS "0.000"
  MAIN.LDRIFT1 "1E-06"
  MAIN.LDRIFT2 "1E-06"
  MAIN.SA "0.000"
  MAIN.SB "0.000"
  MAIN.SD "0.000"
  MAIN.SCA "0.000"
  MAIN.SCB "0.000"
  MAIN.SCC "0.000"
  MAIN.SC "0.000"
  MODULE "S547"
  PIN_D "20"
  PIN_G "1"
  PIN_S "2"
  PIN_B "19"
  PIN_E ""
  PIN_6 ""
  XY_ID ""
  FUNC "LW Scale"
  STI "SA ref"
  WPE "WPE ref"
  COMMENT ""
  DIS_MEAS ""
  TypeTCI "10"
END_HEADER

BEGIN_DB
 ICCAP_VAR vg         0.136          
 ICCAP_VAR vb         0              
 ICCAP_VAR vs         0              

 #vd                    id                    ig                    ib                    is                   
  0                     5e-13                 -1.6e-13              9.6e-13               -4.2e-13             
  0.05                  1.3844e-10            -1.6e-13              2e-14                 -1.3792e-10          
  0.1                   1.6326e-10            -1.2e-13              6.8e-13               -1.6276e-10          
  0.15                  1.7126e-10            -1.4e-13              6.2e-13               -1.705e-10           
  0.2                   1.765e-10             -4e-14                1.02e-12              -1.7592e-10          
  0.25                  1.8154e-10            -8e-14                1.3e-12               -1.8086e-10          
  0.3                   1.8644e-10            -6e-14                1.8e-13               -1.857e-10           
  0.35                  1.9156e-10            -1.4e-13              -2.6e-13              -1.908e-10           
  0.4                   1.9682e-10            -1.2e-13              -6e-13                -1.9586e-10          
  0.45                  2.0202e-10            -6e-14                1.9e-12               -2.011e-10           
  0.5                   2.0748e-10            0                     1.02e-12              -2.0624e-10          
  0.55                  2.1272e-10            2e-14                 5.4e-13               -2.1166e-10          
  0.6                   2.1824e-10            -6e-14                8.2e-13               -2.1732e-10          
  0.65                  2.2384e-10            -4e-14                -6e-14                -2.2284e-10          
  0.7                   2.2966e-10            -6e-14                1.64e-12              -2.2842e-10          
  0.75                  2.3532e-10            -1e-13                9.6e-13               -2.3434e-10          
  0.8                   2.4152e-10            -1.4e-13              6e-13                 -2.4032e-10          
  0.85                  2.4756e-10            -8e-14                1.8e-13               -2.4636e-10          
  0.9                   2.5408e-10            -1e-13                1.6e-13               -2.5264e-10          
  0.95                  2.6038e-10            -6e-14                9.2e-13               -2.593e-10           
  1                     2.6714e-10            -1.4e-13              9.2e-13               -2.6578e-10          
  1.05                  2.7324e-10            -1.6e-13              8.4e-13               -2.705e-10           
  1.1                   2.8096e-10            -2.6e-13              -6e-14                -2.7962e-10          
  1.15                  2.878e-10             -2.6e-13              8.2e-13               -2.8654e-10          
  1.2                   2.9548e-10            -2.8e-13              1.58e-12              -2.9426e-10          
  1.25                  3.0306e-10            -3.2e-13              5.6e-13               -3.0134e-10          
  1.3                   3.109e-10             -3.4e-13              3.6e-13               -3.0908e-10          
  1.35                  3.1868e-10            -4.8e-13              5.2e-13               -3.1678e-10          
END_DB

BEGIN_DB
 ICCAP_VAR vg         0.336          
 ICCAP_VAR vb         0              
 ICCAP_VAR vs         0              

 #vd                    id                    ig                    ib                    is                   
  0                     1.53e-10              1.8e-13               1.72e-12              -1.517e-10           
  0.05                  5.4964e-08            0                     7.2e-13               -5.4948e-08          
  0.1                   6.8142e-08            1e-13                 5.2e-13               -6.8142e-08          
  0.15                  7.2366e-08            1.2e-13               2.6e-13               -7.2358e-08          
  0.2                   7.4952e-08            1.2e-13               1.68e-12              -7.494e-08           
  0.25                  7.7204e-08            1.2e-13               3.4e-13               -7.7216e-08          
  0.3                   7.9466e-08            1.4e-13               -7.4e-13              -7.941e-08           
  0.35                  8.1642e-08            2e-14                 -3e-13                -8.1612e-08          
  0.4                   8.3822e-08            8e-14                 8.2e-13               -8.3828e-08          
  0.45                  8.6038e-08            1e-13                 9.2e-13               -8.604e-08           
  0.5                   8.8294e-08            8e-14                 3.8e-13               -8.8264e-08          
  0.55                  9.0572e-08            1e-13                 -1.6e-13              -9.0526e-08          
  0.6                   9.2854e-08            4e-14                 1.32e-12              -9.2856e-08          
  0.65                  9.5204e-08            1.8e-13               1.2e-12               -9.5152e-08          
  0.7                   9.758e-08             6e-14                 5.6e-13               -9.7582e-08          
  0.75                  1.00012e-07           1.4e-13               -1e-13                -9.9976e-08          
  0.8                   1.02472e-07           -2e-14                2.2e-13               -1.02468e-07         
  0.85                  1.05026e-07           8e-14                 1.38e-12              -1.0507e-07          
  0.9                   1.0761e-07            1.6e-13               2.4e-13               -1.0758e-07          
  0.95                  1.103e-07             0                     1.46e-12              -1.10234e-07         
  1                     1.1304e-07            -2e-14                -3.4e-13              -1.12972e-07         
  1.05                  1.1574e-07            4e-14                 -6e-14                -1.1566e-07          
  1.1                   1.186e-07             -4e-14                1e-13                 -1.1846e-07          
  1.15                  1.2134e-07            6e-14                 -5e-13                -1.2122e-07          
  1.2                   1.2424e-07            0                     -2.26e-12             -1.2416e-07          
  1.25                  1.272e-07             -2e-14                -4.66e-12             -1.2708e-07          
  1.3                   1.301e-07             -8e-14                -6.58e-12             -1.2996e-07          
  1.35                  1.3306e-07            -1.2e-13              -1.232e-11            -1.33e-07            
END_DB

BEGIN_DB
 ICCAP_VAR vg         0.536          
 ICCAP_VAR vb         0              
 ICCAP_VAR vs         0              

 #vd                    id                    ig                    ib                    is                   
  0                     2.1748e-09            4.8e-13               1.24e-12              -1.9718e-09          
  0.05                  1.2314e-06            4.4e-13               2.4e-13               -1.2272e-06          
  0.1                   1.9748e-06            3.6e-13               1.36e-12              -1.9712e-06          
  0.15                  2.3902e-06            4.2e-13               1.28e-12              -2.3866e-06          
  0.2                   2.616e-06             2.6e-13               -2e-13                -2.6118e-06          
  0.25                  2.7494e-06            3.4e-13               4.4e-13               -2.7456e-06          
  0.3                   2.8408e-06            3.6e-13               -1.2e-13              -2.8384e-06          
  0.35                  2.9164e-06            4.4e-13               -1.6e-13              -2.9124e-06          
  0.4                   2.9838e-06            3e-13                 -1.6e-13              -2.9798e-06          
  0.45                  3.0462e-06            3.4e-13               1.2e-13               -3.0424e-06          
  0.5                   3.1072e-06            3.4e-13               -5.4e-13              -3.1036e-06          
  0.55                  3.1666e-06            3.2e-13               9.4e-13               -3.1626e-06          
  0.6                   3.2248e-06            4.2e-13               9e-13                 -3.2204e-06          
  0.65                  3.281e-06             4.4e-13               6e-14                 -3.2768e-06          
  0.7                   3.3368e-06            2.6e-13               8e-13                 -3.334e-06           
  0.75                  3.393e-06             3e-13                 5.4e-13               -3.3884e-06          
  0.8                   3.4476e-06            3.8e-13               1.6e-13               -3.4442e-06          
  0.85                  3.503e-06             3.6e-13               1.16e-12              -3.4992e-06          
  0.9                   3.5564e-06            2.8e-13               2e-13                 -3.5544e-06          
  0.95                  3.6126e-06            2.4e-13               -4e-14                -3.6088e-06          
  1                     3.6666e-06            3.2e-13               9e-13                 -3.6626e-06          
  1.05                  3.721e-06             3.2e-13               -6.2e-13              -3.7178e-06          
  1.1                   3.7756e-06            2.8e-13               -2.16e-12             -3.7722e-06          
  1.15                  3.8296e-06            2.8e-13               -3.84e-12             -3.8264e-06          
  1.2                   3.8844e-06            3e-13                 -1.118e-11            -3.88e-06            
  1.25                  3.9372e-06            2.6e-13               -2.422e-11            -3.9338e-06          
  1.3                   3.9924e-06            2.4e-13               -4.67e-11             -3.9888e-06          
  1.35                  4.045e-06             2.2e-13               -8.862e-11            -4.0426e-06          
END_DB

