! VERSION = 6.00
BEGIN_HEADER
 ICCAP_INPUTS
  vd         V  D GROUND SMU1 0.1 LIN        1    0          1.35       28   0.05      
  vg         V  G GROUND SMU2 0.001 LIST       2 3 -0.066 0.134 0.334
  vb         V  B GROUND SMU4 0.1 CON        0
  vs         V  S GROUND SMU3 0.1 CON        0
 ICCAP_OUTPUTS
  id         I  D GROUND SMU1 B
  ig         I  G GROUND SMU2 B
  ib         I  B GROUND SMU4 B
  is         I  S GROUND SMU3 B
 ICCAP_VALUES
  MASTER_SETUP_TYPE "~dc_idvd~"
  LINVT_VALUE ""
  LISTVT_VALUE "|idvg|100.0n|-200.0m|1.000m|3|200.0m|200.0m|"
  TYPE "1"
  TEMP " 70.0000 "
  IS_TNOM " 0.00000 "
  MAIN.W "300.0n"
  MAIN.L "10.00u"
  MAIN.AD "102.0f"
  MAIN.AS "102.0f"
  MAIN.PD "1.280u"
  MAIN.PS "1.280u"
  MAIN.NF "1.000"
  MAIN.M "1"
  MAIN.NRD "0.000"
  MAIN.NRS "0.000"
  MAIN.LDRIFT1 "1E-06"
  MAIN.LDRIFT2 "1E-06"
  MAIN.SA "0.000"
  MAIN.SB "0.000"
  MAIN.SD "0.000"
  MAIN.SCA "0.000"
  MAIN.SCB "0.000"
  MAIN.SCC "0.000"
  MAIN.SC "0.000"
  MODULE "S545"
  PIN_D "18"
  PIN_G "3"
  PIN_S "4"
  PIN_B "17"
  PIN_E ""
  PIN_6 ""
  XY_ID ""
  FUNC "W Scale"
  STI "SA ref"
  WPE "WPE ref"
  COMMENT ""
  DIS_MEAS ""
  TypeTCI "10"
END_HEADER

BEGIN_DB
 ICCAP_VAR vg         -0.066         
 ICCAP_VAR vb         0              
 ICCAP_VAR vs         0              

 #vd                    id                    ig                    ib                    is                   
  0                     -1.6e-13              -3.2e-13              1.36e-12              1e-13                
  0.05                  9.5e-12               -3.8e-13              9.8e-13               -9.22e-12            
  0.1                   1.156e-11             -2.6e-13              2.04e-12              -1.126e-11           
  0.15                  1.254e-11             -3.8e-13              1.62e-12              -1.212e-11           
  0.2                   1.312e-11             -2.2e-13              2.6e-13               -1.256e-11           
  0.25                  1.338e-11             -2.2e-13              1.26e-12              -1.3e-11             
  0.3                   1.396e-11             -3.6e-13              1.48e-12              -1.336e-11           
  0.35                  1.442e-11             -1.8e-13              9.2e-13               -1.376e-11           
  0.4                   1.476e-11             -2.2e-13              2.06e-12              -1.416e-11           
  0.45                  1.516e-11             -3.2e-13              1.42e-12              -1.446e-11           
  0.5                   1.56e-11              -3e-13                5.6e-13               -1.476e-11           
  0.55                  1.584e-11             -3.6e-13              8.4e-13               -1.524e-11           
  0.6                   1.63e-11              -3.6e-13              8e-13                 -1.532e-11           
  0.65                  1.688e-11             -5.2e-13              2.7e-12               -1.578e-11           
  0.7                   1.708e-11             -5.6e-13              8.2e-13               -1.602e-11           
  0.75                  1.75e-11              -5.4e-13              6.8e-13               -1.638e-11           
  0.8                   1.798e-11             -6e-13                1.4e-13               -1.656e-11           
  0.85                  1.828e-11             -6.4e-13              9.8e-13               -1.69e-11            
  0.9                   1.868e-11             -8.2e-13              1.04e-12              -1.716e-11           
  0.95                  1.894e-11             -7.8e-13              1.28e-12              -1.736e-11           
  1                     1.942e-11             -9.4e-13              1e-12                 -1.764e-11           
  1.05                  1.976e-11             -1.12e-12             6e-14                 -1.796e-11           
  1.1                   2.018e-11             -1.26e-12             6.6e-13               -1.81e-11            
  1.15                  2.07e-11              -1.5e-12              9.8e-13               -1.85e-11            
  1.2                   2.096e-11             -1.62e-12             2.44e-12              -1.862e-11           
  1.25                  2.148e-11             -1.92e-12             -2e-14                -1.866e-11           
  1.3                   2.186e-11             -2.16e-12             6e-13                 -1.894e-11           
  1.35                  2.224e-11             -2.26e-12             1.6e-12               -1.912e-11           
END_DB

BEGIN_DB
 ICCAP_VAR vg         0.134          
 ICCAP_VAR vb         0              
 ICCAP_VAR vs         0              

 #vd                    id                    ig                    ib                    is                   
  0                     2.48e-12              6e-13                 2.58e-12              -3.76e-12            
  0.05                  1.9134e-09            3.8e-13               1.36e-12              -1.914e-09           
  0.1                   2.4102e-09            3.6e-13               3.6e-13               -2.4088e-09          
  0.15                  2.5984e-09            3.8e-13               6.6e-13               -2.5972e-09          
  0.2                   2.722e-09             3.8e-13               1.24e-12              -2.721e-09           
  0.25                  2.8306e-09            2.8e-13               5.8e-13               -2.8302e-09          
  0.3                   2.9332e-09            4e-13                 1.4e-12               -2.9322e-09          
  0.35                  3.0324e-09            2.4e-13               5.8e-13               -3.031e-09           
  0.4                   3.1278e-09            4e-13                 1.38e-12              -3.1264e-09          
  0.45                  3.22e-09              2.8e-13               1.1e-12               -3.219e-09           
  0.5                   3.3102e-09            3.2e-13               4.2e-13               -3.3086e-09          
  0.55                  3.399e-09             1e-13                 1.52e-12              -3.397e-09           
  0.6                   3.4846e-09            1.6e-13               2.4e-13               -3.482e-09           
  0.65                  3.5678e-09            1.8e-13               3e-13                 -3.5658e-09          
  0.7                   3.6484e-09            1e-13                 7.6e-13               -3.6464e-09          
  0.75                  3.7274e-09            1.6e-13               1.48e-12              -3.7254e-09          
  0.8                   3.8034e-09            4e-14                 1.54e-12              -3.801e-09           
  0.85                  3.8766e-09            2e-14                 5.2e-13               -3.875e-09           
  0.9                   3.9482e-09            0                     4.2e-13               -3.9466e-09          
  0.95                  4.0172e-09            -1.6e-13              2.6e-13               -4.0148e-09          
  1                     4.0828e-09            -6e-14                4.2e-13               -4.0808e-09          
  1.05                  4.1454e-09            -2.8e-13              1.14e-12              -4.1438e-09          
  1.1                   4.2064e-09            -3.8e-13              9.4e-13               -4.2036e-09          
  1.15                  4.2632e-09            -4.8e-13              8e-14                 -4.2602e-09          
  1.2                   4.3184e-09            -6e-13                -6.8e-13              -4.3156e-09          
  1.25                  4.3706e-09            -7.8e-13              -6e-14                -4.367e-09           
  1.3                   4.4202e-09            -9.6e-13              6.8e-13               -4.4154e-09          
  1.35                  4.4676e-09            -1.04e-12             -2.6e-13              -4.4618e-09          
END_DB

BEGIN_DB
 ICCAP_VAR vg         0.334          
 ICCAP_VAR vb         0              
 ICCAP_VAR vs         0              

 #vd                    id                    ig                    ib                    is                   
  0                     6.994e-11             9.88e-12              1.86e-12              -7.614e-11           
  0.05                  5.6874e-08            8e-12                 8.6e-13               -5.6874e-08          
  0.1                   8.4238e-08            7.02e-12              1.64e-12              -8.424e-08           
  0.15                  9.4664e-08            6.64e-12              5e-13                 -9.466e-08           
  0.2                   9.9098e-08            6.52e-12              2.2e-13               -9.9102e-08          
  0.25                  1.0194e-07            6.38e-12              8e-14                 -1.0194e-07          
  0.3                   1.04338e-07           6.38e-12              7.8e-13               -1.0434e-07          
  0.35                  1.06546e-07           6.24e-12              2.3e-12               -1.06548e-07         
  0.4                   1.0866e-07            6.24e-12              4.8e-13               -1.08656e-07         
  0.45                  1.1068e-07            6.2e-12               2.28e-12              -1.10652e-07         
  0.5                   1.1262e-07            6e-12                 2.4e-13               -1.1258e-07          
  0.55                  1.1482e-07            5.96e-12              -7e-13                -1.14792e-07         
  0.6                   1.1664e-07            6e-12                 7.4e-13               -1.16628e-07         
  0.65                  1.1842e-07            5.66e-12              4e-14                 -1.184e-07           
  0.7                   1.2016e-07            5.72e-12              4e-13                 -1.2014e-07          
  0.75                  1.2186e-07            5.78e-12              2.8e-13               -1.2184e-07          
  0.8                   1.235e-07             5.6e-12               9.6e-13               -1.2348e-07          
  0.85                  1.2512e-07            5.62e-12              7.2e-13               -1.251e-07           
  0.9                   1.2672e-07            5.56e-12              -3e-13                -1.267e-07           
  0.95                  1.2828e-07            5.38e-12              8.4e-13               -1.2826e-07          
  1                     1.2978e-07            5.26e-12              7.8e-13               -1.2976e-07          
  1.05                  1.3126e-07            5.26e-12              -3.2e-13              -1.3126e-07          
  1.1                   1.3272e-07            5.12e-12              -4.8e-13              -1.3268e-07          
  1.15                  1.3414e-07            5.02e-12              -1.18e-12             -1.341e-07           
  1.2                   1.3552e-07            4.98e-12              -2.68e-12             -1.3546e-07          
  1.25                  1.3684e-07            4.84e-12              -4.58e-12             -1.3682e-07          
  1.3                   1.3814e-07            4.72e-12              -8.74e-12             -1.3812e-07          
  1.35                  1.3942e-07            4.56e-12              -1.28e-11             -1.3938e-07          
END_DB

