! VERSION = 6.00
BEGIN_HEADER
 ICCAP_INPUTS
  vd         V  D GROUND SMU1 0.1 LIN        1    0          1.35       28   0.05      
  vg         V  G GROUND SMU2 0.001 LIST       2 3 0.135 0.335 0.535
  vb         V  B GROUND SMU4 0.1 CON        -1.2
  vs         V  S GROUND SMU3 0.1 CON        0
 ICCAP_OUTPUTS
  id         I  D GROUND SMU1 B
  ig         I  G GROUND SMU2 B
  ib         I  B GROUND SMU4 B
  is         I  S GROUND SMU3 B
 ICCAP_VALUES
  MASTER_SETUP_TYPE "~dc_idvd~"
  LINVT_VALUE ""
  LISTVT_VALUE "|idvg|100.0n|-200.0m|1.000m|3|200.0m|200.0m|"
  TYPE "1"
  TEMP " 27.0000 "
  IS_TNOM " 1.00000 "
  MAIN.W "10.00u"
  MAIN.L "500.0n"
  MAIN.AD "3.400p"
  MAIN.AS "3.400p"
  MAIN.PD "20.68u"
  MAIN.PS "20.68u"
  MAIN.NF "1.000"
  MAIN.M "1"
  MAIN.NRD "0.000"
  MAIN.NRS "0.000"
  MAIN.LDRIFT1 "1E-06"
  MAIN.LDRIFT2 "1E-06"
  MAIN.SA "0.000"
  MAIN.SB "0.000"
  MAIN.SD "0.000"
  MAIN.SCA "0.000"
  MAIN.SCB "0.000"
  MAIN.SCC "0.000"
  MAIN.SC "0.000"
  MODULE "S541"
  PIN_D "20"
  PIN_G "1"
  PIN_S "2"
  PIN_B "19"
  PIN_E ""
  PIN_6 ""
  XY_ID ""
  FUNC "L Scale"
  STI "SA ref"
  WPE "WPE ref"
  COMMENT ""
  DIS_MEAS ""
  TypeTCI "10"
END_HEADER

BEGIN_DB
 ICCAP_VAR vg         0.135          
 ICCAP_VAR vb         -1.2           
 ICCAP_VAR vs         0              

 #vd                    id                    ig                    ib                    is                   
  0                     1.074e-11             2e-14                 -6.22e-12             -7.56e-12            
  0.05                  2.264e-09             0                     -5.26e-12             -2.2612e-09          
  0.1                   2.7598e-09            2e-14                 -4.94e-12             -2.7578e-09          
  0.15                  2.9718e-09            6e-14                 -5.22e-12             -2.9686e-09          
  0.2                   3.1298e-09            -2e-14                -5e-12                -3.1272e-09          
  0.25                  3.2728e-09            2e-14                 -3.9e-12              -3.2698e-09          
  0.3                   3.4084e-09            -2e-14                -2.6e-12              -3.4054e-09          
  0.35                  3.534e-09             -8e-14                -3.5e-12              -3.5302e-09          
  0.4                   3.6526e-09            -1.8e-13              -4.36e-12             -3.6496e-09          
  0.45                  3.7622e-09            -2.8e-13              -7.22e-12             -3.76e-09            
  0.5                   3.8672e-09            -5e-13                -2.88e-12             -3.8626e-09          
  0.55                  3.9626e-09            -6.8e-13              -2.68e-12             -3.9584e-09          
  0.6                   4.0524e-09            -9.6e-13              -2.3e-12              -4.0482e-09          
  0.65                  4.1346e-09            -1.32e-12             -2.68e-12             -4.1298e-09          
  0.7                   4.2118e-09            -1.86e-12             -3.64e-12             -4.2094e-09          
  0.75                  4.2838e-09            -2.42e-12             -2.4e-12              -4.2778e-09          
  0.8                   4.3484e-09            -3.12e-12             -2.3e-12              -4.3418e-09          
  0.85                  4.4094e-09            -4.08e-12             -2.52e-12             -4.4024e-09          
  0.9                   4.4668e-09            -5.02e-12             -3.32e-12             -4.4576e-09          
  0.95                  4.5192e-09            -6.18e-12             -3.5e-12              -4.5096e-09          
  1                     4.5704e-09            -7.56e-12             -1.72e-12             -4.5596e-09          
  1.05                  4.616e-09             -8.98e-12             -1.58e-12             -4.6028e-09          
  1.1                   4.6566e-09            -1.072e-11            -1.94e-12             -4.6428e-09          
  1.15                  4.6964e-09            -1.266e-11            -3.06e-12             -4.681e-09           
  1.2                   4.7332e-09            -1.492e-11            -2.82e-12             -4.7128e-09          
  1.25                  4.7662e-09            -1.746e-11            -2.08e-12             -4.7464e-09          
  1.3                   4.799e-09             -2.016e-11            -2.86e-12             -4.7744e-09          
  1.35                  4.8302e-09            -2.33e-11             -3.44e-12             -4.8022e-09          
END_DB

BEGIN_DB
 ICCAP_VAR vg         0.335          
 ICCAP_VAR vb         -1.2           
 ICCAP_VAR vs         0              

 #vd                    id                    ig                    ib                    is                   
  0                     2.6614e-09            7.02e-12              -7.4e-13              -3.3056e-09          
  0.05                  1.2424e-06            5.2e-12               -1.56e-12             -1.237e-06           
  0.1                   1.5806e-06            4.64e-12              -2.04e-12             -1.5772e-06          
  0.15                  1.7246e-06            4.2e-12               -1.46e-12             -1.7206e-06          
  0.2                   1.8262e-06            4.14e-12              -1.02e-12             -1.8226e-06          
  0.25                  1.9166e-06            3.96e-12              -2.18e-12             -1.9118e-06          
  0.3                   1.9964e-06            3.78e-12              -2.1e-12              -1.9926e-06          
  0.35                  2.0732e-06            3.84e-12              -1.08e-12             -2.0696e-06          
  0.4                   2.1442e-06            3.6e-12               -1.36e-12             -2.1406e-06          
  0.45                  2.2104e-06            3.52e-12              -1.62e-12             -2.207e-06           
  0.5                   2.2724e-06            3.26e-12              -1.68e-12             -2.2686e-06          
  0.55                  2.3302e-06            3.18e-12              -2.56e-12             -2.325e-06           
  0.6                   2.3832e-06            2.94e-12              -1.08e-12             -2.3796e-06          
  0.65                  2.4342e-06            2.72e-12              -1.6e-12              -2.4318e-06          
  0.7                   2.4828e-06            2.48e-12              -2.38e-12             -2.4788e-06          
  0.75                  2.526e-06             2.16e-12              -1.62e-12             -2.5224e-06          
  0.8                   2.5668e-06            1.88e-12              -1.62e-12             -2.563e-06           
  0.85                  2.6014e-06            1.28e-12              -2.36e-12             -2.5992e-06          
  0.9                   2.6388e-06            6.6e-13               -1.16e-12             -2.635e-06           
  0.95                  2.6716e-06            0                     -2.56e-12             -2.6668e-06          
  1                     2.7008e-06            -6.4e-13              -3.18e-12             -2.698e-06           
  1.05                  2.7302e-06            -1.52e-12             -4.76e-12             -2.725e-06           
  1.1                   2.7552e-06            -2.62e-12             -9.72e-12             -2.7518e-06          
  1.15                  2.7774e-06            -3.92e-12             -2.018e-11            -2.7738e-06          
  1.2                   2.802e-06             -5.24e-12             -3.636e-11            -2.7972e-06          
  1.25                  2.8214e-06            -6.78e-12             -6.748e-11            -2.8178e-06          
  1.3                   2.8414e-06            -8.52e-12             -1.1556e-10           -2.8368e-06          
  1.35                  2.8596e-06            -1.054e-11            -1.8942e-10           -2.8552e-06          
END_DB

BEGIN_DB
 ICCAP_VAR vg         0.535          
 ICCAP_VAR vb         -1.2           
 ICCAP_VAR vs         0              

 #vd                    id                    ig                    ib                    is                   
  0                     7.5536e-08            6.792e-11             -6.2e-13              -6.9256e-08          
  0.05                  3.7216e-05            5.55e-11              -1.86e-12             -3.7186e-05          
  0.1                   5.8516e-05            4.794e-11             -8.4e-13              -5.8492e-05          
  0.15                  6.946e-05             4.372e-11             -1.9e-12              -6.944e-05           
  0.2                   7.5334e-05            4.154e-11             -9.2e-13              -7.5332e-05          
  0.25                  7.912e-05             4.032e-11             -2e-12                -7.9098e-05          
  0.3                   8.2066e-05            3.91e-11              -2.16e-12             -8.2062e-05          
  0.35                  8.4664e-05            3.83e-11              -8.8e-13              -8.466e-05           
  0.4                   8.7016e-05            3.766e-11             -1.62e-12             -8.6982e-05          
  0.45                  8.924e-05             3.698e-11             -1.98e-12             -8.9218e-05          
  0.5                   9.1314e-05            3.632e-11             -1.06e-12             -9.1278e-05          
  0.55                  9.3326e-05            3.584e-11             -1.44e-12             -9.3306e-05          
  0.6                   9.524e-05             3.518e-11             -1.86e-12             -9.522e-05           
  0.65                  9.7086e-05            3.472e-11             -1.28e-12             -9.7076e-05          
  0.7                   9.8886e-05            3.416e-11             -1.44e-12             -9.887e-05           
  0.75                  0.000100612           3.356e-11             -2.02e-12             -0.000100598         
  0.8                   0.000102248           3.3e-11               -1.08e-12             -0.000102238         
  0.85                  0.000103858           3.252e-11             -1.4e-12              -0.00010383          
  0.9                   0.0001054             3.188e-11             -1.7e-12              -0.000105366         
  0.95                  0.000106902           3.11e-11              -1.34e-12             -0.00010688          
  1                     0.000108332           3.042e-11             -3.42e-12             -0.000108314         
  1.05                  0.000109724           2.956e-11             -8.78e-12             -0.000109732         
  1.1                   0.00011109            2.876e-11             -2.184e-11            -0.000111092         
  1.15                  0.000112408           2.782e-11             -5.836e-11            -0.000112408         
  1.2                   0.000113706           2.674e-11             -1.4182e-10           -0.000113682         
  1.25                  0.00011506            2.544e-11             -3.2102e-10           -0.000114914         
  1.3                   0.00011626            2.406e-11             -6.7776e-10           -0.000116096         
  1.35                  0.00011734            2.25e-11              -1.3366e-09           -0.00011698          
END_DB

