! VERSION = 6.00
BEGIN_HEADER
 ICCAP_INPUTS
  vd         V  D GROUND SMU1 0.1 LIN        1    0          1.35       28   0.05      
  vg         V  G GROUND SMU2 0.001 LIST       2 3 0.343 0.543 0.743
  vb         V  B GROUND SMU4 0.1 CON        -1.2
  vs         V  S GROUND SMU3 0.1 CON        0
 ICCAP_OUTPUTS
  id         I  D GROUND SMU1 B
  ig         I  G GROUND SMU2 B
  ib         I  B GROUND SMU4 B
  is         I  S GROUND SMU3 B
 ICCAP_VALUES
  MASTER_SETUP_TYPE "~dc_idvd~"
  LINVT_VALUE ""
  LISTVT_VALUE "|idvg|100.0n|-200.0m|1.000m|3|200.0m|200.0m|"
  TYPE "1"
  TEMP " 27.0000 "
  IS_TNOM " 1.00000 "
  MAIN.W "600.0n"
  MAIN.L "130.0n"
  MAIN.AD "204.0f"
  MAIN.AS "204.0f"
  MAIN.PD "1.880u"
  MAIN.PS "1.880u"
  MAIN.NF "1.000"
  MAIN.M "1"
  MAIN.NRD "0.000"
  MAIN.NRS "0.000"
  MAIN.LDRIFT1 "1E-06"
  MAIN.LDRIFT2 "1E-06"
  MAIN.SA "0.000"
  MAIN.SB "0.000"
  MAIN.SD "0.000"
  MAIN.SCA "0.000"
  MAIN.SCB "0.000"
  MAIN.SCC "0.000"
  MAIN.SC "0.000"
  MODULE "S543"
  PIN_D "18"
  PIN_G "3"
  PIN_S "4"
  PIN_B "17"
  PIN_E ""
  PIN_6 ""
  XY_ID ""
  FUNC "LW Scale"
  STI "SA ref"
  WPE "WPE ref"
  COMMENT ""
  DIS_MEAS ""
  TypeTCI "10"
END_HEADER

BEGIN_DB
 ICCAP_VAR vg         0.343          
 ICCAP_VAR vb         -1.2           
 ICCAP_VAR vs         0              

 #vd                    id                    ig                    ib                    is                   
  0                     2.1e-12               1.4e-13               -6.94e-12             -1.18e-12            
  0.05                  5.1748e-10            -2e-14                -6.82e-12             -5.1722e-10          
  0.1                   6.7344e-10            1.2e-13               -5.6e-12              -6.7186e-10          
  0.15                  7.6744e-10            1e-13                 -5.62e-12             -7.6616e-10          
  0.2                   8.5802e-10            2e-14                 -4.04e-12             -8.5756e-10          
  0.25                  9.5246e-10            0                     -4.92e-12             -9.5346e-10          
  0.3                   1.0548e-09            6e-14                 -2.88e-12             -1.05384e-09         
  0.35                  1.1646e-09            0                     -3.54e-12             -1.1614e-09          
  0.4                   1.2834e-09            4e-14                 -2.8e-12              -1.2812e-09          
  0.45                  1.4104e-09            1.2e-13               -2.5e-12              -1.4074e-09          
  0.5                   1.5448e-09            6e-14                 -3.14e-12             -1.5454e-09          
  0.55                  1.7002e-09            1.2e-13               -3.56e-12             -1.6944e-09          
  0.6                   1.8574e-09            1e-13                 -2.54e-12             -1.8554e-09          
  0.65                  2.0356e-09            8e-14                 -2.22e-12             -2.0272e-09          
  0.7                   2.2212e-09            8e-14                 -2.92e-12             -2.2182e-09          
  0.75                  2.4242e-09            0                     -2.22e-12             -2.4192e-09          
  0.8                   2.6504e-09            -8e-14                -2.8e-12              -2.6444e-09          
  0.85                  2.8864e-09            -1.6e-13              -2.52e-12             -2.891e-09           
  0.9                   3.1614e-09            -1.6e-13              -1.48e-12             -3.158e-09           
  0.95                  3.454e-09             -1.8e-13              -1.92e-12             -3.4514e-09          
  1                     3.775e-09             -3.2e-13              -3.34e-12             -3.7682e-09          
  1.05                  4.12e-09              -5.4e-13              -2.82e-12             -4.1092e-09          
  1.1                   4.5006e-09            -5.2e-13              -2.32e-12             -4.4946e-09          
  1.15                  4.9296e-09            -8e-13                -1.9e-12              -4.931e-09           
  1.2                   5.3938e-09            -8.4e-13              -2.34e-12             -5.391e-09           
  1.25                  5.914e-09             -1.18e-12             -3.46e-12             -5.9254e-09          
  1.3                   6.5028e-09            -1.32e-12             -3.68e-12             -6.476e-09           
  1.35                  7.1356e-09            -1.38e-12             -3.26e-12             -7.1146e-09          
END_DB

BEGIN_DB
 ICCAP_VAR vg         0.543          
 ICCAP_VAR vb         -1.2           
 ICCAP_VAR vs         0              

 #vd                    id                    ig                    ib                    is                   
  0                     3.3492e-10            9.4e-13               -8.2e-13              -3.3766e-10          
  0.05                  1.5816e-07            7.8e-13               -1.76e-12             -1.578e-07           
  0.1                   2.1724e-07            6.2e-13               -1.98e-12             -2.1708e-07          
  0.15                  2.5262e-07            6.8e-13               -7.8e-13              -2.5246e-07          
  0.2                   2.8226e-07            6e-13                 -5.6e-13              -2.8254e-07          
  0.25                  3.1124e-07            6e-13                 -1.58e-12             -3.112e-07           
  0.3                   3.4012e-07            6.2e-13               -1.98e-12             -3.3916e-07          
  0.35                  3.6938e-07            7e-13                 -1.14e-12             -3.6922e-07          
  0.4                   4.005e-07             6.6e-13               -1.3e-12              -4.0062e-07          
  0.45                  4.338e-07             5.2e-13               -2.18e-12             -4.3358e-07          
  0.5                   4.6806e-07            6.8e-13               -2.46e-12             -4.6798e-07          
  0.55                  5.0338e-07            4.6e-13               -1.58e-12             -5.0484e-07          
  0.6                   5.4338e-07            6.4e-13               -8.8e-13              -5.4264e-07          
  0.65                  5.8384e-07            5.2e-13               -2.12e-12             -5.8362e-07          
  0.7                   6.2636e-07            4.6e-13               -2.1e-12              -6.2646e-07          
  0.75                  6.7202e-07            5.4e-13               -1.36e-12             -6.7188e-07          
  0.8                   7.199e-07             5.6e-13               -1.74e-12             -7.2088e-07          
  0.85                  7.7152e-07            5e-13                 -2.38e-12             -7.7122e-07          
  0.9                   8.2526e-07            5.4e-13               -1.48e-12             -8.243e-07           
  0.95                  8.83e-07              3.8e-13               -1.52e-12             -8.8326e-07          
  1                     9.447e-07             3.8e-13               1.78e-12              -9.4478e-07          
  1.05                  1.01148e-06           4.2e-13               -3.3e-12              -1.00966e-06         
  1.1                   1.07942e-06           3.2e-13               -5.8e-12              -1.07948e-06         
  1.15                  1.1554e-06            2.4e-13               -9.42e-12             -1.15424e-06         
  1.2                   1.2366e-06            2e-13                 -1.74e-11             -1.2306e-06          
  1.25                  1.3184e-06            1e-13                 -3.25e-11             -1.3146e-06          
  1.3                   1.4098e-06            0                     -5.722e-11            -1.4038e-06          
  1.35                  1.5036e-06            -2e-13                -1.0176e-10           -1.4968e-06          
END_DB

BEGIN_DB
 ICCAP_VAR vg         0.743          
 ICCAP_VAR vb         -1.2           
 ICCAP_VAR vs         0              

 #vd                    id                    ig                    ib                    is                   
  0                     3.4138e-09            3.72e-12              5.4e-13               -4.6552e-09          
  0.05                  4.0854e-06            3.18e-12              -1.38e-12             -4.0822e-06          
  0.1                   6.5226e-06            3.1e-12               -1.2e-12              -6.5216e-06          
  0.15                  8.0116e-06            2.82e-12              -1.4e-13              -7.9996e-06          
  0.2                   9e-06                 2.7e-12               -1.56e-12             -8.9916e-06          
  0.25                  9.7784e-06            2.5e-12               -1.38e-12             -9.763e-06           
  0.3                   1.04412e-05           2.5e-12               -7.8e-13              -1.04428e-05         
  0.35                  1.10674e-05           2.56e-12              -1.72e-12             -1.10586e-05         
  0.4                   1.1658e-05            2.5e-12               -1.46e-12             -1.16426e-05         
  0.45                  1.2254e-05            2.38e-12              -1.4e-12              -1.2228e-05          
  0.5                   1.2822e-05            2.4e-12               -7.2e-13              -1.281e-05           
  0.55                  1.3398e-05            2.46e-12              -9.6e-13              -1.338e-05           
  0.6                   1.397e-05             2.38e-12              -1.8e-12              -1.3944e-05          
  0.65                  1.4552e-05            2.4e-12               -5.8e-13              -1.4536e-05          
  0.7                   1.5138e-05            2.44e-12              -4e-13                -1.5132e-05          
  0.75                  1.5764e-05            2.46e-12              -2.12e-12             -1.5722e-05          
  0.8                   1.6368e-05            2.28e-12              -8.6e-13              -1.6348e-05          
  0.85                  1.6974e-05            2.34e-12              -1.34e-12             -1.6958e-05          
  0.9                   1.7606e-05            2.38e-12              -2.04e-12             -1.7582e-05          
  0.95                  1.8262e-05            2.28e-12              -1.74e-12             -1.8234e-05          
  1                     1.8914e-05            2.16e-12              -3.12e-12             -1.8912e-05          
  1.05                  1.9606e-05            2.3e-12               -5.94e-12             -1.9592e-05          
  1.1                   2.0298e-05            2.22e-12              -1.376e-11            -2.0284e-05          
  1.15                  2.1012e-05            2.34e-12              -3.202e-11            -2.1006e-05          
  1.2                   2.1758e-05            2.18e-12              -7.098e-11            -2.1728e-05          
  1.25                  2.2496e-05            2.12e-12              -1.4762e-10           -2.248e-05           
  1.3                   2.3282e-05            2.14e-12              -2.9416e-10           -2.326e-05           
  1.35                  2.4068e-05            1.9e-12               -5.5102e-10           -2.4038e-05          
END_DB

