! VERSION = 6.00
BEGIN_HEADER
 ICCAP_INPUTS
  vd         V  D GROUND SMU1 0.1 LIN        1    0          1.35       28   0.05      
  vg         V  G GROUND SMU2 0.001 LIST       2 3 -0.118 0.082 0.282
  vb         V  B GROUND SMU4 0.1 CON        0
  vs         V  S GROUND SMU3 0.1 CON        0
 ICCAP_OUTPUTS
  id         I  D GROUND SMU1 B
  ig         I  G GROUND SMU2 B
  ib         I  B GROUND SMU4 B
  is         I  S GROUND SMU3 B
 ICCAP_VALUES
  MASTER_SETUP_TYPE "~dc_idvd~"
  LINVT_VALUE ""
  LISTVT_VALUE "|idvg|100.0n|-200.0m|1.000m|3|200.0m|200.0m|"
  TYPE "1"
  TEMP " 125.000 "
  IS_TNOM " 0.00000 "
  MAIN.W "300.0n"
  MAIN.L "10.00u"
  MAIN.AD "102.0f"
  MAIN.AS "102.0f"
  MAIN.PD "1.280u"
  MAIN.PS "1.280u"
  MAIN.NF "1.000"
  MAIN.M "1"
  MAIN.NRD "0.000"
  MAIN.NRS "0.000"
  MAIN.LDRIFT1 "1E-06"
  MAIN.LDRIFT2 "1E-06"
  MAIN.SA "0.000"
  MAIN.SB "0.000"
  MAIN.SD "0.000"
  MAIN.SCA "0.000"
  MAIN.SCB "0.000"
  MAIN.SCC "0.000"
  MAIN.SC "0.000"
  MODULE "S545"
  PIN_D "18"
  PIN_G "3"
  PIN_S "4"
  PIN_B "17"
  PIN_E ""
  PIN_6 ""
  XY_ID ""
  FUNC "W Scale"
  STI "SA ref"
  WPE "WPE ref"
  COMMENT ""
  DIS_MEAS ""
  TypeTCI "10"
END_HEADER

BEGIN_DB
 ICCAP_VAR vg         -0.118         
 ICCAP_VAR vb         0              
 ICCAP_VAR vs         0              

 #vd                    id                    ig                    ib                    is                   
  0                     -2.2e-13              -1.44e-12             4.52e-12              1.2e-13              
  0.05                  2.146e-11             -1.34e-12             3.8e-12               -2.106e-11           
  0.1                   2.722e-11             -1.3e-12              3.16e-12              -2.656e-11           
  0.15                  2.918e-11             -1.38e-12             2.66e-12              -2.848e-11           
  0.2                   3.018e-11             -1.28e-12             2.38e-12              -2.938e-11           
  0.25                  3.092e-11             -1.28e-12             2.36e-12              -3.002e-11           
  0.3                   3.156e-11             -1.42e-12             3.1e-12               -3.05e-11            
  0.35                  3.224e-11             -1.36e-12             3.56e-12              -3.11e-11            
  0.4                   3.296e-11             -1.48e-12             2.42e-12              -3.164e-11           
  0.45                  3.34e-11              -1.44e-12             2.2e-12               -3.23e-11            
  0.5                   3.404e-11             -1.48e-12             1.9e-12               -3.276e-11           
  0.55                  3.462e-11             -1.4e-12              2.14e-12              -3.334e-11           
  0.6                   3.516e-11             -1.42e-12             3.1e-12               -3.378e-11           
  0.65                  3.576e-11             -1.6e-12              2.66e-12              -3.422e-11           
  0.7                   3.628e-11             -1.54e-12             2.64e-12              -3.478e-11           
  0.75                  3.694e-11             -1.68e-12             1.68e-12              -3.514e-11           
  0.8                   3.754e-11             -1.66e-12             1.9e-12               -3.554e-11           
  0.85                  3.79e-11              -1.74e-12             2.52e-12              -3.608e-11           
  0.9                   3.85e-11              -1.98e-12             3.06e-12              -3.636e-11           
  0.95                  3.894e-11             -2.06e-12             2.68e-12              -3.676e-11           
  1                     3.952e-11             -2.32e-12             1.76e-12              -3.718e-11           
  1.05                  4.016e-11             -2.32e-12             2.2e-12               -3.742e-11           
  1.1                   4.066e-11             -2.64e-12             2.16e-12              -3.784e-11           
  1.15                  4.126e-11             -2.82e-12             2.78e-12              -3.798e-11           
  1.2                   4.178e-11             -2.96e-12             2.94e-12              -3.848e-11           
  1.25                  4.232e-11             -3.26e-12             1.38e-12              -3.858e-11           
  1.3                   4.294e-11             -3.5e-12              1.9e-12               -3.906e-11           
  1.35                  4.364e-11             -3.82e-12             2.08e-12              -3.918e-11           
END_DB

BEGIN_DB
 ICCAP_VAR vg         0.082          
 ICCAP_VAR vb         0              
 ICCAP_VAR vs         0              

 #vd                    id                    ig                    ib                    is                   
  0                     2.62e-12              3.6e-13               2.26e-12              -3.4e-12             
  0.05                  2.0164e-09            2.6e-13               1.36e-12              -2.016e-09           
  0.1                   2.6122e-09            1.6e-13               1.22e-12              -2.6114e-09          
  0.15                  2.8274e-09            1.4e-13               2.16e-12              -2.8254e-09          
  0.2                   2.9432e-09            2.4e-13               1.66e-12              -2.9414e-09          
  0.25                  3.0326e-09            1.8e-13               1.24e-12              -3.0312e-09          
  0.3                   3.1134e-09            2e-13                 2.2e-13               -3.1124e-09          
  0.35                  3.1904e-09            2e-13                 1.6e-12               -3.1886e-09          
  0.4                   3.2642e-09            2.2e-13               1.3e-12               -3.2622e-09          
  0.45                  3.3348e-09            1e-13                 1.8e-12               -3.3338e-09          
  0.5                   3.4038e-09            1.8e-13               1.02e-12              -3.4026e-09          
  0.55                  3.4702e-09            1e-13                 1.1e-12               -3.468e-09           
  0.6                   3.5344e-09            -2e-14                8e-13                 -3.5318e-09          
  0.65                  3.5962e-09            1e-13                 9e-13                 -3.5942e-09          
  0.7                   3.6566e-09            -8e-14                2.06e-12              -3.654e-09           
  0.75                  3.7148e-09            0                     1.6e-12               -3.7126e-09          
  0.8                   3.7712e-09            -2.2e-13              6.6e-13               -3.7686e-09          
  0.85                  3.826e-09             -2.2e-13              4.8e-13               -3.8234e-09          
  0.9                   3.8786e-09            -2.8e-13              5.4e-13               -3.8756e-09          
  0.95                  3.9298e-09            -3e-13                1.72e-12              -3.9266e-09          
  1                     3.9766e-09            -5e-13                1.52e-12              -3.9716e-09          
  1.05                  4.0208e-09            -4.4e-13              6e-14                 -4.0172e-09          
  1.1                   4.0654e-09            -6.4e-13              1.6e-13               -4.062e-09           
  1.15                  4.108e-09             -7.2e-13              1.4e-13               -4.1042e-09          
  1.2                   4.149e-09             -9.6e-13              -8e-14                -4.145e-09           
  1.25                  4.1886e-09            -1.12e-12             -6e-14                -4.1824e-09          
  1.3                   4.2246e-09            -1.24e-12             -9.4e-13              -4.218e-09           
  1.35                  4.2592e-09            -1.5e-12              -1.98e-12             -4.2514e-09          
END_DB

BEGIN_DB
 ICCAP_VAR vg         0.282          
 ICCAP_VAR vb         0              
 ICCAP_VAR vs         0              

 #vd                    id                    ig                    ib                    is                   
  0                     4.774e-11             7.76e-12              1.22e-12              -5.538e-11           
  0.05                  4.1932e-08            6.08e-12              1.86e-12              -4.192e-08           
  0.1                   6.2772e-08            5.3e-12               1.2e-12               -6.2826e-08          
  0.15                  7.1262e-08            4.9e-12               1.04e-12              -7.1158e-08          
  0.2                   7.4828e-08            4.84e-12              1.06e-12              -7.483e-08           
  0.25                  7.6864e-08            4.88e-12              1.76e-12              -7.6916e-08          
  0.3                   7.856e-08             4.74e-12              1.3e-12               -7.8554e-08          
  0.35                  8.0022e-08            4.72e-12              4e-14                 -7.997e-08           
  0.4                   8.1408e-08            4.68e-12              4.4e-13               -8.1394e-08          
  0.45                  8.2716e-08            4.54e-12              1.36e-12              -8.2708e-08          
  0.5                   8.3946e-08            4.46e-12              8.8e-13               -8.3972e-08          
  0.55                  8.521e-08             4.5e-12               6.8e-13               -8.521e-08           
  0.6                   8.6394e-08            4.38e-12              1.8e-13               -8.6396e-08          
  0.65                  8.755e-08             4.3e-12               5.4e-13               -8.7506e-08          
  0.7                   8.8678e-08            4.3e-12               1.52e-12              -8.8674e-08          
  0.75                  8.978e-08             4.22e-12              6.2e-13               -8.9772e-08          
  0.8                   9.0844e-08            4.2e-12               -2.4e-13              -9.0836e-08          
  0.85                  9.1882e-08            4.16e-12              1.12e-12              -9.1856e-08          
  0.9                   9.2898e-08            4.04e-12              1.56e-12              -9.2894e-08          
  0.95                  9.388e-08             3.86e-12              7.6e-13               -9.388e-08           
  1                     9.4848e-08            3.84e-12              -1.2e-13              -9.484e-08           
  1.05                  9.5776e-08            3.82e-12              -4.8e-13              -9.577e-08           
  1.1                   9.6696e-08            3.74e-12              -2.2e-13              -9.6682e-08          
  1.15                  9.7576e-08            3.66e-12              -3.38e-12             -9.7564e-08          
  1.2                   9.8434e-08            3.5e-12               -5.28e-12             -9.842e-08           
  1.25                  9.9262e-08            3.24e-12              -8.02e-12             -9.9244e-08          
  1.3                   1.00068e-07           3.16e-12              -1.206e-11            -1.00054e-07         
  1.35                  1.00856e-07           3.04e-12              -1.988e-11            -1.00834e-07         
END_DB

