! VERSION = 6.00
BEGIN_HEADER
 ICCAP_INPUTS
  vd         V  D GROUND SMU1 0.1 LIN        1    0          1.35       28   0.05      
  vg         V  G GROUND SMU2 0.001 LIST       2 3 0.181 0.381 0.581
  vb         V  B GROUND SMU4 0.1 CON        0
  vs         V  S GROUND SMU3 0.1 CON        0
 ICCAP_OUTPUTS
  id         I  D GROUND SMU1 B
  ig         I  G GROUND SMU2 B
  ib         I  B GROUND SMU4 B
  is         I  S GROUND SMU3 B
 ICCAP_VALUES
  MASTER_SETUP_TYPE "~dc_idvd~"
  LINVT_VALUE ""
  LISTVT_VALUE "|idvg|100.0n|-200.0m|1.000m|3|200.0m|200.0m|"
  TYPE "1"
  TEMP " 27.0000 "
  IS_TNOM " 1.00000 "
  MAIN.W "180.0n"
  MAIN.L "150.0n"
  MAIN.AD "102.6f"
  MAIN.AS "102.6f"
  MAIN.PD "1.340u"
  MAIN.PS "1.340u"
  MAIN.NF "1.000"
  MAIN.M "1"
  MAIN.NRD "0.000"
  MAIN.NRS "0.000"
  MAIN.LDRIFT1 "1E-06"
  MAIN.LDRIFT2 "1E-06"
  MAIN.SA "0.000"
  MAIN.SB "0.000"
  MAIN.SD "0.000"
  MAIN.SCA "0.000"
  MAIN.SCB "0.000"
  MAIN.SCC "0.000"
  MAIN.SC "0.000"
  MODULE "S545"
  PIN_D "12"
  PIN_G "9"
  PIN_S "10"
  PIN_B "11"
  PIN_E ""
  PIN_6 ""
  XY_ID ""
  FUNC "LW Scale"
  STI "SA ref"
  WPE "WPE ref"
  COMMENT ""
  DIS_MEAS ""
  TypeTCI "10"
END_HEADER

BEGIN_DB
 ICCAP_VAR vg         0.181          
 ICCAP_VAR vb         0              
 ICCAP_VAR vs         0              

 #vd                    id                    ig                    ib                    is                   
  0                     1.8e-13               -2e-13                2e-14                 -8e-14               
  0.05                  1.4684e-10            -2e-13                9.8e-13               -1.467e-10           
  0.1                   1.8458e-10            -2e-13                1.48e-12              -1.8426e-10          
  0.15                  2.0486e-10            -3e-13                1.7e-12               -2.043e-10           
  0.2                   2.2342e-10            -4e-14                4e-13                 -2.2312e-10          
  0.25                  2.4284e-10            -1.2e-13              1.2e-13               -2.4226e-10          
  0.3                   2.633e-10             -1.2e-13              7e-13                 -2.6302e-10          
  0.35                  2.8558e-10            -1.6e-13              4e-13                 -2.85e-10            
  0.4                   3.0946e-10            -1.2e-13              9.4e-13               -3.0888e-10          
  0.45                  3.353e-10             -2e-14                7.4e-13               -3.349e-10           
  0.5                   3.6228e-10            -1e-13                4.2e-13               -3.6212e-10          
  0.55                  3.9226e-10            2e-14                 3e-13                 -3.9158e-10          
  0.6                   4.2366e-10            -6e-14                1.02e-12              -4.2294e-10          
  0.65                  4.5694e-10            -1.8e-13              1.42e-12              -4.5618e-10          
  0.7                   4.9202e-10            -6e-14                4e-14                 -4.9142e-10          
  0.75                  5.2958e-10            -1.2e-13              -4e-13                -5.2886e-10          
  0.8                   5.6918e-10            -1e-13                6.2e-13               -5.6816e-10          
  0.85                  6.1092e-10            -1.4e-13              2e-13                 -6.1002e-10          
  0.9                   6.5484e-10            -3.4e-13              -3.2e-13              -6.541e-10           
  0.95                  7.0164e-10            -3e-13                1.46e-12              -7.0076e-10          
  1                     7.5074e-10            -3.2e-13              6.2e-13               -7.4958e-10          
  1.05                  8.0212e-10            -3.6e-13              1.36e-12              -8.0112e-10          
  1.1                   8.5608e-10            -3.8e-13              2e-13                 -8.553e-10           
  1.15                  9.129e-10             -4.6e-13              7e-13                 -9.0854e-10          
  1.2                   9.7206e-10            -5.8e-13              5.4e-13               -9.7102e-10          
  1.25                  1.0346e-09            -6.2e-13              -2e-14                -1.03206e-09         
  1.3                   1.099e-09             -6e-13                2.6e-13               -1.09652e-09         
  1.35                  1.1642e-09            -9e-13                6.4e-13               -1.162e-09           
END_DB

BEGIN_DB
 ICCAP_VAR vg         0.381          
 ICCAP_VAR vb         0              
 ICCAP_VAR vs         0              

 #vd                    id                    ig                    ib                    is                   
  0                     1.099e-10             4e-14                 1.64e-12              -1.0828e-10          
  0.05                  4.7302e-08            4e-14                 1.26e-12              -4.7282e-08          
  0.1                   6.2012e-08            2e-14                 1.4e-13               -6.1994e-08          
  0.15                  7.0352e-08            4e-14                 2e-14                 -7.0342e-08          
  0.2                   7.741e-08             3e-13                 1.06e-12              -7.741e-08           
  0.25                  8.4272e-08            4e-14                 -2.24e-12             -8.4264e-08          
  0.3                   9.127e-08             4e-14                 6.6e-13               -9.125e-08           
  0.35                  9.8544e-08            8e-14                 -2.4e-13              -9.8534e-08          
  0.4                   1.06154e-07           4e-14                 3e-13                 -1.06142e-07         
  0.45                  1.1412e-07            2e-14                 -6e-14                -1.14114e-07         
  0.5                   1.2254e-07            1.4e-13               -1.4e-13              -1.224e-07           
  0.55                  1.312e-07             1.2e-13               1.36e-12              -1.3108e-07          
  0.6                   1.402e-07             -4e-14                -3e-13                -1.4008e-07          
  0.65                  1.4946e-07            6e-14                 1e-13                 -1.494e-07           
  0.7                   1.5914e-07            0                     7e-13                 -1.59e-07            
  0.75                  1.6904e-07            -2e-14                1.04e-12              -1.689e-07           
  0.8                   1.7916e-07            6e-14                 7.6e-13               -1.7902e-07          
  0.85                  1.8952e-07            6e-14                 3e-13                 -1.894e-07           
  0.9                   2.0014e-07            0                     2.8e-13               -2.0002e-07          
  0.95                  2.108e-07             8e-14                 1.2e-12               -2.1082e-07          
  1                     2.22e-07              4e-14                 1.6e-13               -2.219e-07           
  1.05                  2.3328e-07            6e-14                 -6e-14                -2.3316e-07          
  1.1                   2.448e-07             -6e-14                -6.2e-13              -2.4466e-07          
  1.15                  2.565e-07             -2.4e-13              -2.62e-12             -2.5636e-07          
  1.2                   2.684e-07             -1.6e-13              -5.9e-12              -2.683e-07           
  1.25                  2.8054e-07            -2e-13                -1.224e-11            -2.8038e-07          
  1.3                   2.9284e-07            -3e-13                -1.936e-11            -2.9256e-07          
  1.35                  3.0528e-07            -3.2e-13              -3.196e-11            -3.0518e-07          
END_DB

BEGIN_DB
 ICCAP_VAR vg         0.581          
 ICCAP_VAR vb         0              
 ICCAP_VAR vs         0              

 #vd                    id                    ig                    ib                    is                   
  0                     2.1596e-09            1.16e-12              1.88e-12              -1.9748e-09          
  0.05                  1.4386e-06            8.4e-13               4e-13                 -1.4344e-06          
  0.1                   2.2392e-06            8.2e-13               8e-14                 -2.2354e-06          
  0.15                  2.6826e-06            5.8e-13               1.22e-12              -2.679e-06           
  0.2                   2.9556e-06            5.4e-13               -1.8e-13              -2.9518e-06          
  0.25                  3.1498e-06            4.6e-13               3.6e-13               -3.1458e-06          
  0.3                   3.305e-06             5.4e-13               9.2e-13               -3.3014e-06          
  0.35                  3.44e-06              5.4e-13               -7.6e-13              -3.4362e-06          
  0.4                   3.5624e-06            4.8e-13               1.6e-13               -3.5588e-06          
  0.45                  3.6784e-06            3.4e-13               9e-13                 -3.6748e-06          
  0.5                   3.7908e-06            4e-13                 2.2e-13               -3.787e-06           
  0.55                  3.9002e-06            5e-13                 7.8e-13               -3.8962e-06          
  0.6                   4.008e-06             4.8e-13               5.4e-13               -4.0042e-06          
  0.65                  4.1142e-06            5e-13                 -6e-14                -4.1108e-06          
  0.7                   4.2204e-06            3.8e-13               1.2e-13               -4.2164e-06          
  0.75                  4.325e-06             4e-13                 1.2e-13               -4.3214e-06          
  0.8                   4.4296e-06            3.6e-13               -9.8e-13              -4.4258e-06          
  0.85                  4.5336e-06            4.2e-13               5.2e-13               -4.5302e-06          
  0.9                   4.6374e-06            3.6e-13               5.4e-13               -4.6338e-06          
  0.95                  4.7414e-06            4e-13                 2.6e-13               -4.7376e-06          
  1                     4.8452e-06            4.2e-13               -2.2e-13              -4.8412e-06          
  1.05                  4.9492e-06            3.2e-13               -1.08e-12             -4.9452e-06          
  1.1                   5.053e-06             3.4e-13               -4.54e-12             -5.0492e-06          
  1.15                  5.1568e-06            3e-13                 -9.7e-12              -5.153e-06           
  1.2                   5.261e-06             3.2e-13               -2.388e-11            -5.257e-06           
  1.25                  5.365e-06             3e-13                 -4.992e-11            -5.3608e-06          
  1.3                   5.4652e-06            2.8e-13               -9.62e-11             -5.4612e-06          
  1.35                  5.5692e-06            2.4e-13               -1.7514e-10           -5.5652e-06          
END_DB

