! VERSION = 6.00
BEGIN_HEADER
 ICCAP_INPUTS
  vd         V  D GROUND SMU1 0.1 LIN        1    0          1.35       28   0.05      
  vg         V  G GROUND SMU2 0.001 LIN        2    0.63       1.35       5    0.18      
  vb         V  B GROUND SMU4 0.1 CON        -1.2
  vs         V  S GROUND SMU3 0.1 CON        0
 ICCAP_OUTPUTS
  id         I  D GROUND SMU1 B
  ig         I  G GROUND SMU2 B
  ib         I  B GROUND SMU4 B
  is         I  S GROUND SMU3 B
 ICCAP_VALUES
  MASTER_SETUP_TYPE "~dc_idvd~"
  LINVT_VALUE "|idvg|100.0n|100.0m|1.000m|5|1.350|"
  LISTVT_VALUE ""
  TYPE "1"
  TEMP " 27.0000 "
  IS_TNOM " 1.00000 "
  MAIN.W "300.0n"
  MAIN.L "150.0n"
  MAIN.AD "102.0f"
  MAIN.AS "102.0f"
  MAIN.PD "1.280u"
  MAIN.PS "1.280u"
  MAIN.NF "1.000"
  MAIN.M "1"
  MAIN.NRD "0.000"
  MAIN.NRS "0.000"
  MAIN.LDRIFT1 "1E-06"
  MAIN.LDRIFT2 "1E-06"
  MAIN.SA "0.000"
  MAIN.SB "0.000"
  MAIN.SD "0.000"
  MAIN.SCA "0.000"
  MAIN.SCB "0.000"
  MAIN.SCC "0.000"
  MAIN.SC "0.000"
  MODULE "S544"
  PIN_D "14"
  PIN_G "7"
  PIN_S "8"
  PIN_B "13"
  PIN_E ""
  PIN_6 ""
  XY_ID ""
  FUNC "LW Scale"
  STI "SA ref"
  WPE "WPE ref"
  COMMENT ""
  DIS_MEAS ""
  TypeTCI "10"
END_HEADER

BEGIN_DB
 ICCAP_VAR vg         0.63           
 ICCAP_VAR vb         -1.2           
 ICCAP_VAR vs         0              

 #vd                    id                    ig                    ib                    is                   
  0                     1.8166e-09            1.16e-12              -1.386e-11            -1.3208e-09          
  0.05                  7.5778e-07            9.4e-13               -1.368e-11            -7.6314e-07          
  0.1                   1.1054e-06            8e-13                 -1.188e-11            -1.11518e-06         
  0.15                  1.278e-06             7.8e-13               -1.104e-11            -1.2718e-06          
  0.2                   1.38e-06              8.8e-13               -1.084e-11            -1.3708e-06          
  0.25                  1.4478e-06            7.8e-13               -8.96e-12             -1.4498e-06          
  0.3                   1.5074e-06            7.4e-13               -9.58e-12             -1.502e-06           
  0.35                  1.5622e-06            6.2e-13               -9.12e-12             -1.5726e-06          
  0.4                   1.6164e-06            4.8e-13               -8.88e-12             -1.613e-06           
  0.45                  1.6698e-06            5.8e-13               -8.36e-12             -1.6668e-06          
  0.5                   1.723e-06             6.2e-13               -8.52e-12             -1.7194e-06          
  0.55                  1.7772e-06            6.4e-13               -8.1e-12              -1.773e-06           
  0.6                   1.8302e-06            7.2e-13               -7.56e-12             -1.825e-06           
  0.65                  1.8916e-06            6.6e-13               -7.1e-12              -1.8784e-06          
  0.7                   1.9572e-06            6.8e-13               -6.92e-12             -1.9322e-06          
  0.75                  1.9894e-06            4.2e-13               -7.46e-12             -1.986e-06           
  0.8                   2.044e-06             6.6e-13               -6.36e-12             -2.0388e-06          
  0.85                  2.11e-06              7.4e-13               -6.5e-12              -2.0938e-06          
  0.9                   2.159e-06             7e-13                 -6.82e-12             -2.1498e-06          
  0.95                  2.2096e-06            6e-13                 -5.96e-12             -2.2144e-06          
  1                     2.2748e-06            5.4e-13               -5.86e-12             -2.2704e-06          
  1.05                  2.3214e-06            6e-13                 -7e-12                -2.325e-06           
  1.1                   2.3792e-06            4.4e-13               -6.86e-12             -2.391e-06           
  1.15                  2.466e-06             6e-13                 -9.66e-12             -2.4484e-06          
  1.2                   2.5096e-06            3.8e-13               -1.122e-11            -2.4952e-06          
  1.25                  2.559e-06             3.8e-13               -2.142e-11            -2.5546e-06          
  1.3                   2.6248e-06            4e-13                 -3.706e-11            -2.6372e-06          
  1.35                  2.6968e-06            4.2e-13               -6.486e-11            -2.6792e-06          
END_DB

BEGIN_DB
 ICCAP_VAR vg         0.81           
 ICCAP_VAR vb         -1.2           
 ICCAP_VAR vs         0              

 #vd                    id                    ig                    ib                    is                   
  0                     3.7442e-09            3.52e-12              -2.44e-12             -4.48e-09            
  0.05                  4.2162e-06            3.28e-12              -4.36e-12             -4.2106e-06          
  0.1                   7.2618e-06            2.72e-12              -4.48e-12             -7.2568e-06          
  0.15                  9.3578e-06            2.34e-12              -3.08e-12             -9.3518e-06          
  0.2                   1.07542e-05           2.28e-12              -4.02e-12             -1.0749e-05          
  0.25                  1.1694e-05            2.2e-12               -3.76e-12             -1.16818e-05         
  0.3                   1.2342e-05            2.12e-12              -4.04e-12             -1.2322e-05          
  0.35                  1.2828e-05            2e-12                 -3.96e-12             -1.2812e-05          
  0.4                   1.3226e-05            2.02e-12              -3.22e-12             -1.321e-05           
  0.45                  1.3568e-05            1.82e-12              -3.92e-12             -1.3548e-05          
  0.5                   1.3882e-05            1.88e-12              -3.14e-12             -1.3862e-05          
  0.55                  1.4174e-05            2.04e-12              -2.7e-12              -1.416e-05           
  0.6                   1.4466e-05            1.78e-12              -3.44e-12             -1.4444e-05          
  0.65                  1.4738e-05            1.88e-12              -2.8e-12              -1.4724e-05          
  0.7                   1.5008e-05            1.92e-12              -2.52e-12             -1.4994e-05          
  0.75                  1.5272e-05            1.78e-12              -3.74e-12             -1.5258e-05          
  0.8                   1.5536e-05            1.56e-12              -3.1e-12              -1.5514e-05          
  0.85                  1.5802e-05            1.86e-12              -3.04e-12             -1.5788e-05          
  0.9                   1.6068e-05            1.8e-12               -3.28e-12             -1.6058e-05          
  0.95                  1.6334e-05            1.84e-12              -2.54e-12             -1.6318e-05          
  1                     1.6596e-05            1.88e-12              -3.12e-12             -1.6568e-05          
  1.05                  1.6844e-05            1.72e-12              -4.6e-12              -1.6818e-05          
  1.1                   1.709e-05             1.56e-12              -5.08e-12             -1.7078e-05          
  1.15                  1.7354e-05            1.66e-12              -8.86e-12             -1.7344e-05          
  1.2                   1.7628e-05            1.78e-12              -1.84e-11             -1.7612e-05          
  1.25                  1.7888e-05            1.68e-12              -3.546e-11            -1.7874e-05          
  1.3                   1.8154e-05            1.72e-12              -7.106e-11            -1.8136e-05          
  1.35                  1.8424e-05            1.48e-12              -1.4e-10              -1.8402e-05          
END_DB

BEGIN_DB
 ICCAP_VAR vg         0.99           
 ICCAP_VAR vb         -1.2           
 ICCAP_VAR vs         0              

 #vd                    id                    ig                    ib                    is                   
  0                     1.366e-08             9.4e-12               -1.02e-12             -1.3056e-08          
  0.05                  8.7924e-06            8.3e-12               -2.44e-12             -8.787e-06           
  0.1                   1.6194e-05            7.34e-12              -2.62e-12             -1.6176e-05          
  0.15                  2.2172e-05            6.8e-12               -2.26e-12             -2.2156e-05          
  0.2                   2.6828e-05            6.18e-12              -2.42e-12             -2.6812e-05          
  0.25                  3.0348e-05            5.8e-12               -3.02e-12             -3.033e-05           
  0.3                   3.2952e-05            5.58e-12              -1.6e-12              -3.2932e-05          
  0.35                  3.4864e-05            5.36e-12              -2.4e-12              -3.4852e-05          
  0.4                   3.6316e-05            5.16e-12              -2.6e-12              -3.63e-05            
  0.45                  3.7442e-05            4.96e-12              -1.7e-12              -3.742e-05           
  0.5                   3.8354e-05            4.92e-12              -2.78e-12             -3.8338e-05          
  0.55                  3.9138e-05            4.76e-12              -3e-12                -3.9122e-05          
  0.6                   3.9846e-05            4.68e-12              -1.3e-12              -3.9816e-05          
  0.65                  4.0472e-05            4.76e-12              -2.14e-12             -4.0466e-05          
  0.7                   4.1084e-05            4.58e-12              -2.6e-12              -4.1066e-05          
  0.75                  4.1642e-05            4.9e-12               -2e-12                -4.1622e-05          
  0.8                   4.2194e-05            4.78e-12              -2.18e-12             -4.2176e-05          
  0.85                  4.2728e-05            4.32e-12              -2.82e-12             -4.271e-05           
  0.9                   4.3254e-05            4.52e-12              -1.3e-12              -4.3238e-05          
  0.95                  4.3768e-05            4.5e-12               -2.46e-12             -4.375e-05           
  1                     4.4276e-05            4.66e-12              -3.14e-12             -4.4272e-05          
  1.05                  4.4784e-05            4.48e-12              -2.18e-12             -4.4774e-05          
  1.1                   4.5284e-05            4.48e-12              -6.24e-12             -4.5268e-05          
  1.15                  4.5774e-05            4.42e-12              -1.138e-11            -4.5754e-05          
  1.2                   4.6252e-05            4.36e-12              -2.186e-11            -4.6234e-05          
  1.25                  4.672e-05             4.62e-12              -4.65e-11             -4.6704e-05          
  1.3                   4.72e-05              4.38e-12              -9.37e-11             -4.7184e-05          
  1.35                  4.768e-05             4.32e-12              -1.8148e-10           -4.7662e-05          
END_DB

BEGIN_DB
 ICCAP_VAR vg         1.17           
 ICCAP_VAR vb         -1.2           
 ICCAP_VAR vs         0              

 #vd                    id                    ig                    ib                    is                   
  0                     2.0008e-08            2.052e-11             -1.38e-12             -1.9484e-08          
  0.05                  1.2994e-05            1.888e-11             -1.82e-12             -1.2976e-05          
  0.1                   2.4602e-05            1.722e-11             -2.02e-12             -2.4586e-05          
  0.15                  3.466e-05             1.572e-11             -1.9e-12              -3.4642e-05          
  0.2                   4.3114e-05            1.468e-11             -1.3e-12              -4.3096e-05          
  0.25                  5.0036e-05            1.38e-11              -2.44e-12             -5.0018e-05          
  0.3                   5.5572e-05            1.27e-11              -2.9e-12              -5.5558e-05          
  0.35                  5.992e-05             1.218e-11             -1.28e-12             -5.9902e-05          
  0.4                   6.3298e-05            1.18e-11              -1.84e-12             -6.3288e-05          
  0.45                  6.5934e-05            1.146e-11             -1.76e-12             -6.5918e-05          
  0.5                   6.8006e-05            1.104e-11             -1.48e-12             -6.7988e-05          
  0.55                  6.9676e-05            1.108e-11             -1.78e-12             -6.9656e-05          
  0.6                   7.106e-05             1.064e-11             -1.26e-12             -7.104e-05           
  0.65                  7.225e-05             1.06e-11              -2.22e-12             -7.223e-05           
  0.7                   7.3298e-05            1.042e-11             -2.6e-12              -7.3278e-05          
  0.75                  7.425e-05             1.04e-11              -1.18e-12             -7.4238e-05          
  0.8                   7.5142e-05            1.02e-11              -1.4e-12              -7.5124e-05          
  0.85                  7.5978e-05            1.018e-11             -2.36e-12             -7.5962e-05          
  0.9                   7.6776e-05            1.038e-11             -1.38e-12             -7.676e-05           
  0.95                  7.7548e-05            1.018e-11             -1.7e-12              -7.7536e-05          
  1                     7.8296e-05            1.008e-11             -3.26e-12             -7.8278e-05          
  1.05                  7.9026e-05            1.004e-11             -3.48e-12             -7.901e-05           
  1.1                   7.974e-05             9.86e-12              -6.78e-12             -7.9728e-05          
  1.15                  8.0444e-05            9.94e-12              -1.368e-11            -8.0428e-05          
  1.2                   8.1128e-05            9.82e-12              -2.508e-11            -8.111e-05           
  1.25                  8.1808e-05            9.66e-12              -5.304e-11            -8.1788e-05          
  1.3                   8.2478e-05            9.82e-12              -1.0538e-10           -8.2462e-05          
  1.35                  8.3144e-05            9.74e-12              -2.0026e-10           -8.3128e-05          
END_DB

BEGIN_DB
 ICCAP_VAR vg         1.35           
 ICCAP_VAR vb         -1.2           
 ICCAP_VAR vs         0              

 #vd                    id                    ig                    ib                    is                   
  0                     2.4428e-08            4.05e-11              -2.8e-13              -2.3352e-08          
  0.05                  1.6484e-05            3.738e-11             -1.24e-12             -1.6466e-05          
  0.1                   3.1688e-05            3.464e-11             -1.7e-12              -3.167e-05           
  0.15                  4.5348e-05            3.242e-11             -1.74e-12             -4.5332e-05          
  0.2                   5.7318e-05            3.008e-11             -1.64e-12             -5.7302e-05          
  0.25                  6.7584e-05            2.838e-11             -1.38e-12             -6.7568e-05          
  0.3                   7.6214e-05            2.67e-11              -1.54e-12             -7.6198e-05          
  0.35                  8.3344e-05            2.55e-11              -2.02e-12             -8.333e-05           
  0.4                   8.9156e-05            2.414e-11             -1.1e-12              -8.9136e-05          
  0.45                  9.3832e-05            2.316e-11             -1.44e-12             -9.3814e-05          
  0.5                   9.7594e-05            2.234e-11             -1.58e-12             -9.7574e-05          
  0.55                  0.00010062            2.212e-11             -1.46e-12             -0.000100602         
  0.6                   0.000103078           2.14e-11              -2.02e-12             -0.000103066         
  0.65                  0.000105122           2.12e-11              -1.1e-12              -0.000105106         
  0.7                   0.000106848           2.074e-11             -1.54e-12             -0.000106834         
  0.75                  0.000108348           2.036e-11             -1.78e-12             -0.00010833          
  0.8                   0.000109678           2.018e-11             -1.24e-12             -0.000109668         
  0.85                  0.000110892           2.018e-11             -1.92e-12             -0.00011088          
  0.9                   0.000112016           2.016e-11             -2e-12                -0.000112002         
  0.95                  0.000113064           1.978e-11             -1.32e-12             -0.000113058         
  1                     0.000114076           1.966e-11             -2.26e-12             -0.000114056         
  1.05                  0.00011516            1.954e-11             -4.12e-12             -0.00011502          
  1.1                   0.00011608            1.952e-11             -7.14e-12             -0.00011595          
  1.15                  0.00011698            1.912e-11             -1.35e-11             -0.000116844         
  1.2                   0.00011786            1.934e-11             -2.708e-11            -0.00011746          
  1.25                  0.00011872            1.922e-11             -5.42e-11             -0.00011832          
  1.3                   0.00011956            1.908e-11             -1.053e-10            -0.00011918          
  1.35                  0.0001204             1.898e-11             -2.0098e-10           -0.00012             
END_DB

