! VERSION = 6.00
BEGIN_HEADER
 ICCAP_INPUTS
  vd         V  D GROUND SMU1 0.1 LIN        1    0          1.35       28   0.05      
  vg         V  G GROUND SMU2 0.001 LIN        2    0.406      1.35       5    0.236     
  vb         V  B GROUND SMU4 0.1 CON        -1.2
  vs         V  S GROUND SMU3 0.1 CON        0
 ICCAP_OUTPUTS
  id         I  D GROUND SMU1 B
  ig         I  G GROUND SMU2 B
  ib         I  B GROUND SMU4 B
  is         I  S GROUND SMU3 B
 ICCAP_VALUES
  MASTER_SETUP_TYPE "~dc_idvd~"
  LINVT_VALUE "|idvg|100.0n|100.0m|1.000m|5|1.350|"
  LISTVT_VALUE ""
  TYPE "1"
  TEMP " 27.0000 "
  IS_TNOM " 1.00000 "
  MAIN.W "10.00u"
  MAIN.L "1.200u"
  MAIN.AD "3.400p"
  MAIN.AS "3.400p"
  MAIN.PD "20.68u"
  MAIN.PS "20.68u"
  MAIN.NF "1.000"
  MAIN.M "1"
  MAIN.NRD "0.000"
  MAIN.NRS "0.000"
  MAIN.LDRIFT1 "1E-06"
  MAIN.LDRIFT2 "1E-06"
  MAIN.SA "0.000"
  MAIN.SB "0.000"
  MAIN.SD "0.000"
  MAIN.SCA "0.000"
  MAIN.SCB "0.000"
  MAIN.SCC "0.000"
  MAIN.SC "0.000"
  MODULE "S541"
  PIN_D "18"
  PIN_G "3"
  PIN_S "4"
  PIN_B "17"
  PIN_E ""
  PIN_6 ""
  XY_ID ""
  FUNC "L Scale"
  STI "SA ref"
  WPE "WPE ref"
  COMMENT ""
  DIS_MEAS ""
  TypeTCI "10"
END_HEADER

BEGIN_DB
 ICCAP_VAR vg         0.406          
 ICCAP_VAR vb         -1.2           
 ICCAP_VAR vs         0              

 #vd                    id                    ig                    ib                    is                   
  0                     1.3568e-08            4.446e-11             -1.5e-11              -1.0624e-08          
  0.05                  5.0648e-06            3.578e-11             -1.316e-11            -5.0608e-06          
  0.1                   6.9478e-06            3.232e-11             -1.328e-11            -6.9488e-06          
  0.15                  7.7196e-06            3.08e-11              -1.112e-11            -7.7148e-06          
  0.2                   8.1892e-06            2.99e-11              -1.17e-11             -8.1886e-06          
  0.25                  8.5758e-06            2.914e-11             -1.162e-11            -8.5752e-06          
  0.3                   8.928e-06             2.842e-11             -1.012e-11            -8.9234e-06          
  0.35                  9.253e-06             2.776e-11             -1.03e-11             -9.2478e-06          
  0.4                   9.5624e-06            2.706e-11             -9.96e-12             -9.5558e-06          
  0.45                  9.8546e-06            2.666e-11             -8.84e-12             -9.8498e-06          
  0.5                   1.0134e-05            2.61e-11              -8.86e-12             -1.01292e-05         
  0.55                  1.04002e-05           2.55e-11              -9.4e-12              -1.04006e-05         
  0.6                   1.06546e-05           2.498e-11             -7.72e-12             -1.06484e-05         
  0.65                  1.08952e-05           2.44e-11              -8.62e-12             -1.08938e-05         
  0.7                   1.1134e-05            2.382e-11             -7.76e-12             -1.11226e-05         
  0.75                  1.1346e-05            2.33e-11              -8.24e-12             -1.13356e-05         
  0.8                   1.1556e-05            2.266e-11             -7.28e-12             -1.15438e-05         
  0.85                  1.176e-05             2.216e-11             -6.46e-12             -1.1744e-05          
  0.9                   1.195e-05             2.134e-11             -5.7e-12              -1.1934e-05          
  0.95                  1.2128e-05            2.05e-11              -7.48e-12             -1.2116e-05          
  1                     1.2306e-05            1.95e-11              -8.5e-12              -1.2288e-05          
  1.05                  1.2464e-05            1.87e-11              -1.114e-11            -1.245e-05           
  1.1                   1.2622e-05            1.75e-11              -2.006e-11            -1.2608e-05          
  1.15                  1.2768e-05            1.62e-11              -4.266e-11            -1.275e-05           
  1.2                   1.291e-05             1.502e-11             -7.606e-11            -1.289e-05           
  1.25                  1.3038e-05            1.332e-11             -1.4774e-10           -1.302e-05           
  1.3                   1.3166e-05            1.186e-11             -2.725e-10            -1.3144e-05          
  1.35                  1.3284e-05            9.98e-12              -4.7426e-10           -1.3264e-05          
END_DB

BEGIN_DB
 ICCAP_VAR vg         0.642          
 ICCAP_VAR vb         -1.2           
 ICCAP_VAR vs         0              

 #vd                    id                    ig                    ib                    is                   
  0                     7.0526e-08            3.6526e-10            -4.22e-12             -6.5394e-08          
  0.05                  4.189e-05             3.0804e-10            -4.04e-12             -4.1866e-05          
  0.1                   7.363e-05             2.6682e-10            -4.28e-12             -7.3622e-05          
  0.15                  9.5444e-05            2.393e-10             -2.04e-12             -9.5434e-05          
  0.2                   0.00010872            2.2294e-10            -4.08e-12             -0.000108698         
  0.25                  0.00011638            2.1368e-10            -3.82e-12             -0.000116226         
  0.3                   0.00012092            2.0806e-10            -4e-12                -0.00012052          
  0.35                  0.00012408            2.0436e-10            -3.66e-12             -0.00012372          
  0.4                   0.00012666            2.0126e-10            -3.6e-12              -0.00012628          
  0.45                  0.00012892            1.9872e-10            -4.54e-12             -0.00012852          
  0.5                   0.00013098            1.9636e-10            -4.4e-12              -0.00013058          
  0.55                  0.00013288            1.9412e-10            -3.26e-12             -0.0001325           
  0.6                   0.0001347             1.9232e-10            -4.18e-12             -0.00013432          
  0.65                  0.00013644            1.9042e-10            -4.3e-12              -0.00013606          
  0.7                   0.00013812            1.887e-10             -3.5e-12              -0.00013772          
  0.75                  0.0001397             1.8698e-10            -3.66e-12             -0.00013932          
  0.8                   0.00014122            1.853e-10             -3.66e-12             -0.00014086          
  0.85                  0.0001427             1.8354e-10            -2.34e-12             -0.00014232          
  0.9                   0.00014412            1.821e-10             -3.66e-12             -0.00014372          
  0.95                  0.0001455             1.8048e-10            -3.52e-12             -0.00014512          
  1                     0.00014682            1.7904e-10            -3.02e-12             -0.00014644          
  1.05                  0.00014812            1.7752e-10            -4.92e-12             -0.00014772          
  1.1                   0.00014936            1.7576e-10            -1.044e-11            -0.00014898          
  1.15                  0.00015054            1.7422e-10            -1.496e-11            -0.00015016          
  1.2                   0.0001517             1.724e-10             -3.79e-11             -0.00015132          
  1.25                  0.00015282            1.7072e-10            -9.16e-11             -0.00015246          
  1.3                   0.0001539             1.6898e-10            -2.168e-10            -0.00015352          
  1.35                  0.00015496            1.6708e-10            -4.8168e-10           -0.00015458          
END_DB

BEGIN_DB
 ICCAP_VAR vg         0.878          
 ICCAP_VAR vb         -1.2           
 ICCAP_VAR vs         0              

 #vd                    id                    ig                    ib                    is                   
  0                     1.15014e-07           1.5748e-09            -3.8e-13              -1.12468e-07         
  0.05                  8.2446e-05            1.382e-09             -2.54e-12             -8.242e-05           
  0.1                   0.0001561             1.2214e-09            -2.92e-12             -0.00015572          
  0.15                  0.00022014            1.091e-09             -2.54e-12             -0.00021974          
  0.2                   0.00027416            9.8654e-10            -2.86e-12             -0.00027374          
  0.25                  0.00031774            9.0666e-10            -2.34e-12             -0.00031742          
  0.3                   0.00035104            8.4816e-10            -1.94e-12             -0.00035068          
  0.35                  0.00037478            8.076e-10             -2.64e-12             -0.00037438          
  0.4                   0.00039074            7.8092e-10            -2.42e-12             -0.00039038          
  0.45                  0.0004013             7.6364e-10            -2.22e-12             -0.00040092          
  0.5                   0.00040866            7.5162e-10            -3.04e-12             -0.0004083           
  0.55                  0.00041428            7.4246e-10            -1.92e-12             -0.0004139           
  0.6                   0.0004189             7.3548e-10            -2.34e-12             -0.00041858          
  0.65                  0.00042304            7.2892e-10            -3.52e-12             -0.00042268          
  0.7                   0.00042672            7.2312e-10            -2.54e-12             -0.00042638          
  0.75                  0.0004302             7.1836e-10            -2.6e-12              -0.0004298           
  0.8                   0.00043342            7.1352e-10            -2.76e-12             -0.00043302          
  0.85                  0.00043652            7.087e-10             -1.78e-12             -0.00043612          
  0.9                   0.00043944            7.0436e-10            -3.4e-12              -0.00043906          
  0.95                  0.0004423             7.0016e-10            -2.64e-12             -0.0004419           
  1                     0.000445              6.962e-10             -2.34e-12             -0.00044462          
  1.05                  0.00044764            6.9236e-10            -3e-12                -0.00044726          
  1.1                   0.00045018            6.8868e-10            -3.56e-12             -0.0004498           
  1.15                  0.00045262            6.8486e-10            -2.7e-12              -0.00045226          
  1.2                   0.00045504            6.8148e-10            -6.96e-12             -0.00045464          
  1.25                  0.00045736            6.7776e-10            -1.288e-11            -0.00045698          
  1.3                   0.0004596             6.7444e-10            -2.848e-11            -0.00045918          
  1.35                  0.00046182            6.7092e-10            -7.412e-11            -0.0004614           
END_DB

BEGIN_DB
 ICCAP_VAR vg         1.114          
 ICCAP_VAR vb         -1.2           
 ICCAP_VAR vs         0              

 #vd                    id                    ig                    ib                    is                   
  0                     2.84e-07              4.8642e-09            -1.94e-12             -1.372e-07           
  0.05                  0.00011518            4.3804e-09            -1.12e-12             -0.0001148           
  0.1                   0.00022328            3.9566e-09            1.28e-12              -0.0002229           
  0.15                  0.0003238             3.5888e-09            -2.8e-12              -0.00032344          
  0.2                   0.00041612            3.2722e-09            -1.74e-12             -0.00041574          
  0.25                  0.0004997             3.0028e-09            -2.06e-12             -0.00049932          
  0.3                   0.00057398            2.7764e-09            -2.66e-12             -0.00057362          
  0.35                  0.00063844            2.5898e-09            -1.7e-12              -0.00063808          
  0.4                   0.00069284            2.4388e-09            -2.26e-12             -0.00069244          
  0.45                  0.0007369             2.3208e-09            -2.5e-12              -0.00073654          
  0.5                   0.00077112            2.232e-09             -1.84e-12             -0.00077068          
  0.55                  0.00079656            2.167e-09             -2.42e-12             -0.00079622          
  0.6                   0.00081484            2.1214e-09            -2.36e-12             -0.0008145           
  0.65                  0.00082798            2.0894e-09            -1.52e-12             -0.00082752          
  0.7                   0.00083762            2.0654e-09            -3.08e-12             -0.00083722          
  0.75                  0.00084522            2.0472e-09            -2.72e-12             -0.00084478          
  0.8                   0.0008515             2.0328e-09            -1.76e-12             -0.00085112          
  0.85                  0.000857              2.0196e-09            -3.16e-12             -0.00085666          
  0.9                   0.000862              2.0072e-09            -2.8e-12              -0.00086174          
  0.95                  0.00086674            1.9966e-09            -8.4e-13              -0.00086632          
  1                     0.00087104            1.9866e-09            -1.8e-12              -0.00087072          
  1.05                  0.00087522            1.9772e-09            -2.98e-12             -0.00087484          
  1.1                   0.0008792             1.9684e-09            -1.28e-12             -0.00087884          
  1.15                  0.00088304            1.9594e-09            -2.42e-12             -0.0008826           
  1.2                   0.00088666            1.9508e-09            -2.94e-12             -0.00088618          
  1.25                  0.00089014            1.9434e-09            -3.02e-12             -0.00088974          
  1.3                   0.00089354            1.936e-09             -4.54e-12             -0.00089316          
  1.35                  0.00089688            1.9282e-09            -9.96e-12             -0.00089648          
END_DB

BEGIN_DB
 ICCAP_VAR vg         1.35           
 ICCAP_VAR vb         -1.2           
 ICCAP_VAR vs         0              

 #vd                    id                    ig                    ib                    is                   
  0                     3.598e-07             1.215e-08             -1.386e-11            -1.594e-07           
  0.05                  0.00013872            1.1134e-08            -1.04e-11             -0.00013836          
  0.1                   0.0002723             1.0218e-08            -9.48e-12             -0.00027192          
  0.15                  0.00040026            9.3956e-09            -6.54e-12             -0.00039988          
  0.2                   0.0005219             8.6654e-09            -5.98e-12             -0.00052154          
  0.25                  0.0006368             8.0164e-09            -5.48e-12             -0.00063644          
  0.3                   0.0007443             7.4428e-09            -4.18e-12             -0.00074394          
  0.35                  0.00084386            6.9408e-09            -5.4e-12              -0.0008435           
  0.4                   0.00093496            6.503e-09             -5e-12                -0.00093458          
  0.45                  0.00101694            6.1274e-09            -3.54e-12             -0.00101658          
  0.5                   0.00108964            5.8084e-09            -4.26e-12             -0.00108924          
  0.55                  0.0011534             5.5418e-09            -2.88e-12             -0.0011523           
  0.6                   0.0012066             5.324e-09             -3.6e-12              -0.0012048           
  0.65                  0.00125               5.1506e-09            -3.06e-12             -0.0012482           
  0.7                   0.0012844             5.0168e-09            -3.48e-12             -0.0012826           
  0.75                  0.0013106             4.9164e-09            -3.36e-12             -0.0013088           
  0.8                   0.0013302             4.8422e-09            -3.22e-12             -0.0013284           
  0.85                  0.001345              4.7858e-09            -3.36e-12             -0.0013432           
  0.9                   0.0013562             4.7446e-09            -3.38e-12             -0.0013544           
  0.95                  0.0013652             4.711e-09             -2.56e-12             -0.0013634           
  1                     0.0013728             4.6834e-09            -2.68e-12             -0.001371            
  1.05                  0.0013794             4.6592e-09            -2.76e-12             -0.0013776           
  1.1                   0.0013854             4.638e-09             -2.52e-12             -0.0013836           
  1.15                  0.0013908             4.6176e-09            -2.34e-12             -0.0013892           
  1.2                   0.001396              4.5992e-09            -3.4e-12              -0.0013942           
  1.25                  0.0014008             4.5818e-09            -2.26e-12             -0.001399            
  1.3                   0.0014054             4.5646e-09            -3.68e-12             -0.0014038           
  1.35                  0.0014098             4.549e-09             -3.88e-12             -0.0014082           
END_DB

