! VERSION = 6.00
BEGIN_HEADER
 ICCAP_INPUTS
  vg         V  G GROUND SMU2 0.001 LIN        1    -0.5       1.35       38   0.05      
  vb         V  B GROUND SMU4 0.1 LIN        2    0          -1.2       5    -0.3      
  vd         V  D GROUND SMU1 0.1 LIST       3 3 0.05 0.6 1.2
  vs         V  S GROUND SMU3 0.1 CON        0
 ICCAP_OUTPUTS
  id         I  D GROUND SMU1 B
  ig         I  G GROUND SMU2 B
  ib         I  B GROUND SMU4 B
  is         I  S GROUND SMU3 B
 ICCAP_VALUES
  MASTER_SETUP_TYPE "~dc_idvg~"
  LINVT_VALUE ""
  LISTVT_VALUE ""
  TYPE "1"
  TEMP " 27.0000 "
  IS_TNOM " 1.00000 "
  MAIN.W "5.000u"
  MAIN.L "10.00u"
  MAIN.AD "1.700p"
  MAIN.AS "1.700p"
  MAIN.PD "10.68u"
  MAIN.PS "10.68u"
  MAIN.NF "1.000"
  MAIN.M "1"
  MAIN.NRD "0.000"
  MAIN.NRS "0.000"
  MAIN.LDRIFT1 "1E-06"
  MAIN.LDRIFT2 "1E-06"
  MAIN.SA "0.000"
  MAIN.SB "0.000"
  MAIN.SD "0.000"
  MAIN.SCA "0.000"
  MAIN.SCB "0.000"
  MAIN.SCC "0.000"
  MAIN.SC "0.000"
  MODULE "S542"
  PIN_D "16"
  PIN_G "5"
  PIN_S "6"
  PIN_B "15"
  PIN_E ""
  PIN_6 ""
  XY_ID ""
  FUNC "W Scale"
  STI "SA ref"
  WPE "WPE ref"
  COMMENT ""
  DIS_MEAS ""
  TypeTCI "10"
END_HEADER

BEGIN_DB
 ICCAP_VAR vb         0              
 ICCAP_VAR vd         0.05           
 ICCAP_VAR vs         0              

 #vg                    id                    ig                    ib                    is                   
  -0.5                  1.3e-12               -4.592e-11            4.57e-11              1.3e-12              
  -0.45                 1.06e-12              -8.72e-12             8.32e-12              1.16e-12             
  -0.4                  9e-13                 -2.48e-12             2.42e-12              6.6e-13              
  -0.35                 6.6e-13               -1.24e-12             1.08e-12              7.8e-13              
  -0.3                  4.4e-13               -9.4e-13              1.36e-12              6.8e-13              
  -0.25                 4.8e-13               -6.4e-13              1.5e-12               1.8e-13              
  -0.2                  1.04e-12              -3.4e-13              1.4e-12               -4.6e-13             
  -0.15                 3.8e-12               -1e-13                2.12e-12              -3.08e-12            
  -0.1                  1.738e-11             -2e-14                5e-13                 -1.694e-11           
  -0.05                 8.334e-11             2e-14                 1.02e-12              -8.326e-11           
  0                     4.0336e-10            2.2e-13               1.1e-12               -4.0308e-10          
  0.05                  1.9336e-09            4.8e-13               1.08e-12              -1.9322e-09          
  0.1                   8.9402e-09            2.16e-12              1.34e-12              -8.9392e-09          
  0.15                  3.8122e-08            6.48e-12              7.4e-13               -3.8104e-08          
  0.2                   1.3674e-07            1.634e-11             9e-13                 -1.3664e-07          
  0.25                  3.7646e-07            3.476e-11             2.16e-12              -3.7636e-07          
  0.3                   7.7728e-07            6.546e-11             1.78e-12              -7.773e-07           
  0.35                  1.2824e-06            1.16e-10              2.8e-13               -1.2784e-06          
  0.4                   1.82e-06              1.938e-10             8e-13                 -1.8164e-06          
  0.45                  2.3624e-06            3.113e-10             2.7e-12               -2.359e-06           
  0.5                   2.9008e-06            4.8138e-10            6.2e-13               -2.8976e-06          
  0.55                  3.4324e-06            7.2184e-10            4.6e-13               -3.4294e-06          
  0.6                   3.957e-06             1.0542e-09            1.76e-12              -3.954e-06           
  0.65                  4.4714e-06            1.5028e-09            7e-13                 -4.4692e-06          
  0.7                   4.9724e-06            2.095e-09             1.06e-12              -4.9706e-06          
  0.75                  5.4594e-06            2.8684e-09            1.14e-12              -5.4584e-06          
  0.8                   5.9294e-06            3.8602e-09            8.4e-13               -5.9292e-06          
  0.85                  6.3816e-06            5.1182e-09            1.5e-12               -6.3828e-06          
  0.9                   6.813e-06             6.6902e-09            2e-13                 -6.8162e-06          
  0.95                  7.2242e-06            8.6372e-09            4.4e-13               -7.229e-06           
  1                     7.6132e-06            1.1022e-08            5.8e-13               -7.6206e-06          
  1.05                  7.9804e-06            1.3914e-08            3e-13                 -7.9906e-06          
  1.1                   8.3238e-06            1.7384e-08            2.02e-12              -8.3372e-06          
  1.15                  8.645e-06             2.1524e-08            2.2e-13               -8.6626e-06          
  1.2                   8.9428e-06            2.6426e-08            -1.92e-12             -8.9658e-06          
  1.25                  9.2182e-06            3.2192e-08            -6.9e-12              -9.2462e-06          
  1.3                   9.4708e-06            3.8928e-08            -1.57e-11             -9.506e-06           
  1.35                  9.7022e-06            4.6788e-08            -3.32e-11             -9.7454e-06          
END_DB

BEGIN_DB
 ICCAP_VAR vb         -0.3           
 ICCAP_VAR vd         0.05           
 ICCAP_VAR vs         0              

 #vg                    id                    ig                    ib                    is                   
  -0.5                  1.14e-12              -2.28e-12             -3.32e-12             1.16e-12             
  -0.45                 8.2e-13               -1.54e-12             -4.06e-12             8.8e-13              
  -0.4                  6.2e-13               -1.16e-12             -3.3e-12              7.8e-13              
  -0.35                 4.4e-13               -8e-13                -3.18e-12             4e-13                
  -0.3                  3.6e-13               -5.8e-13              -1.48e-12             6e-13                
  -0.25                 2e-13                 -3.8e-13              -1.76e-12             1.2e-13              
  -0.2                  4.2e-13               -1.4e-13              -2.52e-12             2e-13                
  -0.15                 8.8e-13               -4e-14                -2.5e-12              -4.8e-13             
  -0.1                  4.28e-12              1.8e-13               -1.4e-12              -4.2e-12             
  -0.05                 2.212e-11             1.4e-13               -1.2e-12              -2.174e-11           
  0                     1.117e-10             2.4e-13               -1.64e-12             -1.1166e-10          
  0.05                  5.6504e-10            5.8e-13               -1.68e-12             -5.6522e-10          
  0.1                   2.797e-09             1.48e-12              -1.68e-12             -2.7954e-09          
  0.15                  1.32e-08              4.84e-12              -7e-13                -1.3188e-08          
  0.2                   5.547e-08             1.328e-11             -2.8e-13              -5.546e-08           
  0.25                  1.887e-07             3.052e-11             -1.2e-12              -1.8862e-07          
  0.3                   4.7856e-07            6.066e-11             -6e-13                -4.7852e-07          
  0.35                  9.1876e-07            1.0914e-10            0                     -9.1884e-07          
  0.4                   1.4384e-06            1.8488e-10            -1.48e-12             -1.4344e-06          
  0.45                  1.9774e-06            2.9938e-10            -3.18e-12             -1.9736e-06          
  0.5                   2.5156e-06            4.6694e-10            -2e-13                -2.5122e-06          
  0.55                  3.0476e-06            7.0402e-10            -1.08e-12             -3.0446e-06          
  0.6                   3.573e-06             1.033e-09             -1.14e-12             -3.5702e-06          
  0.65                  4.089e-06             1.4774e-09            1.4e-13               -4.0866e-06          
  0.7                   4.5922e-06            2.0654e-09            -9.4e-13              -4.5902e-06          
  0.75                  5.0818e-06            2.834e-09             -1.12e-12             -5.081e-06           
  0.8                   5.555e-06             3.8206e-09            -1.34e-12             -5.5548e-06          
  0.85                  6.0106e-06            5.0734e-09            -4.8e-13              -6.012e-06           
  0.9                   6.4464e-06            6.6398e-09            -8e-14                -6.4488e-06          
  0.95                  6.8614e-06            8.5812e-09            -1.18e-12             -6.8662e-06          
  1                     7.2548e-06            1.0959e-08            -1.26e-12             -7.2618e-06          
  1.05                  7.6262e-06            1.3844e-08            -3.6e-13              -7.6362e-06          
  1.1                   7.9742e-06            1.7304e-08            -1.14e-12             -7.9876e-06          
  1.15                  8.2996e-06            2.144e-08             -2e-12                -8.3168e-06          
  1.2                   8.6026e-06            2.6336e-08            -3.42e-12             -8.6248e-06          
  1.25                  8.8816e-06            3.2094e-08            -6.78e-12             -8.9102e-06          
  1.3                   9.139e-06             3.8828e-08            -1.65e-11             -9.1738e-06          
  1.35                  9.3752e-06            4.6676e-08            -3.532e-11            -9.4182e-06          
END_DB

BEGIN_DB
 ICCAP_VAR vb         -0.6           
 ICCAP_VAR vd         0.05           
 ICCAP_VAR vs         0              

 #vg                    id                    ig                    ib                    is                   
  -0.5                  9.4e-13               -2e-12                -4.54e-12             1.02e-12             
  -0.45                 6.6e-13               -1.38e-12             -4.22e-12             9e-13                
  -0.4                  5.4e-13               -1.12e-12             -4.34e-12             6.4e-13              
  -0.35                 4e-13                 -7e-13                -3.42e-12             5.4e-13              
  -0.3                  2.2e-13               -4.2e-13              -4.1e-12              4.6e-13              
  -0.25                 1.2e-13               -2.8e-13              -3.98e-12             4e-14                
  -0.2                  3e-13                 -6e-14                -3.14e-12             3.8e-13              
  -0.15                 3e-13                 4e-14                 -2.2e-12              -1.6e-13             
  -0.1                  1.48e-12              1.6e-13               -3.14e-12             -1.26e-12            
  -0.05                 7.56e-12              2.4e-13               -3.64e-12             -7.5e-12             
  0                     3.996e-11             3.8e-13               -2.32e-12             -4.016e-11           
  0.05                  2.102e-10             4e-13                 -2.24e-12             -2.1018e-10          
  0.1                   1.08508e-09           1.06e-12              -2.32e-12             -1.08556e-09         
  0.15                  5.4424e-09            3.5e-12               -2.54e-12             -5.4418e-09          
  0.2                   2.5104e-08            1.052e-11             -2.66e-12             -2.5092e-08          
  0.25                  9.8254e-08            2.612e-11             -3.34e-12             -9.8222e-08          
  0.3                   2.9398e-07            5.492e-11             -1.1e-12              -2.9394e-07          
  0.35                  6.5186e-07            1.0172e-10            -1.54e-12             -6.52e-07            
  0.4                   1.12718e-06           1.7524e-10            -2.82e-12             -1.12734e-06         
  0.45                  1.653e-06             2.8696e-10            -1.06e-12             -1.6492e-06          
  0.5                   2.1852e-06            4.5112e-10            -1.94e-12             -2.182e-06           
  0.55                  2.7144e-06            6.8484e-10            -1.94e-12             -2.7114e-06          
  0.6                   3.2386e-06            1.0096e-09            -1.02e-12             -3.2358e-06          
  0.65                  3.7548e-06            1.4494e-09            -1.66e-12             -3.7524e-06          
  0.7                   4.2588e-06            2.0328e-09            -2.38e-12             -4.257e-06           
  0.75                  4.7502e-06            2.796e-09             -2.32e-12             -4.7492e-06          
  0.8                   5.2256e-06            3.7766e-09            -1.64e-12             -5.2254e-06          
  0.85                  5.6842e-06            5.023e-09             -1.62e-12             -5.6856e-06          
  0.9                   6.1232e-06            6.5828e-09            -1.68e-12             -6.126e-06           
  0.95                  6.5418e-06            8.517e-09             -2.32e-12             -6.5466e-06          
  1                     6.9392e-06            1.08872e-08           -1.58e-12             -6.9464e-06          
  1.05                  7.315e-06             1.3768e-08            -1.76e-12             -7.3246e-06          
  1.1                   7.6666e-06            1.722e-08             -6.6e-13              -7.68e-06            
  1.15                  7.9964e-06            2.1346e-08            -1.6e-12              -8.0138e-06          
  1.2                   8.3028e-06            2.6234e-08            -4.82e-12             -8.3256e-06          
  1.25                  8.5866e-06            3.1984e-08            -9.18e-12             -8.6152e-06          
  1.3                   8.8484e-06            3.8712e-08            -1.774e-11            -8.8834e-06          
  1.35                  9.0892e-06            4.6552e-08            -3.606e-11            -9.1314e-06          
END_DB

BEGIN_DB
 ICCAP_VAR vb         -0.9           
 ICCAP_VAR vd         0.05           
 ICCAP_VAR vs         0              

 #vg                    id                    ig                    ib                    is                   
  -0.5                  9.4e-13               -1.9e-12              -4.06e-12             9.8e-13              
  -0.45                 7.4e-13               -1.4e-12              -5.36e-12             7.8e-13              
  -0.4                  4.8e-13               -8.4e-13              -5.64e-12             7.2e-13              
  -0.35                 3.2e-13               -7e-13                -4.94e-12             4.6e-13              
  -0.3                  2.2e-13               -4.4e-13              -4.44e-12             5.4e-13              
  -0.25                 2.8e-13               -3.4e-13              -3.18e-12             2.4e-13              
  -0.2                  1.6e-13               0                     -4.7e-12              3.2e-13              
  -0.15                 1.2e-13               1e-13                 -4.16e-12             6e-14                
  -0.1                  5.8e-13               1.2e-13               -3.6e-12              -3.8e-13             
  -0.05                 3.18e-12              3.2e-13               -1.98e-12             -3.12e-12            
  0                     1.706e-11             3.2e-13               -3.16e-12             -1.694e-11           
  0.05                  9.232e-11             4.6e-13               -3.68e-12             -9.196e-11           
  0.1                   4.9156e-10            7.8e-13               -3.9e-12              -4.92e-10            
  0.15                  2.5668e-09            2.34e-12              -3.16e-12             -2.5672e-09          
  0.2                   1.26e-08              7.84e-12              -2e-12                -1.259e-08           
  0.25                  5.4236e-08            2.176e-11             -3.28e-12             -5.4244e-08          
  0.3                   1.8412e-07            4.84e-11              -3.12e-12             -1.8402e-07          
  0.35                  4.6268e-07            9.36e-11              -1.78e-12             -4.6266e-07          
  0.4                   8.8182e-07            1.648e-10             -2.64e-12             -8.8192e-07          
  0.45                  1.3792e-06            2.7382e-10            -2.88e-12             -1.3754e-06          
  0.5                   1.899e-06             4.346e-10             -3.06e-12             -1.8954e-06          
  0.55                  2.4212e-06            6.6462e-10            -1.5e-12              -2.4182e-06          
  0.6                   2.9416e-06            9.8442e-10            -2.86e-12             -2.939e-06           
  0.65                  3.456e-06             1.4204e-09            -1.98e-12             -3.4536e-06          
  0.7                   3.9596e-06            1.9984e-09            -2.16e-12             -3.9578e-06          
  0.75                  4.4522e-06            2.7564e-09            -3.72e-12             -4.4508e-06          
  0.8                   4.929e-06             3.7312e-09            -2.12e-12             -4.929e-06           
  0.85                  5.3902e-06            4.9708e-09            -2.14e-12             -5.3912e-06          
  0.9                   5.8318e-06            6.5234e-09            -2.38e-12             -5.8346e-06          
  0.95                  6.254e-06             8.4494e-09            -2.56e-12             -6.2588e-06          
  1                     6.655e-06             1.08132e-08           -2.28e-12             -6.6618e-06          
  1.05                  7.034e-06             1.3686e-08            -1.88e-12             -7.0434e-06          
  1.1                   7.3894e-06            1.713e-08             -2.04e-12             -7.4028e-06          
  1.15                  7.7228e-06            2.1248e-08            -3.6e-12              -7.7402e-06          
  1.2                   8.0336e-06            2.6128e-08            -5.88e-12             -8.0558e-06          
  1.25                  8.3214e-06            3.187e-08             -9.78e-12             -8.3496e-06          
  1.3                   8.5866e-06            3.8584e-08            -1.834e-11            -8.6214e-06          
  1.35                  8.8308e-06            4.6418e-08            -3.644e-11            -8.8732e-06          
END_DB

BEGIN_DB
 ICCAP_VAR vb         -1.2           
 ICCAP_VAR vd         0.05           
 ICCAP_VAR vs         0              

 #vg                    id                    ig                    ib                    is                   
  -0.5                  9.6e-13               -1.88e-12             -5.48e-12             9.8e-13              
  -0.45                 6.8e-13               -1.34e-12             -6.32e-12             6e-13                
  -0.4                  4.8e-13               -8.4e-13              -4.32e-12             6e-13                
  -0.35                 3.6e-13               -4.8e-13              -3.84e-12             3.4e-13              
  -0.3                  2.8e-13               -3.8e-13              -5.36e-12             3.8e-13              
