! VERSION = 6.00
BEGIN_HEADER
 ICCAP_INPUTS
  vd         V  D GROUND SMU1 0.1 LIN        1    0          1.35       28   0.05      
  vg         V  G GROUND SMU2 0.001 LIN        2    0.438      1.35       5    0.228     
  vb         V  B GROUND SMU4 0.1 CON        -1.2
  vs         V  S GROUND SMU3 0.1 CON        0
 ICCAP_OUTPUTS
  id         I  D GROUND SMU1 B
  ig         I  G GROUND SMU2 B
  ib         I  B GROUND SMU4 B
  is         I  S GROUND SMU3 B
 ICCAP_VALUES
  MASTER_SETUP_TYPE "~dc_idvd~"
  LINVT_VALUE "|idvg|100.0n|100.0m|1.000m|5|1.350|"
  LISTVT_VALUE ""
  TYPE "1"
  TEMP " 27.0000 "
  IS_TNOM " 1.00000 "
  MAIN.W "600.0n"
  MAIN.L "1.200u"
  MAIN.AD "204.0f"
  MAIN.AS "204.0f"
  MAIN.PD "1.880u"
  MAIN.PS "1.880u"
  MAIN.NF "1.000"
  MAIN.M "1"
  MAIN.NRD "0.000"
  MAIN.NRS "0.000"
  MAIN.LDRIFT1 "1E-06"
  MAIN.LDRIFT2 "1E-06"
  MAIN.SA "0.000"
  MAIN.SB "0.000"
  MAIN.SD "0.000"
  MAIN.SCA "0.000"
  MAIN.SCB "0.000"
  MAIN.SCC "0.000"
  MAIN.SC "0.000"
  MODULE "S543"
  PIN_D "12"
  PIN_G "9"
  PIN_S "10"
  PIN_B "11"
  PIN_E ""
  PIN_6 ""
  XY_ID ""
  FUNC "LW Scale"
  STI "SA ref"
  WPE "WPE ref"
  COMMENT ""
  DIS_MEAS ""
  TypeTCI "10"
END_HEADER

BEGIN_DB
 ICCAP_VAR vg         0.438          
 ICCAP_VAR vb         -1.2           
 ICCAP_VAR vs         0              

 #vd                    id                    ig                    ib                    is                   
  0                     7.0502e-10            3.6e-12               -1.456e-11            -5.559e-10           
  0.05                  2.8562e-07            2.82e-12              -1.266e-11            -2.853e-07           
  0.1                   3.951e-07             2.62e-12              -1.206e-11            -3.9534e-07          
  0.15                  4.4076e-07            2.58e-12              -1.288e-11            -4.4052e-07          
  0.2                   4.6818e-07            2.38e-12              -1.218e-11            -4.6818e-07          
  0.25                  4.908e-07             2.32e-12              -1.03e-11             -4.91e-07            
  0.3                   5.1142e-07            2.3e-12               -1.094e-11            -5.116e-07           
  0.35                  5.3072e-07            2.2e-12               -1.136e-11            -5.3066e-07          
  0.4                   5.4914e-07            2.14e-12              -9.74e-12             -5.491e-07           
  0.45                  5.6646e-07            2.16e-12              -8.32e-12             -5.6654e-07          
  0.5                   5.831e-07             2.04e-12              -1.074e-11            -5.8298e-07          
  0.55                  5.9892e-07            2.16e-12              -9.02e-12             -5.9904e-07          
  0.6                   6.1418e-07            2.02e-12              -9.02e-12             -6.142e-07           
  0.65                  6.2854e-07            2e-12                 -7.32e-12             -6.287e-07           
  0.7                   6.4258e-07            1.92e-12              -8.04e-12             -6.4264e-07          
  0.75                  6.5592e-07            1.86e-12              -8.44e-12             -6.5576e-07          
  0.8                   6.6848e-07            1.78e-12              -7.2e-12              -6.6868e-07          
  0.85                  6.8092e-07            1.82e-12              -5.76e-12             -6.8088e-07          
  0.9                   6.9262e-07            1.78e-12              -7.12e-12             -6.925e-07           
  0.95                  7.0368e-07            1.68e-12              -7.86e-12             -7.0376e-07          
  1                     7.1452e-07            1.58e-12              -7.2e-12              -7.1434e-07          
  1.05                  7.2484e-07            1.4e-12               -6.46e-12             -7.2488e-07          
  1.1                   7.3468e-07            1.44e-12              -7.84e-12             -7.3474e-07          
  1.15                  7.4414e-07            1.36e-12              -8.68e-12             -7.4412e-07          
  1.2                   7.5308e-07            1.24e-12              -1.038e-11            -7.53e-07            
  1.25                  7.6168e-07            1.16e-12              -1.344e-11            -7.616e-07           
  1.3                   7.6984e-07            1.08e-12              -2.146e-11            -7.6968e-07          
  1.35                  7.7768e-07            9e-13                 -3.46e-11             -7.7756e-07          
END_DB

BEGIN_DB
 ICCAP_VAR vg         0.666          
 ICCAP_VAR vb         -1.2           
 ICCAP_VAR vs         0              

 #vd                    id                    ig                    ib                    is                   
  0                     2.7822e-09            2.554e-11             -3.48e-12             -2.6042e-09          
  0.05                  2.1028e-06            2.162e-11             -3.9e-12              -2.0988e-06          
  0.1                   3.6964e-06            1.882e-11             -4.66e-12             -3.6926e-06          
  0.15                  4.792e-06             1.704e-11             -2.54e-12             -4.7874e-06          
  0.2                   5.4636e-06            1.588e-11             -4.18e-12             -5.4602e-06          
  0.25                  5.8542e-06            1.512e-11             -4.68e-12             -5.8496e-06          
  0.3                   6.0934e-06            1.472e-11             -3.28e-12             -6.0904e-06          
  0.35                  6.2624e-06            1.458e-11             -3.94e-12             -6.2592e-06          
  0.4                   6.3988e-06            1.42e-11              -4.14e-12             -6.3948e-06          
  0.45                  6.5176e-06            1.404e-11             -2.14e-12             -6.5136e-06          
  0.5                   6.6264e-06            1.394e-11             -3.92e-12             -6.623e-06           
  0.55                  6.7274e-06            1.368e-11             -3.78e-12             -6.723e-06           
  0.6                   6.823e-06             1.35e-11              -2.7e-12              -6.8192e-06          
  0.65                  6.914e-06             1.338e-11             -4.34e-12             -6.9108e-06          
  0.7                   7.0018e-06            1.336e-11             -3.94e-12             -6.9976e-06          
  0.75                  7.0858e-06            1.316e-11             -5.6e-12              -7.0816e-06          
  0.8                   7.1664e-06            1.306e-11             -4.14e-12             -7.1624e-06          
  0.85                  7.2452e-06            1.292e-11             -3.86e-12             -7.2418e-06          
  0.9                   7.321e-06             1.292e-11             -2.56e-12             -7.317e-06           
  0.95                  7.3936e-06            1.274e-11             -3.58e-12             -7.3912e-06          
  1                     7.464e-06             1.26e-11              -3.72e-12             -7.4606e-06          
  1.05                  7.5336e-06            1.238e-11             -3.34e-12             -7.5306e-06          
  1.1                   7.6006e-06            1.23e-11              -4.18e-12             -7.5972e-06          
  1.15                  7.665e-06             1.22e-11              -3.86e-12             -7.661e-06           
  1.2                   7.7278e-06            1.22e-11              -5.22e-12             -7.7238e-06          
  1.25                  7.789e-06             1.208e-11             -8.38e-12             -7.7854e-06          
  1.3                   7.8486e-06            1.196e-11             -1.508e-11            -7.845e-06           
  1.35                  7.9068e-06            1.184e-11             -2.896e-11            -7.9028e-06          
END_DB

BEGIN_DB
 ICCAP_VAR vg         0.894          
 ICCAP_VAR vb         -1.2           
 ICCAP_VAR vs         0              

 #vd                    id                    ig                    ib                    is                   
  0                     3.5636e-09            1.0346e-10            -1.76e-12             -4.2228e-09          
  0.05                  4.0692e-06            9.1e-11               -2.46e-12             -4.0648e-06          
  0.1                   7.6816e-06            8.052e-11             -2.32e-12             -7.6782e-06          
  0.15                  1.0816e-05            7.204e-11             -3.18e-12             -1.08124e-05         
  0.2                   1.3454e-05            6.548e-11             -2.02e-12             -1.3438e-05          
  0.25                  1.557e-05             6.03e-11              -3.08e-12             -1.5554e-05          
  0.3                   1.7182e-05            5.66e-11              -2.1e-12              -1.7164e-05          
  0.35                  1.833e-05             5.39e-11              -2.46e-12             -1.8314e-05          
  0.4                   1.912e-05             5.21e-11              -3.32e-12             -1.9102e-05          
  0.45                  1.9652e-05            5.108e-11             -1.88e-12             -1.9638e-05          
  0.5                   2.0036e-05            5.03e-11              -2.62e-12             -2.0018e-05          
  0.55                  2.0324e-05            4.962e-11             -3.08e-12             -2.0306e-05          
  0.6                   2.0564e-05            4.902e-11             -3.08e-12             -2.0548e-05          
  0.65                  2.0774e-05            4.874e-11             -2.74e-12             -2.0758e-05          
  0.7                   2.0966e-05            4.828e-11             -2.9e-12              -2.095e-05           
  0.75                  2.1144e-05            4.79e-11              -1.74e-12             -2.1126e-05          
  0.8                   2.1312e-05            4.764e-11             -2.8e-12              -2.1296e-05          
  0.85                  2.1476e-05            4.734e-11             -3.24e-12             -2.1456e-05          
  0.9                   2.1628e-05            4.69e-11              -1.98e-12             -2.161e-05           
  0.95                  2.1778e-05            4.682e-11             -3.04e-12             -2.176e-05           
  1                     2.1922e-05            4.646e-11             -2.5e-12              -2.1904e-05          
  1.05                  2.2062e-05            4.602e-11             -1.48e-12             -2.2044e-05          
  1.1                   2.2196e-05            4.59e-11              -2.62e-12             -2.218e-05           
  1.15                  2.2328e-05            4.572e-11             -2.68e-12             -2.2308e-05          
  1.2                   2.2454e-05            4.53e-11              -1.94e-12             -2.2436e-05          
  1.25                  2.2576e-05            4.502e-11             -3.68e-12             -2.2558e-05          
  1.3                   2.2698e-05            4.504e-11             -4.08e-12             -2.268e-05           
  1.35                  2.2814e-05            4.458e-11             -5.44e-12             -2.2798e-05          
END_DB

BEGIN_DB
 ICCAP_VAR vg         1.122          
 ICCAP_VAR vb         -1.2           
 ICCAP_VAR vs         0              

 #vd                    id                    ig                    ib                    is                   
  0                     3.2584e-09            3.0858e-10            -1.76e-12             -5.6312e-09          
  0.05                  5.697e-06             2.7792e-10            -1.12e-12             -5.693e-06           
  0.1                   1.10244e-05           2.5096e-10            -1.92e-12             -1.10208e-05         
  0.15                  1.5966e-05            2.2778e-10            -1e-12                -1.595e-05           
  0.2                   2.048e-05             2.0784e-10            -2.16e-12             -2.0464e-05          
  0.25                  2.455e-05             1.9112e-10            -1.96e-12             -2.4532e-05          
  0.3                   2.8152e-05            1.7682e-10            -1.32e-12             -2.8134e-05          
  0.35                  3.1262e-05            1.6528e-10            -2.32e-12             -3.1244e-05          
  0.4                   3.3872e-05            1.5616e-10            -1.8e-12              -3.3856e-05          
  0.45                  3.598e-05             1.4886e-10            -1.72e-12             -3.5964e-05          
  0.5                   3.7618e-05            1.4318e-10            -2.52e-12             -3.7602e-05          
  0.55                  3.8846e-05            1.393e-10             -2.06e-12             -3.883e-05           
  0.6                   3.974e-05             1.3654e-10            -1.7e-12              -3.9722e-05          
  0.65                  4.0394e-05            1.3448e-10            -3e-12                -4.0378e-05          
  0.7                   4.0886e-05            1.3284e-10            -1.4e-12              -4.0872e-05          
  0.75                  4.1282e-05            1.316e-10             -2.14e-12             -4.1266e-05          
  0.8                   4.1614e-05            1.3056e-10            -2.74e-12             -4.1598e-05          
  0.85                  4.1908e-05            1.3e-10               -1.74e-12             -4.189e-05           
  0.9                   4.2174e-05            1.2906e-10            -1.88e-12             -4.216e-05           
  0.95                  4.2424e-05            1.2828e-10            -2.42e-12             -4.2406e-05          
  1                     4.2656e-05            1.2758e-10            -1.74e-12             -4.2644e-05          
  1.05                  4.2882e-05            1.2696e-10            -2.06e-12             -4.2862e-05          
  1.1                   4.3094e-05            1.2638e-10            -2.28e-12             -4.3078e-05          
  1.15                  4.33e-05              1.2588e-10            -1.4e-12              -4.3284e-05          
  1.2                   4.35e-05              1.253e-10             -2.32e-12             -4.3484e-05          
  1.25                  4.3692e-05            1.2468e-10            -2.28e-12             -4.3678e-05          
  1.3                   4.3882e-05            1.241e-10             -1.4e-12              -4.3864e-05          
  1.35                  4.4062e-05            1.2366e-10            -2.36e-12             -4.4044e-05          
END_DB

BEGIN_DB
 ICCAP_VAR vg         1.35           
 ICCAP_VAR vb         -1.2           
 ICCAP_VAR vs         0              

 #vd                    id                    ig                    ib                    is                   
  0                     1.0512e-08            7.5734e-10            -1.98e-12             -1.0898e-08          
  0.05                  6.9368e-06            6.9288e-10            -1.36e-12             -6.9342e-06          
  0.1                   1.36e-05              6.3518e-10            -1.06e-12             -1.3584e-05          
  0.15                  1.9948e-05            5.839e-10             -1.8e-12              -1.993e-05           
  0.2                   2.5964e-05            5.3806e-10            -2.28e-12             -2.5948e-05          
  0.25                  3.1634e-05            4.9762e-10            -9e-13                -3.1616e-05          
  0.3                   3.6916e-05            4.621e-10             -1.88e-12             -3.69e-05            
  0.35                  4.1798e-05            4.3108e-10            -1.96e-12             -4.1778e-05          
  0.4                   4.6244e-05            4.0442e-10            -8.2e-13              -4.6228e-05          
  0.45                  5.0246e-05            3.814e-10             -2.34e-12             -5.0246e-05          
  0.5                   5.3796e-05            3.6196e-10            -2.1e-12              -5.378e-05           
  0.55                  5.685e-05             3.4588e-10            -4.2e-13              -5.6834e-05          
  0.6                   5.9416e-05            3.3284e-10            -2.1e-12              -5.94e-05            
  0.65                  6.1506e-05            3.225e-10             -1.94e-12             -6.149e-05           
  0.7                   6.3162e-05            3.1448e-10            -5.6e-13              -6.3146e-05          
  0.75                  6.4436e-05            3.0838e-10            -2.32e-12             -6.442e-05           
  0.8                   6.5404e-05            3.0384e-10            -1.8e-12              -6.5386e-05          
  0.85                  6.6146e-05            3.006e-10             -5e-13                -6.613e-05           
  0.9                   6.6732e-05            2.9782e-10            -4.38e-12             -6.6718e-05          
  0.95                  6.7212e-05            2.958e-10             -1.72e-12             -6.7194e-05          
  1                     6.7616e-05            2.9392e-10            -1.78e-12             -6.76e-05            
  1.05                  6.7982e-05            2.9216e-10            -2.2e-12              -6.7966e-05          
  1.1                   6.8316e-05            2.906e-10             -1.34e-12             -6.8298e-05          
  1.15                  6.8624e-05            2.8944e-10            -1.08e-12             -6.8604e-05          
  1.2                   6.891e-05             2.8824e-10            -1.92e-12             -6.8894e-05          
  1.25                  6.9188e-05            2.87e-10              -9.2e-13              -6.9172e-05          
  1.3                   6.9456e-05            2.8596e-10            -1.34e-12             -6.944e-05           
  1.35                  6.9708e-05            2.85e-10              -2.82e-12             -6.9694e-05          
END_DB

