! VERSION = 6.00
BEGIN_HEADER
 ICCAP_INPUTS
  vg         V  G GROUND SMU2 0.001 LIN        1    -0.5       1.35       38   0.05      
  vb         V  B GROUND SMU4 0.1 LIN        2    0          -1.2       5    -0.3      
  vd         V  D GROUND SMU1 0.1 LIST       3 3 0.05 0.6 1.2
  vs         V  S GROUND SMU3 0.1 CON        0
 ICCAP_OUTPUTS
  id         I  D GROUND SMU1 B
  ig         I  G GROUND SMU2 B
  ib         I  B GROUND SMU4 B
  is         I  S GROUND SMU3 B
 ICCAP_VALUES
  MASTER_SETUP_TYPE "~dc_idvg~"
  LINVT_VALUE ""
  LISTVT_VALUE ""
  TYPE "1"
  TEMP " 27.0000 "
  IS_TNOM " 1.00000 "
  MAIN.W "2.000u"
  MAIN.L "10.00u"
  MAIN.AD "680.0f"
  MAIN.AS "680.0f"
  MAIN.PD "4.680u"
  MAIN.PS "4.680u"
  MAIN.NF "1.000"
  MAIN.M "1"
  MAIN.NRD "0.000"
  MAIN.NRS "0.000"
  MAIN.LDRIFT1 "1E-06"
  MAIN.LDRIFT2 "1E-06"
  MAIN.SA "0.000"
  MAIN.SB "0.000"
  MAIN.SD "0.000"
  MAIN.SCA "0.000"
  MAIN.SCB "0.000"
  MAIN.SCC "0.000"
  MAIN.SC "0.000"
  MODULE "S543"
  PIN_D "20"
  PIN_G "1"
  PIN_S "2"
  PIN_B "19"
  PIN_E ""
  PIN_6 ""
  XY_ID ""
  FUNC "W Scale"
  STI "SA ref"
  WPE "WPE ref"
  COMMENT ""
  DIS_MEAS ""
  TypeTCI "10"
END_HEADER

BEGIN_DB
 ICCAP_VAR vb         0              
 ICCAP_VAR vd         0.05           
 ICCAP_VAR vs         0              

 #vg                    id                    ig                    ib                    is                   
  -0.5                  4e-13                 -4.494e-11            4.586e-11             6.8e-13              
  -0.45                 4.2e-13               -7.5e-12              9.36e-12              6.6e-13              
  -0.4                  3.2e-13               -1.58e-12             3.8e-12               4.6e-13              
  -0.35                 3.4e-13               -6e-13                2.06e-12              3.6e-13              
  -0.3                  2e-13                 -2.6e-13              2.22e-12              2e-13                
  -0.25                 2.6e-13               0                     2.5e-12               1.4e-13              
  -0.2                  4.4e-13               1.6e-13               2.76e-12              -6e-14               
  -0.15                 1.42e-12              1.6e-13               2.32e-12              -1.16e-12            
  -0.1                  6.68e-12              1.8e-13               1.78e-12              -6.34e-12            
  -0.05                 3.186e-11             3.4e-13               1.5e-12               -3.172e-11           
  0                     1.5602e-10            2.6e-13               2.04e-12              -1.5602e-10          
  0.05                  7.5464e-10            5.2e-13               2.5e-12               -7.5368e-10          
  0.1                   3.491e-09             1.08e-12              2.24e-12              -3.4884e-09          
  0.15                  1.483e-08             2.84e-12              1.18e-12              -1.4812e-08          
  0.2                   5.2356e-08            6.86e-12              9e-13                 -5.2348e-08          
  0.25                  1.4178e-07            1.418e-11             2.2e-12               -1.4166e-07          
  0.3                   2.9042e-07            2.72e-11              1.12e-12              -2.9042e-07          
  0.35                  4.7828e-07            4.834e-11             9.8e-13               -4.7822e-07          
  0.4                   6.8092e-07            8.15e-11              1.18e-12              -6.8088e-07          
  0.45                  8.8712e-07            1.3164e-10            1.96e-12              -8.8714e-07          
  0.5                   1.09262e-06           2.0502e-10            1.68e-12              -1.09284e-06         
  0.55                  1.2976e-06            3.0896e-10            1.58e-12              -1.2938e-06          
  0.6                   1.498e-06             4.5286e-10            1.9e-12               -1.4946e-06          
  0.65                  1.695e-06             6.4794e-10            1.12e-12              -1.6918e-06          
  0.7                   1.887e-06             9.0612e-10            2e-12                 -1.884e-06           
  0.75                  2.0738e-06            1.2442e-09            9.2e-13               -2.0712e-06          
  0.8                   2.2542e-06            1.6768e-09            1.04e-12              -2.2522e-06          
  0.85                  2.4282e-06            2.2264e-09            1.18e-12              -2.4266e-06          
  0.9                   2.5944e-06            2.9136e-09            2.04e-12              -2.5936e-06          
  0.95                  2.753e-06             3.7632e-09            1.64e-12              -2.753e-06           
  1                     2.9036e-06            4.8046e-09            4.6e-13               -2.9044e-06          
  1.05                  3.0456e-06            6.0674e-09            1.14e-12              -3.0478e-06          
  1.1                   3.1788e-06            7.5812e-09            1.26e-12              -3.1826e-06          
  1.15                  3.3038e-06            9.3886e-09            1.12e-12              -3.3096e-06          
  1.2                   3.4202e-06            1.153e-08             4.8e-13               -3.4278e-06          
  1.25                  3.528e-06             1.4042e-08            -8e-13                -3.5382e-06          
  1.3                   3.6272e-06            1.6978e-08            -6.54e-12             -3.6404e-06          
  1.35                  3.7186e-06            2.0402e-08            -1.34e-11             -3.735e-06           
END_DB

BEGIN_DB
 ICCAP_VAR vb         -0.3           
 ICCAP_VAR vd         0.05           
 ICCAP_VAR vs         0              

 #vg                    id                    ig                    ib                    is                   
  -0.5                  5.4e-13               -1.38e-12             -2.78e-12             6.4e-13              
  -0.45                 3.8e-13               -7.6e-13              -3.7e-12              5e-13                
  -0.4                  2e-13                 -5.4e-13              -3.18e-12             4e-13                
  -0.35                 2e-13                 -2.2e-13              -2.26e-12             3.2e-13              
  -0.3                  1.2e-13               -6e-14                -1e-12                1.2e-13              
  -0.25                 1.4e-13               6e-14                 -1.96e-12             1.8e-13              
  -0.2                  1.8e-13               6e-14                 -5.26e-12             1.2e-13              
  -0.15                 3.6e-13               2e-13                 -1.76e-12             -6e-14               
  -0.1                  1.62e-12              3.6e-13               -1.32e-12             -1.4e-12             
  -0.05                 8.18e-12              3.6e-13               -1e-13                -8.06e-12            
  0                     4.144e-11             3.6e-13               -1.06e-12             -4.126e-11           
  0.05                  2.1022e-10            5.8e-13               -1.34e-12             -2.101e-10           
  0.1                   1.04584e-09           8.6e-13               -2.14e-12             -1.04848e-09         
  0.15                  4.952e-09             2.08e-12              -1e-12                -4.961e-09           
  0.2                   2.0866e-08            5.38e-12              2.2e-13               -2.0852e-08          
  0.25                  7.0476e-08            1.244e-11             -1.04e-12             -7.0522e-08          
  0.3                   1.7794e-07            2.472e-11             -2.6e-13              -1.7784e-07          
  0.35                  3.4096e-07            4.516e-11             -7.2e-13              -3.409e-07           
  0.4                   5.3406e-07            7.736e-11             -2.6e-13              -5.3396e-07          
  0.45                  7.3672e-07            1.265e-10             -4.6e-13              -7.3672e-07          
  0.5                   9.407e-07             1.9864e-10            -1.24e-12             -9.409e-07           
  0.55                  1.14314e-06           3.0114e-10            -8.6e-13              -1.14342e-06         
  0.6                   1.3452e-06            4.434e-10             -1.16e-12             -1.3416e-06          
  0.65                  1.542e-06             6.3682e-10            -1.4e-13              -1.5388e-06          
  0.7                   1.7344e-06            8.9284e-10            3.4e-13               -1.7314e-06          
  0.75                  1.922e-06             1.229e-09             -6.2e-13              -1.9194e-06          
  0.8                   2.1032e-06            1.6602e-09            -8e-13                -2.101e-06           
  0.85                  2.278e-06             2.207e-09             1.2e-13               -2.2766e-06          
  0.9                   2.4456e-06            2.8916e-09            2e-13                 -2.4448e-06          
  0.95                  2.6058e-06            3.7392e-09            -1e-12                -2.6056e-06          
  1                     2.7576e-06            4.7774e-09            -1.54e-12             -2.7586e-06          
  1.05                  2.9014e-06            6.0374e-09            5.2e-13               -2.9034e-06          
  1.1                   3.0362e-06            7.5496e-09            -7.2e-13              -3.04e-06            
  1.15                  3.163e-06             9.353e-09             -1.22e-12             -3.1684e-06          
  1.2                   3.2808e-06            1.149e-08             -2.18e-12             -3.2886e-06          
  1.25                  3.3904e-06            1.4004e-08            -2.18e-12             -3.4004e-06          
  1.3                   3.4914e-06            1.6938e-08            -7.3e-12              -3.5044e-06          
  1.35                  3.5842e-06            2.036e-08             -1.56e-11             -3.6008e-06          
END_DB

BEGIN_DB
 ICCAP_VAR vb         -0.6           
 ICCAP_VAR vd         0.05           
 ICCAP_VAR vs         0              

 #vg                    id                    ig                    ib                    is                   
  -0.5                  4.4e-13               -1.32e-12             -5.24e-12             5.8e-13              
  -0.45                 2.8e-13               -7.2e-13              -4.6e-12              5.8e-13              
  -0.4                  3.2e-13               -5e-13                -4.6e-12              3.4e-13              
  -0.35                 1.2e-13               -2e-13                -3.06e-12             1.8e-13              
  -0.3                  2.4e-13               -2e-14                -3.14e-12             2.4e-13              
  -0.25                 1.4e-13               0                     -4.16e-12             2e-13                
  -0.2                  1e-13                 1.6e-13               -3.64e-12             2.4e-13              
  -0.15                 1.6e-13               2.8e-13               -2.46e-12             -4e-14               
  -0.1                  5.6e-13               2.6e-13               -2.46e-12             -5e-13               
  -0.05                 2.78e-12              3.4e-13               -2.48e-12             -2.46e-12            
  0                     1.402e-11             4.4e-13               -2.78e-12             -1.386e-11           
  0.05                  7.4e-11               5.2e-13               -2.82e-12             -7.396e-11           
  0.1                   3.845e-10             7e-13                 -2.36e-12             -3.8442e-10          
  0.15                  1.939e-09             1.44e-12              -1.52e-12             -1.9386e-09          
  0.2                   9.034e-09             4.22e-12              -2.12e-12             -9.034e-09           
  0.25                  3.5666e-08            1.042e-11             -2.6e-12              -3.5618e-08          
  0.3                   1.07282e-07           2.222e-11             -2.26e-12             -1.07228e-07         
  0.35                  2.3914e-07            4.168e-11             -8.6e-13              -2.391e-07           
  0.4                   4.1548e-07            7.304e-11             -1.8e-12              -4.1542e-07          
  0.45                  6.1106e-07            1.2096e-10            -2.16e-12             -6.1114e-07          
  0.5                   8.1166e-07            1.917e-10             -2.46e-12             -8.1184e-07          
  0.55                  1.01214e-06           2.9266e-10            -1.74e-12             -1.01238e-06         
  0.6                   1.2128e-06            4.3316e-10            -3.04e-12             -1.2094e-06          
  0.65                  1.4092e-06            6.247e-10             -2.3e-12              -1.406e-06           
  0.7                   1.6014e-06            8.791e-10             -2.08e-12             -1.5986e-06          
  0.75                  1.7894e-06            1.2126e-09            -1.66e-12             -1.7868e-06          
  0.8                   1.9714e-06            1.6414e-09            -3.8e-13              -1.9692e-06          
  0.85                  2.1472e-06            2.1862e-09            -1.52e-12             -2.1456e-06          
  0.9                   2.3156e-06            2.8678e-09            -1.68e-12             -2.3148e-06          
  0.95                  2.477e-06             3.713e-09             -2.18e-12             -2.4768e-06          
  1                     2.6302e-06            4.7488e-09            -8.4e-13              -2.631e-06           
  1.05                  2.7752e-06            6.0062e-09            -9.4e-13              -2.7774e-06          
  1.1                   2.9116e-06            7.5154e-09            -1.6e-12              -2.9154e-06          
  1.15                  3.0398e-06            9.3174e-09            -2.76e-12             -3.0452e-06          
  1.2                   3.1592e-06            1.14498e-08           -2.64e-12             -3.1668e-06          
  1.25                  3.27e-06              1.396e-08             -3.94e-12             -3.2802e-06          
  1.3                   3.3724e-06            1.6894e-08            -7.24e-12             -3.3856e-06          
  1.35                  3.4668e-06            2.0314e-08            -1.524e-11            -3.4834e-06          
END_DB

BEGIN_DB
 ICCAP_VAR vb         -0.9           
 ICCAP_VAR vd         0.05           
 ICCAP_VAR vs         0              

 #vg                    id                    ig                    ib                    is                   
  -0.5                  4e-13                 -1.32e-12             -4.28e-12             6.6e-13              
  -0.45                 4e-13                 -6.2e-13              -4.64e-12             4.6e-13              
  -0.4                  3e-13                 -4e-13                -4.64e-12             3.8e-13              
  -0.35                 3.8e-13               -1.2e-13              -4.82e-12             3.2e-13              
  -0.3                  6e-14                 -6e-14                -4.14e-12             1.2e-13              
  -0.25                 1.8e-13               1.4e-13               -3.68e-12             2.4e-13              
  -0.2                  2e-13                 1.2e-13               -3.46e-12             2e-13                
  -0.15                 0                     2.4e-13               -3.72e-12             -2e-14               
  -0.1                  2e-13                 1.6e-13               -4.2e-12              8e-14                
  -0.05                 1.12e-12              2.2e-13               -3.4e-12              -8.8e-13             
  0                     5.82e-12              4e-13                 -2.76e-12             -5.66e-12            
  0.05                  3.092e-11             4e-13                 -1.94e-12             -3.084e-11           
  0.1                   1.6592e-10            5.6e-13               -3.16e-12             -1.6612e-10          
  0.15                  8.7442e-10            1.1e-12               -3.34e-12             -8.7482e-10          
  0.2                   4.338e-09             3.14e-12              -3.5e-12              -4.34e-09            
  0.25                  1.8974e-08            8.4e-12               -2.7e-12              -1.8958e-08          
  0.3                   6.5524e-08            1.932e-11             -2.02e-12             -6.5486e-08          
  0.35                  1.672e-07             3.816e-11             -3.12e-12             -1.672e-07           
  0.4                   3.2164e-07            6.828e-11             -2.5e-12              -3.2162e-07          
  0.45                  5.0584e-07            1.1492e-10            -1.36e-12             -5.0582e-07          
  0.5                   7.005e-07             1.8432e-10            -2.32e-12             -7.0062e-07          
  0.55                  8.9754e-07            2.8378e-10            -2.8e-12              -8.9784e-07          
  0.6                   1.0946e-06            4.2274e-10            -2.66e-12             -1.09498e-06         
  0.65                  1.2914e-06            6.1208e-10            -2.02e-12             -1.2882e-06          
  0.7                   1.4832e-06            8.6412e-10            -1.36e-12             -1.4802e-06          
  0.75                  1.671e-06             1.1956e-09            -2.48e-12             -1.6684e-06          
  0.8                   1.8532e-06            1.6222e-09            -2.28e-12             -1.851e-06           
  0.85                  2.0298e-06            2.164e-09             -1.94e-12             -2.028e-06           
  0.9                   2.1992e-06            2.843e-09             -1.04e-12             -2.1982e-06          
  0.95                  2.3612e-06            3.6848e-09            -2.14e-12             -2.361e-06           
  1                     2.5156e-06            4.7184e-09            -2.68e-12             -2.5166e-06          
  1.05                  2.6618e-06            5.9724e-09            -1.7e-12              -2.664e-06           
  1.1                   2.7996e-06            7.4776e-09            -1.08e-12             -2.8032e-06          
  1.15                  2.9288e-06            9.2764e-09            -2.3e-12              -2.9344e-06          
  1.2                   3.05e-06              1.14068e-08           -3.66e-12             -3.0574e-06          
  1.25                  3.1622e-06            1.3914e-08            -4.56e-12             -3.1722e-06          
  1.3                   3.266e-06             1.6844e-08            -9.16e-12             -3.279e-06           
  1.35                  3.3618e-06            2.0262e-08            -1.668e-11            -3.378e-06           
END_DB

BEGIN_DB
 ICCAP_VAR vb         -1.2           
 ICCAP_VAR vd         0.05           
 ICCAP_VAR vs         0              

 #vg                    id                    ig                    ib                    is                   
  -0.5                  4.4e-13               -1.24e-12             -5.56e-12             5.6e-13              
  -0.45                 3.6e-13               -7.2e-13              -6.28e-12             4e-13                
  -0.4                  2.2e-13               -3.4e-13              -5.22e-12             3.4e-13              
  -0.35                 2.4e-13               -2.4e-13              -3.94e-12             3e-13                
  -0.3                  2.2e-13               -1e-13                -3.92e-12             1.6e-13              
