! VERSION = 6.00
BEGIN_HEADER
 ICCAP_INPUTS
  vg         V  G GROUND SMU2 0.001 LIN        1    -0.5       1.35       38   0.05      
  vb         V  B GROUND SMU4 0.1 LIN        2    0          -1.2       5    -0.3      
  vd         V  D GROUND SMU1 0.1 LIST       3 3 0.05 0.6 1.2
  vs         V  S GROUND SMU3 0.1 CON        0
 ICCAP_OUTPUTS
  id         I  D GROUND SMU1 B
  ig         I  G GROUND SMU2 B
  ib         I  B GROUND SMU4 B
  is         I  S GROUND SMU3 B
 ICCAP_VALUES
  MASTER_SETUP_TYPE "~dc_idvg~"
  LINVT_VALUE ""
  LISTVT_VALUE ""
  TYPE "1"
  TEMP " 27.0000 "
  IS_TNOM " 1.00000 "
  MAIN.W "300.0n"
  MAIN.L "140.0n"
  MAIN.AD "102.0f"
  MAIN.AS "102.0f"
  MAIN.PD "1.280u"
  MAIN.PS "1.280u"
  MAIN.NF "1.000"
  MAIN.M "1"
  MAIN.NRD "0.000"
  MAIN.NRS "0.000"
  MAIN.LDRIFT1 "1E-06"
  MAIN.LDRIFT2 "1E-06"
  MAIN.SA "0.000"
  MAIN.SB "0.000"
  MAIN.SD "0.000"
  MAIN.SCA "0.000"
  MAIN.SCB "0.000"
  MAIN.SCC "0.000"
  MAIN.SC "0.000"
  MODULE "S544"
  PIN_D "16"
  PIN_G "5"
  PIN_S "6"
  PIN_B "15"
  PIN_E ""
  PIN_6 ""
  XY_ID ""
  FUNC "LW Scale"
  STI "SA ref"
  WPE "WPE ref"
  COMMENT ""
  DIS_MEAS ""
  TypeTCI "10"
END_HEADER

BEGIN_DB
 ICCAP_VAR vb         0              
 ICCAP_VAR vd         0.05           
 ICCAP_VAR vs         0              

 #vg                    id                    ig                    ib                    is                   
  -0.5                  1e-13                 -4.496e-11            4.594e-11             2e-13                
  -0.45                 -2e-14                -6.78e-12             8.56e-12              0                    
  -0.4                  6e-14                 -1.14e-12             2.76e-12              1.4e-13              
  -0.35                 6e-14                 -2.2e-13              2.64e-12              8e-14                
  -0.3                  -8e-14                2e-14                 2.24e-12              4e-14                
  -0.25                 6e-14                 0                     1.72e-12              2e-14                
  -0.2                  6e-14                 1.4e-13               1.12e-12              1e-13                
  -0.15                 -6e-14                1.8e-13               2.08e-12              -1.2e-13             
  -0.1                  1.4e-13               1.6e-13               2.34e-12              0                    
  -0.05                 3.4e-13               3e-13                 1.42e-12              -2.4e-13             
  0                     1.34e-12              2.2e-13               1.46e-12              -1.38e-12            
  0.05                  6.02e-12              3.4e-13               9e-13                 -5.78e-12            
  0.1                   2.636e-11             2.4e-13               1.1e-12               -2.608e-11           
  0.15                  1.1686e-10            4.2e-13               2.38e-12              -1.1684e-10          
  0.2                   5.1686e-10            3e-13                 1.32e-12              -5.1642e-10          
  0.25                  2.2674e-09            2.8e-13               9.8e-13               -2.2656e-09          
  0.3                   9.6378e-09            5.4e-13               2e-13                 -9.632e-09           
  0.35                  3.8574e-08            3e-13                 9.2e-13               -3.8608e-08          
  0.4                   1.3576e-07            5.2e-13               1.86e-12              -1.357e-07           
  0.45                  3.8662e-07            5.2e-13               1.4e-12               -3.8654e-07          
  0.5                   8.7252e-07            6.4e-13               7e-13                 -8.7252e-07          
  0.55                  1.6196e-06            7e-13                 1.48e-12              -1.6152e-06          
  0.6                   2.5894e-06            1.08e-12              -4.4e-13              -2.5932e-06          
  0.65                  3.745e-06             1.54e-12              9.4e-13               -3.7402e-06          
  0.7                   4.993e-06             1.92e-12              6.2e-13               -4.9892e-06          
  0.75                  6.3366e-06            2.6e-12               1.7e-12               -6.3378e-06          
  0.8                   7.729e-06             3.3e-12               1.04e-12              -7.7112e-06          
  0.85                  9.1126e-06            4.32e-12              2.8e-13               -9.1048e-06          
  0.9                   1.04964e-05           5.4e-12               9.2e-13               -1.04888e-05         
  0.95                  1.1854e-05            6.9e-12               2.52e-12              -1.1838e-05          
  1                     1.3168e-05            8.64e-12              1.36e-12              -1.3162e-05          
  1.05                  1.4442e-05            1.084e-11             5.8e-13               -1.4422e-05          
  1.1                   1.5638e-05            1.356e-11             1.1e-12               -1.562e-05           
  1.15                  1.679e-05             1.648e-11             1.94e-12              -1.677e-05           
  1.2                   1.7886e-05            2.006e-11             6.2e-13               -1.7854e-05          
  1.25                  1.8922e-05            2.412e-11             6.4e-13               -1.8886e-05          
  1.3                   1.9872e-05            2.88e-11              8.8e-13               -1.986e-05           
  1.35                  2.0822e-05            3.408e-11             1.44e-12              -2.0782e-05          
END_DB

BEGIN_DB
 ICCAP_VAR vb         -0.3           
 ICCAP_VAR vd         0.05           
 ICCAP_VAR vs         0              

 #vg                    id                    ig                    ib                    is                   
  -0.5                  8e-14                 -2.8e-13              -2.96e-12             1e-13                
  -0.45                 4e-14                 -2e-13                -3.62e-12             2.2e-13              
  -0.4                  2e-14                 0                     -2.86e-12             0                    
  -0.35                 2e-14                 2e-14                 -2.6e-12              1.4e-13              
  -0.3                  4e-14                 6e-14                 -1.68e-12             1.4e-13              
  -0.25                 2e-14                 1e-13                 -1.52e-12             -2e-14               
  -0.2                  0                     1.8e-13               -2.34e-12             2e-14                
  -0.15                 8e-14                 1.8e-13               -3.44e-12             6e-14                
  -0.1                  -4e-14                3.6e-13               -1.76e-12             8e-14                
  -0.05                 1.4e-13               2.8e-13               -8.8e-13              1.8e-13              
  0                     1e-13                 1.8e-13               -1.02e-12             0                    
  0.05                  7.8e-13               3.4e-13               -1.52e-12             -7.4e-13             
  0.1                   3.9e-12               4e-13                 -1.96e-12             -3.54e-12            
  0.15                  1.788e-11             3.6e-13               -8.6e-13              -1.786e-11           
  0.2                   8.354e-11             3.4e-13               -1.1e-12              -8.33e-11            
  0.25                  3.8914e-10            4.8e-13               -1.18e-12             -3.8898e-10          
  0.3                   1.7836e-09            3e-13                 -1.06e-12             -1.7812e-09          
  0.35                  7.9294e-09            3.8e-13               -1.36e-12             -7.9342e-09          
  0.4                   3.3132e-08            2.8e-13               -1.28e-12             -3.31e-08            
  0.45                  1.211e-07             4.2e-13               -7.8e-13              -1.21e-07            
  0.5                   3.5594e-07            6.8e-13               -1.36e-12             -3.558e-07           
  0.55                  8.2278e-07            8.2e-13               -1.46e-12             -8.2276e-07          
  0.6                   1.5588e-06            9.6e-13               -3.4e-13              -1.5544e-06          
  0.65                  2.5276e-06            1.28e-12              -9.2e-13              -2.5242e-06          
  0.7                   3.6714e-06            1.86e-12              -8.8e-13              -3.6638e-06          
  0.75                  4.921e-06             2.44e-12              -1.6e-13              -4.9182e-06          
  0.8                   6.2588e-06            3.2e-12               1.38e-12              -6.2486e-06          
  0.85                  7.6254e-06            4.06e-12              -1.02e-12             -7.6238e-06          
  0.9                   9.0074e-06            5.34e-12              -8.4e-13              -9.0084e-06          
  0.95                  1.03718e-05           6.82e-12              -4.4e-13              -1.03684e-05         
  1                     1.171e-05             8.5e-12               -6e-14                -1.1686e-05          
  1.05                  1.2984e-05            1.052e-11             -8.4e-13              -1.2972e-05          
  1.1                   1.4216e-05            1.316e-11             -3.2e-13              -1.4198e-05          
  1.15                  1.5392e-05            1.622e-11             -7.4e-13              -1.5354e-05          
  1.2                   1.6498e-05            1.976e-11             5e-13                 -1.6484e-05          
  1.25                  1.7558e-05            2.362e-11             -2.8e-13              -1.7546e-05          
  1.3                   1.858e-05             2.838e-11             -9.2e-13              -1.8556e-05          
  1.35                  1.9516e-05            3.384e-11             -7.6e-13              -1.9512e-05          
END_DB

BEGIN_DB
 ICCAP_VAR vb         -0.6           
 ICCAP_VAR vd         0.05           
 ICCAP_VAR vs         0              

 #vg                    id                    ig                    ib                    is                   
  -0.5                  1.6e-13               -4.2e-13              -3.4e-12              1.2e-13              
  -0.45                 1.4e-13               -1.6e-13              -4.16e-12             8e-14                
  -0.4                  -4e-14                -2e-14                -4.04e-12             8e-14                
  -0.35                 8e-14                 1e-13                 -4.48e-12             1.2e-13              
  -0.3                  1e-13                 -2e-14                -3.54e-12             2e-14                
  -0.25                 1e-13                 2.4e-13               -1.64e-12             2e-14                
  -0.2                  6e-14                 1.6e-13               -2.82e-12             1e-13                
  -0.15                 0                     2.6e-13               -2.6e-12              1.8e-13              
  -0.1                  8e-14                 2e-13                 -3.42e-12             8e-14                
  -0.05                 8e-14                 1.8e-13               -2.94e-12             1.8e-13              
  0                     4e-14                 3.6e-13               -1.96e-12             4e-14                
  0.05                  2.6e-13               2.4e-13               -8e-13                1e-13                
  0.1                   8.2e-13               3.8e-13               -2.86e-12             -7.8e-13             
  0.15                  3.86e-12              3.6e-13               -2.42e-12             -3.66e-12            
  0.2                   1.874e-11             3.2e-13               -2.34e-12             -1.854e-11           
  0.25                  8.982e-11             4.8e-13               -1.08e-12             -8.982e-11           
  0.3                   4.2854e-10            3e-13                 -1.74e-12             -4.2844e-10          
  0.35                  2.0108e-09            3e-13                 -2.34e-12             -2.0112e-09          
  0.4                   9.0962e-09            4.6e-13               -2.62e-12             -9.0954e-09          
  0.45                  3.8262e-08            3.6e-13               -2.6e-12              -3.8254e-08          
  0.5                   1.3808e-07            5.2e-13               -1e-12                -1.3796e-07          
  0.55                  3.9548e-07            7.6e-13               -2.42e-12             -3.9536e-07          
  0.6                   8.9494e-07            9.6e-13               -1.6e-12              -8.9474e-07          
  0.65                  1.6646e-06            1.16e-12              -1.48e-12             -1.6608e-06          
  0.7                   2.6518e-06            1.68e-12              -1.5e-12              -2.6556e-06          
  0.75                  3.822e-06             2.28e-12              -2.58e-12             -3.8104e-06          
  0.8                   5.0948e-06            3.04e-12              -1.94e-12             -5.0836e-06          
  0.85                  6.427e-06             3.98e-12              -2.6e-13              -6.4282e-06          
  0.9                   7.7956e-06            4.88e-12              -1.48e-12             -7.788e-06           
  0.95                  9.157e-06             6.56e-12              -1.98e-12             -9.1532e-06          
  1                     1.04954e-05           8.34e-12              -1.62e-12             -1.04874e-05         
  1.05                  1.1802e-05            1.048e-11             -8.2e-13              -1.1778e-05          
  1.1                   1.3048e-05            1.288e-11             -1.06e-12             -1.3034e-05          
  1.15                  1.4248e-05            1.592e-11             -2.14e-12             -1.4224e-05          
  1.2                   1.538e-05             1.922e-11             -1.7e-12              -1.5372e-05          
  1.25                  1.647e-05             2.338e-11             -5.4e-13              -1.6448e-05          
  1.3                   1.7504e-05            2.802e-11             -1.04e-12             -1.748e-05           
  1.35                  1.8466e-05            3.336e-11             -1.84e-12             -1.8444e-05          
END_DB

BEGIN_DB
 ICCAP_VAR vb         -0.9           
 ICCAP_VAR vd         0.05           
 ICCAP_VAR vs         0              

 #vg                    id                    ig                    ib                    is                   
  -0.5                  1e-13                 -3.8e-13              -4.06e-12             2e-14                
  -0.45                 4e-14                 -1.2e-13              -5.64e-12             1.4e-13              
  -0.4                  4e-14                 -1e-13                -5.1e-12              2.6e-13              
  -0.35                 1e-13                 6e-14                 -3.96e-12             1.2e-13              
  -0.3                  6e-14                 8e-14                 -4.06e-12             4e-14                
  -0.25                 -4e-14                2e-13                 -2.78e-12             1.6e-13              
  -0.2                  8e-14                 1e-13                 -3.6e-12              1.2e-13              
  -0.15                 -4e-14                2.6e-13               -3.52e-12             1.2e-13              
  -0.1                  0                     2e-13                 -3.46e-12             6e-14                
  -0.05                 -4e-14                2.4e-13               -3.14e-12             4e-14                
  0                     2e-14                 2.2e-13               -2.34e-12             0                    
  0.05                  0                     2.4e-13               -3.12e-12             1e-13                
  0.1                   1.8e-13               3.6e-13               -3.24e-12             -1.2e-13             
  0.15                  1.06e-12              3.4e-13               -2.96e-12             -9e-13               
  0.2                   5.32e-12              3e-13                 -2.32e-12             -5.18e-12            
  0.25                  2.63e-11              3.6e-13               -2.36e-12             -2.614e-11           
  0.3                   1.2878e-10            4.6e-13               -3.54e-12             -1.2838e-10          
  0.35                  6.243e-10             4.8e-13               -3e-12                -6.2462e-10          
  0.4                   2.9556e-09            3.8e-13               -3e-12                -2.9526e-09          
  0.45                  1.338e-08             5.4e-13               -2.52e-12             -1.3356e-08          
  0.5                   5.4906e-08            5.4e-13               -1.82e-12             -5.4908e-08          
  0.55                  1.8734e-07            5.8e-13               -3.18e-12             -1.873e-07           
  0.6                   5.0368e-07            9e-13                 -1.88e-12             -5.0344e-07          
  0.65                  1.0774e-06            1.26e-12              -1.68e-12             -1.07734e-06         
  0.7                   1.9164e-06            1.66e-12              -2.66e-12             -1.9078e-06          
  0.75                  2.9578e-06            2.04e-12              -1.96e-12             -2.9568e-06          
  0.8                   4.166e-06             2.82e-12              -1.22e-12             -4.155e-06           
  0.85                  5.4558e-06            3.82e-12              -2.3e-12              -5.4514e-06          
  0.9                   6.7984e-06            5.04e-12              -2.66e-12             -6.7958e-06          
  0.95                  8.1534e-06            6.3e-12               -1.96e-12             -8.1502e-06          
  1                     9.4998e-06            8.18e-12              -1.58e-12             -9.493e-06           
  1.05                  1.08126e-05           1.024e-11             -2.62e-12             -1.08086e-05         
  1.1                   1.208e-05             1.256e-11             -2.44e-12             -1.2062e-05          
  1.15                  1.3298e-05            1.574e-11             -1.42e-12             -1.3272e-05          
  1.2                   1.4448e-05            1.9e-11               -6.6e-13              -1.4444e-05          
  1.25                  1.556e-05             2.308e-11             -1.88e-12             -1.554e-05           
  1.3                   1.6604e-05            2.772e-11             -2.02e-12             -1.6598e-05          
  1.35                  1.7588e-05            3.294e-11             -2.14e-12             -1.7586e-05          
END_DB

BEGIN_DB
 ICCAP_VAR vb         -1.2           
 ICCAP_VAR vd         0.05           
 ICCAP_VAR vs         0              

 #vg                    id                    ig                    ib                    is                   
  -0.5                  1e-13                 -3e-13                -4.4e-12              1.6e-13              
  -0.45                 2e-14                 -1.2e-13              -5.8e-12              2.6e-13              
  -0.4                  1.4e-13               -1.2e-13              -5.26e-12             2.6e-13              
  -0.35                 0                     6e-14                 -5.16e-12             1.8e-13              
  -0.3                  0                     0                     -5.14e-12             2.2e-13              
