! VERSION = 6.00
BEGIN_HEADER
 ICCAP_INPUTS
  vg         V  G GROUND SMU2 0.001 LIN        1    -0.5       1.35       38   0.05      
  vb         V  B GROUND SMU4 0.1 LIN        2    0          -1.2       5    -0.3      
  vd         V  D GROUND SMU1 0.1 LIST       3 3 0.05 0.6 1.2
  vs         V  S GROUND SMU3 0.1 CON        0
 ICCAP_OUTPUTS
  id         I  D GROUND SMU1 B
  ig         I  G GROUND SMU2 B
  ib         I  B GROUND SMU4 B
  is         I  S GROUND SMU3 B
 ICCAP_VALUES
  MASTER_SETUP_TYPE "~dc_idvg~"
  LINVT_VALUE ""
  LISTVT_VALUE ""
  TYPE "1"
  TEMP " 70.0000 "
  IS_TNOM " 0.00000 "
  MAIN.W "10.00u"
  MAIN.L "10.00u"
  MAIN.AD "3.400p"
  MAIN.AS "3.400p"
  MAIN.PD "20.68u"
  MAIN.PS "20.68u"
  MAIN.NF "1.000"
  MAIN.M "1"
  MAIN.NRD "0.000"
  MAIN.NRS "0.000"
  MAIN.LDRIFT1 "1E-06"
  MAIN.LDRIFT2 "1E-06"
  MAIN.SA "0.000"
  MAIN.SB "0.000"
  MAIN.SD "0.000"
  MAIN.SCA "0.000"
  MAIN.SCB "0.000"
  MAIN.SCC "0.000"
  MAIN.SC "0.000"
  MODULE "S541"
  PIN_D "12"
  PIN_G "9"
  PIN_S "10"
  PIN_B "11"
  PIN_E ""
  PIN_6 ""
  XY_ID ""
  FUNC "Large"
  STI "SA ref"
  WPE "WPE ref"
  COMMENT ""
  DIS_MEAS ""
  TypeTCI "10"
END_HEADER

BEGIN_DB
 ICCAP_VAR vb         0              
 ICCAP_VAR vd         0.05           
 ICCAP_VAR vs         0              

 #vg                    id                    ig                    ib                    is                   
  -0.5                  3.22e-12              -1.6458e-09           1.6402e-09            2.92e-12             
  -0.45                 2.8e-12               -3.1446e-10           3.1098e-10            2.44e-12             
  -0.4                  2.62e-12              -6.338e-11            6.246e-11             1.96e-12             
  -0.35                 2.22e-12              -1.51e-11             1.468e-11             1.48e-12             
  -0.3                  2.98e-12              -5.32e-12             5.54e-12              2.8e-13              
  -0.25                 6.28e-12              -2.72e-12             2.86e-12              -3.8e-12             
  -0.2                  2.09e-11              -1.96e-12             2.62e-12              -1.87e-11            
  -0.15                 7.882e-11             -1.26e-12             2.3e-12               -7.708e-11           
  -0.1                  3.1022e-10            -1.04e-12             2.74e-12              -3.0852e-10          
  -0.05                 1.2314e-09            -7.2e-13              2.06e-12              -1.2296e-09          
  0                     4.8544e-09            0                     1.34e-12              -4.8536e-09          
  0.05                  1.868e-08             1.38e-12              1.56e-12              -1.8662e-08          
  0.1                   6.7004e-08            6.04e-12              2.9e-12               -6.69e-08            
  0.15                  2.108e-07             1.624e-11             2.3e-12               -2.108e-07           
  0.2                   5.418e-07             3.684e-11             1.2e-12               -5.417e-07           
  0.25                  1.11024e-06           7.318e-11             1.68e-12              -1.11044e-06         
  0.3                   1.8646e-06            1.3412e-10            2.26e-12              -1.861e-06           
  0.35                  2.7086e-06            2.3142e-10            1.6e-12               -2.7056e-06          
  0.4                   3.5796e-06            3.807e-10             2.22e-12              -3.5764e-06          
  0.45                  4.4536e-06            6.0186e-10            2.32e-12              -4.451e-06           
  0.5                   5.3212e-06            9.1972e-10            1.24e-12              -5.3184e-06          
  0.55                  6.1766e-06            1.3642e-09            2.92e-12              -6.1746e-06          
  0.6                   7.0196e-06            1.9726e-09            1.66e-12              -7.018e-06           
  0.65                  7.8462e-06            2.7896e-09            1.66e-12              -7.8452e-06          
  0.7                   8.651e-06             3.8634e-09            1.76e-12              -8.6512e-06          
  0.75                  9.4344e-06            5.2574e-09            1.86e-12              -9.4364e-06          
  0.8                   1.0192e-05            7.037e-09             1.74e-12              -1.0195e-05          
  0.85                  1.09226e-05           9.2852e-09            1.7e-12               -1.09286e-05         
  0.9                   1.1626e-05            1.2082e-08            3.34e-12              -1.1632e-05          
  0.95                  1.2296e-05            1.5532e-08            8.6e-13               -1.2306e-05          
  1                     1.2936e-05            1.9742e-08            1.02e-12              -1.295e-05           
  1.05                  1.3544e-05            2.4832e-08            1.32e-12              -1.356e-05           
  1.1                   1.4116e-05            3.0922e-08            1.3e-12               -1.414e-05           
  1.15                  1.4654e-05            3.8178e-08            -8e-13                -1.4686e-05          
  1.2                   1.516e-05             4.6752e-08            -6.66e-12             -1.52e-05            
  1.25                  1.5634e-05            5.682e-08             -1.726e-11            -1.5684e-05          
  1.3                   1.6074e-05            6.8572e-08            -3.786e-11            -1.6136e-05          
  1.35                  1.6482e-05            8.2264e-08            -7.48e-11             -1.6558e-05          
END_DB

BEGIN_DB
 ICCAP_VAR vb         -0.3           
 ICCAP_VAR vd         0.05           
 ICCAP_VAR vs         0              

 #vg                    id                    ig                    ib                    is                   
  -0.5                  3.02e-12              -6.04e-12             -6.12e-12             2.82e-12             
  -0.45                 2.48e-12              -4.48e-12             -6.8e-12              2.22e-12             
  -0.4                  2.12e-12              -3.6e-12              -6e-12                2e-12                
  -0.35                 1.58e-12              -2.7e-12              -3.6e-12              1.32e-12             
  -0.3                  1.54e-12              -1.94e-12             -4.06e-12             8.2e-13              
  -0.25                 2.1e-12               -1.44e-12             -5.06e-12             -1e-13               
  -0.2                  5.6e-12               -9.2e-13              -3.88e-12             -4.16e-12            
  -0.15                 2.078e-11             -6.6e-13              -3.54e-12             -1.946e-11           
  -0.1                  8.464e-11             -5.8e-13              -2.4e-12              -8.378e-11           
  -0.05                 3.5178e-10            -1.2e-13              -2.08e-12             -3.511e-10           
  0                     1.459e-09             2e-14                 -3.6e-12              -1.4588e-09          
  0.05                  5.9892e-09            9.2e-13               -3.12e-12             -5.9882e-09          
  0.1                   2.364e-08             4.08e-12              -3.06e-12             -2.3622e-08          
  0.15                  8.5666e-08            1.256e-11             -1.02e-12             -8.5646e-08          
  0.2                   2.649e-07             3.094e-11             -3.38e-12             -2.6494e-07          
  0.25                  6.5638e-07            6.55e-11              -2.66e-12             -6.565e-07           
  0.3                   1.2852e-06            1.2384e-10            -1.52e-12             -1.2814e-06          
  0.35                  2.0724e-06            2.1812e-10            -3.04e-12             -2.0692e-06          
  0.4                   2.9258e-06            3.631e-10             -2.42e-12             -2.9228e-06          
  0.45                  3.7956e-06            5.7988e-10            -2e-12                -3.793e-06           
  0.5                   4.6628e-06            8.9232e-10            -3e-12                -4.6606e-06          
  0.55                  5.5194e-06            1.3308e-09            -1.62e-12             -5.5174e-06          
  0.6                   6.3642e-06            1.9328e-09            -1.14e-12             -6.3628e-06          
  0.65                  7.1938e-06            2.7422e-09            -2.32e-12             -7.1934e-06          
  0.7                   8.0024e-06            3.808e-09             -1.52e-12             -8.0026e-06          
  0.75                  8.7902e-06            5.1934e-09            -1.98e-12             -8.7922e-06          
  0.8                   9.5528e-06            6.9632e-09            -1.44e-12             -9.5562e-06          
  0.85                  1.02898e-05           9.2014e-09            -4.8e-13              -1.02954e-05         
  0.9                   1.0997e-05            1.1986e-08            -1.26e-12             -1.10052e-05         
  0.95                  1.1676e-05            1.5424e-08            -3.6e-13              -1.1684e-05          
  1                     1.2322e-05            1.9622e-08            -1.94e-12             -1.2334e-05          
  1.05                  1.2934e-05            2.4698e-08            -2.26e-12             -1.2954e-05          
  1.1                   1.3514e-05            3.0774e-08            -2.48e-12             -1.3538e-05          
  1.15                  1.4062e-05            3.8018e-08            -3.34e-12             -1.4092e-05          
  1.2                   1.4574e-05            4.6578e-08            -8.26e-12             -1.4614e-05          
  1.25                  1.5054e-05            5.663e-08             -1.968e-11            -1.5104e-05          
  1.3                   1.55e-05              6.8368e-08            -4.13e-11             -1.5562e-05          
  1.35                  1.5916e-05            8.2038e-08            -7.832e-11            -1.5992e-05          
END_DB

BEGIN_DB
 ICCAP_VAR vb         -0.6           
 ICCAP_VAR vd         0.05           
 ICCAP_VAR vs         0              

 #vg                    id                    ig                    ib                    is                   
  -0.5                  2.66e-12              -5.12e-12             -8.52e-12             2.56e-12             
  -0.45                 2.12e-12              -3.72e-12             -7.8e-12              1.84e-12             
  -0.4                  1.64e-12              -2.94e-12             -7.04e-12             1.62e-12             
  -0.35                 1.3e-12               -2.2e-12              -6.98e-12             1.28e-12             
  -0.3                  1.1e-12               -1.5e-12              -7e-12                9e-13                
  -0.25                 1.06e-12              -1.12e-12             -6.66e-12             4.6e-13              
  -0.2                  2.26e-12              -7.2e-13              -6.54e-12             -1.06e-12            
  -0.15                 7.36e-12              -4.2e-13              -4.88e-12             -6.48e-12            
  -0.1                  3.034e-11             -2.2e-13              -5.86e-12             -2.96e-11            
  -0.05                 1.2938e-10            0                     -5.8e-12              -1.2888e-10          
  0                     5.5352e-10            2.2e-13               -5.94e-12             -5.5304e-10          
  0.05                  2.3602e-09            6.6e-13               -5.92e-12             -2.3592e-09          
  0.1                   9.8238e-09            2.84e-12              -3.26e-12             -9.8254e-09          
  0.15                  3.8768e-08            9.26e-12              -3.76e-12             -3.8766e-08          
  0.2                   1.355e-07             2.526e-11             -4.32e-12             -1.3548e-07          
  0.25                  3.8942e-07            5.714e-11             -4.5e-12              -3.8948e-07          
  0.3                   8.7632e-07            1.129e-10             -3.54e-12             -8.7648e-07          
  0.35                  1.5754e-06            2.0348e-10            -4.58e-12             -1.5716e-06          
  0.4                   2.3872e-06            3.4444e-10            -4.44e-12             -2.3842e-06          
  0.45                  3.2406e-06            5.561e-10             -3.1e-12              -3.2378e-06          
  0.5                   4.1006e-06            8.629e-10             -4.42e-12             -4.098e-06           
  0.55                  4.9538e-06            1.295e-09             -2.94e-12             -4.9516e-06          
  0.6                   5.7976e-06            1.89e-09              -3.3e-12              -5.7964e-06          
  0.65                  6.6278e-06            2.6914e-09            -4.28e-12             -6.627e-06           
  0.7                   7.4382e-06            3.7488e-09            -3.52e-12             -7.4388e-06          
  0.75                  8.2294e-06            5.1242e-09            -3.72e-12             -8.2312e-06          
  0.8                   8.9956e-06            6.8836e-09            -3.04e-12             -8.9994e-06          
  0.85                  9.737e-06             9.1094e-09            -3.76e-12             -9.7432e-06          
  0.9                   1.04486e-05           1.1882e-08            -2.82e-12             -1.04574e-05         
  0.95                  1.11316e-05           1.5306e-08            -4.1e-12              -1.11438e-05         
  1                     1.1786e-05            1.949e-08             -2.1e-12              -1.1798e-05          
  1.05                  1.2404e-05            2.4554e-08            -4.28e-12             -1.2424e-05          
  1.1                   1.299e-05             3.0616e-08            -3.76e-12             -1.3014e-05          
  1.15                  1.3542e-05            3.7842e-08            -6.18e-12             -1.3574e-05          
  1.2                   1.4062e-05            4.6386e-08            -1.026e-11            -1.4102e-05          
  1.25                  1.4548e-05            5.642e-08             -2.142e-11            -1.46e-05            
  1.3                   1.5002e-05            6.8148e-08            -4.32e-11             -1.5062e-05          
  1.35                  1.5422e-05            8.1806e-08            -8.102e-11            -1.5498e-05          
END_DB

BEGIN_DB
 ICCAP_VAR vb         -0.9           
 ICCAP_VAR vd         0.05           
 ICCAP_VAR vs         0              

 #vg                    id                    ig                    ib                    is                   
  -0.5                  2.36e-12              -4.66e-12             -9.1e-12              2.32e-12             
  -0.45                 1.9e-12               -3.4e-12              -9.6e-12              1.66e-12             
  -0.4                  1.46e-12              -2.48e-12             -9.6e-12              1.42e-12             
  -0.35                 1.2e-12               -1.82e-12             -8.7e-12              1.14e-12             
  -0.3                  9.8e-13               -1.26e-12             -7.84e-12             6.6e-13              
  -0.25                 7.4e-13               -9.2e-13              -6.34e-12             5.8e-13              
  -0.2                  1.1e-12               -4.8e-13              -6.7e-12              -1.8e-13             
  -0.15                 3.28e-12              -2e-13                -7.2e-12              -2.48e-12            
  -0.1                  1.296e-11             -8e-14                -8.4e-12              -1.24e-11            
  -0.05                 5.632e-11             -2e-14                -7.2e-12              -5.57e-11            
  0                     2.4656e-10            2.2e-13               -5.3e-12              -2.463e-10           
  0.05                  1.08138e-09           5.8e-13               -6.2e-12              -1.0811e-09          
  0.1                   4.6638e-09            1.94e-12              -5.78e-12             -4.6644e-09          
  0.15                  1.9424e-08            6.44e-12              -6.58e-12             -1.9412e-08          
  0.2                   7.3712e-08            1.956e-11             -6.32e-12             -7.3728e-08          
  0.25                  2.3674e-07            4.83e-11              -5.2e-12              -2.3686e-07          
  0.3                   6.0036e-07            1.01e-10              -6.08e-12             -6.0028e-07          
  0.35                  1.194e-06             1.8782e-10            -5.78e-12             -1.1906e-06          
  0.4                   1.944e-06             3.2436e-10            -4.86e-12             -1.9412e-06          
  0.45                  2.7666e-06            5.3064e-10            -5.06e-12             -2.7638e-06          
  0.5                   3.611e-06             8.3144e-10            -4.92e-12             -3.6084e-06          
  0.55                  4.4556e-06            1.2572e-09            -5.42e-12             -4.4536e-06          
  0.6                   5.2952e-06            1.8446e-09            -5.62e-12             -5.2936e-06          
  0.65                  6.1236e-06            2.6376e-09            -4.18e-12             -6.1228e-06          
  0.7                   6.9344e-06            3.6852e-09            -3.84e-12             -6.9344e-06          
  0.75                  7.727e-06             5.0508e-09            -4.52e-12             -7.7288e-06          
  0.8                   8.4962e-06            6.7984e-09            -5.72e-12             -8.4996e-06          
  0.85                  9.241e-06             9.0124e-09            -5.54e-12             -9.2472e-06          
  0.9                   9.9576e-06            1.1772e-08            -4.64e-12             -9.9656e-06          
  0.95                  1.0645e-05            1.5184e-08            -3.84e-12             -1.06568e-05         
  1                     1.13014e-05           1.9352e-08            -5.14e-12             -1.13176e-05         
  1.05                  1.1928e-05            2.44e-08              -3.98e-12             -1.1946e-05          
  1.1                   1.252e-05             3.0444e-08            -5.54e-12             -1.2544e-05          
  1.15                  1.3078e-05            3.7656e-08            -7.86e-12             -1.3108e-05          
  1.2                   1.3602e-05            4.6182e-08            -1.232e-11            -1.3642e-05          
  1.25                  1.4094e-05            5.62e-08              -2.246e-11            -1.4144e-05          
  1.3                   1.4554e-05            6.7904e-08            -4.314e-11            -1.4614e-05          
  1.35                  1.498e-05             8.1546e-08            -8.218e-11            -1.5054e-05          
END_DB

BEGIN_DB
 ICCAP_VAR vb         -1.2           
 ICCAP_VAR vd         0.05           
 ICCAP_VAR vs         0              

 #vg                    id                    ig                    ib                    is                   
  -0.5                  2.42e-12              -4.42e-12             -1.142e-11            2.28e-12             
  -0.45                 1.72e-12              -3.22e-12             -1.106e-11            1.68e-12             
  -0.4                  1.4e-12               -2.3e-12              -1.014e-11            1.26e-12             
  -0.35                 1e-12                 -1.64e-12             -9.24e-12             9.8e-13              
  -0.3                  9.6e-13               -1.14e-12             -9.04e-12             9.8e-13              
