! VERSION = 6.00
BEGIN_HEADER
 ICCAP_INPUTS
  vd         V  D GROUND SMU1 0.1 LIN        1    0          1.35       28   0.05      
  vg         V  G GROUND SMU2 0.001 LIST       2 3 0.1 0.3 0.5
  vb         V  B GROUND SMU4 0.1 CON        -1.2
  vs         V  S GROUND SMU3 0.1 CON        0
 ICCAP_OUTPUTS
  id         I  D GROUND SMU1 B
  ig         I  G GROUND SMU2 B
  ib         I  B GROUND SMU4 B
  is         I  S GROUND SMU3 B
 ICCAP_VALUES
  MASTER_SETUP_TYPE "~dc_idvd~"
  LINVT_VALUE ""
  LISTVT_VALUE "|idvg|100.0n|-200.0m|1.000m|3|200.0m|200.0m|"
  TYPE "1"
  TEMP "-40.0000 "
  IS_TNOM " 0.00000 "
  MAIN.W "10.00u"
  MAIN.L "10.00u"
  MAIN.AD "3.400p"
  MAIN.AS "3.400p"
  MAIN.PD "20.68u"
  MAIN.PS "20.68u"
  MAIN.NF "1.000"
  MAIN.M "1"
  MAIN.NRD "0.000"
  MAIN.NRS "0.000"
  MAIN.LDRIFT1 "1E-06"
  MAIN.LDRIFT2 "1E-06"
  MAIN.SA "0.000"
  MAIN.SB "0.000"
  MAIN.SD "0.000"
  MAIN.SCA "0.000"
  MAIN.SCB "0.000"
  MAIN.SCC "0.000"
  MAIN.SC "0.000"
  MODULE "S541"
  PIN_D "12"
  PIN_G "9"
  PIN_S "10"
  PIN_B "11"
  PIN_E ""
  PIN_6 ""
  XY_ID ""
  FUNC "Large"
  STI "SA ref"
  WPE "WPE ref"
  COMMENT ""
  DIS_MEAS ""
  TypeTCI "10"
END_HEADER

BEGIN_DB
 ICCAP_VAR vg         0.1            
 ICCAP_VAR vb         -1.2           
 ICCAP_VAR vs         0              

 #vd                    id                    ig                    ib                    is                   
  0                     -2e-14                0                     -3.76e-12             2e-14                
  0.05                  1.508e-11             -6e-14                -4.08e-12             -1.494e-11           
  0.1                   1.75e-11              -4e-14                -4.04e-12             -1.736e-11           
  0.15                  1.874e-11             -4e-14                -2.28e-12             -1.842e-11           
  0.2                   1.972e-11             0                     -2.44e-12             -1.958e-11           
  0.25                  2.074e-11             -8e-14                -2.7e-12              -2.038e-11           
  0.3                   2.16e-11              -1.8e-13              -2.9e-12              -2.112e-11           
  0.35                  2.232e-11             -1.4e-13              -2.42e-12             -2.2e-11             
  0.4                   2.322e-11             -2.8e-13              -2.42e-12             -2.24e-11            
  0.45                  2.378e-11             -3e-13                -1.26e-12             -2.322e-11           
  0.5                   2.45e-11              -6.4e-13              -1.52e-12             -2.358e-11           
  0.55                  2.518e-11             -7e-13                -2.22e-12             -2.422e-11           
  0.6                   2.598e-11             -1.08e-12             -2.32e-12             -2.434e-11           
  0.65                  2.664e-11             -1.42e-12             -2.36e-12             -2.476e-11           
  0.7                   2.758e-11             -1.9e-12              4.4e-13               -2.514e-11           
  0.75                  2.854e-11             -2.7e-12              -1.62e-12             -2.542e-11           
  0.8                   2.92e-11              -3.16e-12             -2.42e-12             -2.56e-11            
  0.85                  3.048e-11             -3.98e-12             -2.42e-12             -2.582e-11           
  0.9                   3.162e-11             -4.94e-12             -1.52e-12             -2.598e-11           
  0.95                  3.286e-11             -6.02e-12             -9e-13                -2.624e-11           
  1                     3.442e-11             -7.36e-12             -1.42e-12             -2.632e-11           
  1.05                  3.592e-11             -8.76e-12             -7.8e-13              -2.654e-11           
  1.1                   3.782e-11             -1.054e-11            -1.94e-12             -2.662e-11           
  1.15                  3.988e-11             -1.256e-11            -1.74e-12             -2.674e-11           
  1.2                   4.242e-11             -1.458e-11            -4.6e-13              -2.702e-11           
  1.25                  4.498e-11             -1.728e-11            -4e-14                -2.702e-11           
  1.3                   4.812e-11             -2.032e-11            -2.04e-12             -2.706e-11           
  1.35                  5.158e-11             -2.372e-11            -2.18e-12             -2.716e-11           
END_DB

BEGIN_DB
 ICCAP_VAR vg         0.3            
 ICCAP_VAR vb         -1.2           
 ICCAP_VAR vs         0              

 #vd                    id                    ig                    ib                    is                   
  0                     1.81e-10              5.514e-11             -3.4e-13              -2.36e-10            
  0.05                  6.7652e-08            4.198e-11             -1.24e-12             -6.7666e-08          
  0.1                   8.0866e-08            3.886e-11             -2.2e-13              -8.0968e-08          
  0.15                  8.7358e-08            3.714e-11             -4.8e-13              -8.7426e-08          
  0.2                   9.2704e-08            3.588e-11             -1.68e-12             -9.2756e-08          
  0.25                  9.7416e-08            3.452e-11             -9.6e-13              -9.7402e-08          
  0.3                   1.01688e-07           3.322e-11             -6.2e-13              -1.01698e-07         
  0.35                  1.05624e-07           3.202e-11             -1.14e-12             -1.05568e-07         
  0.4                   1.0928e-07            3.082e-11             -8.8e-13              -1.08946e-07         
  0.45                  1.1238e-07            2.972e-11             -7.2e-13              -1.12392e-07         
  0.5                   1.1538e-07            2.882e-11             -1.04e-12             -1.15226e-07         
  0.55                  1.1808e-07            2.78e-11              2e-14                 -1.179e-07           
  0.6                   1.2038e-07            2.694e-11             -3.18e-12             -1.2028e-07          
  0.65                  1.2264e-07            2.596e-11             -2e-14                -1.2244e-07          
  0.7                   1.2438e-07            2.5e-11               -8.6e-13              -1.2428e-07          
  0.75                  1.263e-07             2.404e-11             -1.72e-12             -1.2622e-07          
  0.8                   1.2782e-07            2.308e-11             -1.82e-12             -1.2782e-07          
  0.85                  1.2932e-07            2.216e-11             -1.02e-12             -1.292e-07           
  0.9                   1.3068e-07            2.106e-11             -1.34e-12             -1.3048e-07          
  0.95                  1.3174e-07            1.992e-11             -1.24e-12             -1.3164e-07          
  1                     1.3286e-07            1.884e-11             -5.4e-13              -1.327e-07           
  1.05                  1.338e-07             1.756e-11             8.2e-13               -1.3362e-07          
  1.1                   1.3458e-07            1.632e-11             -1.26e-12             -1.3444e-07          
  1.15                  1.3514e-07            1.482e-11             -2.34e-12             -1.3516e-07          
  1.2                   1.3602e-07            1.314e-11             -2.06e-12             -1.359e-07           
  1.25                  1.3638e-07            1.134e-11             -2.68e-12             -1.3646e-07          
  1.3                   1.3704e-07            9.3e-12               -5.42e-12             -1.3714e-07          
  1.35                  1.3774e-07            7.24e-12              -9.78e-12             -1.3756e-07          
END_DB

BEGIN_DB
 ICCAP_VAR vg         0.5            
 ICCAP_VAR vb         -1.2           
 ICCAP_VAR vs         0              

 #vd                    id                    ig                    ib                    is                   
  0                     3.7028e-09            6.5158e-10            5.6e-13               -5.057e-09           
  0.05                  3.8274e-06            5.2732e-10            -1.32e-12             -3.8236e-06          
  0.1                   5.9258e-06            4.5966e-10            -6.6e-13              -5.922e-06           
  0.15                  6.752e-06             4.3318e-10            -4e-14                -6.7488e-06          
  0.2                   7.0804e-06            4.2224e-10            -1.76e-12             -7.0782e-06          
  0.25                  7.285e-06             4.1572e-10            -3e-13                -7.2812e-06          
  0.3                   7.4522e-06            4.1016e-10            -1.2e-13              -7.449e-06           
  0.35                  7.6002e-06            4.0538e-10            -1.22e-12             -7.5962e-06          
  0.4                   7.7352e-06            4.0106e-10            -1.34e-12             -7.7316e-06          
  0.45                  7.859e-06             3.9714e-10            -1.12e-12             -7.856e-06           
  0.5                   7.975e-06             3.9316e-10            -1.56e-12             -7.972e-06           
  0.55                  8.0826e-06            3.8978e-10            -1.8e-13              -8.0792e-06          
  0.6                   8.1852e-06            3.865e-10             -1.28e-12             -8.1816e-06          
  0.65                  8.28e-06              3.8326e-10            -1.66e-12             -8.2768e-06          
  0.7                   8.3688e-06            3.8036e-10            -4e-13                -8.3656e-06          
  0.75                  8.4528e-06            3.7772e-10            -1.2e-12              -8.4504e-06          
  0.8                   8.532e-06             3.7496e-10            -1.52e-12             -8.529e-06           
  0.85                  8.606e-06             3.7246e-10            1.6e-13               -8.6032e-06          
  0.9                   8.6762e-06            3.6994e-10            -1.52e-12             -8.6734e-06          
  0.95                  8.7428e-06            3.6746e-10            -1.86e-12             -8.7396e-06          
  1                     8.8046e-06            3.6506e-10            -1.2e-13              -8.802e-06           
  1.05                  8.863e-06             3.627e-10             -1.4e-12              -8.8596e-06          
  1.1                   8.9178e-06            3.607e-10             -2e-12                -8.9146e-06          
  1.15                  8.9692e-06            3.582e-10             -6e-13                -8.9662e-06          
  1.2                   9.0178e-06            3.5606e-10            -3.66e-12             -9.0146e-06          
  1.25                  9.0642e-06            3.5358e-10            -1.03e-11             -9.061e-06           
  1.3                   9.1076e-06            3.5112e-10            -2.312e-11            -9.1042e-06          
  1.35                  9.1482e-06            3.4864e-10            -5.304e-11            -9.1436e-06          
END_DB

