! VERSION = 6.00
BEGIN_HEADER
 ICCAP_INPUTS
  vd         V  D GROUND SMU1 0.1 LIN        1    0          1.35       28   0.05      
  vg         V  G GROUND SMU2 0.001 LIN        2    0.234      1.35       5    0.279     
  vb         V  B GROUND SMU4 0.1 CON        0
  vs         V  S GROUND SMU3 0.1 CON        0
 ICCAP_OUTPUTS
  id         I  D GROUND SMU1 B
  ig         I  G GROUND SMU2 B
  ib         I  B GROUND SMU4 B
  is         I  S GROUND SMU3 B
 ICCAP_VALUES
  MASTER_SETUP_TYPE "~dc_idvd~"
  LINVT_VALUE "|idvg|100.0n|100.0m|1.000m|5|1.350|"
  LISTVT_VALUE ""
  TYPE "1"
  TEMP " 70.0000 "
  IS_TNOM " 0.00000 "
  MAIN.W "300.0n"
  MAIN.L "10.00u"
  MAIN.AD "102.0f"
  MAIN.AS "102.0f"
  MAIN.PD "1.280u"
  MAIN.PS "1.280u"
  MAIN.NF "1.000"
  MAIN.M "1"
  MAIN.NRD "0.000"
  MAIN.NRS "0.000"
  MAIN.LDRIFT1 "1E-06"
  MAIN.LDRIFT2 "1E-06"
  MAIN.SA "0.000"
  MAIN.SB "0.000"
  MAIN.SD "0.000"
  MAIN.SCA "0.000"
  MAIN.SCB "0.000"
  MAIN.SCC "0.000"
  MAIN.SC "0.000"
  MODULE "S545"
  PIN_D "18"
  PIN_G "3"
  PIN_S "4"
  PIN_B "17"
  PIN_E ""
  PIN_6 ""
  XY_ID ""
  FUNC "W Scale"
  STI "SA ref"
  WPE "WPE ref"
  COMMENT ""
  DIS_MEAS ""
  TypeTCI "10"
END_HEADER

BEGIN_DB
 ICCAP_VAR vg         0.234          
 ICCAP_VAR vb         0              
 ICCAP_VAR vs         0              

 #vd                    id                    ig                    ib                    is                   
  0                     3.094e-11             2.9e-12               1.362e-11             -2.342e-11           
  0.05                  1.5874e-08            2.42e-12              1.27e-11              -1.5862e-08          
  0.1                   2.087e-08             2.06e-12              1.154e-11             -2.086e-08           
  0.15                  2.274e-08             2.08e-12              1.092e-11             -2.273e-08           
  0.2                   2.3784e-08            2e-12                 1.038e-11             -2.3772e-08          
  0.25                  2.464e-08             2.06e-12              1.07e-11              -2.4634e-08          
  0.3                   2.5432e-08            1.92e-12              1.03e-11              -2.542e-08           
  0.35                  2.619e-08             1.86e-12              8.9e-12               -2.6176e-08          
  0.4                   2.6914e-08            1.82e-12              8.62e-12              -2.6898e-08          
  0.45                  2.7616e-08            1.94e-12              9.6e-12               -2.7608e-08          
  0.5                   2.8306e-08            1.86e-12              8.3e-12               -2.8292e-08          
  0.55                  2.8974e-08            1.76e-12              7.82e-12              -2.8964e-08          
  0.6                   2.9636e-08            1.76e-12              7.92e-12              -2.9622e-08          
  0.65                  3.0272e-08            1.66e-12              8.66e-12              -3.0258e-08          
  0.7                   3.09e-08              1.66e-12              8.5e-12               -3.0886e-08          
  0.75                  3.151e-08             1.6e-12               6.86e-12              -3.1506e-08          
  0.8                   3.211e-08             1.5e-12               7.16e-12              -3.21e-08            
  0.85                  3.2694e-08            1.42e-12              7.48e-12              -3.268e-08           
  0.9                   3.327e-08             1.58e-12              6.58e-12              -3.3256e-08          
  0.95                  3.3824e-08            1.32e-12              6.52e-12              -3.3814e-08          
  1                     3.4366e-08            1.36e-12              5.7e-12               -3.4352e-08          
  1.05                  3.49e-08              1.2e-12               5.58e-12              -3.4886e-08          
  1.1                   3.5412e-08            1.1e-12               6.76e-12              -3.54e-08            
  1.15                  3.591e-08             1.06e-12              5.44e-12              -3.5898e-08          
  1.2                   3.6396e-08            1.08e-12              4.16e-12              -3.6382e-08          
  1.25                  3.6858e-08            7.4e-13               2.4e-12               -3.6848e-08          
  1.3                   3.7312e-08            6.8e-13               1.52e-12              -3.7294e-08          
  1.35                  3.776e-08             4.8e-13               -1.3e-12              -3.7734e-08          
END_DB

BEGIN_DB
 ICCAP_VAR vg         0.513          
 ICCAP_VAR vb         0              
 ICCAP_VAR vs         0              

 #vd                    id                    ig                    ib                    is                   
  0                     1.2504e-10            5.106e-11             5.08e-12              -1.8902e-10          
  0.05                  1.4902e-07            4.22e-11              4.88e-12              -1.4904e-07          
  0.1                   2.6734e-07            3.574e-11             3.26e-12              -2.6738e-07          
  0.15                  3.5126e-07            3.158e-11             4.32e-12              -3.5128e-07          
  0.2                   3.9968e-07            2.928e-11             4.92e-12              -3.9972e-07          
  0.25                  4.2244e-07            2.822e-11             4.18e-12              -4.2248e-07          
  0.3                   4.3376e-07            2.766e-11             3.46e-12              -4.3374e-07          
  0.35                  4.4056e-07            2.744e-11             3.92e-12              -4.4058e-07          
  0.4                   4.4604e-07            2.712e-11             3.78e-12              -4.4616e-07          
  0.45                  4.5088e-07            2.682e-11             3.58e-12              -4.5088e-07          
  0.5                   4.5558e-07            2.672e-11             3.7e-12               -4.5562e-07          
  0.55                  4.599e-07             2.656e-11             4.18e-12              -4.5994e-07          
  0.6                   4.6404e-07            2.626e-11             4.78e-12              -4.6408e-07          
  0.65                  4.6804e-07            2.624e-11             2.74e-12              -4.6806e-07          
  0.7                   4.7188e-07            2.6e-11               2.84e-12              -4.7192e-07          
  0.75                  4.7562e-07            2.588e-11             4.12e-12              -4.7568e-07          
  0.8                   4.7922e-07            2.572e-11             3.72e-12              -4.7926e-07          
  0.85                  4.8276e-07            2.556e-11             3.64e-12              -4.8284e-07          
  0.9                   4.8622e-07            2.54e-11              2.72e-12              -4.8626e-07          
  0.95                  4.8958e-07            2.51e-11              4.4e-12               -4.8962e-07          
  1                     4.9286e-07            2.51e-11              3.56e-12              -4.9286e-07          
  1.05                  4.9598e-07            2.494e-11             2.72e-12              -4.9604e-07          
  1.1                   4.9994e-07            2.466e-11             3.04e-12              -4.9996e-07          
  1.15                  5.03e-07              2.454e-11             3.08e-12              -5.0304e-07          
  1.2                   5.0596e-07            2.436e-11             7.8e-13               -5.0604e-07          
  1.25                  5.0872e-07            2.426e-11             1.4e-13               -5.0896e-07          
  1.3                   5.118e-07             2.402e-11             -1.78e-12             -5.118e-07           
  1.35                  5.1452e-07            2.376e-11             -5.76e-12             -5.1436e-07          
END_DB

BEGIN_DB
 ICCAP_VAR vg         0.792          
 ICCAP_VAR vb         0              
 ICCAP_VAR vs         0              

 #vd                    id                    ig                    ib                    is                   
  0                     1.3532e-10            3.249e-10             3.76e-12              -4.7926e-10          
  0.05                  2.728e-07             2.8254e-10            3e-12                 -2.7308e-07          
  0.1                   5.2158e-07            2.474e-10             2.98e-12              -5.2182e-07          
  0.15                  7.4492e-07            2.1878e-10            2.44e-12              -7.4518e-07          
  0.2                   9.4142e-07            1.9564e-10            2.24e-12              -9.4168e-07          
  0.25                  1.1093e-06            1.7728e-10            1.82e-12              -1.10956e-06         
  0.3                   1.2468e-06            1.6356e-10            2.38e-12              -1.2436e-06          
  0.35                  1.348e-06             1.5398e-10            1.56e-12              -1.345e-06           
  0.4                   1.4132e-06            1.481e-10             3.4e-12               -1.41e-06            
  0.45                  1.4492e-06            1.4484e-10            1.68e-12              -1.446e-06           
  0.5                   1.469e-06             1.431e-10             1.14e-12              -1.4658e-06          
  0.55                  1.4824e-06            1.42e-10              2.98e-12              -1.4792e-06          
  0.6                   1.4926e-06            1.4106e-10            1.28e-12              -1.4894e-06          
  0.65                  1.5012e-06            1.404e-10             2.44e-12              -1.498e-06           
  0.7                   1.5092e-06            1.3972e-10            3.4e-12               -1.506e-06           
  0.75                  1.5166e-06            1.3908e-10            1.84e-12              -1.5134e-06          
  0.8                   1.5234e-06            1.3842e-10            2.08e-12              -1.5202e-06          
  0.85                  1.5302e-06            1.379e-10             3.62e-12              -1.527e-06           
  0.9                   1.5366e-06            1.3734e-10            1.46e-12              -1.5334e-06          
  0.95                  1.543e-06             1.3678e-10            2e-12                 -1.5398e-06          
  1                     1.549e-06             1.3642e-10            2.82e-12              -1.5458e-06          
  1.05                  1.555e-06             1.36e-10              1.94e-12              -1.552e-06           
  1.1                   1.5608e-06            1.3548e-10            1.88e-12              -1.5576e-06          
  1.15                  1.5664e-06            1.3492e-10            2.2e-12               -1.5632e-06          
  1.2                   1.5718e-06            1.345e-10             1.76e-12              -1.5688e-06          
  1.25                  1.5774e-06            1.341e-10             2.02e-12              -1.5742e-06          
  1.3                   1.5826e-06            1.3372e-10            2.28e-12              -1.5792e-06          
  1.35                  1.5874e-06            1.3312e-10            3e-13                 -1.5844e-06          
END_DB

BEGIN_DB
 ICCAP_VAR vg         1.071          
 ICCAP_VAR vb         0              
 ICCAP_VAR vs         0              

 #vd                    id                    ig                    ib                    is                   
  0                     -2.2362e-10           1.2842e-09            2.34e-12              -1.0434e-09          
  0.05                  3.71e-07              1.153e-09             1.42e-12              -3.7216e-07          
  0.1                   7.2346e-07            1.0382e-09            1.4e-12               -7.2456e-07          
  0.15                  1.05572e-06           9.3842e-10            2.64e-12              -1.05678e-06         
  0.2                   1.368e-06             8.522e-10             6.4e-13               -1.3656e-06          
  0.25                  1.6572e-06            7.7838e-10            2.9e-12               -1.6546e-06          
  0.3                   1.923e-06             7.1526e-10            1.98e-12              -1.9204e-06          
  0.35                  2.1646e-06            6.6214e-10            1.6e-12               -2.162e-06           
  0.4                   2.3808e-06            6.175e-10             2.7e-12               -2.3782e-06          
  0.45                  2.5688e-06            5.8166e-10            9.2e-13               -2.5662e-06          
  0.5                   2.7272e-06            5.5286e-10            1.74e-12              -2.7244e-06          
  0.55                  2.852e-06             5.3112e-10            2.64e-12              -2.8492e-06          
  0.6                   2.9416e-06            5.1616e-10            8e-13                 -2.9388e-06          
  0.65                  2.9986e-06            5.0694e-10            1.14e-12              -2.996e-06           
  0.7                   3.0324e-06            5.0156e-10            2.6e-12               -3.0296e-06          
  0.75                  3.0536e-06            4.9832e-10            8.6e-13               -3.0508e-06          
  0.8                   3.0692e-06            4.9584e-10            2.1e-12               -3.0664e-06          
  0.85                  3.0822e-06            4.9374e-10            2.12e-12              -3.0794e-06          
  0.9                   3.0936e-06            4.9196e-10            8.4e-13               -3.0906e-06          
  0.95                  3.104e-06             4.9048e-10            1.98e-12              -3.101e-06           
  1                     3.1134e-06            4.8882e-10            1.54e-12              -3.1108e-06          
  1.05                  3.123e-06             4.8742e-10            9.2e-13               -3.1202e-06          
  1.1                   3.1318e-06            4.8616e-10            2.4e-12               -3.129e-06           
  1.15                  3.1404e-06            4.849e-10             1.58e-12              -3.1376e-06          
  1.2                   3.1488e-06            4.8356e-10            1.52e-12              -3.146e-06           
  1.25                  3.1566e-06            4.823e-10             1.84e-12              -3.154e-06           
  1.3                   3.1646e-06            4.8128e-10            1.66e-12              -3.1618e-06          
  1.35                  3.1722e-06            4.7996e-10            5.6e-13               -3.1692e-06          
END_DB

BEGIN_DB
 ICCAP_VAR vg         1.35           
 ICCAP_VAR vb         0              
 ICCAP_VAR vs         0              

 #vd                    id                    ig                    ib                    is                   
  0                     -1.3932e-09           3.7978e-09            -1.02e-12             -2.3206e-09          
  0.05                  4.4264e-07            3.4808e-09            -4.6e-13              -4.461e-07           
  0.1                   8.7274e-07            3.194e-09             -9.8e-13              -8.7598e-07          
  0.15                  1.2888e-06            2.937e-09             -2e-14                -1.2884e-06          
  0.2                   1.6872e-06            2.7078e-09            -1.2e-13              -1.6866e-06          
  0.25                  2.0688e-06            2.503e-09             -4e-14                -2.068e-06           
  0.3                   2.4326e-06            2.3216e-09            1.4e-13               -2.4314e-06          
  0.35                  2.7774e-06            2.1604e-09            7.8e-13               -2.7764e-06          
  0.4                   3.1028e-06            2.0182e-09            4.6e-13               -3.1016e-06          
  0.45                  3.4072e-06            1.8936e-09            -2.4e-13              -3.4056e-06          
  0.5                   3.69e-06              1.7854e-09            1.36e-12              -3.6888e-06          
  0.55                  3.9506e-06            1.6914e-09            5.8e-13               -3.9488e-06          
  0.6                   4.1862e-06            1.6108e-09            -3.2e-13              -4.1848e-06          
  0.65                  4.3966e-06            1.5428e-09            2.26e-12              -4.395e-06           
  0.7                   4.5786e-06            1.4866e-09            8.8e-13               -4.5768e-06          
  0.75                  4.7298e-06            1.4418e-09            -5e-13                -4.728e-06           
  0.8                   4.8476e-06            1.4084e-09            2.04e-12              -4.8456e-06          
  0.85                  4.9314e-06            1.3848e-09            7.6e-13               -4.9296e-06          
  0.9                   4.986e-06             1.37e-09              -6.4e-13              -4.984e-06           
  0.95                  5.0208e-06            1.3604e-09            1.36e-12              -5.0188e-06          
  1                     5.0442e-06            1.3544e-09            7.8e-13               -5.0422e-06          
  1.05                  5.0622e-06            1.3494e-09            -2e-14                -5.0604e-06          
  1.1                   5.0778e-06            1.3456e-09            1.32e-12              -5.0758e-06          
  1.15                  5.0912e-06            1.3416e-09            4.8e-13               -5.0894e-06          
  1.2                   5.1042e-06            1.3382e-09            5.6e-13               -5.102e-06           
  1.25                  5.116e-06             1.3352e-09            1.06e-12              -5.1138e-06          
  1.3                   5.1272e-06            1.3326e-09            1e-12                 -5.125e-06           
  1.35                  5.1378e-06            1.3296e-09            7e-13                 -5.1358e-06          
END_DB

