! VERSION = 6.00
BEGIN_HEADER
 ICCAP_INPUTS
  vd         V  D GROUND SMU1 0.1 LIN        1    0          1.35       28   0.05      
  vg         V  G GROUND SMU2 0.001 LIST       2 3 -0.097 0.103 0.303
  vb         V  B GROUND SMU4 0.1 CON        0
  vs         V  S GROUND SMU3 0.1 CON        0
 ICCAP_OUTPUTS
  id         I  D GROUND SMU1 B
  ig         I  G GROUND SMU2 B
  ib         I  B GROUND SMU4 B
  is         I  S GROUND SMU3 B
 ICCAP_VALUES
  MASTER_SETUP_TYPE "~dc_idvd~"
  LINVT_VALUE ""
  LISTVT_VALUE "|idvg|100.0n|-200.0m|1.000m|3|200.0m|200.0m|"
  TYPE "1"
  TEMP " 70.0000 "
  IS_TNOM " 0.00000 "
  MAIN.W "10.00u"
  MAIN.L "10.00u"
  MAIN.AD "3.400p"
  MAIN.AS "3.400p"
  MAIN.PD "20.68u"
  MAIN.PS "20.68u"
  MAIN.NF "1.000"
  MAIN.M "1"
  MAIN.NRD "0.000"
  MAIN.NRS "0.000"
  MAIN.LDRIFT1 "1E-06"
  MAIN.LDRIFT2 "1E-06"
  MAIN.SA "0.000"
  MAIN.SB "0.000"
  MAIN.SD "0.000"
  MAIN.SCA "0.000"
  MAIN.SCB "0.000"
  MAIN.SCC "0.000"
  MAIN.SC "0.000"
  MODULE "S541"
  PIN_D "12"
  PIN_G "9"
  PIN_S "10"
  PIN_B "11"
  PIN_E ""
  PIN_6 ""
  XY_ID ""
  FUNC "Large"
  STI "SA ref"
  WPE "WPE ref"
  COMMENT ""
  DIS_MEAS ""
  TypeTCI "10"
END_HEADER

BEGIN_DB
 ICCAP_VAR vg         -0.097         
 ICCAP_VAR vb         0              
 ICCAP_VAR vs         0              

 #vd                    id                    ig                    ib                    is                   
  0                     1.56e-12              -1.44e-12             2.52e-12              -1.6e-13             
  0.05                  3.3626e-10            -1.6e-12              1.28e-12              -3.3482e-10          
  0.1                   4.0822e-10            -1.76e-12             7.6e-13               -4.0656e-10          
  0.15                  4.296e-10             -1.78e-12             -1.2e-13              -4.2764e-10          
  0.2                   4.4074e-10            -1.9e-12              4.8e-13               -4.383e-10           
  0.25                  4.4938e-10            -1.98e-12             1.38e-12              -4.4714e-10          
  0.3                   4.5732e-10            -2.36e-12             1.08e-12              -4.545e-10           
  0.35                  4.6456e-10            -2.6e-12              3.2e-13               -4.6182e-10          
  0.4                   4.7188e-10            -3e-12                1.08e-12              -4.6858e-10          
  0.45                  4.7872e-10            -3.5e-12              -1.22e-12             -4.7446e-10          
  0.5                   4.8492e-10            -3.8e-12              1.26e-12              -4.8114e-10          
  0.55                  4.9172e-10            -4.9e-12              8e-14                 -4.86e-10            
  0.6                   4.9766e-10            -5.48e-12             1.5e-12               -4.916e-10           
  0.65                  5.0338e-10            -6.6e-12              -6e-14                -4.9646e-10          
  0.7                   5.0936e-10            -7.8e-12              -3.8e-13              -5.0068e-10          
  0.75                  5.1502e-10            -8.9e-12              1.76e-12              -5.0548e-10          
  0.8                   5.2068e-10            -1.078e-11            1.08e-12              -5.0924e-10          
  0.85                  5.2644e-10            -1.25e-11             1.8e-13               -5.133e-10           
  0.9                   5.3218e-10            -1.468e-11            -3.4e-13              -5.1646e-10          
  0.95                  5.3816e-10            -1.69e-11             -1.4e-13              -5.204e-10           
  1                     5.4412e-10            -1.972e-11            2e-14                 -5.2354e-10          
  1.05                  5.5034e-10            -2.274e-11            -1e-13                -5.2646e-10          
  1.1                   5.5682e-10            -2.618e-11            1.98e-12              -5.2956e-10          
  1.15                  5.6386e-10            -3.02e-11             -6.8e-13              -5.322e-10           
  1.2                   5.71e-10              -3.466e-11            -5e-13                -5.3504e-10          
  1.25                  5.788e-10             -3.95e-11             -7.4e-13              -5.377e-10           
  1.3                   5.869e-10             -4.542e-11            -1.66e-12             -5.3962e-10          
  1.35                  5.9558e-10            -5.148e-11            -8.8e-13              -5.4206e-10          
END_DB

BEGIN_DB
 ICCAP_VAR vg         0.103          
 ICCAP_VAR vb         0              
 ICCAP_VAR vs         0              

 #vd                    id                    ig                    ib                    is                   
  0                     1.6886e-10            9.14e-12              2.36e-12              -1.7674e-10          
  0.05                  7.2002e-08            5.96e-12              -3.8e-13              -7.2014e-08          
  0.1                   9.0148e-08            5.08e-12              7.6e-13               -9.0138e-08          
  0.15                  9.6058e-08            4.7e-12               1.68e-12              -9.605e-08           
  0.2                   9.9348e-08            4.5e-12               1.8e-13               -9.935e-08           
  0.25                  1.01958e-07           4.38e-12              1e-13                 -1.01962e-07         
  0.3                   1.04308e-07           4.18e-12              5.2e-13               -1.04312e-07         
  0.35                  1.06488e-07           3.94e-12              7.6e-13               -1.06476e-07         
  0.4                   1.0854e-07            3.76e-12              -1.4e-13              -1.08506e-07         
  0.45                  1.1042e-07            3.42e-12              8.4e-13               -1.10412e-07         
  0.5                   1.1222e-07            3.2e-12               2.8e-13               -1.122e-07           
  0.55                  1.139e-07             2.58e-12              1.4e-13               -1.13898e-07         
  0.6                   1.1548e-07            2.16e-12              3.2e-13               -1.15466e-07         
  0.65                  1.1696e-07            1.62e-12              1.62e-12              -1.16922e-07         
  0.7                   1.1834e-07            9.4e-13               -4e-13                -1.183e-07           
  0.75                  1.1964e-07            2.8e-13               -4.4e-13              -1.1962e-07          
  0.8                   1.2088e-07            -7.8e-13              8.6e-13               -1.2086e-07          
  0.85                  1.2202e-07            -1.76e-12             6e-13                 -1.22e-07            
  0.9                   1.2312e-07            -2.9e-12              2.2e-13               -1.231e-07           
  0.95                  1.2416e-07            -4.46e-12             -1.22e-12             -1.241e-07           
  1                     1.2512e-07            -6.02e-12             -3.2e-13              -1.2506e-07          
  1.05                  1.26e-07              -7.92e-12             -2.68e-12             -1.2594e-07          
  1.1                   1.2686e-07            -9.98e-12             -4.78e-12             -1.2682e-07          
  1.15                  1.2768e-07            -1.242e-11            -6.94e-12             -1.2764e-07          
  1.2                   1.2846e-07            -1.522e-11            -1.088e-11            -1.284e-07           
  1.25                  1.2918e-07            -1.826e-11            -1.726e-11            -1.2912e-07          
  1.3                   1.2988e-07            -2.19e-11             -2.67e-11             -1.2978e-07          
  1.35                  1.305e-07             -2.58e-11             -3.79e-11             -1.3042e-07          
END_DB

BEGIN_DB
 ICCAP_VAR vg         0.303          
 ICCAP_VAR vb         0              
 ICCAP_VAR vs         0              

 #vd                    id                    ig                    ib                    is                   
  0                     2.4992e-09            1.7778e-10            1.18e-12              -2.5416e-09          
  0.05                  1.9134e-06            1.3844e-10            1.74e-12              -1.9096e-06          
  0.1                   2.9166e-06            1.1848e-10            6e-14                 -2.9138e-06          
  0.15                  3.3154e-06            1.1072e-10            6.2e-13               -3.3122e-06          
  0.2                   3.4714e-06            1.0778e-10            7.4e-13               -3.4684e-06          
  0.25                  3.5586e-06            1.0586e-10            -1.26e-12             -3.5556e-06          
  0.3                   3.6258e-06            1.0472e-10            -1e-13                -3.6222e-06          
  0.35                  3.6844e-06            1.0364e-10            8.4e-13               -3.6816e-06          
  0.4                   3.74e-06              1.0256e-10            -5.6e-13              -3.737e-06           
  0.45                  3.7914e-06            1.0146e-10            7e-13                 -3.7884e-06          
  0.5                   3.84e-06              1.0072e-10            6e-13                 -3.8368e-06          
  0.55                  3.8862e-06            9.952e-11             -1.2e-13              -3.8832e-06          
  0.6                   3.9304e-06            9.868e-11             5.4e-13               -3.9272e-06          
  0.65                  3.9718e-06            9.79e-11              -2.4e-13              -3.9688e-06          
  0.7                   4.0116e-06            9.67e-11              2e-14                 -4.0084e-06          
  0.75                  4.0496e-06            9.582e-11             1.38e-12              -4.0466e-06          
  0.8                   4.0858e-06            9.468e-11             -5.2e-13              -4.0828e-06          
  0.85                  4.1204e-06            9.344e-11             -9e-13                -4.1174e-06          
  0.9                   4.154e-06             9.232e-11             8.2e-13               -4.1506e-06          
  0.95                  4.1856e-06            9.098e-11             -1.58e-12             -4.1824e-06          
  1                     4.216e-06             8.95e-11              -3e-12                -4.213e-06           
  1.05                  4.2452e-06            8.792e-11             -5.42e-12             -4.2424e-06          
  1.1                   4.2736e-06            8.636e-11             -1.494e-11            -4.2704e-06          
  1.15                  4.3002e-06            8.44e-11              -3.06e-11             -4.297e-06           
  1.2                   4.326e-06             8.238e-11             -5.738e-11            -4.323e-06           
  1.25                  4.3512e-06            8.03e-11              -1.0512e-10           -4.3476e-06          
  1.3                   4.3746e-06            7.778e-11             -1.821e-10            -4.3714e-06          
  1.35                  4.3976e-06            7.496e-11             -2.9726e-10           -4.3942e-06          
END_DB

