! VERSION = 6.00
BEGIN_HEADER
 ICCAP_INPUTS
  vg         V  G GROUND SMU2 0.001 LIN        1    -0.5       1.35       38   0.05      
  vb         V  B GROUND SMU4 0.1 LIN        2    0          -1.2       5    -0.3      
  vd         V  D GROUND SMU1 0.1 LIST       3 3 0.05 0.6 1.2
  vs         V  S GROUND SMU3 0.1 CON        0
 ICCAP_OUTPUTS
  id         I  D GROUND SMU1 B
  ig         I  G GROUND SMU2 B
  ib         I  B GROUND SMU4 B
  is         I  S GROUND SMU3 B
 ICCAP_VALUES
  MASTER_SETUP_TYPE "~dc_idvg~"
  LINVT_VALUE ""
  LISTVT_VALUE ""
  TYPE "1"
  TEMP " 27.0000 "
  IS_TNOM " 1.00000 "
  MAIN.W "150.0n"
  MAIN.L "130.0n"
  MAIN.AD "100.5f"
  MAIN.AS "100.5f"
  MAIN.PD "1.340u"
  MAIN.PS "1.340u"
  MAIN.NF "1.000"
  MAIN.M "1"
  MAIN.NRD "0.000"
  MAIN.NRS "0.000"
  MAIN.LDRIFT1 "1E-06"
  MAIN.LDRIFT2 "1E-06"
  MAIN.SA "0.000"
  MAIN.SB "0.000"
  MAIN.SD "0.000"
  MAIN.SCA "0.000"
  MAIN.SCB "0.000"
  MAIN.SCC "0.000"
  MAIN.SC "0.000"
  MODULE "S546"
  PIN_D "16"
  PIN_G "5"
  PIN_S "6"
  PIN_B "15"
  PIN_E ""
  PIN_6 ""
  XY_ID ""
  FUNC "Small"
  STI "SA ref"
  WPE "WPE ref"
  COMMENT ""
  DIS_MEAS ""
  TypeTCI "10"
END_HEADER

BEGIN_DB
 ICCAP_VAR vb         0              
 ICCAP_VAR vd         0.05           
 ICCAP_VAR vs         0              

 #vg                    id                    ig                    ib                    is                   
  -0.5                  1.6e-13               -4.318e-11            4.518e-11             1.2e-13              
  -0.45                 -6e-14                -6.6e-12              9.24e-12              3e-13                
  -0.4                  -2e-14                -1.08e-12             3.06e-12              0                    
  -0.35                 1.4e-13               -2e-13                1.44e-12              1.6e-13              
  -0.3                  0                     6e-14                 1.26e-12              0                    
  -0.25                 -8e-14                6e-14                 1.18e-12              2e-13                
  -0.2                  -8e-14                2e-13                 3.46e-12              -8e-14               
  -0.15                 -4e-14                1e-13                 1.9e-12               6e-14                
  -0.1                  0                     1.4e-13               1.28e-12              4e-14                
  -0.05                 1.2e-13               2.2e-13               1.62e-12              -1.6e-13             
  0                     9.2e-13               2.8e-13               2e-12                 -8e-13               
  0.05                  3.86e-12              2.8e-13               2.2e-12               -3.82e-12            
  0.1                   1.698e-11             3.6e-13               1.98e-12              -1.69e-11            
  0.15                  7.604e-11             3.6e-13               6.2e-13               -7.584e-11           
  0.2                   3.3924e-10            3.8e-13               1.74e-12              -3.3908e-10          
  0.25                  1.509e-09             3.8e-13               -1.6e-13              -1.5084e-09          
  0.3                   6.5528e-09            3.6e-13               1.98e-12              -6.5486e-09          
  0.35                  2.6956e-08            3.4e-13               1.36e-12              -2.6932e-08          
  0.4                   9.7148e-08            5.8e-13               5e-13                 -9.6934e-08          
  0.45                  2.824e-07             7.8e-13               1.84e-12              -2.8244e-07          
  0.5                   6.5664e-07            8.8e-13               1.66e-12              -6.5642e-07          
  0.55                  1.261e-06             1.22e-12              1.76e-12              -1.2568e-06          
  0.6                   2.076e-06             1.54e-12              1.5e-12               -2.0722e-06          
  0.65                  3.0542e-06            2.32e-12              1.64e-12              -3.0504e-06          
  0.7                   4.133e-06             3.22e-12              7.6e-13               -4.1292e-06          
  0.75                  5.2664e-06            4.06e-12              6.2e-13               -5.2628e-06          
  0.8                   6.416e-06             5.26e-12              1.66e-12              -6.4126e-06          
  0.85                  7.548e-06             6.56e-12              1.66e-12              -7.5462e-06          
  0.9                   8.676e-06             8.22e-12              -6e-14                -8.6706e-06          
  0.95                  9.7578e-06            1.022e-11             5.6e-13               -9.7628e-06          
  1                     1.08042e-05           1.248e-11             6.8e-13               -1.07896e-05         
  1.05                  1.1806e-05            1.486e-11             1.5e-12               -1.1778e-05          
  1.1                   1.276e-05             1.768e-11             5.2e-13               -1.2746e-05          
  1.15                  1.3648e-05            2.08e-11              1.2e-12               -1.363e-05           
  1.2                   1.45e-05              2.448e-11             1.16e-12              -1.447e-05           
  1.25                  1.5294e-05            2.836e-11             1.8e-12               -1.5288e-05          
  1.3                   1.6056e-05            3.286e-11             9.2e-13               -1.602e-05           
  1.35                  1.675e-05             3.768e-11             1.06e-12              -1.6732e-05          
END_DB

BEGIN_DB
 ICCAP_VAR vb         -0.3           
 ICCAP_VAR vd         0.05           
 ICCAP_VAR vs         0              

 #vg                    id                    ig                    ib                    is                   
  -0.5                  2.4e-13               -3.2e-13              -2.32e-12             1.8e-13              
  -0.45                 1.2e-13               -3e-13                -3.72e-12             3.6e-13              
  -0.4                  4e-14                 2e-14                 -3.18e-12             1.2e-13              
  -0.35                 0                     8e-14                 -2.8e-12              1e-13                
  -0.3                  2e-14                 2e-14                 -2.14e-12             2.2e-13              
  -0.25                 2e-14                 1.6e-13               -4.8e-13              -1.2e-13             
  -0.2                  1e-13                 1.6e-13               -1.86e-12             1.2e-13              
  -0.15                 0                     2.6e-13               -1.98e-12             2e-14                
  -0.1                  0                     2.2e-13               -2.14e-12             1.4e-13              
  -0.05                 6e-14                 3.4e-13               -9.4e-13              -2.2e-13             
  0                     1.6e-13               2.2e-13               -7.2e-13              -1e-13               
  0.05                  6e-13                 3e-13                 -1.28e-12             -4.8e-13             
  0.1                   2.96e-12              3.8e-13               -1.46e-12             -3.08e-12            
  0.15                  1.414e-11             3.2e-13               -1.28e-12             -1.408e-11           
  0.2                   6.634e-11             3e-13                 -8.6e-13              -6.608e-11           
  0.25                  3.1014e-10            2.6e-13               -1.6e-13              -3.1024e-10          
  0.3                   1.4346e-09            2.6e-13               -1.32e-12             -1.432e-09           
  0.35                  6.4498e-09            3.6e-13               -1.64e-12             -6.4492e-09          
  0.4                   2.7108e-08            5.6e-13               -1.06e-12             -2.71e-08            
  0.45                  9.865e-08             7.6e-13               -1.8e-13              -9.8522e-08          
  0.5                   2.872e-07             8.4e-13               -1.32e-12             -2.876e-07           
  0.55                  6.7268e-07            1.32e-12              -1.16e-12             -6.7244e-07          
  0.6                   1.295e-06             1.52e-12              1.2e-13               -1.2904e-06          
  0.65                  2.1256e-06            2.14e-12              -1.2e-12              -2.123e-06           
  0.7                   3.1026e-06            3.06e-12              -9.8e-13              -3.1066e-06          
  0.75                  4.1754e-06            3.84e-12              4e-14                 -4.1822e-06          
  0.8                   5.304e-06             5.14e-12              4e-14                 -5.3022e-06          
  0.85                  6.4406e-06            6.62e-12              -1.3e-12              -6.4374e-06          
  0.9                   7.552e-06             8.16e-12              -2.2e-13              -7.5496e-06          
  0.95                  8.6472e-06            1.008e-11             -4.8e-13              -8.6438e-06          
  1                     9.7074e-06            1.21e-11              -2.6e-13              -9.7018e-06          
  1.05                  1.07262e-05           1.476e-11             -7.4e-13              -1.07224e-05         
  1.1                   1.1688e-05            1.752e-11             -1.3e-12              -1.1686e-05          
  1.15                  1.2624e-05            2.07e-11              -5.8e-13              -1.2602e-05          
  1.2                   1.3498e-05            2.438e-11             -4e-14                -1.3468e-05          
  1.25                  1.4296e-05            2.824e-11             -4.4e-13              -1.4302e-05          
  1.3                   1.5088e-05            3.26e-11              -4.2e-13              -1.5062e-05          
  1.35                  1.5806e-05            3.748e-11             -6.4e-13              -1.5792e-05          
END_DB

BEGIN_DB
 ICCAP_VAR vb         -0.6           
 ICCAP_VAR vd         0.05           
 ICCAP_VAR vs         0              

 #vg                    id                    ig                    ib                    is                   
  -0.5                  8e-14                 -2.2e-13              -4.46e-12             8e-14                
  -0.45                 6e-14                 -8e-14                -3.92e-12             1.6e-13              
  -0.4                  2e-14                 -2e-14                -3.62e-12             4e-14                
  -0.35                 1.2e-13               -6e-14                -6.44e-12             2.2e-13              
  -0.3                  -6e-14                1e-13                 -4.04e-12             1.4e-13              
  -0.25                 -4e-14                1.6e-13               -2.5e-12              2e-14                
  -0.2                  1e-13                 4e-14                 -2.4e-12              4e-14                
  -0.15                 2e-14                 1.8e-13               -2.94e-12             8e-14                
  -0.1                  2e-14                 2e-13                 -3.3e-12              1.2e-13              
  -0.05                 0                     3e-13                 -2.68e-12             -8e-14               
  0                     4e-14                 2.8e-13               -2.6e-12              1.6e-13              
  0.05                  2e-13                 2.4e-13               -1.3e-12              -8e-14               
  0.1                   7.8e-13               3.2e-13               -2.3e-12              -6.4e-13             
  0.15                  3.54e-12              2.8e-13               -2.42e-12             -3.34e-12            
  0.2                   1.728e-11             4.2e-13               -2.52e-12             -1.726e-11           
  0.25                  8.364e-11             3.2e-13               -1.98e-12             -8.344e-11           
  0.3                   4.0076e-10            4.2e-13               -1.04e-12             -4.0048e-10          
  0.35                  1.8914e-09            4e-13                 -1.32e-12             -1.8894e-09          
  0.4                   8.5854e-09            5.2e-13               -2.8e-12              -8.5808e-09          
  0.45                  3.5812e-08            5.8e-13               -1.8e-12              -3.5728e-08          
  0.5                   1.2484e-07            7.8e-13               -1.96e-12             -1.244e-07           
  0.55                  3.4898e-07            1.16e-12              -2.14e-12             -3.4922e-07          
  0.6                   7.89e-07              1.64e-12              -2.38e-12             -7.8904e-07          
  0.65                  1.468e-06             2.08e-12              -4.8e-13              -1.463e-06           
  0.7                   2.34e-06              2.88e-12              -1.82e-12             -2.3356e-06          
  0.75                  3.338e-06             3.94e-12              -1.54e-12             -3.3356e-06          
  0.8                   4.4208e-06            4.96e-12              -1.92e-12             -4.4222e-06          
  0.85                  5.5326e-06            6.36e-12              -1.12e-12             -5.5286e-06          
  0.9                   6.6502e-06            8.1e-12               -1.3e-12              -6.6464e-06          
  0.95                  7.751e-06             9.92e-12              -2.54e-12             -7.7458e-06          
  1                     8.8186e-06            1.21e-11              -1.98e-12             -8.8158e-06          
  1.05                  9.8488e-06            1.464e-11             -5.8e-13              -9.8486e-06          
  1.1                   1.08282e-05           1.726e-11             -1.54e-12             -1.08282e-05         
  1.15                  1.177e-05             2.046e-11             -1.86e-12             -1.1768e-05          
  1.2                   1.2632e-05            2.406e-11             -2.86e-12             -1.263e-05           
  1.25                  1.35e-05              2.8e-11               -9.2e-13              -1.3486e-05          
  1.3                   1.4284e-05            3.236e-11             -6e-13                -1.4276e-05          
  1.35                  1.5026e-05            3.722e-11             -1.14e-12             -1.5006e-05          
END_DB

BEGIN_DB
 ICCAP_VAR vb         -0.9           
 ICCAP_VAR vd         0.05           
 ICCAP_VAR vs         0              

 #vg                    id                    ig                    ib                    is                   
  -0.5                  1.6e-13               -4e-13                -5.32e-12             3.2e-13              
  -0.45                 1e-13                 -2e-13                -5.7e-12              4e-14                
  -0.4                  2e-14                 2e-14                 -5.04e-12             1.6e-13              
  -0.35                 -2e-14                0                     -4.82e-12             -2e-14               
  -0.3                  1.2e-13               1.4e-13               -3.06e-12             1.2e-13              
  -0.25                 6e-14                 0                     -1.3e-12              6e-14                
  -0.2                  -1e-13                1.8e-13               -4.14e-12             1.2e-13              
  -0.15                 -4e-14                1.8e-13               -3.98e-12             8e-14                
  -0.1                  1e-13                 2.4e-13               -2.94e-12             1.6e-13              
  -0.05                 2e-14                 3.4e-13               -2.42e-12             -6e-14               
  0                     -2e-14                1.8e-13               -3.7e-12              2.4e-13              
  0.05                  4e-14                 3.4e-13               -3.1e-12              1e-13                
  0.1                   2.8e-13               1.8e-13               -3.82e-12             -1.4e-13             
  0.15                  1.12e-12              2.4e-13               -3.64e-12             -9.4e-13             
  0.2                   5.62e-12              3.4e-13               -2.18e-12             -5.68e-12            
  0.25                  2.83e-11              4e-13                 -2.12e-12             -2.832e-11           
  0.3                   1.3928e-10            3.4e-13               -3.46e-12             -1.3898e-10          
  0.35                  6.773e-10             5.2e-13               -3.5e-12              -6.776e-10           
  0.4                   3.2108e-09            4.2e-13               -3.62e-12             -3.2142e-09          
  0.45                  1.4418e-08            5.4e-13               -1.72e-12             -1.4444e-08          
  0.5                   5.7302e-08            9e-13                 -2.74e-12             -5.7366e-08          
  0.55                  1.8458e-07            1.06e-12              -2.42e-12             -1.8396e-07          
  0.6                   4.827e-07             1.48e-12              -7.8e-13              -4.8258e-07          
  0.65                  1.0121e-06            2.12e-12              -2.5e-12              -1.01322e-06         
  0.7                   1.7676e-06            2.78e-12              -2.5e-12              -1.764e-06           
  0.75                  2.6918e-06            3.74e-12              -1.32e-12             -2.6876e-06          
  0.8                   3.722e-06             4.88e-12              -1.78e-12             -3.7176e-06          
  0.85                  4.8082e-06            6.26e-12              -2.42e-12             -4.798e-06           
  0.9                   5.9144e-06            8.08e-12              -3.06e-12             -5.912e-06           
  0.95                  7.0052e-06            9.84e-12              -2.04e-12             -7.0076e-06          
  1                     8.0836e-06            1.192e-11             -1.76e-12             -8.0784e-06          
  1.05                  9.1328e-06            1.448e-11             -2.16e-12             -9.1242e-06          
  1.1                   1.01258e-05           1.718e-11             -2.94e-12             -1.01162e-05         
  1.15                  1.10752e-05           2.05e-11              -1.94e-12             -1.10746e-05         
  1.2                   1.1992e-05            2.38e-11              -9.8e-13              -1.1976e-05          
  1.25                  1.2858e-05            2.778e-11             -2.68e-12             -1.2824e-05          
  1.3                   1.365e-05             3.22e-11              -2.28e-12             -1.3634e-05          
  1.35                  1.4414e-05            3.706e-11             -2.14e-12             -1.4392e-05          
END_DB

BEGIN_DB
 ICCAP_VAR vb         -1.2           
 ICCAP_VAR vd         0.05           
 ICCAP_VAR vs         0              

 #vg                    id                    ig                    ib                    is                   
  -0.5                  2.4e-13               -3.8e-13              -5.4e-12              1.8e-13              
  -0.45                 0                     -6e-14                -4.48e-12             -4e-14               
  -0.4                  -4e-14                -2e-14                -4.36e-12             1.8e-13              
  -0.35                 2e-14                 2e-14                 -4.72e-12             1.4e-13              
  -0.3                  8e-14                 1.4e-13               -5.2e-12              1.2e-13              
