! VERSION = 6.00
BEGIN_HEADER
 ICCAP_INPUTS
  vd         V  D GROUND SMU1 0.1 LIN        1    0          1.35       28   0.05      
  vg         V  G GROUND SMU2 0.001 LIN        2    0.454      1.35       5    0.224     
  vb         V  B GROUND SMU4 0.1 CON        0
  vs         V  S GROUND SMU3 0.1 CON        0
 ICCAP_OUTPUTS
  id         I  D GROUND SMU1 B
  ig         I  G GROUND SMU2 B
  ib         I  B GROUND SMU4 B
  is         I  S GROUND SMU3 B
 ICCAP_VALUES
  MASTER_SETUP_TYPE "~dc_idvd~"
  LINVT_VALUE "|idvg|100.0n|100.0m|1.000m|5|1.350|"
  LISTVT_VALUE ""
  TYPE "1"
  TEMP " 27.0000 "
  IS_TNOM " 1.00000 "
  MAIN.W "10.00u"
  MAIN.L "150.0n"
  MAIN.AD "3.400p"
  MAIN.AS "3.400p"
  MAIN.PD "20.68u"
  MAIN.PS "20.68u"
  MAIN.NF "1.000"
  MAIN.M "1"
  MAIN.NRD "0.000"
  MAIN.NRS "0.000"
  MAIN.LDRIFT1 "1E-06"
  MAIN.LDRIFT2 "1E-06"
  MAIN.SA "0.000"
  MAIN.SB "0.000"
  MAIN.SD "0.000"
  MAIN.SCA "0.000"
  MAIN.SCB "0.000"
  MAIN.SCC "0.000"
  MAIN.SC "0.000"
  MODULE "S540"
  PIN_D "14"
  PIN_G "7"
  PIN_S "8"
  PIN_B "13"
  PIN_E ""
  PIN_6 ""
  XY_ID ""
  FUNC "L Scale"
  STI "SA ref"
  WPE "WPE ref"
  COMMENT ""
  DIS_MEAS ""
  TypeTCI "10"
END_HEADER

BEGIN_DB
 ICCAP_VAR vg         0.454          
 ICCAP_VAR vb         0              
 ICCAP_VAR vs         0              

 #vd                    id                    ig                    ib                    is                   
  0                     6.5922e-08            7.88e-12              7.56e-12              -5.0948e-08          
  0.05                  2.7712e-05            6.2e-12               7.9e-12               -2.7688e-05          
  0.1                   3.8956e-05            5.5e-12               6.44e-12              -3.8946e-05          
  0.15                  4.3818e-05            4.98e-12              5.66e-12              -4.3802e-05          
  0.2                   4.6556e-05            4.54e-12              6.72e-12              -4.6532e-05          
  0.25                  4.8584e-05            4.34e-12              5.38e-12              -4.86e-05            
  0.3                   5.0394e-05            4.36e-12              5.32e-12              -5.0352e-05          
  0.35                  5.2044e-05            4.32e-12              5.82e-12              -5.2034e-05          
  0.4                   5.3632e-05            4.26e-12              4.48e-12              -5.3614e-05          
  0.45                  5.5202e-05            4.02e-12              5e-12                 -5.5174e-05          
  0.5                   5.673e-05             3.82e-12              6.34e-12              -5.6712e-05          
  0.55                  5.8222e-05            4.1e-12               4.38e-12              -5.8212e-05          
  0.6                   5.9702e-05            3.88e-12              4.18e-12              -5.9714e-05          
  0.65                  6.1228e-05            3.9e-12               5.24e-12              -6.118e-05           
  0.7                   6.2702e-05            3.84e-12              4.04e-12              -6.266e-05           
  0.75                  6.4168e-05            3.8e-12               4.22e-12              -6.4152e-05          
  0.8                   6.565e-05             3.42e-12              5.12e-12              -6.5622e-05          
  0.85                  6.7136e-05            3.22e-12              2.8e-12               -6.711e-05           
  0.9                   6.8616e-05            3e-12                 2.32e-12              -6.8598e-05          
  0.95                  7.0102e-05            2.72e-12              3.4e-13               -7.0122e-05          
  1                     7.1592e-05            2.26e-12              -8.76e-12             -7.1602e-05          
  1.05                  7.3084e-05            1.64e-12              -3.084e-11            -7.3066e-05          
  1.1                   7.4594e-05            9.8e-13               -8.478e-11            -7.4592e-05          
  1.15                  7.6158e-05            1.2e-13               -2.0636e-10           -7.6134e-05          
  1.2                   7.767e-05             -5e-13                -4.5304e-10           -7.7666e-05          
  1.25                  7.9234e-05            -1.44e-12             -9.1724e-10           -7.9192e-05          
  1.3                   8.074e-05             -2.62e-12             -1.737e-09            -8.0692e-05          
  1.35                  8.226e-05             -3.82e-12             -3.0976e-09           -8.223e-05           
END_DB

BEGIN_DB
 ICCAP_VAR vg         0.678          
 ICCAP_VAR vb         0              
 ICCAP_VAR vs         0              

 #vd                    id                    ig                    ib                    is                   
  0                     5.445e-07             5.202e-11             2.3e-12               -2.0936e-07          
  0.05                  0.00020808            4.414e-11             1.92e-12              -0.00020768          
  0.1                   0.00035672            3.788e-11             2.42e-12              -0.00035628          
  0.15                  0.00045582            3.39e-11              1.96e-12              -0.00045544          
  0.2                   0.00051904            3.086e-11             2.16e-12              -0.00051862          
  0.25                  0.00055932            2.9e-11               2.14e-12              -0.00055894          
  0.3                   0.0005862             2.778e-11             1.8e-12               -0.00058586          
  0.35                  0.00060578            2.676e-11             2.06e-12              -0.0006054           
  0.4                   0.00062142            2.626e-11             2.02e-12              -0.000621            
  0.45                  0.00063478            2.594e-11             1.34e-12              -0.00063462          
  0.5                   0.00064704            2.578e-11             3e-12                 -0.00064648          
  0.55                  0.00065802            2.538e-11             2.06e-12              -0.00065768          
  0.6                   0.00066866            2.498e-11             1.04e-12              -0.00066828          
  0.65                  0.00067884            2.496e-11             2.28e-12              -0.0006785           
  0.7                   0.00068852            2.47e-11              1.64e-12              -0.00068836          
  0.75                  0.00069834            2.452e-11             1.08e-12              -0.00069802          
  0.8                   0.00070746            2.452e-11             2.02e-12              -0.00070728          
  0.85                  0.000717              2.43e-11              -2.6e-13              -0.00071654          
  0.9                   0.0007258             2.412e-11             -2.12e-12             -0.00072538          
  0.95                  0.00073478            2.386e-11             -7.58e-12             -0.0007343           
  1                     0.00074356            2.358e-11             -2.662e-11            -0.0007432           
  1.05                  0.00075224            2.322e-11             -7.424e-11            -0.00075186          
  1.1                   0.000761              2.304e-11             -1.93e-10             -0.00076072          
  1.15                  0.00076962            2.254e-11             -4.7154e-10           -0.00076934          
  1.2                   0.00077814            2.208e-11             -1.08256e-09          -0.00077772          
  1.25                  0.00078702            2.172e-11             -2.3378e-09           -0.00078652          
  1.3                   0.00079554            2.112e-11             -4.7568e-09           -0.00079478          
  1.35                  0.00080358            2.034e-11             -9.148e-09            -0.00080312          
END_DB

BEGIN_DB
 ICCAP_VAR vg         0.902          
 ICCAP_VAR vb         0              
 ICCAP_VAR vs         0              

 #vd                    id                    ig                    ib                    is                   
  0                     9.4412e-07            1.9346e-10            1.98e-12              -3.6508e-07          
  0.05                  0.00043406            1.71e-10              1.3e-12               -0.0004337           
  0.1                   0.00079936            1.529e-10             9e-13                 -0.00079888          
  0.15                  0.00109076            1.379e-10             1.76e-12              -0.00109038          
  0.2                   0.0013144             1.2562e-10            1.9e-12               -0.0013126           
  0.25                  0.001479              1.1654e-10            6.2e-13               -0.0014772           
  0.3                   0.001598              1.095e-10             1.8e-12               -0.0015962           
  0.35                  0.0016834             1.0438e-10            1.72e-12              -0.001682            
  0.4                   0.0017462             1.0052e-10            1e-12                 -0.0017444           
  0.45                  0.0017928             9.776e-11             1.1e-12               -0.0017912           
  0.5                   0.0018298             9.572e-11             9.4e-13               -0.0018284           
  0.55                  0.0018606             9.414e-11             2.6e-13               -0.0018588           
  0.6                   0.0018872             9.306e-11             1.68e-12              -0.0018852           
  0.65                  0.0019104             9.214e-11             6.8e-13               -0.0019088           
  0.7                   0.001932              9.102e-11             5e-13                 -0.0019304           
  0.75                  0.0019522             9.032e-11             1.14e-12              -0.0019506           
  0.8                   0.0019714             8.994e-11             6e-14                 -0.0019698           
  0.85                  0.00199               8.924e-11             -1.36e-12             -0.001988            
  0.9                   0.0020076             8.874e-11             -5.18e-12             -0.002006            
  0.95                  0.0020244             8.81e-11              -1.858e-11            -0.002023            
  1                     0.0020418             8.784e-11             -4.75e-11             -0.0020398           
  1.05                  0.0020582             8.746e-11             -1.18e-10             -0.0020562           
  1.1                   0.002074              8.668e-11             -2.837e-10            -0.0020718           
  1.15                  0.0020894             8.62e-11              -6.4712e-10           -0.0020882           
  1.2                   0.0021052             8.602e-11             -1.4156e-09           -0.0021038           
  1.25                  0.0021208             8.528e-11             -2.9636e-09           -0.002119            
  1.3                   0.0021356             8.486e-11             -5.944e-09            -0.0021342           
  1.35                  0.0021506             8.416e-11             -1.14076e-08          -0.0021488           
END_DB

BEGIN_DB
 ICCAP_VAR vg         1.126          
 ICCAP_VAR vb         0              
 ICCAP_VAR vs         0              

 #vd                    id                    ig                    ib                    is                   
  0                     1.10176e-06           5.2198e-10            8.6e-13               -4.7478e-07          
  0.05                  0.00061732            4.7368e-10            6.4e-13               -0.00061682          
  0.1                   0.0011714             4.3228e-10            1.84e-12              -0.0011698           
  0.15                  0.0016472             3.9676e-10            2e-13                 -0.0016454           
  0.2                   0.0020414             3.6612e-10            1.02e-12              -0.0020398           
  0.25                  0.00236               3.4072e-10            1.12e-12              -0.002358            
  0.3                   0.0026114             3.1972e-10            6.6e-13               -0.0026094           
  0.35                  0.0028072             3.022e-10             3.52e-12              -0.0028054           
  0.4                   0.002958              2.8854e-10            8.8e-13               -0.0029566           
  0.45                  0.0030738             2.777e-10             6e-13                 -0.003072            
  0.5                   0.0031628             2.695e-10             1.88e-12              -0.0031614           
  0.55                  0.003233              2.6264e-10            2.4e-13               -0.0032318           
  0.6                   0.00329               2.5762e-10            3.2e-13               -0.0032876           
  0.65                  0.0033362             2.535e-10             1.9e-12               -0.0033346           
  0.7                   0.003376              2.5026e-10            -8.6e-13              -0.0033738           
  0.75                  0.00341               2.4738e-10            2.8e-13               -0.0034084           
  0.8                   0.0034412             2.4538e-10            7.6e-13               -0.0034392           
  0.85                  0.0034696             2.4316e-10            -3.56e-12             -0.0034676           
  0.9                   0.0034962             2.4146e-10            -8.26e-12             -0.0034944           
  0.95                  0.0035216             2.4002e-10            -2.214e-11            -0.0035196           
  1                     0.0035454             2.3868e-10            -5.912e-11            -0.003544            
  1.05                  0.0035684             2.37e-10              -1.4004e-10           -0.0035664           
  1.1                   0.0035902             2.3576e-10            -3.2264e-10           -0.0035886           
  1.15                  0.0036112             2.348e-10             -7.0974e-10           -0.00361             
  1.2                   0.0036328             2.3366e-10            -1.498e-09            -0.0036306           
  1.25                  0.0036524             2.3218e-10            -3.0408e-09           -0.003651            
  1.3                   0.0036722             2.315e-10             -5.9556e-09           -0.003671            
  1.35                  0.003692              2.3046e-10            -1.12386e-08          -0.00369             
END_DB

BEGIN_DB
 ICCAP_VAR vg         1.35           
 ICCAP_VAR vb         0              
 ICCAP_VAR vs         0              

 #vd                    id                    ig                    ib                    is                   
  0                     9.946e-07             1.1758e-09            -3.6e-13              -2.164e-08           
  0.05                  0.0007509             1.0836e-09            -1e-12                -0.00075052          
  0.1                   0.0014476             1.0026e-09            1.2e-13               -0.001446            
  0.15                  0.0020702             9.2972e-10            -8.8e-13              -0.0020684           
  0.2                   0.0026106             8.6666e-10            4e-13                 -0.0026084           
  0.25                  0.0030698             8.1142e-10            -3.6e-13              -0.0030678           
  0.3                   0.0034534             7.6394e-10            3.8e-13               -0.0034514           
  0.35                  0.0037684             7.224e-10             7e-13                 -0.003766            
  0.4                   0.004025              6.875e-10             -2.8e-13              -0.0040236           
  0.45                  0.0042324             6.582e-10             -7.4e-13              -0.0042304           
  0.5                   0.0043978             6.3384e-10            6.2e-13               -0.004396            
  0.55                  0.0045304             6.1402e-10            -2.2e-13              -0.0045292           
  0.6                   0.0046374             5.976e-10             -5.2e-13              -0.004636            
  0.65                  0.0047242             5.8452e-10            1.2e-12               -0.0047232           
  0.7                   0.0047958             5.7362e-10            -4e-13                -0.0047944           
  0.75                  0.0048554             5.65e-10              2.2e-13               -0.0048542           
  0.8                   0.0049066             5.5758e-10            -3.8e-13              -0.0049048           
  0.85                  0.0049506             5.5146e-10            -2.68e-12             -0.004949            
  0.9                   0.0049906             5.4628e-10            -8.06e-12             -0.004989            
  0.95                  0.005026              5.4166e-10            -2.292e-11            -0.0050242           
  1                     0.0050596             5.3792e-10            -5.862e-11            -0.0050584           
  1.05                  0.0050902             5.3422e-10            -1.3554e-10           -0.0050886           
  1.1                   0.0051192             5.3118e-10            -3.0908e-10           -0.005118            
  1.15                  0.0051468             5.281e-10             -6.6754e-10           -0.0051448           
  1.2                   0.0051726             5.254e-10             -1.3854e-09           -0.0051704           
  1.25                  0.0051974             5.229e-10             -2.77e-09             -0.0051956           
  1.3                   0.0052216             5.2032e-10            -5.3496e-09           -0.00522             
  1.35                  0.0052444             5.1804e-10            -9.9742e-09           -0.0052426           
END_DB

