! VERSION = 6.00
BEGIN_HEADER
 ICCAP_INPUTS
  vd         V  D GROUND SMU1 0.1 LIN        1    0          1.35       28   0.05      
  vg         V  G GROUND SMU2 0.001 LIN        2    0.25       1.35       5    0.275     
  vb         V  B GROUND SMU4 0.1 CON        0
  vs         V  S GROUND SMU3 0.1 CON        0
 ICCAP_OUTPUTS
  id         I  D GROUND SMU1 B
  ig         I  G GROUND SMU2 B
  ib         I  B GROUND SMU4 B
  is         I  S GROUND SMU3 B
 ICCAP_VALUES
  MASTER_SETUP_TYPE "~dc_idvd~"
  LINVT_VALUE "|idvg|100.0n|100.0m|1.000m|5|1.350|"
  LISTVT_VALUE ""
  TYPE "1"
  TEMP " 27.0000 "
  IS_TNOM " 1.00000 "
  MAIN.W "2.000u"
  MAIN.L "10.00u"
  MAIN.AD "680.0f"
  MAIN.AS "680.0f"
  MAIN.PD "4.680u"
  MAIN.PS "4.680u"
  MAIN.NF "1.000"
  MAIN.M "1"
  MAIN.NRD "0.000"
  MAIN.NRS "0.000"
  MAIN.LDRIFT1 "1E-06"
  MAIN.LDRIFT2 "1E-06"
  MAIN.SA "0.000"
  MAIN.SB "0.000"
  MAIN.SD "0.000"
  MAIN.SCA "0.000"
  MAIN.SCB "0.000"
  MAIN.SCC "0.000"
  MAIN.SC "0.000"
  MODULE "S543"
  PIN_D "20"
  PIN_G "1"
  PIN_S "2"
  PIN_B "19"
  PIN_E ""
  PIN_6 ""
  XY_ID ""
  FUNC "W Scale"
  STI "SA ref"
  WPE "WPE ref"
  COMMENT ""
  DIS_MEAS ""
  TypeTCI "10"
END_HEADER

BEGIN_DB
 ICCAP_VAR vg         0.25           
 ICCAP_VAR vb         0              
 ICCAP_VAR vs         0              

 #vd                    id                    ig                    ib                    is                   
  0                     3.885e-10             1.804e-11             7.92e-12              -3.2134e-10          
  0.05                  1.4154e-07            1.386e-11             7.24e-12              -1.4142e-07          
  0.1                   1.8512e-07            1.246e-11             7.3e-12               -1.8508e-07          
  0.15                  1.9894e-07            1.202e-11             6.18e-12              -1.9884e-07          
  0.2                   2.064e-07             1.184e-11             5.58e-12              -2.0642e-07          
  0.25                  2.1266e-07            1.15e-11              5.94e-12              -2.1282e-07          
  0.3                   2.1812e-07            1.148e-11             6.94e-12              -2.1798e-07          
  0.35                  2.2316e-07            1.132e-11             5.74e-12              -2.2306e-07          
  0.4                   2.2794e-07            1.108e-11             5.28e-12              -2.2782e-07          
  0.45                  2.3236e-07            1.098e-11             5.42e-12              -2.322e-07           
  0.5                   2.3676e-07            1.082e-11             5.96e-12              -2.3646e-07          
  0.55                  2.4086e-07            1.072e-11             4.44e-12              -2.4078e-07          
  0.6                   2.4486e-07            1.042e-11             4.14e-12              -2.4474e-07          
  0.65                  2.4848e-07            1.028e-11             5.36e-12              -2.4834e-07          
  0.7                   2.5206e-07            1.006e-11             5.5e-12               -2.521e-07           
  0.75                  2.5572e-07            9.9e-12               5.34e-12              -2.5548e-07          
  0.8                   2.5904e-07            9.7e-12               3.96e-12              -2.5898e-07          
  0.85                  2.6228e-07            9.48e-12              4.3e-12               -2.6216e-07          
  0.9                   2.6536e-07            9.32e-12              4.92e-12              -2.651e-07           
  0.95                  2.6822e-07            9.06e-12              3.28e-12              -2.6812e-07          
  1                     2.7104e-07            8.56e-12              3.32e-12              -2.7092e-07          
  1.05                  2.7372e-07            8.24e-12              3.9e-12               -2.7358e-07          
  1.1                   2.7624e-07            7.82e-12              2.88e-12              -2.7596e-07          
  1.15                  2.7874e-07            7.28e-12              6e-13                 -2.786e-07           
  1.2                   2.8108e-07            6.76e-12              -2e-12                -2.8102e-07          
  1.25                  2.8334e-07            6.14e-12              -5.64e-12             -2.8302e-07          
  1.3                   2.8516e-07            5.42e-12              -1.19e-11             -2.8504e-07          
  1.35                  2.8716e-07            4.7e-12               -2.144e-11            -2.8704e-07          
END_DB

BEGIN_DB
 ICCAP_VAR vg         0.525          
 ICCAP_VAR vb         0              
 ICCAP_VAR vs         0              

 #vd                    id                    ig                    ib                    is                   
  0                     1.5804e-09            3.0528e-10            2.88e-12              -1.7386e-09          
  0.05                  1.1962e-06            2.5244e-10            3.04e-12              -1.1926e-06          
  0.1                   2.1528e-06            2.1368e-10            2.68e-12              -2.1492e-06          
  0.15                  2.8564e-06            1.8738e-10            1.58e-12              -2.8526e-06          
  0.2                   3.2944e-06            1.7192e-10            2.64e-12              -3.2908e-06          
  0.25                  3.5074e-06            1.647e-10             2.14e-12              -3.5036e-06          
  0.3                   3.5998e-06            1.6154e-10            2.16e-12              -3.5962e-06          
  0.35                  3.65e-06              1.5988e-10            2.72e-12              -3.6464e-06          
  0.4                   3.6872e-06            1.5868e-10            2.12e-12              -3.6834e-06          
  0.45                  3.7192e-06            1.5758e-10            2.58e-12              -3.7152e-06          
  0.5                   3.7476e-06            1.566e-10             3.18e-12              -3.744e-06           
  0.55                  3.7742e-06            1.559e-10             2.28e-12              -3.7704e-06          
  0.6                   3.7994e-06            1.5496e-10            -3.8e-13              -3.7956e-06          
  0.65                  3.8232e-06            1.541e-10             3e-12                 -3.8196e-06          
  0.7                   3.846e-06             1.5342e-10            1.86e-12              -3.8422e-06          
  0.75                  3.8678e-06            1.526e-10             1.44e-12              -3.8642e-06          
  0.8                   3.889e-06             1.5196e-10            2.04e-12              -3.8852e-06          
  0.85                  3.9092e-06            1.5142e-10            2.06e-12              -3.9056e-06          
  0.9                   3.9288e-06            1.5072e-10            2.1e-12               -3.925e-06           
  0.95                  3.9478e-06            1.5002e-10            3.12e-12              -3.9442e-06          
  1                     3.966e-06             1.4938e-10            2.14e-12              -3.9624e-06          
  1.05                  3.9836e-06            1.4858e-10            1.18e-12              -3.9796e-06          
  1.1                   4.0004e-06            1.48e-10              2.2e-12               -3.9966e-06          
  1.15                  4.0168e-06            1.4732e-10            1.3e-12               -4.013e-06           
  1.2                   4.0328e-06            1.4674e-10            0                     -4.0292e-06          
  1.25                  4.048e-06             1.4604e-10            -1.96e-12             -4.0446e-06          
  1.3                   4.063e-06             1.4526e-10            -7.8e-12              -4.0594e-06          
  1.35                  4.0774e-06            1.4456e-10            -1.82e-11             -4.0738e-06          
END_DB

BEGIN_DB
 ICCAP_VAR vg         0.8            
 ICCAP_VAR vb         0              
 ICCAP_VAR vs         0              

 #vd                    id                    ig                    ib                    is                   
  0                     2.1758e-09            1.9262e-09            1.74e-12              -3.3734e-09          
  0.05                  2.2542e-06            1.6768e-09            1.56e-12              -2.252e-06           
  0.1                   4.2992e-06            1.4704e-09            2.16e-12              -4.2968e-06          
  0.15                  6.128e-06             1.302e-09             1.32e-12              -6.1256e-06          
  0.2                   7.732e-06             1.1664e-09            7.6e-13               -7.7292e-06          
  0.25                  9.1038e-06            1.0592e-09            1.86e-12              -9.101e-06           
  0.3                   1.023e-05             9.7666e-10            1.52e-12              -1.0227e-05          
  0.35                  1.10936e-05           9.1764e-10            1.04e-12              -1.10904e-05         
  0.4                   1.169e-05             8.7902e-10            1.16e-12              -1.1679e-05          
  0.45                  1.2028e-05            8.5766e-10            3.1e-12               -1.2012e-05          
  0.5                   1.2204e-05            8.466e-10             1.74e-12              -1.2186e-05          
  0.55                  1.2302e-05            8.406e-10             9.4e-13               -1.2286e-05          
  0.6                   1.2374e-05            8.3628e-10            3.4e-13               -1.2356e-05          
  0.65                  1.243e-05             8.3284e-10            2.92e-12              -1.2412e-05          
  0.7                   1.248e-05             8.297e-10             1.42e-12              -1.2464e-05          
  0.75                  1.2526e-05            8.2682e-10            1.5e-12               -1.251e-05           
  0.8                   1.257e-05             8.243e-10             2.1e-12               -1.2554e-05          
  0.85                  1.2612e-05            8.2172e-10            1.08e-12              -1.2596e-05          
  0.9                   1.2652e-05            8.1932e-10            1.04e-12              -1.2634e-05          
  0.95                  1.2688e-05            8.172e-10             1.78e-12              -1.2672e-05          
  1                     1.2724e-05            8.1496e-10            4.2e-13               -1.2708e-05          
  1.05                  1.276e-05             8.1294e-10            8.2e-13               -1.2742e-05          
  1.1                   1.2794e-05            8.1074e-10            1.76e-12              -1.2776e-05          
  1.15                  1.2824e-05            8.0904e-10            8.6e-13               -1.2808e-05          
  1.2                   1.2858e-05            8.0712e-10            9.6e-13               -1.284e-05           
  1.25                  1.2886e-05            8.0514e-10            2.16e-12              -1.287e-05           
  1.3                   1.2916e-05            8.0346e-10            5e-13                 -1.2898e-05          
  1.35                  1.2944e-05            8.0148e-10            8e-13                 -1.2926e-05          
END_DB

BEGIN_DB
 ICCAP_VAR vg         1.075          
 ICCAP_VAR vb         0              
 ICCAP_VAR vs         0              

 #vd                    id                    ig                    ib                    is                   
  0                     9.4974e-10            7.5592e-09            1.58e-12              -9.964e-09           
  0.05                  3.1134e-06            6.788e-09             1.66e-12              -3.1162e-06          
  0.1                   6.0642e-06            6.1156e-09            3.8e-13               -6.0666e-06          
  0.15                  8.8422e-06            5.5318e-09            1.24e-12              -8.8438e-06          
  0.2                   1.14364e-05           5.0288e-09            1.72e-12              -1.14376e-05         
  0.25                  1.3848e-05            4.5976e-09            1.84e-12              -1.3836e-05          
  0.3                   1.6054e-05            4.2318e-09            1.34e-12              -1.604e-05           
  0.35                  1.8052e-05            3.9226e-09            7.8e-13               -1.8038e-05          
  0.4                   1.9832e-05            3.6652e-09            1.34e-12              -1.9818e-05          
  0.45                  2.1382e-05            3.4546e-09            1.36e-12              -2.1368e-05          
  0.5                   2.2694e-05            3.2864e-09            9.4e-13               -2.268e-05           
  0.55                  2.3754e-05            3.1574e-09            7e-13                 -2.374e-05           
  0.6                   2.4542e-05            3.0648e-09            1.82e-12              -2.4528e-05          
  0.65                  2.5066e-05            3.0046e-09            3.32e-12              -2.5052e-05          
  0.7                   2.5376e-05            2.97e-09              9.8e-13               -2.5362e-05          
  0.75                  2.5556e-05            2.9498e-09            1.82e-12              -2.5542e-05          
  0.8                   2.5674e-05            2.9372e-09            7e-13                 -2.566e-05           
  0.85                  2.5762e-05            2.9272e-09            2.6e-13               -2.5748e-05          
  0.9                   2.5838e-05            2.9188e-09            1.96e-12              -2.5822e-05          
  0.95                  2.5904e-05            2.9116e-09            5.8e-13               -2.589e-05           
  1                     2.5968e-05            2.9052e-09            3.6e-13               -2.5952e-05          
  1.05                  2.6024e-05            2.8986e-09            1.5e-12               -2.601e-05           
  1.1                   2.608e-05             2.893e-09             8e-13                 -2.6064e-05          
  1.15                  2.6132e-05            2.887e-09             6e-14                 -2.6116e-05          
  1.2                   2.6182e-05            2.882e-09             2.26e-12              -2.6168e-05          
  1.25                  2.623e-05             2.877e-09             8e-14                 -2.6216e-05          
  1.3                   2.6276e-05            2.8718e-09            5.6e-13               -2.6262e-05          
  1.35                  2.632e-05             2.867e-09             1.66e-12              -2.6306e-05          
END_DB

BEGIN_DB
 ICCAP_VAR vg         1.35           
 ICCAP_VAR vb         0              
 ICCAP_VAR vs         0              

 #vd                    id                    ig                    ib                    is                   
  0                     -3.1286e-09           2.2272e-08            -1.682e-11            -1.6736e-08          
  0.05                  3.7182e-06            2.0402e-08            -1.314e-11            -3.7346e-06          
  0.1                   7.329e-06             1.8722e-08            -8.68e-12             -7.3438e-06          
  0.15                  1.08146e-05           1.7218e-08            -7.76e-12             -1.08278e-05         
  0.2                   1.4172e-05            1.5874e-08            -4.82e-12             -1.417e-05           
  0.25                  1.7382e-05            1.4678e-08            -5.24e-12             -1.7378e-05          
  0.3                   2.0438e-05            1.3618e-08            -3.5e-12              -2.0434e-05          
  0.35                  2.3336e-05            1.2678e-08            -2.5e-12              -2.333e-05           
  0.4                   2.6064e-05            1.1854e-08            -2.66e-12             -2.6058e-05          
  0.45                  2.8608e-05            1.1132e-08            -2.64e-12             -2.8602e-05          
  0.5                   3.097e-05             1.0504e-08            -1.76e-12             -3.0964e-05          
  0.55                  3.3136e-05            9.962e-09             -1.24e-12             -3.3128e-05          
  0.6                   3.5092e-05            9.4942e-09            -2.04e-12             -3.5084e-05          
  0.65                  3.6832e-05            9.1034e-09            -1.22e-12             -3.6824e-05          
  0.7                   3.8346e-05            8.7788e-09            -1.74e-12             -3.8336e-05          
  0.75                  3.9614e-05            8.5182e-09            -1.94e-12             -3.9604e-05          
  0.8                   4.0626e-05            8.316e-09             -1.14e-12             -4.0616e-05          
  0.85                  4.1378e-05            8.1702e-09            -1.54e-12             -4.1368e-05          
  0.9                   4.1882e-05            8.0742e-09            -1.98e-12             -4.1872e-05          
  0.95                  4.2196e-05            8.0162e-09            -1.32e-12             -4.2184e-05          
  1                     4.2392e-05            7.9788e-09            -7.2e-13              -4.2384e-05          
  1.05                  4.2526e-05            7.9536e-09            -1.4e-12              -4.2518e-05          
  1.1                   4.2634e-05            7.935e-09             -1.7e-12              -4.2626e-05          
  1.15                  4.2724e-05            7.9182e-09            -8.4e-13              -4.2714e-05          
  1.2                   4.2804e-05            7.9038e-09            -1.94e-12             -4.2796e-05          
  1.25                  4.2878e-05            7.8898e-09            -1.72e-12             -4.287e-05           
  1.3                   4.295e-05             7.8766e-09            -8.4e-13              -4.2942e-05          
  1.35                  4.3016e-05            7.8648e-09            -2.14e-12             -4.3006e-05          
END_DB

