! VERSION = 6.00
BEGIN_HEADER
 ICCAP_INPUTS
  vd         V  D GROUND SMU1 0.1 LIN        1    0          1.35       28   0.05      
  vg         V  G GROUND SMU2 0.001 LIN        2    0.53       1.35       5    0.205     
  vb         V  B GROUND SMU4 0.1 CON        -1.2
  vs         V  S GROUND SMU3 0.1 CON        0
 ICCAP_OUTPUTS
  id         I  D GROUND SMU1 B
  ig         I  G GROUND SMU2 B
  ib         I  B GROUND SMU4 B
  is         I  S GROUND SMU3 B
 ICCAP_VALUES
  MASTER_SETUP_TYPE "~dc_idvd~"
  LINVT_VALUE "|idvg|100.0n|100.0m|1.000m|5|1.350|"
  LISTVT_VALUE ""
  TYPE "1"
  TEMP " 27.0000 "
  IS_TNOM " 1.00000 "
  MAIN.W "10.00u"
  MAIN.L "180.0n"
  MAIN.AD "3.400p"
  MAIN.AS "3.400p"
  MAIN.PD "20.68u"
  MAIN.PS "20.68u"
  MAIN.NF "1.000"
  MAIN.M "1"
  MAIN.NRD "0.000"
  MAIN.NRS "0.000"
  MAIN.LDRIFT1 "1E-06"
  MAIN.LDRIFT2 "1E-06"
  MAIN.SA "0.000"
  MAIN.SB "0.000"
  MAIN.SD "0.000"
  MAIN.SCA "0.000"
  MAIN.SCB "0.000"
  MAIN.SCC "0.000"
  MAIN.SC "0.000"
  MODULE "S540"
  PIN_D "12"
  PIN_G "9"
  PIN_S "10"
  PIN_B "11"
  PIN_E ""
  PIN_6 ""
  XY_ID ""
  FUNC "L Scale"
  STI "SA ref"
  WPE "WPE ref"
  COMMENT ""
  DIS_MEAS ""
  TypeTCI "10"
END_HEADER

BEGIN_DB
 ICCAP_VAR vg         0.53           
 ICCAP_VAR vb         -1.2           
 ICCAP_VAR vs         0              

 #vd                    id                    ig                    ib                    is                   
  0                     6.8802e-08            1.358e-11             -1.482e-11            -5.7762e-08          
  0.05                  2.3122e-05            1.082e-11             -1.36e-11             -2.3082e-05          
  0.1                   3.301e-05             9.22e-12              -1.216e-11            -3.2986e-05          
  0.15                  3.7614e-05            8.36e-12              -1.298e-11            -3.762e-05           
  0.2                   4.0456e-05            7.88e-12              -1.248e-11            -4.0446e-05          
  0.25                  4.2704e-05            7.5e-12               -1.054e-11            -4.2694e-05          
  0.3                   4.471e-05             7.42e-12              -1.31e-11             -4.4696e-05          
  0.35                  4.661e-05             7.26e-12              -9.86e-12             -4.6594e-05          
  0.4                   4.845e-05             7.24e-12              -9.72e-12             -4.8448e-05          
  0.45                  5.0282e-05            7.18e-12              -9.58e-12             -5.0232e-05          
  0.5                   5.2046e-05            7.06e-12              -9.3e-12              -5.2036e-05          
  0.55                  5.383e-05             6.96e-12              -8.76e-12             -5.3774e-05          
  0.6                   5.558e-05             7.02e-12              -8.86e-12             -5.5542e-05          
  0.65                  5.7344e-05            6.94e-12              -8.06e-12             -5.732e-05           
  0.7                   5.9098e-05            6.72e-12              -7.9e-12              -5.9098e-05          
  0.75                  6.0826e-05            6.72e-12              -8.92e-12             -6.083e-05           
  0.8                   6.259e-05             6.64e-12              -7.42e-12             -6.2588e-05          
  0.85                  6.4364e-05            6.58e-12              -7.36e-12             -6.4322e-05          
  0.9                   6.6102e-05            6.3e-12               -8.44e-12             -6.6088e-05          
  0.95                  6.7842e-05            6.08e-12              -8.52e-12             -6.7856e-05          
  1                     6.9584e-05            5.68e-12              -1.262e-11            -6.9548e-05          
  1.05                  7.144e-05             5.32e-12              -2.434e-11            -7.142e-05           
  1.1                   7.3176e-05            4.98e-12              -5.122e-11            -7.3134e-05          
  1.15                  7.4994e-05            4.38e-12              -1.174e-10            -7.4984e-05          
  1.2                   7.6816e-05            3.7e-12               -2.6082e-10           -7.6762e-05          
  1.25                  7.8592e-05            3.14e-12              -5.4424e-10           -7.8572e-05          
  1.3                   8.0444e-05            2.08e-12              -1.07146e-09          -8.0458e-05          
  1.35                  8.2264e-05            1.06e-12              -1.982e-09            -8.2244e-05          
END_DB

BEGIN_DB
 ICCAP_VAR vg         0.735          
 ICCAP_VAR vb         -1.2           
 ICCAP_VAR vs         0              

 #vd                    id                    ig                    ib                    is                   
  0                     4.8328e-07            7.32e-11              -4.38e-12             -2.353e-07           
  0.05                  0.00016318            6.232e-11             -4.8e-12              -0.0001628           
  0.1                   0.00028108            5.432e-11             -4.2e-12              -0.00028064          
  0.15                  0.0003609             4.838e-11             -4.48e-12             -0.00036052          
  0.2                   0.00041312            4.438e-11             -4.84e-12             -0.0004127           
  0.25                  0.00044702            4.168e-11             -4.3e-12              -0.00044668          
  0.3                   0.00047064            3.99e-11              -4.46e-12             -0.00047026          
  0.35                  0.0004885             3.858e-11             -3.86e-12             -0.00048826          
  0.4                   0.00050332            3.78e-11              -3.54e-12             -0.00050274          
  0.45                  0.00051598            3.722e-11             -4.6e-12              -0.00051552          
  0.5                   0.00052768            3.676e-11             -4.2e-12              -0.0005274           
  0.55                  0.00053898            3.646e-11             -3.68e-12             -0.00053862          
  0.6                   0.0005498             3.61e-11              -5e-12                -0.0005493           
  0.65                  0.0005599             3.574e-11             -3.84e-12             -0.00055956          
  0.7                   0.00057004            3.554e-11             -3.58e-12             -0.00056964          
  0.75                  0.00057984            3.526e-11             -4.48e-12             -0.00057946          
  0.8                   0.00058944            3.502e-11             -4.18e-12             -0.00058912          
  0.85                  0.00059894            3.484e-11             -3.64e-12             -0.00059874          
  0.9                   0.00060854            3.464e-11             -5.76e-12             -0.00060806          
  0.95                  0.00061764            3.432e-11             -7.8e-12              -0.00061738          
  1                     0.00062674            3.406e-11             -1.418e-11            -0.00062634          
  1.05                  0.0006357             3.376e-11             -3.256e-11            -0.00063522          
  1.1                   0.00064462            3.34e-11              -7.826e-11            -0.00064434          
  1.15                  0.0006537             3.304e-11             -1.9188e-10           -0.00065334          
  1.2                   0.00066242            3.272e-11             -4.5738e-10           -0.00066198          
  1.25                  0.0006714             3.222e-11             -1.03058e-09          -0.00067124          
  1.3                   0.00068008            3.16e-11              -2.2008e-09           -0.00067974          
  1.35                  0.00068894            3.106e-11             -4.4334e-09           -0.0006884           
END_DB

BEGIN_DB
 ICCAP_VAR vg         0.94           
 ICCAP_VAR vb         -1.2           
 ICCAP_VAR vs         0              

 #vd                    id                    ig                    ib                    is                   
  0                     3.109e-07             2.4116e-10            -2.96e-12             -4.1902e-07          
  0.05                  0.00034304            2.1326e-10            -2.74e-12             -0.00034264          
  0.1                   0.0006331             1.903e-10             -3.28e-12             -0.00063276          
  0.15                  0.00086748            1.7166e-10            -4.08e-12             -0.00086716          
  0.2                   0.00104878            1.5702e-10            -3.2e-12              -0.00104838          
  0.25                  0.0011852             1.4562e-10            -2.74e-12             -0.0011834           
  0.3                   0.0012842             1.372e-10             -3.44e-12             -0.0012826           
  0.35                  0.0013566             1.3074e-10            -3.44e-12             -0.0013548           
  0.4                   0.0014098             1.262e-10             -3.06e-12             -0.0014082           
  0.45                  0.0014508             1.2286e-10            -2.78e-12             -0.001449            
  0.5                   0.0014836             1.205e-10             -3.28e-12             -0.0014818           
  0.55                  0.0015114             1.1854e-10            -1.68e-12             -0.0015094           
  0.6                   0.0015358             1.1706e-10            -2.6e-12              -0.001534            
  0.65                  0.001558              1.1586e-10            -3.92e-12             -0.0015564           
  0.7                   0.0015788             1.1464e-10            1.3e-12               -0.0015772           
  0.75                  0.0015984             1.1372e-10            -3.44e-12             -0.0015964           
  0.8                   0.001617              1.1304e-10            -3.38e-12             -0.0016156           
  0.85                  0.0016348             1.1208e-10            -2.88e-12             -0.0016334           
  0.9                   0.0016524             1.1134e-10            -5.24e-12             -0.0016508           
  0.95                  0.0016694             1.109e-10             -7.96e-12             -0.0016678           
  1                     0.0016862             1.1014e-10            -1.728e-11            -0.0016844           
  1.05                  0.0017022             1.0958e-10            -4.094e-11            -0.0017006           
  1.1                   0.0017182             1.09e-10              -9.63e-11             -0.0017164           
  1.15                  0.0017338             1.083e-10             -2.2472e-10           -0.0017322           
  1.2                   0.0017492             1.079e-10             -5.1248e-10           -0.0017474           
  1.25                  0.0017642             1.0706e-10            -1.12102e-09          -0.0017626           
  1.3                   0.0017794             1.0644e-10            -2.3558e-09           -0.0017778           
  1.35                  0.0017942             1.0598e-10            -4.7546e-09           -0.0017924           
END_DB

BEGIN_DB
 ICCAP_VAR vg         1.145          
 ICCAP_VAR vb         -1.2           
 ICCAP_VAR vs         0              

 #vd                    id                    ig                    ib                    is                   
  0                     9.336e-07             6.1244e-10            -1.98e-12             4.473e-07            
  0.05                  0.0004951             5.5328e-10            -2.32e-12             -0.0004947           
  0.1                   0.00094058            5.0414e-10            -1.58e-12             -0.0009402           
  0.15                  0.0013276             4.612e-10             -1.68e-12             -0.001326            
  0.2                   0.0016512             4.2492e-10            -2.38e-12             -0.0016496           
  0.25                  0.0019156             3.9442e-10            -2.9e-12              -0.0019138           
  0.3                   0.0021262             3.6982e-10            -1.88e-12             -0.0021244           
  0.35                  0.0022908             3.4882e-10            -2.76e-12             -0.0022892           
  0.4                   0.0024184             3.3398e-10            -2.72e-12             -0.0024168           
  0.45                  0.0025166             3.2136e-10            -2.08e-12             -0.002515            
  0.5                   0.002593              3.12e-10              -3.04e-12             -0.002591            
  0.55                  0.0026532             3.047e-10             -1.86e-12             -0.0026512           
  0.6                   0.0027016             2.9888e-10            -2.28e-12             -0.0027              
  0.65                  0.0027426             2.9346e-10            -2.06e-12             -0.0027408           
  0.7                   0.002778              2.9066e-10            -1.5e-12              -0.0027762           
  0.75                  0.0028092             2.8756e-10            -2e-12                -0.0028074           
  0.8                   0.0028374             2.8442e-10            -3.84e-12             -0.0028358           
  0.85                  0.002864              2.8278e-10            -2.12e-12             -0.0028622           
  0.9                   0.002889              2.806e-10             -4.82e-12             -0.0028872           
  0.95                  0.0029124             2.7866e-10            -9.04e-12             -0.0029108           
  1                     0.0029352             2.77e-10              -1.648e-11            -0.0029336           
  1.05                  0.002957              2.7472e-10            -4.072e-11            -0.0029556           
  1.1                   0.0029784             2.7292e-10            -9.604e-11            -0.002977            
  1.15                  0.0029992             2.7242e-10            -2.1584e-10           -0.0029976           
  1.2                   0.0030192             2.709e-10             -4.7842e-10           -0.0030176           
  1.25                  0.0030386             2.6926e-10            -1.01852e-09          -0.0030368           
  1.3                   0.003058              2.6854e-10            -2.0958e-09           -0.0030564           
  1.35                  0.0030772             2.6712e-10            -4.1604e-09           -0.0030754           
END_DB

BEGIN_DB
 ICCAP_VAR vg         1.35           
 ICCAP_VAR vb         -1.2           
 ICCAP_VAR vs         0              

 #vd                    id                    ig                    ib                    is                   
  0                     1.1332e-06            1.329e-09             -3.46e-12             -1.1142e-06          
  0.05                  0.00061012            1.2196e-09            -3.66e-12             -0.00060974          
  0.1                   0.0011778             1.1238e-09            -1.84e-12             -0.001176            
  0.15                  0.0016882             1.0414e-09            -3e-12                -0.0016866           
  0.2                   0.0021354             9.6598e-10            -2.12e-12             -0.0021334           
  0.25                  0.0025186             9.0298e-10            -3.04e-12             -0.0025166           
  0.3                   0.002841              8.4716e-10            -3.22e-12             -0.0028394           
  0.35                  0.003108              8.0064e-10            -1.88e-12             -0.0031062           
  0.4                   0.003326              7.6116e-10            -2.8e-12              -0.0033244           
  0.45                  0.0035024             7.2832e-10            -2.36e-12             -0.0035006           
  0.5                   0.0036436             7.0056e-10            -1.76e-12             -0.0036418           
  0.55                  0.003757              6.7842e-10            -2.94e-12             -0.0037554           
  0.6                   0.0038488             6.6068e-10            -2.16e-12             -0.0038466           
  0.65                  0.0039224             6.4712e-10            -2.26e-12             -0.0039206           
  0.7                   0.0039834             6.3566e-10            -3.34e-12             -0.003982            
  0.75                  0.004035              6.2608e-10            -1.96e-12             -0.0040332           
  0.8                   0.004079              6.1834e-10            -2.22e-12             -0.0040766           
  0.85                  0.0041176             6.1172e-10            -3.3e-12              -0.004116            
  0.9                   0.0041528             6.0624e-10            -4.12e-12             -0.0041506           
  0.95                  0.0041848             6.0124e-10            -7.62e-12             -0.004183            
  1                     0.0042144             5.9686e-10            -1.548e-11            -0.004213            
  1.05                  0.0042424             5.9272e-10            -3.394e-11            -0.0042408           
  1.1                   0.0042688             5.8944e-10            -7.958e-11            -0.0042674           
  1.15                  0.0042942             5.8618e-10            -1.7942e-10           -0.0042924           
  1.2                   0.0043186             5.8304e-10            -3.9102e-10           -0.004317            
  1.25                  0.0043426             5.799e-10             -8.2386e-10           -0.0043402           
  1.3                   0.0043644             5.7718e-10            -1.6756e-09           -0.004363            
  1.35                  0.004387              5.7444e-10            -3.2952e-09           -0.0043848           
END_DB

