! VERSION = 6.00
BEGIN_HEADER
 ICCAP_INPUTS
  vd         V  D GROUND SMU1 0.1 LIN        1    0          1.35       28   0.05      
  vg         V  G GROUND SMU2 0.001 LIST       2 3 0.291 0.491 0.691
  vb         V  B GROUND SMU4 0.1 CON        0
  vs         V  S GROUND SMU3 0.1 CON        0
 ICCAP_OUTPUTS
  id         I  D GROUND SMU1 B
  ig         I  G GROUND SMU2 B
  ib         I  B GROUND SMU4 B
  is         I  S GROUND SMU3 B
 ICCAP_VALUES
  MASTER_SETUP_TYPE "~dc_idvd~"
  LINVT_VALUE ""
  LISTVT_VALUE "|idvg|100.0n|-200.0m|1.000m|3|200.0m|200.0m|"
  TYPE "1"
  TEMP "-40.0000 "
  IS_TNOM " 0.00000 "
  MAIN.W "300.0n"
  MAIN.L "130.0n"
  MAIN.AD "102.0f"
  MAIN.AS "102.0f"
  MAIN.PD "1.280u"
  MAIN.PS "1.280u"
  MAIN.NF "1.000"
  MAIN.M "1"
  MAIN.NRD "0.000"
  MAIN.NRS "0.000"
  MAIN.LDRIFT1 "1E-06"
  MAIN.LDRIFT2 "1E-06"
  MAIN.SA "0.000"
  MAIN.SB "0.000"
  MAIN.SD "0.000"
  MAIN.SCA "0.000"
  MAIN.SCB "0.000"
  MAIN.SCC "0.000"
  MAIN.SC "0.000"
  MODULE "S544"
  PIN_D "18"
  PIN_G "3"
  PIN_S "4"
  PIN_B "17"
  PIN_E ""
  PIN_6 ""
  XY_ID ""
  FUNC "LW Scale"
  STI "SA ref"
  WPE "WPE ref"
  COMMENT ""
  DIS_MEAS ""
  TypeTCI "10"
END_HEADER

BEGIN_DB
 ICCAP_VAR vg         0.291          
 ICCAP_VAR vb         0              
 ICCAP_VAR vs         0              

 #vd                    id                    ig                    ib                    is                   
  0                     2e-13                 6e-14                 1.2e-12               -1.6e-13             
  0.05                  1.1004e-10            -1e-13                -4e-14                -1.1008e-10          
  0.1                   1.3218e-10            0                     5.2e-13               -1.3156e-10          
  0.15                  1.4512e-10            -1.2e-13              4e-13                 -1.4466e-10          
  0.2                   1.573e-10             -6e-14                -2.6e-13              -1.5664e-10          
  0.25                  1.6844e-10            -2.2e-13              -6.2e-13              -1.6848e-10          
  0.3                   1.8058e-10            -6e-14                -6.2e-13              -1.8e-10             
  0.35                  1.9272e-10            -4e-14                8e-13                 -1.9232e-10          
  0.4                   2.0546e-10            -1.4e-13              6.4e-13               -2.0448e-10          
  0.45                  2.1848e-10            -1.4e-13              2.2e-13               -2.178e-10           
  0.5                   2.3264e-10            -1.2e-13              -6.6e-13              -2.3166e-10          
  0.55                  2.469e-10             -2e-14                -9e-13                -2.4602e-10          
  0.6                   2.6216e-10            2e-14                 -2.2e-13              -2.6132e-10          
  0.65                  2.789e-10             -8e-14                1.06e-12              -2.7798e-10          
  0.7                   2.9616e-10            -8e-14                6.12e-12              -2.9566e-10          
  0.75                  3.1504e-10            -1.2e-13              -2.4e-13              -3.1444e-10          
  0.8                   3.3526e-10            -2e-13                -5e-13                -3.3426e-10          
  0.85                  3.5644e-10            0                     2e-14                 -3.5552e-10          
  0.9                   3.7912e-10            -2e-13                6.4e-13               -3.776e-10           
  0.95                  4.0308e-10            0                     2.8e-13               -4.0224e-10          
  1                     4.2784e-10            -6e-14                -2.8e-13              -4.2702e-10          
  1.05                  4.5586e-10            -2.4e-13              -5.4e-13              -4.5542e-10          
  1.1                   4.8478e-10            -1.6e-13              0                     -4.8364e-10          
  1.15                  5.1524e-10            -2.2e-13              8.6e-13               -5.1428e-10          
  1.2                   5.483e-10             -2e-13                0                     -5.4736e-10          
  1.25                  5.8326e-10            -3e-13                -7.4e-13              -5.8152e-10          
  1.3                   6.204e-10             -2e-13                -2.4e-13              -6.193e-10           
  1.35                  6.5938e-10            -4e-13                6.6e-13               -6.5802e-10          
END_DB

BEGIN_DB
 ICCAP_VAR vg         0.491          
 ICCAP_VAR vb         0              
 ICCAP_VAR vs         0              

 #vd                    id                    ig                    ib                    is                   
  0                     1.807e-10             3.6e-13               6.2e-13               -1.7862e-10          
  0.05                  1.0676e-07            2e-13                 2e-14                 -1.0652e-07          
  0.1                   1.3722e-07            1.6e-13               -3.6e-13              -1.3712e-07          
  0.15                  1.541e-07             1.8e-13               -1.2e-13              -1.5372e-07          
  0.2                   1.6806e-07            1.6e-13               8.4e-13               -1.68e-07            
  0.25                  1.8104e-07            1.4e-13               9.8e-13               -1.8118e-07          
  0.3                   1.9396e-07            1e-13                 -2e-13                -1.937e-07           
  0.35                  2.0628e-07            2.2e-13               -1.8e-13              -2.0618e-07          
  0.4                   2.1926e-07            1.6e-13               4.2e-13               -2.1904e-07          
  0.45                  2.3168e-07            1.8e-13               0                     -2.3154e-07          
  0.5                   2.4472e-07            4e-14                 -5.4e-13              -2.4446e-07          
  0.55                  2.5776e-07            1.4e-13               1.2e-13               -2.5792e-07          
  0.6                   2.7144e-07            6e-14                 1.46e-12              -2.714e-07           
  0.65                  2.8528e-07            -6e-14                7e-13                 -2.848e-07           
  0.7                   2.9902e-07            4e-14                 -7.4e-13              -2.9908e-07          
  0.75                  3.1384e-07            -4e-14                -3e-13                -3.1382e-07          
  0.8                   3.2888e-07            0                     8.6e-13               -3.2866e-07          
  0.85                  3.4438e-07            1.2e-13               -1.8e-13              -3.4384e-07          
  0.9                   3.5948e-07            1.6e-13               -6.6e-13              -3.599e-07           
  0.95                  3.7594e-07            0                     -6.8e-13              -3.761e-07           
  1                     3.9302e-07            1.6e-13               9.6e-13               -3.9286e-07          
  1.05                  4.097e-07             -1e-13                -4.2e-13              -4.0982e-07          
  1.1                   4.2832e-07            0                     -1.62e-12             -4.2772e-07          
  1.15                  4.4688e-07            4e-14                 -1.1e-12              -4.4652e-07          
  1.2                   4.6614e-07            -2e-14                -2.3e-12              -4.6586e-07          
  1.25                  4.8614e-07            0                     -6.22e-12             -4.8548e-07          
  1.3                   5.058e-07             4e-14                 -1.174e-11            -5.1246e-07          
  1.35                  5.2726e-07            -1.4e-13              -2.274e-11            -5.2704e-07          
END_DB

BEGIN_DB
 ICCAP_VAR vg         0.691          
 ICCAP_VAR vb         0              
 ICCAP_VAR vs         0              

 #vd                    id                    ig                    ib                    is                   
  0                     2.5616e-09            1.24e-12              4e-13                 -2.7052e-09          
  0.05                  3.1284e-06            1.02e-12              1.22e-12              -3.1242e-06          
  0.1                   4.97e-06              9e-13                 2e-14                 -4.967e-06           
  0.15                  6.044e-06             6.8e-13               0                     -6.042e-06           
  0.2                   6.713e-06             7.6e-13               1.2e-12               -6.7134e-06          
  0.25                  7.1974e-06            6e-13                 -1.4e-13              -7.1886e-06          
  0.3                   7.59e-06              6.2e-13               -6.2e-13              -7.5852e-06          
  0.35                  7.9326e-06            5.2e-13               1.02e-12              -7.9284e-06          
  0.4                   8.2444e-06            6.2e-13               -7.6e-13              -8.2454e-06          
  0.45                  8.553e-06             4.4e-13               -6e-13                -8.5494e-06          
  0.5                   8.8312e-06            5.8e-13               9e-13                 -8.8298e-06          
  0.55                  9.1126e-06            5.4e-13               -3.2e-13              -9.106e-06           
  0.6                   9.382e-06             5.2e-13               -2e-13                -9.375e-06           
  0.65                  9.645e-06             5e-13                 2.6e-13               -9.6386e-06          
  0.7                   9.9026e-06            6.2e-13               -1e-13                -9.8964e-06          
  0.75                  1.0146e-05            4e-13                 0                     -1.01416e-05         
  0.8                   1.03988e-05           4.2e-13               1e-12                 -1.04036e-05         
  0.85                  1.06552e-05           4.8e-13               -4.8e-13              -1.06504e-05         
  0.9                   1.08996e-05           4.8e-13               -4.4e-13              -1.08954e-05         
  0.95                  1.1156e-05            4.2e-13               -2.2e-13              -1.11476e-05         
  1                     1.1396e-05            4.6e-13               -5.4e-13              -1.13906e-05         
  1.05                  1.1654e-05            4.2e-13               -7.6e-13              -1.16354e-05         
  1.1                   1.1874e-05            4.8e-13               -2.5e-12              -1.1874e-05          
  1.15                  1.214e-05             4e-13                 -5.66e-12             -1.212e-05           
  1.2                   1.2382e-05            3.8e-13               -1.654e-11            -1.2364e-05          
  1.25                  1.2634e-05            3.4e-13               -3.658e-11            -1.261e-05           
  1.3                   1.2876e-05            4.2e-13               -7.988e-11            -1.2858e-05          
  1.35                  1.3122e-05            4.2e-13               -1.659e-10            -1.3098e-05          
END_DB

