! VERSION = 6.00
BEGIN_HEADER
 ICCAP_INPUTS
  vg         V  G GROUND SMU2 0.001 LIN        1    -0.5       1.35       38   0.05      
  vb         V  B GROUND SMU4 0.1 LIN        2    0          -1.2       5    -0.3      
  vd         V  D GROUND SMU1 0.1 LIST       3 3 0.05 0.6 1.2
  vs         V  S GROUND SMU3 0.1 CON        0
 ICCAP_OUTPUTS
  id         I  D GROUND SMU1 B
  ig         I  G GROUND SMU2 B
  ib         I  B GROUND SMU4 B
  is         I  S GROUND SMU3 B
 ICCAP_VALUES
  MASTER_SETUP_TYPE "~dc_idvg~"
  LINVT_VALUE ""
  LISTVT_VALUE ""
  TYPE "1"
  TEMP " 27.0000 "
  IS_TNOM " 1.00000 "
  MAIN.W "180.0n"
  MAIN.L "140.0n"
  MAIN.AD "102.6f"
  MAIN.AS "102.6f"
  MAIN.PD "1.340u"
  MAIN.PS "1.340u"
  MAIN.NF "1.000"
  MAIN.M "1"
  MAIN.NRD "0.000"
  MAIN.NRS "0.000"
  MAIN.LDRIFT1 "1E-06"
  MAIN.LDRIFT2 "1E-06"
  MAIN.SA "0.000"
  MAIN.SB "0.000"
  MAIN.SD "0.000"
  MAIN.SCA "0.000"
  MAIN.SCB "0.000"
  MAIN.SCC "0.000"
  MAIN.SC "0.000"
  MODULE "S545"
  PIN_D "14"
  PIN_G "7"
  PIN_S "8"
  PIN_B "13"
  PIN_E ""
  PIN_6 ""
  XY_ID ""
  FUNC "LW Scale"
  STI "SA ref"
  WPE "WPE ref"
  COMMENT ""
  DIS_MEAS ""
  TypeTCI "10"
END_HEADER

BEGIN_DB
 ICCAP_VAR vb         0              
 ICCAP_VAR vd         0.05           
 ICCAP_VAR vs         0              

 #vg                    id                    ig                    ib                    is                   
  -0.5                  -6e-14                -4.442e-11            4.596e-11             1.6e-13              
  -0.45                 6e-14                 -6.72e-12             7.82e-12              2.2e-13              
  -0.4                  0                     -1.18e-12             3.22e-12              -2e-14               
  -0.35                 4e-14                 -1.4e-13              2.76e-12              4e-14                
  -0.3                  1.2e-13               2e-14                 2.18e-12              1e-13                
  -0.25                 0                     2.4e-13               1.66e-12              4e-14                
  -0.2                  0                     1.6e-13               1.7e-12               8e-14                
  -0.15                 1.2e-13               4.2e-13               2.12e-12              -2e-14               
  -0.1                  8e-14                 5e-13                 1.14e-12              1.8e-13              
  -0.05                 8e-14                 2.2e-13               2.68e-12              -1.6e-13             
  0                     7.4e-13               5.8e-13               1.54e-12              -5.6e-13             
  0.05                  2.68e-12              4.2e-13               1.24e-12              -2.64e-12            
  0.1                   1.234e-11             5.6e-13               1.56e-12              -1.208e-11           
  0.15                  5.372e-11             5.4e-13               3.12e-12              -5.272e-11           
  0.2                   2.3724e-10            5e-13                 2.22e-12              -2.374e-10           
  0.25                  1.00606e-09           5.2e-13               1e-12                 -9.9058e-10          
  0.3                   4.2028e-09            3.2e-13               6.2e-13               -4.2462e-09          
  0.35                  1.7168e-08            5.6e-13               6.8e-13               -1.7164e-08          
  0.4                   6.4926e-08            6.6e-13               1.96e-12              -6.4512e-08          
  0.45                  2.0216e-07            5.6e-13               1.28e-12              -2.0618e-07          
  0.5                   5.214e-07             8.4e-13               1.02e-12              -5.2174e-07          
  0.55                  1.0571e-06            7.4e-13               1.28e-12              -1.05244e-06         
  0.6                   1.7876e-06            8.6e-13               1.3e-12               -1.7818e-06          
  0.65                  2.6574e-06            1.22e-12              1.14e-12              -2.6548e-06          
  0.7                   3.6168e-06            1.64e-12              1.1e-12               -3.6132e-06          
  0.75                  4.622e-06             1.62e-12              2.76e-12              -4.6248e-06          
  0.8                   5.6476e-06            2.28e-12              9.8e-13               -5.6442e-06          
  0.85                  6.6574e-06            2.84e-12              3.2e-13               -6.6526e-06          
  0.9                   7.6402e-06            3.22e-12              1.38e-12              -7.636e-06           
  0.95                  8.5926e-06            4.28e-12              1.98e-12              -8.588e-06           
  1                     9.512e-06             4.86e-12              8.2e-13               -9.5088e-06          
  1.05                  1.0389e-05            6.32e-12              1.2e-13               -1.03846e-05         
  1.1                   1.1222e-05            7.42e-12              1.66e-12              -1.12178e-05         
  1.15                  1.2022e-05            9e-12                 1.64e-12              -1.2004e-05          
  1.2                   1.2772e-05            1.098e-11             1.24e-12              -1.2754e-05          
  1.25                  1.3478e-05            1.334e-11             1.8e-13               -1.3462e-05          
  1.3                   1.4146e-05            1.57e-11              1.4e-12               -1.413e-05           
  1.35                  1.4778e-05            1.886e-11             2.1e-12               -1.4762e-05          
END_DB

BEGIN_DB
 ICCAP_VAR vb         -0.3           
 ICCAP_VAR vd         0.05           
 ICCAP_VAR vs         0              

 #vg                    id                    ig                    ib                    is                   
  -0.5                  2e-14                 -5.8e-13              -3.32e-12             8e-14                
  -0.45                 6e-14                 -2.2e-13              -2.74e-12             1e-13                
  -0.4                  -4e-14                8e-14                 -2.02e-12             6e-14                
  -0.35                 8e-14                 2e-13                 -3.48e-12             1.8e-13              
  -0.3                  4e-14                 2.4e-13               -2.42e-12             1e-13                
  -0.25                 2e-14                 1.4e-13               -2e-12                6e-14                
  -0.2                  -6e-14                2.8e-13               2.6e-13               6e-14                
  -0.15                 0                     3.4e-13               -1.88e-12             1.2e-13              
  -0.1                  6e-14                 3.6e-13               -2.44e-12             3e-13                
  -0.05                 0                     3.6e-13               -1.56e-12             1e-13                
  0                     1.4e-13               4.4e-13               -2.24e-12             1.6e-13              
  0.05                  3.6e-13               2.8e-13               -3e-13                -3.4e-13             
  0.1                   1.84e-12              5.6e-13               -7.4e-13              -1.64e-12            
  0.15                  8.98e-12              4.2e-13               -1.78e-12             -8.96e-12            
  0.2                   4.222e-11             5.6e-13               -2e-12                -3.986e-11           
  0.25                  1.8534e-10            6.4e-13               -3.8e-13              -1.8742e-10          
  0.3                   8.5396e-10            6.4e-13               -4e-14                -8.4408e-10          
  0.35                  3.706e-09             2.8e-13               -2.8e-13              -3.62e-09            
  0.4                   1.5142e-08            6.2e-13               -1.34e-12             -1.5576e-08          
  0.45                  5.941e-08             8.6e-13               -8.8e-13              -5.9366e-08          
  0.5                   1.9208e-07            7e-13                 -1e-13                -1.9418e-07          
  0.55                  5.0194e-07            7.4e-13               -1.04e-12             -4.9716e-07          
  0.6                   1.02624e-06           9.6e-13               -1.36e-12             -1.01848e-06         
  0.65                  1.736e-06             7.8e-13               -1.4e-13              -1.7408e-06          
  0.7                   2.6096e-06            1.4e-12               -7e-13                -2.606e-06           
  0.75                  3.5664e-06            1.58e-12              -1.34e-12             -3.5638e-06          
  0.8                   4.5658e-06            2.36e-12              -3.4e-13              -4.5606e-06          
  0.85                  5.5736e-06            2.78e-12              -1.4e-13              -5.5698e-06          
  0.9                   6.5666e-06            3.14e-12              -2.8e-13              -6.5632e-06          
  0.95                  7.5358e-06            4.2e-12               -7.6e-13              -7.5318e-06          
  1                     8.471e-06             4.84e-12              -1.38e-12             -8.4672e-06          
  1.05                  9.3686e-06            6.2e-12               4.4e-13               -9.3648e-06          
  1.1                   1.02246e-05           7.4e-12               2.6e-13               -1.02206e-05         
  1.15                  1.1039e-05            8.88e-12              -1.8e-12              -1.10346e-05         
  1.2                   1.1818e-05            1.082e-11             -1.06e-12             -1.18e-05            
  1.25                  1.2546e-05            1.308e-11             2.6e-13               -1.2528e-05          
  1.3                   1.3232e-05            1.546e-11             1e-13                 -1.322e-05           
  1.35                  1.3884e-05            1.85e-11              -8.4e-13              -1.3868e-05          
END_DB

BEGIN_DB
 ICCAP_VAR vb         -0.6           
 ICCAP_VAR vd         0.05           
 ICCAP_VAR vs         0              

 #vg                    id                    ig                    ib                    is                   
  -0.5                  -4e-14                -4e-13                -4.22e-12             1.8e-13              
  -0.45                 0                     -1.2e-13              -4.56e-12             2e-13                
  -0.4                  -1e-13                -1e-13                -3.44e-12             0                    
  -0.35                 1e-13                 4e-14                 -2.26e-12             1.6e-13              
  -0.3                  -8e-14                2.6e-13               -3.78e-12             1.2e-13              
  -0.25                 -2e-14                2.6e-13               -3.66e-12             8e-14                
  -0.2                  6e-14                 4.6e-13               -3.2e-12              1.4e-13              
  -0.15                 6e-14                 3.4e-13               -2.34e-12             1.8e-13              
  -0.1                  0                     8e-14                 -1.94e-12             2e-13                
  -0.05                 0                     6.4e-13               -2.62e-12             1e-13                
  0                     -2e-14                3.8e-13               -4.76e-12             1.2e-13              
  0.05                  4e-14                 2.6e-13               -2.76e-12             4e-14                
  0.1                   4.4e-13               6.2e-13               -1.68e-12             -3.4e-13             
  0.15                  2.08e-12              4.8e-13               -1.74e-12             -1.82e-12            
  0.2                   9.62e-12              5.8e-13               -2.54e-12             -9.68e-12            
  0.25                  4.65e-11              6e-13                 -1.98e-12             -4.662e-11           
  0.3                   2.2188e-10            4.6e-13               -2.46e-12             -2.196e-10           
  0.35                  9.8478e-10            7.6e-13               -1.68e-12             -9.781e-10           
  0.4                   4.163e-09             4.4e-13               -1.06e-12             -4.337e-09           
  0.45                  1.8466e-08            7.2e-13               -1.32e-12             -1.8722e-08          
  0.5                   7.1952e-08            6.4e-13               -2.46e-12             -7.1208e-08          
  0.55                  2.2686e-07            7.8e-13               -9.2e-13              -2.2976e-07          
  0.6                   5.6796e-07            1.1e-12               -9.2e-13              -5.6724e-07          
  0.65                  1.12242e-06           1.1e-12               -2.44e-12             -1.11802e-06         
  0.7                   1.8708e-06            1.36e-12              -1.36e-12             -1.8666e-06          
  0.75                  2.7536e-06            1.5e-12               -4.4e-13              -2.7498e-06          
  0.8                   3.7146e-06            1.98e-12              -1.84e-12             -3.7106e-06          
  0.85                  4.7084e-06            2.54e-12              -1.62e-12             -4.7048e-06          
  0.9                   5.7032e-06            3.24e-12              -1.92e-12             -5.6996e-06          
  0.95                  6.6814e-06            3.98e-12              -5.6e-13              -6.6778e-06          
  1                     7.6324e-06            4.82e-12              -1.4e-12              -7.6284e-06          
  1.05                  8.547e-06             5.9e-12               -1.62e-12             -8.543e-06           
  1.1                   9.4206e-06            7.38e-12              -1.46e-12             -9.4168e-06          
  1.15                  1.02536e-05           8.98e-12              -5.8e-13              -1.02492e-05         
  1.2                   1.10434e-05           1.082e-11             -1.24e-12             -1.10394e-05         
  1.25                  1.1798e-05            1.278e-11             -1.78e-12             -1.178e-05           
  1.3                   1.25e-05              1.512e-11             -1.72e-12             -1.2484e-05          
  1.35                  1.317e-05             1.834e-11             -5e-13                -1.3148e-05          
END_DB

BEGIN_DB
 ICCAP_VAR vb         -0.9           
 ICCAP_VAR vd         0.05           
 ICCAP_VAR vs         0              

 #vg                    id                    ig                    ib                    is                   
  -0.5                  -6e-14                -3.8e-13              -5.04e-12             3e-13                
  -0.45                 -8e-14                1.2e-13               -5.08e-12             1.2e-13              
  -0.4                  -4e-14                -6e-14                -4.32e-12             1e-13                
  -0.35                 0                     8e-14                 -4.52e-12             1.6e-13              
  -0.3                  4e-14                 2.4e-13               -4.64e-12             1.2e-13              
  -0.25                 -2e-14                2.8e-13               -4.5e-12              8e-14                
  -0.2                  -8e-14                2e-13                 -3.32e-12             8e-14                
  -0.15                 4e-14                 3.4e-13               -2.92e-12             2.4e-13              
  -0.1                  -4e-14                3.8e-13               -4.16e-12             1e-13                
  -0.05                 6e-14                 4.4e-13               -3.78e-12             1.8e-13              
  0                     -6e-14                4.2e-13               -3.34e-12             1.4e-13              
  0.05                  2e-14                 5.8e-13               -2.5e-12              1.6e-13              
  0.1                   2e-13                 3.6e-13               -3.4e-12              2e-14                
  0.15                  6.2e-13               5.8e-13               -3.26e-12             -5e-13               
  0.2                   3.04e-12              4.8e-13               -3.72e-12             -2.94e-12            
  0.25                  1.464e-11             4.8e-13               -2.54e-12             -1.5e-11             
  0.3                   7.296e-11             6.6e-13               -2.46e-12             -6.94e-11            
  0.35                  3.4676e-10            5.2e-13               -1.48e-12             -3.424e-10           
  0.4                   1.5674e-09            6.4e-13               -2.68e-12             -1.5774e-09          
  0.45                  7.0114e-09            4.4e-13               -2.8e-12              -7.027e-09           
  0.5                   2.9276e-08            4.8e-13               -2.1e-12              -2.9204e-08          
  0.55                  1.07002e-07           8.4e-13               -1.28e-12             -1.07542e-07         
  0.6                   3.1816e-07            8.4e-13               -2.58e-12             -3.1478e-07          
  0.65                  7.258e-07             1.08e-12              -2.76e-12             -7.2592e-07          
  0.7                   1.3504e-06            1.08e-12              -1.7e-12              -1.3458e-06          
  0.75                  2.1486e-06            1.74e-12              -2.5e-12              -2.1452e-06          
  0.8                   3.0596e-06            2.16e-12              -2.08e-12             -3.05e-06            
  0.85                  4.0288e-06            2.38e-12              -2.18e-12             -4.026e-06           
  0.9                   5.0168e-06            3.04e-12              -1.26e-12             -5.0138e-06          
  0.95                  5.9994e-06            4e-12                 -2.34e-12             -5.996e-06           
  1                     6.9598e-06            4.7e-12               -2.04e-12             -6.9556e-06          
  1.05                  7.8876e-06            5.76e-12              -2.24e-12             -7.8836e-06          
  1.1                   8.7762e-06            7.16e-12              -6.4e-13              -8.772e-06           
  1.15                  9.6244e-06            8.82e-12              -2.76e-12             -9.6204e-06          
  1.2                   1.0429e-05            1.042e-11             -2.46e-12             -1.0425e-05          
  1.25                  1.11896e-05           1.284e-11             -2.4e-12              -1.11864e-05         
  1.3                   1.1922e-05            1.51e-11              -1.04e-12             -1.1902e-05          
  1.35                  1.2598e-05            1.81e-11              -1.62e-12             -1.2578e-05          
END_DB

BEGIN_DB
 ICCAP_VAR vb         -1.2           
 ICCAP_VAR vd         0.05           
 ICCAP_VAR vs         0              

 #vg                    id                    ig                    ib                    is                   
  -0.5                  -6e-14                -2.8e-13              -5.74e-12             1.4e-13              
  -0.45                 -1.4e-13              1e-13                 -4.7e-12              6e-14                
  -0.4                  2e-14                 6e-14                 -4e-12                1.6e-13              
  -0.35                 -6e-14                2e-13                 -4.58e-12             6e-14                
  -0.3                  -8e-14                0                     -4.48e-12             6e-14                
