! VERSION = 6.00
BEGIN_HEADER
 ICCAP_INPUTS
  vd         V  D GROUND SMU1 0.1 LIN        1    0          1.35       28   0.05      
  vg         V  G GROUND SMU2 0.001 LIN        2    0.45       1.35       5    0.225     
  vb         V  B GROUND SMU4 0.1 CON        -1.2
  vs         V  S GROUND SMU3 0.1 CON        0
 ICCAP_OUTPUTS
  id         I  D GROUND SMU1 B
  ig         I  G GROUND SMU2 B
  ib         I  B GROUND SMU4 B
  is         I  S GROUND SMU3 B
 ICCAP_VALUES
  MASTER_SETUP_TYPE "~dc_idvd~"
  LINVT_VALUE "|idvg|100.0n|100.0m|1.000m|5|1.350|"
  LISTVT_VALUE ""
  TYPE "1"
  TEMP "-40.0000 "
  IS_TNOM " 0.00000 "
  MAIN.W "300.0n"
  MAIN.L "10.00u"
  MAIN.AD "102.0f"
  MAIN.AS "102.0f"
  MAIN.PD "1.280u"
  MAIN.PS "1.280u"
  MAIN.NF "1.000"
  MAIN.M "1"
  MAIN.NRD "0.000"
  MAIN.NRS "0.000"
  MAIN.LDRIFT1 "1E-06"
  MAIN.LDRIFT2 "1E-06"
  MAIN.SA "0.000"
  MAIN.SB "0.000"
  MAIN.SD "0.000"
  MAIN.SCA "0.000"
  MAIN.SCB "0.000"
  MAIN.SCC "0.000"
  MAIN.SC "0.000"
  MODULE "S545"
  PIN_D "18"
  PIN_G "3"
  PIN_S "4"
  PIN_B "17"
  PIN_E ""
  PIN_6 ""
  XY_ID ""
  FUNC "W Scale"
  STI "SA ref"
  WPE "WPE ref"
  COMMENT ""
  DIS_MEAS ""
  TypeTCI "10"
END_HEADER

BEGIN_DB
 ICCAP_VAR vg         0.45           
 ICCAP_VAR vb         -1.2           
 ICCAP_VAR vs         0              

 #vd                    id                    ig                    ib                    is                   
  0                     6.78e-11              1.708e-11             -8.54e-12             -6.476e-11           
  0.05                  3.0384e-08            1.462e-11             -6.86e-12             -3.0384e-08          
  0.1                   3.8972e-08            1.376e-11             -7.28e-12             -3.896e-08           
  0.15                  4.29e-08              1.348e-11             -7.56e-12             -4.2888e-08          
  0.2                   4.6182e-08            1.294e-11             -6.78e-12             -4.6188e-08          
  0.25                  4.8936e-08            1.288e-11             -5.18e-12             -4.8926e-08          
  0.3                   5.1488e-08            1.268e-11             -5.98e-12             -5.1452e-08          
  0.35                  5.3836e-08            1.232e-11             -6.56e-12             -5.384e-08           
  0.4                   5.6114e-08            1.218e-11             -5.72e-12             -5.608e-08           
  0.45                  5.8234e-08            1.202e-11             -4.84e-12             -5.825e-08           
  0.5                   6.0326e-08            1.188e-11             -4.86e-12             -6.0306e-08          
  0.55                  6.2292e-08            1.178e-11             -7.28e-12             -6.228e-08           
  0.6                   6.4232e-08            1.148e-11             -5.24e-12             -6.4222e-08          
  0.65                  6.6096e-08            1.128e-11             -4.68e-12             -6.609e-08           
  0.7                   6.7902e-08            1.114e-11             -3.74e-12             -6.7956e-08          
  0.75                  6.9722e-08            1.09e-11              -4.48e-12             -6.9716e-08          
  0.8                   7.1408e-08            1.078e-11             -5.24e-12             -7.1406e-08          
  0.85                  7.3042e-08            1.064e-11             -5.1e-12              -7.3064e-08          
  0.9                   7.4652e-08            1.034e-11             -2.86e-12             -7.4644e-08          
  0.95                  7.6174e-08            1.032e-11             -3.94e-12             -7.6144e-08          
  1                     7.7632e-08            1.014e-11             -4.48e-12             -7.7596e-08          
  1.05                  7.9008e-08            1e-11                 -4.32e-12             -7.9044e-08          
  1.1                   8.0358e-08            9.74e-12              -2.78e-12             -8.0342e-08          
  1.15                  8.1636e-08            9.6e-12               -3.12e-12             -8.1632e-08          
  1.2                   8.2854e-08            9.46e-12              -3.66e-12             -8.288e-08           
  1.25                  8.4056e-08            9.56e-12              -4.48e-12             -8.3998e-08          
  1.3                   8.5142e-08            9.14e-12              -4.7e-12              -8.5134e-08          
  1.35                  8.615e-08             8.96e-12              -5.08e-12             -8.6162e-08          
END_DB

BEGIN_DB
 ICCAP_VAR vg         0.675          
 ICCAP_VAR vb         -1.2           
 ICCAP_VAR vs         0              

 #vd                    id                    ig                    ib                    is                   
  0                     2.3108e-10            1.1512e-10            -1.04e-12             -3.5388e-10          
  0.05                  2.0808e-07            9.712e-11             -3.18e-12             -2.0806e-07          
  0.1                   3.7088e-07            8.392e-11             -3.02e-12             -3.7094e-07          
  0.15                  4.839e-07             7.536e-11             -1.66e-12             -4.8392e-07          
  0.2                   5.4624e-07            7.062e-11             -3.1e-12              -5.4628e-07          
  0.25                  5.7412e-07            6.87e-11              -2.76e-12             -5.7398e-07          
  0.3                   5.8928e-07            6.74e-11              -1.92e-12             -5.8926e-07          
  0.35                  6.0052e-07            6.66e-11              -1.58e-12             -6.0052e-07          
  0.4                   6.1008e-07            6.59e-11              -2.12e-12             -6.1008e-07          
  0.45                  6.1852e-07            6.534e-11             -3.18e-12             -6.1856e-07          
  0.5                   6.2656e-07            6.476e-11             -2.54e-12             -6.2646e-07          
  0.55                  6.3386e-07            6.42e-11              -2.38e-12             -6.3396e-07          
  0.6                   6.4098e-07            6.372e-11             -2.96e-12             -6.4086e-07          
  0.65                  6.477e-07             6.322e-11             1.98e-12              -6.4778e-07          
  0.7                   6.5422e-07            6.268e-11             -1.72e-12             -6.5422e-07          
  0.75                  6.6048e-07            6.22e-11              -2.24e-12             -6.605e-07           
  0.8                   6.6638e-07            6.196e-11             -2.08e-12             -6.6648e-07          
  0.85                  6.7236e-07            6.15e-11              -2.28e-12             -6.7232e-07          
  0.9                   6.7788e-07            6.106e-11             -2.58e-12             -6.7782e-07          
  0.95                  6.8322e-07            6.076e-11             -2.38e-12             -6.8322e-07          
  1                     6.8842e-07            6.018e-11             -3.32e-12             -6.884e-07           
  1.05                  6.9326e-07            5.986e-11             -1.82e-12             -6.9344e-07          
  1.1                   6.9824e-07            5.952e-11             -1.08e-12             -6.9822e-07          
  1.15                  7.0286e-07            5.93e-11              -1.86e-12             -7.0292e-07          
  1.2                   7.0728e-07            5.892e-11             -2.44e-12             -7.0734e-07          
  1.25                  7.114e-07             5.87e-11              -2.86e-12             -7.1148e-07          
  1.3                   7.1562e-07            5.818e-11             -2.68e-12             -7.1564e-07          
  1.35                  7.1946e-07            5.786e-11             -3.12e-12             -7.1944e-07          
END_DB

BEGIN_DB
 ICCAP_VAR vg         0.9            
 ICCAP_VAR vb         -1.2           
 ICCAP_VAR vs         0              

 #vd                    id                    ig                    ib                    is                   
  0                     2.7958e-10            4.5586e-10            -9.8e-13              -7.4566e-10          
  0.05                  3.665e-07             3.9906e-10            -1.4e-12              -3.668e-07           
  0.1                   6.9656e-07            3.52e-10              -1.88e-12             -6.9686e-07          
  0.15                  9.879e-07             3.1342e-10            -2.38e-12             -9.8818e-07          
  0.2                   1.2394e-06            2.8252e-10            -7.6e-13              -1.236e-06           
  0.25                  1.4448e-06            2.5852e-10            -2.46e-12             -1.4414e-06          
  0.3                   1.601e-06             2.4132e-10            -1.42e-12             -1.5976e-06          
  0.35                  1.7056e-06            2.302e-10             -1.84e-12             -1.7022e-06          
  0.4                   1.7658e-06            2.239e-10             -1.24e-12             -1.7624e-06          
  0.45                  1.7986e-06            2.2062e-10            -6.4e-13              -1.795e-06           
  0.5                   1.8196e-06            2.1842e-10            -1.46e-12             -1.8158e-06          
  0.55                  1.8356e-06            2.1674e-10            -2.58e-12             -1.8322e-06          
  0.6                   1.8492e-06            2.155e-10             -3.2e-13              -1.8454e-06          
  0.65                  1.861e-06             2.1426e-10            -2e-12                -1.8578e-06          
  0.7                   1.8726e-06            2.1306e-10            -1.8e-12              -1.8692e-06          
  0.75                  1.8832e-06            2.1214e-10            -2.4e-13              -1.8798e-06          
  0.8                   1.8934e-06            2.1098e-10            -1.6e-12              -1.89e-06            
  0.85                  1.9032e-06            2.1008e-10            -1.92e-12             -1.8998e-06          
  0.9                   1.9126e-06            2.0904e-10            -7e-13                -1.9088e-06          
  0.95                  1.9216e-06            2.0832e-10            -1.8e-12              -1.918e-06           
  1                     1.9302e-06            2.0752e-10            -1.96e-12             -1.9266e-06          
  1.05                  1.9384e-06            2.0666e-10            -8.2e-13              -1.9348e-06          
  1.1                   1.9464e-06            2.0584e-10            -1.82e-12             -1.943e-06           
  1.15                  1.9542e-06            2.051e-10             -1.96e-12             -1.9508e-06          
  1.2                   1.9618e-06            2.044e-10             -1.44e-12             -1.9584e-06          
  1.25                  1.969e-06             2.0364e-10            -2.46e-12             -1.9654e-06          
  1.3                   1.9758e-06            2.0294e-10            -2.12e-12             -1.9724e-06          
  1.35                  1.9826e-06            2.0218e-10            -1.04e-12             -1.979e-06           
END_DB

BEGIN_DB
 ICCAP_VAR vg         1.125          
 ICCAP_VAR vb         -1.2           
 ICCAP_VAR vs         0              

 #vd                    id                    ig                    ib                    is                   
  0                     -8.2e-13              1.351e-09             -1.06e-12             -1.2962e-09          
  0.05                  4.9308e-07            1.2132e-09            2e-14                 -4.9424e-07          
  0.1                   9.5838e-07            1.0928e-09            -1.14e-12             -9.5946e-07          
  0.15                  1.3948e-06            9.8762e-10            -8.2e-13              -1.392e-06           
  0.2                   1.7968e-06            8.979e-10             -2.6e-13              -1.794e-06           
  0.25                  2.1646e-06            8.217e-10             -1.56e-12             -2.1616e-06          
  0.3                   2.4956e-06            7.5742e-10            -1.62e-12             -2.4926e-06          
  0.35                  2.7874e-06            7.0412e-10            -2e-13                -2.7844e-06          
  0.4                   3.0374e-06            6.6126e-10            -1.98e-12             -3.0344e-06          
  0.45                  3.2412e-06            6.2784e-10            -1.24e-12             -3.2382e-06          
  0.5                   3.3956e-06            6.0344e-10            -3.4e-13              -3.3926e-06          
  0.55                  3.5e-06               5.8744e-10            -1.62e-12             -3.4968e-06          
  0.6                   3.5642e-06            5.7774e-10            -1.76e-12             -3.5612e-06          
  0.65                  3.6028e-06            5.721e-10             -9.6e-13              -3.5998e-06          
  0.7                   3.629e-06             5.6826e-10            -1.44e-12             -3.626e-06           
  0.75                  3.649e-06             5.6534e-10            -9.6e-13              -3.6462e-06          
  0.8                   3.6662e-06            5.6274e-10            3.5e-12               -3.6634e-06          
  0.85                  3.6816e-06            5.6052e-10            -2e-12                -3.6786e-06          
  0.9                   3.6958e-06            5.5856e-10            -8.4e-13              -3.6928e-06          
  0.95                  3.709e-06             5.5688e-10            -9.4e-13              -3.7062e-06          
  1                     3.722e-06             5.55e-10              -2.14e-12             -3.7188e-06          
  1.05                  3.7338e-06            5.5338e-10            -1.2e-12              -3.731e-06           
  1.1                   3.7452e-06            5.5154e-10            -4e-13                -3.742e-06           
  1.15                  3.7564e-06            5.4996e-10            -1.78e-12             -3.7532e-06          
  1.2                   3.767e-06             5.4838e-10            -1.08e-12             -3.764e-06           
  1.25                  3.7774e-06            5.4704e-10            -6.6e-13              -3.7742e-06          
  1.3                   3.7874e-06            5.4552e-10            -1.68e-12             -3.784e-06           
  1.35                  3.7966e-06            5.4424e-10            -1.92e-12             -3.7936e-06          
END_DB

BEGIN_DB
 ICCAP_VAR vg         1.35           
 ICCAP_VAR vb         -1.2           
 ICCAP_VAR vs         0              

 #vd                    id                    ig                    ib                    is                   
  0                     -8.552e-10            3.2904e-09            -9.2e-13              -2.5748e-09          
  0.05                  5.8374e-07            3.0068e-09            -2.28e-12             -5.8666e-07          
  0.1                   1.1485e-06            2.7522e-09            -2.58e-12             -1.15128e-06         
  0.15                  1.6928e-06            2.5232e-09            -2.2e-13              -1.6914e-06          
  0.2                   2.2108e-06            2.3212e-09            -1.56e-12             -2.2094e-06          
  0.25                  2.7032e-06            2.1422e-09            -1.78e-12             -2.7018e-06          
  0.3                   3.168e-06             1.9838e-09            -9.8e-13              -3.166e-06           
  0.35                  3.6024e-06            1.8456e-09            -1.54e-12             -3.6006e-06          
  0.4                   4.0052e-06            1.7252e-09            -2.08e-12             -4.0032e-06          
  0.45                  4.3734e-06            1.622e-09             -1.76e-12             -4.3712e-06          
  0.5                   4.7054e-06            1.5334e-09            -1.8e-12              -4.7034e-06          
  0.55                  4.999e-06             1.4596e-09            -1.44e-12             -4.9968e-06          
  0.6                   5.2502e-06            1.399e-09             -8.2e-13              -5.2478e-06          
  0.65                  5.456e-06             1.3514e-09            -8.6e-13              -5.4534e-06          
  0.7                   5.6126e-06            1.3158e-09            -1.52e-12             -5.6102e-06          
  0.75                  5.7218e-06            1.2922e-09            -1.98e-12             -5.7196e-06          
  0.8                   5.7918e-06            1.2772e-09            -1.14e-12             -5.7894e-06          
  0.85                  5.8366e-06            1.2676e-09            -5.54e-12             -5.8344e-06          
  0.9                   5.8676e-06            1.261e-09             -1.38e-12             -5.8652e-06          
  0.95                  5.8914e-06            1.2558e-09            -3.6e-13              -5.889e-06           
  1                     5.9116e-06            1.2524e-09            -2.16e-12             -5.9092e-06          
  1.05                  5.9294e-06            1.2486e-09            -2.5e-12              -5.927e-06           
  1.1                   5.9454e-06            1.2448e-09            -3e-13                -5.943e-06           
  1.15                  5.961e-06             1.2414e-09            -1.58e-12             -5.9586e-06          
  1.2                   5.9756e-06            1.2386e-09            -1.7e-12              -5.9732e-06          
  1.25                  5.9896e-06            1.236e-09             -3.8e-13              -5.9874e-06          
  1.3                   6.0034e-06            1.2334e-09            -1.16e-12             -6.001e-06           
  1.35                  6.0164e-06            1.2304e-09            -2.38e-12             -6.0134e-06          
END_DB

