! VERSION = 6.00
BEGIN_HEADER
 ICCAP_INPUTS
  vd         V  D GROUND SMU1 0.1 LIN        1    0          1.35       28   0.05      
  vg         V  G GROUND SMU2 0.001 LIN        2    0.602      1.35       5    0.187     
  vb         V  B GROUND SMU4 0.1 CON        -1.2
  vs         V  S GROUND SMU3 0.1 CON        0
 ICCAP_OUTPUTS
  id         I  D GROUND SMU1 B
  ig         I  G GROUND SMU2 B
  ib         I  B GROUND SMU4 B
  is         I  S GROUND SMU3 B
 ICCAP_VALUES
  MASTER_SETUP_TYPE "~dc_idvd~"
  LINVT_VALUE "|idvg|100.0n|100.0m|1.000m|5|1.350|"
  LISTVT_VALUE ""
  TYPE "1"
  TEMP "-40.0000 "
  IS_TNOM " 0.00000 "
  MAIN.W "150.0n"
  MAIN.L "180.0n"
  MAIN.AD "100.5f"
  MAIN.AS "100.5f"
  MAIN.PD "1.340u"
  MAIN.PS "1.340u"
  MAIN.NF "1.000"
  MAIN.M "1"
  MAIN.NRD "0.000"
  MAIN.NRS "0.000"
  MAIN.LDRIFT1 "1E-06"
  MAIN.LDRIFT2 "1E-06"
  MAIN.SA "0.000"
  MAIN.SB "0.000"
  MAIN.SD "0.000"
  MAIN.SCA "0.000"
  MAIN.SCB "0.000"
  MAIN.SCC "0.000"
  MAIN.SC "0.000"
  MODULE "S547"
  PIN_D "20"
  PIN_G "1"
  PIN_S "2"
  PIN_B "19"
  PIN_E ""
  PIN_6 ""
  XY_ID ""
  FUNC "LW Scale"
  STI "SA ref"
  WPE "WPE ref"
  COMMENT ""
  DIS_MEAS ""
  TypeTCI "10"
END_HEADER

BEGIN_DB
 ICCAP_VAR vg         0.602          
 ICCAP_VAR vb         -1.2           
 ICCAP_VAR vs         0              

 #vd                    id                    ig                    ib                    is                   
  0                     1.2296e-09            6e-13                 -8.06e-12             -9.4718e-10          
  0.05                  4.5598e-07            5.4e-13               -9.38e-12             -4.5518e-07          
  0.1                   6.556e-07             4.2e-13               -9.04e-12             -6.5588e-07          
  0.15                  7.5034e-07            4e-13                 -6.6e-12              -7.5078e-07          
  0.2                   8.075e-07             5e-13                 -7.7e-12              -8.0786e-07          
  0.25                  8.5104e-07            3.6e-13               -7.08e-12             -8.511e-07           
  0.3                   8.9144e-07            3.8e-13               -5.62e-12             -8.917e-07           
  0.35                  9.3202e-07            4.2e-13               -6e-12                -9.2994e-07          
  0.4                   9.65e-07              4e-13                 -5.58e-12             -9.7052e-07          
  0.45                  1.0056e-06            3.6e-13               -6.04e-12             -1.00704e-06         
  0.5                   1.04134e-06           3.2e-13               -4.76e-12             -1.03962e-06         
  0.55                  1.08438e-06           3.2e-13               -4.92e-12             -1.08144e-06         
  0.6                   1.1167e-06            4.2e-13               -5.58e-12             -1.12078e-06         
  0.65                  1.16e-06              4.2e-13               -5.14e-12             -1.1567e-06          
  0.7                   1.2006e-06            3.8e-13               -4.56e-12             -1.1964e-06          
  0.75                  1.2434e-06            3.4e-13               -5.14e-12             -1.2396e-06          
  0.8                   1.279e-06             4e-13                 -3.88e-12             -1.27e-06            
  0.85                  1.3166e-06            4e-13                 -4.48e-12             -1.3158e-06          
  0.9                   1.3556e-06            5.2e-13               -4.62e-12             -1.3548e-06          
  0.95                  1.4e-06               3.8e-13               -2.82e-12             -1.3944e-06          
  1                     1.4424e-06            2.2e-13               -3.9e-12              -1.4394e-06          
  1.05                  1.479e-06             3.6e-13               -4.38e-12             -1.4822e-06          
  1.1                   1.5192e-06            4.2e-13               -3.48e-12             -1.5182e-06          
  1.15                  1.573e-06             2e-13                 -2.52e-12             -1.5628e-06          
  1.2                   1.6086e-06            4e-13                 -5.56e-12             -1.6086e-06          
  1.25                  1.6522e-06            4.8e-13               -7.32e-12             -1.6508e-06          
  1.3                   1.6942e-06            2.2e-13               -1.38e-11             -1.6896e-06          
  1.35                  1.739e-06             2.6e-13               -2.414e-11            -1.7322e-06          
END_DB

BEGIN_DB
 ICCAP_VAR vg         0.789          
 ICCAP_VAR vb         -1.2           
 ICCAP_VAR vs         0              

 #vd                    id                    ig                    ib                    is                   
  0                     3.3418e-09            1.86e-12              -6.2e-13              -3.36e-09            
  0.05                  2.7856e-06            1.62e-12              -2.3e-12              -2.7816e-06          
  0.1                   4.8082e-06            1.5e-12               -2.88e-12             -4.8036e-06          
  0.15                  6.2146e-06            1.3e-12               -2.14e-12             -6.2102e-06          
  0.2                   7.1676e-06            1.34e-12              -3.3e-12              -7.1642e-06          
  0.25                  7.8176e-06            1.4e-12               -2.28e-12             -7.8142e-06          
  0.3                   8.28e-06              1.18e-12              -2.42e-12             -8.277e-06           
  0.35                  8.6282e-06            1.24e-12              -3.46e-12             -8.6254e-06          
  0.4                   8.92e-06              1.16e-12              -2.88e-12             -8.916e-06           
  0.45                  9.1754e-06            1.16e-12              -2.16e-12             -9.1722e-06          
  0.5                   9.412e-06             1.04e-12              -2.78e-12             -9.4082e-06          
  0.55                  9.6364e-06            1.1e-12               -1.64e-12             -9.6352e-06          
  0.6                   9.8528e-06            1.16e-12              -2.38e-12             -9.8502e-06          
  0.65                  1.00646e-05           1.12e-12              -2.6e-12              -1.00616e-05         
  0.7                   1.02718e-05           1.12e-12              -2.72e-12             -1.02674e-05         
  0.75                  1.04766e-05           1.22e-12              -1.66e-12             -1.0474e-05          
  0.8                   1.06786e-05           1.2e-12               -3.32e-12             -1.0675e-05          
  0.85                  1.0878e-05            9.8e-13               -2.08e-12             -1.08742e-05         
  0.9                   1.1075e-05            1.1e-12               -1.7e-12              -1.107e-05           
  0.95                  1.1278e-05            1.06e-12              -1.82e-12             -1.12656e-05         
  1                     1.1472e-05            1.02e-12              -1.64e-12             -1.146e-05           
  1.05                  1.166e-05             1.22e-12              -3.1e-12              -1.16484e-05         
  1.1                   1.1848e-05            1e-12                 -1.26e-12             -1.1834e-05          
  1.15                  1.2042e-05            1.12e-12              -4.38e-12             -1.2028e-05          
  1.2                   1.223e-05             1.08e-12              -4.78e-12             -1.2216e-05          
  1.25                  1.2422e-05            1.06e-12              -1.092e-11            -1.2398e-05          
  1.3                   1.2606e-05            1.12e-12              -2.352e-11            -1.2592e-05          
  1.35                  1.2798e-05            1.14e-12              -4.784e-11            -1.278e-05           
END_DB

BEGIN_DB
 ICCAP_VAR vg         0.976          
 ICCAP_VAR vb         -1.2           
 ICCAP_VAR vs         0              

 #vd                    id                    ig                    ib                    is                   
  0                     9.93e-09              5.3e-12               -1.12e-12             -9.77e-09            
  0.05                  6.0048e-06            4.64e-12              -1.52e-12             -6.0006e-06          
  0.1                   1.10238e-05           4.38e-12              -6.6e-13              -1.10206e-05         
  0.15                  1.5074e-05            4.04e-12              -2.74e-12             -1.5056e-05          
  0.2                   1.8188e-05            3.72e-12              -1.34e-12             -1.8174e-05          
  0.25                  2.0542e-05            3.4e-12               -2.16e-12             -2.0526e-05          
  0.3                   2.2302e-05            3.42e-12              -1.8e-12              -2.2284e-05          
  0.35                  2.3618e-05            3.26e-12              1e-13                 -2.3604e-05          
  0.4                   2.4626e-05            3.12e-12              -1.64e-12             -2.461e-05           
  0.45                  2.5428e-05            3.06e-12              -1.88e-12             -2.5414e-05          
  0.5                   2.609e-05             2.9e-12               -1.36e-12             -2.6074e-05          
  0.55                  2.6656e-05            2.98e-12              -1.88e-12             -2.6636e-05          
  0.6                   2.7164e-05            2.98e-12              -1.48e-12             -2.7148e-05          
  0.65                  2.7632e-05            2.88e-12              -3.4e-13              -2.7612e-05          
  0.7                   2.8066e-05            2.82e-12              -2.3e-12              -2.8052e-05          
  0.75                  2.8484e-05            2.84e-12              -1.44e-12             -2.8466e-05          
  0.8                   2.8882e-05            2.84e-12              -1.52e-12             -2.8864e-05          
  0.85                  2.9272e-05            2.74e-12              -1.2e-12              -2.9244e-05          
  0.9                   2.9648e-05            2.88e-12              -1.1e-12              -2.963e-05           
  0.95                  3.0016e-05            2.8e-12               -1.44e-12             -3e-05               
  1                     3.0378e-05            2.78e-12              -2.7e-12              -3.0362e-05          
  1.05                  3.073e-05             2.86e-12              -1.18e-12             -3.071e-05           
  1.1                   3.1076e-05            2.76e-12              -2.84e-12             -3.1066e-05          
  1.15                  3.1424e-05            2.76e-12              -4.34e-12             -3.1404e-05          
  1.2                   3.177e-05             2.86e-12              -5.52e-12             -3.1746e-05          
  1.25                  3.2096e-05            2.84e-12              -1.376e-11            -3.2082e-05          
  1.3                   3.2444e-05            2.58e-12              -2.944e-11            -3.2402e-05          
  1.35                  3.2752e-05            2.6e-12               -5.9e-11              -3.275e-05           
END_DB

BEGIN_DB
 ICCAP_VAR vg         1.163          
 ICCAP_VAR vb         -1.2           
 ICCAP_VAR vs         0              

 #vd                    id                    ig                    ib                    is                   
  0                     1.4924e-08            1.278e-11             1e-13                 -1.4682e-08          
  0.05                  8.9794e-06            1.154e-11             -1.32e-12             -8.9832e-06          
  0.1                   1.6998e-05            1.062e-11             -9.2e-13              -1.698e-05           
  0.15                  2.387e-05             9.82e-12              -5e-13                -2.3838e-05          
  0.2                   2.9562e-05            9e-12                 -2e-12                -2.9568e-05          
  0.25                  3.4234e-05            8.32e-12              -6e-12                -3.4216e-05          
  0.3                   3.7916e-05            7.96e-12              -4.6e-13              -3.7904e-05          
  0.35                  4.0794e-05            7.62e-12              -2.08e-12             -4.0784e-05          
  0.4                   4.3048e-05            7.42e-12              -1.02e-12             -4.3032e-05          
  0.45                  4.4798e-05            7.24e-12              -5.6e-13              -4.4782e-05          
  0.5                   4.6178e-05            6.94e-12              -1.84e-12             -4.618e-05           
  0.55                  4.7328e-05            6.72e-12              -9.8e-13              -4.731e-05           
  0.6                   4.8254e-05            6.76e-12              -1.18e-12             -4.826e-05           
  0.65                  4.9068e-05            6.72e-12              -1.82e-12             -4.9086e-05          
  0.7                   4.9832e-05            6.6e-12               -1.12e-12             -4.9816e-05          
  0.75                  5.0498e-05            6.6e-12               -1.4e-12              -5.0484e-05          
  0.8                   5.111e-05             6.52e-12              -9.8e-13              -5.108e-05           
  0.85                  5.1688e-05            6.48e-12              -1.08e-12             -5.1678e-05          
  0.9                   5.2242e-05            6.36e-12              -1.06e-12             -5.2234e-05          
  0.95                  5.2764e-05            6.4e-12               -1.46e-12             -5.2756e-05          
  1                     5.3296e-05            6.4e-12               -1.32e-12             -5.3272e-05          
  1.05                  5.3786e-05            6.3e-12               -2.06e-12             -5.3766e-05          
  1.1                   5.427e-05             6.26e-12              -2.6e-12              -5.4256e-05          
  1.15                  5.4744e-05            6.28e-12              -3.44e-12             -5.4728e-05          
  1.2                   5.521e-05             6.28e-12              -7.92e-12             -5.5206e-05          
  1.25                  5.567e-05             6.24e-12              -1.602e-11            -5.566e-05           
  1.3                   5.6126e-05            6.16e-12              -3.13e-11             -5.6116e-05          
  1.35                  5.6556e-05            6.24e-12              -6.348e-11            -5.6566e-05          
END_DB

BEGIN_DB
 ICCAP_VAR vg         1.35           
 ICCAP_VAR vb         -1.2           
 ICCAP_VAR vs         0              

 #vd                    id                    ig                    ib                    is                   
  0                     1.8964e-08            2.692e-11             -8.2e-13              -1.8334e-08          
  0.05                  1.142e-05             2.488e-11             -6.2e-13              -1.1404e-05          
  0.1                   2.1912e-05            2.274e-11             -1.84e-12             -2.1904e-05          
  0.15                  3.1268e-05            2.13e-11              -1.34e-12             -3.127e-05           
  0.2                   3.9398e-05            1.974e-11             -1.56e-12             -3.9378e-05          
  0.25                  4.6302e-05            1.856e-11             -1.92e-12             -4.6288e-05          
  0.3                   5.2078e-05            1.746e-11             5.2e-13               -5.2068e-05          
  0.35                  5.6864e-05            1.654e-11             -9.8e-13              -5.6848e-05          
  0.4                   6.0668e-05            1.586e-11             1.36e-12              -6.07e-05            
  0.45                  6.3812e-05            1.52e-11              3.4e-13               -6.3796e-05          
  0.5                   6.6274e-05            1.466e-11             -1.06e-12             -6.6268e-05          
  0.55                  6.8292e-05            1.432e-11             -1.84e-12             -6.8302e-05          
  0.6                   6.9954e-05            1.396e-11             2e-13                 -6.9936e-05          
  0.65                  7.1312e-05            1.364e-11             -1.3e-12              -7.1304e-05          
  0.7                   7.2482e-05            1.356e-11             -1.4e-12              -7.2458e-05          
  0.75                  7.3488e-05            1.336e-11             4e-14                 -7.3416e-05          
  0.8                   7.437e-05             1.334e-11             -1.8e-12              -7.4348e-05          
  0.85                  7.5186e-05            1.304e-11             -2.06e-12             -7.5174e-05          
  0.9                   7.5948e-05            1.304e-11             1e-13                 -7.5916e-05          
  0.95                  7.6584e-05            1.28e-11              -1.6e-12              -7.6624e-05          
  1                     7.7304e-05            1.278e-11             -2e-12                -7.7288e-05          
  1.05                  7.7942e-05            1.276e-11             -8.6e-13              -7.7922e-05          
  1.1                   7.8548e-05            1.266e-11             -3.04e-12             -7.8544e-05          
  1.15                  7.9084e-05            1.26e-11              -3.78e-12             -7.9138e-05          
  1.2                   7.9728e-05            1.242e-11             -7.14e-12             -7.9698e-05          
  1.25                  8.0228e-05            1.25e-11              -1.588e-11            -8.0218e-05          
  1.3                   8.0826e-05            1.23e-11              -2.998e-11            -8.0808e-05          
  1.35                  8.137e-05             1.232e-11             -5.908e-11            -8.1296e-05          
END_DB

