! VERSION = 6.00
BEGIN_HEADER
 ICCAP_INPUTS
  vd         V  D GROUND SMU1 0.1 LIN        1    0          1.35       28   0.05      
  vg         V  G GROUND SMU2 0.001 LIN        2    0.566      1.35       5    0.196     
  vb         V  B GROUND SMU4 0.1 CON        -1.2
  vs         V  S GROUND SMU3 0.1 CON        0
 ICCAP_OUTPUTS
  id         I  D GROUND SMU1 B
  ig         I  G GROUND SMU2 B
  ib         I  B GROUND SMU4 B
  is         I  S GROUND SMU3 B
 ICCAP_VALUES
  MASTER_SETUP_TYPE "~dc_idvd~"
  LINVT_VALUE "|idvg|100.0n|100.0m|1.000m|5|1.350|"
  LISTVT_VALUE ""
  TYPE "1"
  TEMP " 27.0000 "
  IS_TNOM " 1.00000 "
  MAIN.W "10.00u"
  MAIN.L "150.0n"
  MAIN.AD "3.400p"
  MAIN.AS "3.400p"
  MAIN.PD "20.68u"
  MAIN.PS "20.68u"
  MAIN.NF "1.000"
  MAIN.M "1"
  MAIN.NRD "0.000"
  MAIN.NRS "0.000"
  MAIN.LDRIFT1 "1E-06"
  MAIN.LDRIFT2 "1E-06"
  MAIN.SA "0.000"
  MAIN.SB "0.000"
  MAIN.SD "0.000"
  MAIN.SCA "0.000"
  MAIN.SCB "0.000"
  MAIN.SCC "0.000"
  MAIN.SC "0.000"
  MODULE "S540"
  PIN_D "14"
  PIN_G "7"
  PIN_S "8"
  PIN_B "13"
  PIN_E ""
  PIN_6 ""
  XY_ID ""
  FUNC "L Scale"
  STI "SA ref"
  WPE "WPE ref"
  COMMENT ""
  DIS_MEAS ""
  TypeTCI "10"
END_HEADER

BEGIN_DB
 ICCAP_VAR vg         0.566          
 ICCAP_VAR vb         -1.2           
 ICCAP_VAR vs         0              

 #vd                    id                    ig                    ib                    is                   
  0                     5.549e-08             1.64e-11              -1.622e-11            -4.3562e-08          
  0.05                  2.2772e-05            1.352e-11             -1.324e-11            -2.2734e-05          
  0.1                   3.2826e-05            1.146e-11             -1.358e-11            -3.2822e-05          
  0.15                  3.7948e-05            1.042e-11             -1.252e-11            -3.7944e-05          
  0.2                   4.1432e-05            9.72e-12              -1.1e-11              -4.1422e-05          
  0.25                  4.438e-05             9.4e-12               -1.158e-11            -4.4348e-05          
  0.3                   4.7118e-05            9.12e-12              -1.06e-11             -4.7106e-05          
  0.35                  4.9766e-05            8.98e-12              -1.008e-11            -4.9756e-05          
  0.4                   5.2446e-05            8.92e-12              -9.86e-12             -5.2426e-05          
  0.45                  5.511e-05             8.9e-12               -9.52e-12             -5.5092e-05          
  0.5                   5.7834e-05            9.04e-12              -8.96e-12             -5.7784e-05          
  0.55                  6.0604e-05            9.02e-12              -8.72e-12             -6.058e-05           
  0.6                   6.3432e-05            8.92e-12              -7.54e-12             -6.3414e-05          
  0.65                  6.6318e-05            8.76e-12              -8.1e-12              -6.6316e-05          
  0.7                   6.9276e-05            8.84e-12              -8.44e-12             -6.9248e-05          
  0.75                  7.232e-05             8.62e-12              -7.22e-12             -7.2294e-05          
  0.8                   7.5454e-05            8.66e-12              -7.12e-12             -7.541e-05           
  0.85                  7.8624e-05            8.72e-12              -7.74e-12             -7.8616e-05          
  0.9                   8.1894e-05            8.5e-12               -7.58e-12             -8.1884e-05          
  0.95                  8.5284e-05            8.24e-12              -1.01e-11             -8.5194e-05          
  1                     8.864e-05             8.14e-12              -1.718e-11            -8.862e-05           
  1.05                  9.2182e-05            7.8e-12               -3.47e-11             -9.2184e-05          
  1.1                   9.583e-05             7.28e-12              -8.144e-11            -9.5832e-05          
  1.15                  9.956e-05             6.84e-12              -1.905e-10            -9.9494e-05          
  1.2                   0.000103446           6.32e-12              -4.217e-10            -0.00010344          
  1.25                  0.000107354           5.6e-12               -8.7958e-10           -0.000107386         
  1.3                   0.000111384           4.94e-12              -1.7232e-09           -0.00011112          
  1.35                  0.00011564            3.9e-12               -3.186e-09            -0.00011524          
END_DB

BEGIN_DB
 ICCAP_VAR vg         0.762          
 ICCAP_VAR vb         -1.2           
 ICCAP_VAR vs         0              

 #vd                    id                    ig                    ib                    is                   
  0                     4.3662e-07            7.772e-11             -4.04e-12             -1.824e-07           
  0.05                  0.000167              6.658e-11             -4.5e-12              -0.00016658          
  0.1                   0.00028462            5.838e-11             -4.28e-12             -0.00028426          
  0.15                  0.00036352            5.218e-11             -3.56e-12             -0.0003631           
  0.2                   0.0004158             4.774e-11             -4.72e-12             -0.0004153           
  0.25                  0.00045104            4.506e-11             -4.08e-12             -0.00045068          
  0.3                   0.00047718            4.348e-11             -3.26e-12             -0.00047676          
  0.35                  0.00049804            4.202e-11             -4.32e-12             -0.0004979           
  0.4                   0.00051596            4.102e-11             -3.54e-12             -0.00051568          
  0.45                  0.0005326             4.062e-11             -4.18e-12             -0.00053228          
  0.5                   0.00054784            3.996e-11             -4.4e-12              -0.0005473           
  0.55                  0.00056242            3.978e-11             -3.14e-12             -0.00056194          
  0.6                   0.00057662            3.946e-11             -4.02e-12             -0.0005764           
  0.65                  0.00059086            3.926e-11             -3.86e-12             -0.00059048          
  0.7                   0.00060526            3.904e-11             -2.9e-12              -0.00060478          
  0.75                  0.00061894            3.896e-11             -3.9e-12              -0.00061844          
  0.8                   0.00063256            3.862e-11             -4.3e-12              -0.00063238          
  0.85                  0.0006466             3.846e-11             -3.92e-12             -0.00064622          
  0.9                   0.00066046            3.826e-11             -5.92e-12             -0.00066012          
  0.95                  0.0006744             3.818e-11             -1.22e-11             -0.00067412          
  1                     0.0006884             3.792e-11             -2.564e-11            -0.00068794          
  1.05                  0.00070232            3.768e-11             -6.468e-11            -0.000702            
  1.1                   0.00071632            3.766e-11             -1.6064e-10           -0.00071592          
  1.15                  0.00073058            3.724e-11             -3.8766e-10           -0.00073034          
  1.2                   0.00074478            3.676e-11             -8.9134e-10           -0.00074426          
  1.25                  0.0007588             3.64e-11              -1.9346e-09           -0.00075844          
  1.3                   0.00077334            3.594e-11             -3.9782e-09           -0.00077298          
  1.35                  0.00078756            3.546e-11             -7.7294e-09           -0.00078752          
END_DB

BEGIN_DB
 ICCAP_VAR vg         0.958          
 ICCAP_VAR vb         -1.2           
 ICCAP_VAR vs         0              

 #vd                    id                    ig                    ib                    is                   
  0                     8.515e-07             2.352e-10             -2.7e-12              -3.2322e-07          
  0.05                  0.00036396            2.094e-10             -3.22e-12             -0.0003636           
  0.1                   0.00066662            1.8764e-10            -3e-12                -0.00066624          
  0.15                  0.00090566            1.7008e-10            -3.1e-12              -0.00090526          
  0.2                   0.00108686            1.5618e-10            -3.2e-12              -0.00108652          
  0.25                  0.0012218             1.4544e-10            -2.76e-12             -0.0012198           
  0.3                   0.0013206             1.3732e-10            -2.6e-12              -0.0013188           
  0.35                  0.0013938             1.3136e-10            -2.86e-12             -0.0013918           
  0.4                   0.0014498             1.2678e-10            -3.08e-12             -0.001448            
  0.45                  0.0014946             1.236e-10             -2.28e-12             -0.0014928           
  0.5                   0.0015322             1.213e-10             -2.2e-12              -0.0015304           
  0.55                  0.001565              1.1952e-10            -3.5e-12              -0.0015636           
  0.6                   0.0015948             1.183e-10             -1.86e-12             -0.0015932           
  0.65                  0.0016228             1.17e-10              -2.5e-12              -0.001621            
  0.7                   0.001649              1.1616e-10            -3.54e-12             -0.0016472           
  0.75                  0.001674              1.153e-10             -1.96e-12             -0.0016726           
  0.8                   0.001699              1.1488e-10            -2.84e-12             -0.001697            
  0.85                  0.0017226             1.1408e-10            -5.48e-12             -0.0017212           
  0.9                   0.0017464             1.1354e-10            -7.48e-12             -0.001745            
  0.95                  0.00177               1.1298e-10            -1.776e-11            -0.0017682           
  1                     0.001793              1.1236e-10            -4.294e-11            -0.0017912           
  1.05                  0.0018156             1.1176e-10            -1.0084e-10           -0.001814            
  1.1                   0.0018382             1.113e-10             -2.4024e-10           -0.0018362           
  1.15                  0.0018606             1.1096e-10            -5.469e-10            -0.0018588           
  1.2                   0.0018828             1.1036e-10            -1.1962e-09           -0.0018812           
  1.25                  0.001905              1.1004e-10            -2.515e-09            -0.001903            
  1.3                   0.0019272             1.0946e-10            -5.0666e-09           -0.0019252           
  1.35                  0.0019486             1.0868e-10            -9.7674e-09           -0.0019472           
END_DB

BEGIN_DB
 ICCAP_VAR vg         1.154          
 ICCAP_VAR vb         -1.2           
 ICCAP_VAR vs         0              

 #vd                    id                    ig                    ib                    is                   
  0                     7.894e-07             5.55e-10              -1.72e-12             4.21e-08             
  0.05                  0.00053328            5.0456e-10            -3.42e-12             -0.00053286          
  0.1                   0.00100718            4.6058e-10            -2.38e-12             -0.00100676          
  0.15                  0.0014112             4.2304e-10            -2.44e-12             -0.0014094           
  0.2                   0.0017424             3.918e-10             -1.74e-12             -0.0017408           
  0.25                  0.0020074             3.6534e-10            -2.82e-12             -0.0020058           
  0.3                   0.0022156             3.4376e-10            -1.7e-12              -0.0022134           
  0.35                  0.0023772             3.2658e-10            -1.52e-12             -0.0023752           
  0.4                   0.0025024             3.1292e-10            -2.28e-12             -0.0025006           
  0.45                  0.0026004             3.021e-10             -1.7e-12              -0.0025986           
  0.5                   0.0026784             2.9372e-10            -1.3e-12              -0.0026772           
  0.55                  0.0027432             2.873e-10             -2.76e-12             -0.0027412           
  0.6                   0.0027968             2.8222e-10            -1.22e-12             -0.0027952           
  0.65                  0.0028432             2.7816e-10            -2.34e-12             -0.0028418           
  0.7                   0.0028848             2.7514e-10            -1.84e-12             -0.0028832           
  0.75                  0.0029218             2.725e-10             -2.14e-12             -0.0029208           
  0.8                   0.0029574             2.703e-10             -2.74e-12             -0.0029556           
  0.85                  0.0029904             2.6818e-10            -4e-12                -0.0029888           
  0.9                   0.0030224             2.6666e-10            -9.42e-12             -0.0030206           
  0.95                  0.0030532             2.6518e-10            -2.31e-11             -0.0030518           
  1                     0.003083              2.6376e-10            -5.36e-11             -0.003081            
  1.05                  0.0031124             2.6262e-10            -1.251e-10            -0.0031108           
  1.1                   0.003141              2.6144e-10            -2.86e-10             -0.0031388           
  1.15                  0.0031698             2.598e-10             -6.2706e-10           -0.0031682           
  1.2                   0.0031974             2.589e-10             -1.3256e-09           -0.0031958           
  1.25                  0.0032248             2.5786e-10            -2.7012e-09           -0.0032228           
  1.3                   0.0032516             2.5696e-10            -5.3034e-09           -0.0032496           
  1.35                  0.003278              2.5562e-10            -1.0042e-08           -0.0032764           
END_DB

BEGIN_DB
 ICCAP_VAR vg         1.35           
 ICCAP_VAR vb         -1.2           
 ICCAP_VAR vs         0              

 #vd                    id                    ig                    ib                    is                   
  0                     9.054e-07             1.1372e-09            -2.98e-12             2.666e-08            
  0.05                  0.00066292            1.0476e-09            -1.88e-12             -0.00066248          
  0.1                   0.0012738             9.677e-10             -1.44e-12             -0.0012722           
  0.15                  0.001815              8.9828e-10            -2.9e-12              -0.0018132           
  0.2                   0.0022804             8.3788e-10            -1.8e-12              -0.0022786           
  0.25                  0.0026714             7.8512e-10            -2.6e-12              -0.0026696           
  0.3                   0.0029946             7.3966e-10            -2.9e-12              -0.0029932           
  0.35                  0.0032588             7.0138e-10            -1.68e-12             -0.003257            
  0.4                   0.003472              6.6932e-10            -2.76e-12             -0.0034706           
  0.45                  0.0036438             6.4252e-10            -2.58e-12             -0.0036422           
  0.5                   0.003783              6.2062e-10            -1.32e-12             -0.0037808           
  0.55                  0.0038952             6.0316e-10            -2.74e-12             -0.0038936           
  0.6                   0.0039874             5.8846e-10            -1.78e-12             -0.0039856           
  0.65                  0.0040642             5.7678e-10            -1.08e-12             -0.0040624           
  0.7                   0.0041294             5.6736e-10            -2.5e-12              -0.0041278           
  0.75                  0.0041876             5.601e-10             -2.5e-12              -0.0041852           
  0.8                   0.0042374             5.537e-10             -2.22e-12             -0.0042362           
  0.85                  0.004283              5.483e-10             -1.64e-12             -0.0042808           
  0.9                   0.0043256             5.436e-10             -1.05e-11             -0.004324            
  0.95                  0.004365              5.3966e-10            -2.398e-11            -0.0043628           
  1                     0.0044022             5.3632e-10            -5.702e-11            -0.0044006           
  1.05                  0.004438              5.3316e-10            -1.2984e-10           -0.0044368           
  1.1                   0.0044724             5.3022e-10            -2.9076e-10           -0.0044706           
  1.15                  0.0045056             5.2738e-10            -6.2534e-10           -0.0045032           
  1.2                   0.004538              5.2534e-10            -1.2958e-09           -0.0045368           
  1.25                  0.00457               5.2288e-10            -2.5878e-09           -0.004569            
  1.3                   0.004601              5.2076e-10            -4.9992e-09           -0.004599            
  1.35                  0.0046308             5.184e-10             -9.3404e-09           -0.0046292           
END_DB

