! VERSION = 6.00
BEGIN_HEADER
 ICCAP_INPUTS
  vd         V  D GROUND SMU1 0.1 LIN        1    0          1.35       28   0.05      
  vg         V  G GROUND SMU2 0.001 LIST       2 3 0.267 0.467 0.667
  vb         V  B GROUND SMU4 0.1 CON        -1.2
  vs         V  S GROUND SMU3 0.1 CON        0
 ICCAP_OUTPUTS
  id         I  D GROUND SMU1 B
  ig         I  G GROUND SMU2 B
  ib         I  B GROUND SMU4 B
  is         I  S GROUND SMU3 B
 ICCAP_VALUES
  MASTER_SETUP_TYPE "~dc_idvd~"
  LINVT_VALUE ""
  LISTVT_VALUE "|idvg|100.0n|-200.0m|1.000m|3|200.0m|200.0m|"
  TYPE "1"
  TEMP " 27.0000 "
  IS_TNOM " 1.00000 "
  MAIN.W "10.00u"
  MAIN.L "140.0n"
  MAIN.AD "3.400p"
  MAIN.AS "3.400p"
  MAIN.PD "20.68u"
  MAIN.PS "20.68u"
  MAIN.NF "1.000"
  MAIN.M "1"
  MAIN.NRD "0.000"
  MAIN.NRS "0.000"
  MAIN.LDRIFT1 "1E-06"
  MAIN.LDRIFT2 "1E-06"
  MAIN.SA "0.000"
  MAIN.SB "0.000"
  MAIN.SD "0.000"
  MAIN.SCA "0.000"
  MAIN.SCB "0.000"
  MAIN.SCC "0.000"
  MAIN.SC "0.000"
  MODULE "S540"
  PIN_D "16"
  PIN_G "5"
  PIN_S "6"
  PIN_B "15"
  PIN_E ""
  PIN_6 ""
  XY_ID ""
  FUNC "L Scale"
  STI "SA ref"
  WPE "WPE ref"
  COMMENT ""
  DIS_MEAS ""
  TypeTCI "10"
END_HEADER

BEGIN_DB
 ICCAP_VAR vg         0.267          
 ICCAP_VAR vb         -1.2           
 ICCAP_VAR vs         0              

 #vd                    id                    ig                    ib                    is                   
  0                     2.422e-11             7.4e-13               -7.14e-12             -1.444e-11           
  0.05                  6.3682e-09            4.8e-13               -5.7e-12              -6.3676e-09          
  0.1                   8.1532e-09            4e-13                 -5.84e-12             -8.1586e-09          
  0.15                  9.2476e-09            3.4e-13               -4.88e-12             -9.2514e-09          
  0.2                   1.02936e-08           2.8e-13               -5.08e-12             -1.02878e-08         
  0.25                  1.13938e-08           4e-13                 -4.8e-12              -1.14092e-08         
  0.3                   1.2616e-08            1.6e-13               -4.34e-12             -1.2586e-08          
  0.35                  1.395e-08             3e-13                 -4.34e-12             -1.3924e-08          
  0.4                   1.5402e-08            3.2e-13               -3.14e-12             -1.5392e-08          
  0.45                  1.6994e-08            1.2e-13               -3.04e-12             -1.6966e-08          
  0.5                   1.8736e-08            1.8e-13               -3.76e-12             -1.872e-08           
  0.55                  2.0644e-08            4e-14                 -3.78e-12             -2.0622e-08          
  0.6                   2.2758e-08            -1e-13                -2.86e-12             -2.2738e-08          
  0.65                  2.5092e-08            -3.6e-13              -2.76e-12             -2.5076e-08          
  0.7                   2.763e-08             -6.4e-13              -2.5e-12              -2.756e-08           
  0.75                  3.036e-08             -1e-12                -3.1e-12              -3.0342e-08          
  0.8                   3.3412e-08            -1.5e-12              -3.78e-12             -3.3388e-08          
  0.85                  3.6792e-08            -2e-12                -1.5e-12              -3.6752e-08          
  0.9                   4.0416e-08            -2.8e-12              -3.12e-12             -4.041e-08           
  0.95                  4.444e-08             -3.76e-12             -3.36e-12             -4.4384e-08          
  1                     4.8716e-08            -4.62e-12             -2.94e-12             -4.8702e-08          
  1.05                  5.3534e-08            -5.86e-12             -2.7e-12              -5.3446e-08          
  1.1                   5.8694e-08            -7.28e-12             -2.96e-12             -5.8648e-08          
  1.15                  6.4394e-08            -9.1e-12              -5.02e-12             -6.4354e-08          
  1.2                   7.0508e-08            -1.108e-11            -8.08e-12             -7.0542e-08          
  1.25                  7.7154e-08            -1.322e-11            -1.032e-11            -7.752e-08           
  1.3                   8.4854e-08            -1.58e-11             -1.526e-11            -8.4826e-08          
  1.35                  9.2806e-08            -1.878e-11            -2.27e-11             -9.2746e-08          
END_DB

BEGIN_DB
 ICCAP_VAR vg         0.467          
 ICCAP_VAR vb         -1.2           
 ICCAP_VAR vs         0              

 #vd                    id                    ig                    ib                    is                   
  0                     2.997e-09             6.62e-12              -2.02e-12             -3.383e-09           
  0.05                  2.4486e-06            5.26e-12              -1.6e-12              -2.4424e-06          
  0.1                   3.2982e-06            4.4e-12               -1.14e-12             -3.295e-06           
  0.15                  3.7832e-06            4.16e-12              -2.72e-12             -3.7794e-06          
  0.2                   4.1982e-06            3.96e-12              -1.24e-12             -4.1936e-06          
  0.25                  4.6084e-06            3.82e-12              -1.62e-12             -4.6036e-06          
  0.3                   5.0342e-06            3.72e-12              -2.3e-12              -5.0294e-06          
  0.35                  5.4794e-06            3.74e-12              -1.6e-12              -5.4778e-06          
  0.4                   5.9532e-06            3.72e-12              -1.64e-12             -5.9466e-06          
  0.45                  6.4542e-06            3.6e-12               -2.52e-12             -6.444e-06           
  0.5                   6.9834e-06            3.7e-12               -1.4e-12              -6.978e-06           
  0.55                  7.5472e-06            3.74e-12              -9.8e-13              -7.5422e-06          
  0.6                   8.1522e-06            3.7e-12               -1.96e-12             -8.1518e-06          
  0.65                  8.7934e-06            3.62e-12              -1.78e-12             -8.7866e-06          
  0.7                   9.47e-06              3.54e-12              -1.44e-12             -9.4678e-06          
  0.75                  1.0195e-05            3.32e-12              -2.3e-12              -1.01854e-05         
  0.8                   1.095e-05             3.36e-12              -2.18e-12             -1.09498e-05         
  0.85                  1.177e-05             3.14e-12              -8e-13                -1.175e-05           
  0.9                   1.2626e-05            2.74e-12              -2.04e-12             -1.2606e-05          
  0.95                  1.3522e-05            2.32e-12              -4.36e-12             -1.3504e-05          
  1                     1.4462e-05            1.96e-12              -7.46e-12             -1.4446e-05          
  1.05                  1.546e-05             1.34e-12              -1.738e-11            -1.5448e-05          
  1.1                   1.6506e-05            6.8e-13               -4.282e-11            -1.6486e-05          
  1.15                  1.7604e-05            -3.4e-13              -9.412e-11            -1.7586e-05          
  1.2                   1.8756e-05            -1.46e-12             -1.969e-10            -1.8736e-05          
  1.25                  1.9964e-05            -2.48e-12             -3.891e-10            -1.9958e-05          
  1.3                   2.1234e-05            -3.96e-12             -7.2254e-10           -2.1224e-05          
  1.35                  2.2566e-05            -5.66e-12             -1.2762e-09           -2.2552e-05          
END_DB

BEGIN_DB
 ICCAP_VAR vg         0.667          
 ICCAP_VAR vb         -1.2           
 ICCAP_VAR vs         0              

 #vd                    id                    ig                    ib                    is                   
  0                     1.15014e-07           3.862e-11             3.4e-13               -1.15072e-07         
  0.05                  7.5962e-05            3.256e-11             -9.2e-13              -7.5882e-05          
  0.1                   0.00012108            2.83e-11              -2.06e-12             -0.00012068          
  0.15                  0.00014808            2.552e-11             -9.2e-13              -0.0001477           
  0.2                   0.00016588            2.368e-11             -1.8e-12              -0.00016546          
  0.25                  0.00017934            2.25e-11              -1.52e-12             -0.00017888          
  0.3                   0.00019078            2.19e-11              -1e-12                -0.00019044          
  0.35                  0.00020128            2.126e-11             -2.12e-12             -0.00020088          
  0.4                   0.00021126            2.1e-11               -9.4e-13              -0.0002109           
  0.45                  0.00022102            2.1e-11               -1.1e-12              -0.00022064          
  0.5                   0.00023074            2.066e-11             -1.52e-12             -0.00023044          
  0.55                  0.00024054            2.062e-11             -1.86e-12             -0.00024006          
  0.6                   0.00025034            2.054e-11             -1.48e-12             -0.00024996          
  0.65                  0.00026022            2.044e-11             -1.9e-12              -0.00025984          
  0.7                   0.00027022            2.04e-11              9e-13                 -0.0002698           
  0.75                  0.00028034            2.04e-11              -1e-12                -0.00028             
  0.8                   0.00029062            2.03e-11              -2.22e-12             -0.00029022          
  0.85                  0.00030108            2.006e-11             -2.46e-12             -0.00030064          
  0.9                   0.00031162            2.006e-11             -4.12e-12             -0.00031132          
  0.95                  0.00032238            2.01e-11              -8.8e-12              -0.000322            
  1                     0.00033314            1.988e-11             -2.13e-11             -0.0003328           
  1.05                  0.0003442             1.966e-11             -6.174e-11            -0.00034378          
  1.1                   0.00035532            1.918e-11             -1.6024e-10           -0.00035482          
  1.15                  0.00036644            1.878e-11             -3.9334e-10           -0.00036614          
  1.2                   0.00037778            1.826e-11             -9.0374e-10           -0.00037734          
  1.25                  0.00038926            1.774e-11             -1.9368e-09           -0.00038894          
  1.3                   0.00040094            1.696e-11             -3.904e-09            -0.00040056          
  1.35                  0.00041266            1.614e-11             -7.4018e-09           -0.00041222          
END_DB

