! VERSION = 6.00
BEGIN_HEADER
 ICCAP_INPUTS
  vd         V  D GROUND SMU1 0.1 LIN        1    0          1.35       28   0.05      
  vg         V  G GROUND SMU2 0.001 LIN        2    0.594      1.35       5    0.189     
  vb         V  B GROUND SMU4 0.1 CON        -1.2
  vs         V  S GROUND SMU3 0.1 CON        0
 ICCAP_OUTPUTS
  id         I  D GROUND SMU1 B
  ig         I  G GROUND SMU2 B
  ib         I  B GROUND SMU4 B
  is         I  S GROUND SMU3 B
 ICCAP_VALUES
  MASTER_SETUP_TYPE "~dc_idvd~"
  LINVT_VALUE "|idvg|100.0n|100.0m|1.000m|5|1.350|"
  LISTVT_VALUE ""
  TYPE "1"
  TEMP "-40.0000 "
  IS_TNOM " 0.00000 "
  MAIN.W "10.00u"
  MAIN.L "130.0n"
  MAIN.AD "3.400p"
  MAIN.AS "3.400p"
  MAIN.PD "20.68u"
  MAIN.PS "20.68u"
  MAIN.NF "1.000"
  MAIN.M "1"
  MAIN.NRD "0.000"
  MAIN.NRS "0.000"
  MAIN.LDRIFT1 "1E-06"
  MAIN.LDRIFT2 "1E-06"
  MAIN.SA "0.000"
  MAIN.SB "0.000"
  MAIN.SD "0.000"
  MAIN.SCA "0.000"
  MAIN.SCB "0.000"
  MAIN.SCC "0.000"
  MAIN.SC "0.000"
  MODULE "S540"
  PIN_D "18"
  PIN_G "3"
  PIN_S "4"
  PIN_B "17"
  PIN_E ""
  PIN_6 ""
  XY_ID ""
  FUNC "Short"
  STI "SA ref"
  WPE "WPE ref"
  COMMENT ""
  DIS_MEAS ""
  TypeTCI "10"
END_HEADER

BEGIN_DB
 ICCAP_VAR vg         0.594          
 ICCAP_VAR vb         -1.2           
 ICCAP_VAR vs         0              

 #vd                    id                    ig                    ib                    is                   
  0                     4.5222e-08            1.644e-11             -8.34e-12             -3.3934e-08          
  0.05                  2.0294e-05            1.36e-11              -7.78e-12             -2.0274e-05          
  0.1                   3.019e-05             1.192e-11             -7.46e-12             -3.0192e-05          
  0.15                  3.6658e-05            1.09e-11              -7.24e-12             -3.6638e-05          
  0.2                   4.198e-05             1.028e-11             -6.92e-12             -4.1966e-05          
  0.25                  4.6914e-05            9.88e-12              -6.42e-12             -4.6876e-05          
  0.3                   5.1706e-05            9.68e-12              -6.56e-12             -5.1704e-05          
  0.35                  5.6598e-05            9.66e-12              -6.02e-12             -5.6584e-05          
  0.4                   6.157e-05             9.46e-12              -5.6e-12              -6.1522e-05          
  0.45                  6.6744e-05            9.48e-12              -4.76e-12             -6.67e-05            
  0.5                   7.2078e-05            9.54e-12              -4.78e-12             -7.2092e-05          
  0.55                  7.7626e-05            9.44e-12              -5.78e-12             -7.7666e-05          
  0.6                   8.3406e-05            9.48e-12              -5.1e-12              -8.343e-05           
  0.65                  8.9444e-05            9.3e-12               -5.28e-12             -8.9398e-05          
  0.7                   9.5626e-05            9.4e-12               -5.62e-12             -9.5616e-05          
  0.75                  0.00010209            9.44e-12              -5.4e-12              -0.000102126         
  0.8                   0.000108738           9.38e-12              -3.84e-12             -0.000108754         
  0.85                  0.00011582            9.3e-12               -4.86e-12             -0.00011565          
  0.9                   0.00012294            9.36e-12              -4.72e-12             -0.00012244          
  0.95                  0.00013044            9.14e-12              -5.56e-12             -0.00013024          
  1                     0.00013816            8.86e-12              -6.04e-12             -0.00013776          
  1.05                  0.00014596            8.56e-12              -1.142e-11            -0.00014592          
  1.1                   0.00015422            8.24e-12              -4e-11                -0.00015402          
  1.15                  0.00016264            7.78e-12              -1.0836e-10           -0.00016226          
  1.2                   0.00017136            7.16e-12              -2.9192e-10           -0.00017092          
  1.25                  0.0001803             6.6e-12               -7.0468e-10           -0.00017992          
  1.3                   0.0001893             5.76e-12              -1.5596e-09           -0.00018898          
  1.35                  0.00019874            4.78e-12              -3.1876e-09           -0.00019834          
END_DB

BEGIN_DB
 ICCAP_VAR vg         0.783          
 ICCAP_VAR vb         -1.2           
 ICCAP_VAR vs         0              

 #vd                    id                    ig                    ib                    is                   
  0                     4.8042e-07            6.904e-11             -1.58e-12             -1.8686e-07          
  0.05                  0.00018996            5.944e-11             -1.64e-12             -0.00018958          
  0.1                   0.00032222            5.228e-11             -2.22e-12             -0.00032182          
  0.15                  0.00041346            4.728e-11             -3.48e-12             -0.00041312          
  0.2                   0.00047804            4.386e-11             -2.34e-12             -0.0004778           
  0.25                  0.00052686            4.136e-11             -3.2e-12              -0.00052644          
  0.3                   0.00056606            3.982e-11             -2.74e-12             -0.000566            
  0.35                  0.0005997             3.864e-11             -2.52e-12             -0.00059946          
  0.4                   0.00063026            3.81e-11              -3.4e-12              -0.00062978          
  0.45                  0.00065858            3.764e-11             -1.72e-12             -0.00065814          
  0.5                   0.00068592            3.732e-11             -3.02e-12             -0.0006857           
  0.55                  0.00071294            3.698e-11             -3.26e-12             -0.00071272          
  0.6                   0.00073924            3.68e-11              -1.7e-12              -0.00073842          
  0.65                  0.00076502            3.67e-11              -2.6e-12              -0.00076464          
  0.7                   0.0007901             3.652e-11             -2.7e-12              -0.00078992          
  0.75                  0.00081574            3.636e-11             -1.6e-12              -0.00081536          
  0.8                   0.00084144            3.632e-11             -3.06e-12             -0.00084136          
  0.85                  0.00086714            3.616e-11             -3e-12                -0.0008665           
  0.9                   0.00089226            3.6e-11               -4.32e-12             -0.0008919           
  0.95                  0.00091772            3.598e-11             -9.46e-12             -0.00091712          
  1                     0.00094286            3.588e-11             -2.23e-11             -0.000942            
  1.05                  0.00096856            3.572e-11             -5.684e-11            -0.00096822          
  1.1                   0.0009943             3.562e-11             -1.4752e-10           -0.00099358          
  1.15                  0.00101982            3.538e-11             -3.7632e-10           -0.00101954          
  1.2                   0.00104514            3.516e-11             -9.2252e-10           -0.00104502          
  1.25                  0.00107094            3.468e-11             -2.1268e-09           -0.0010704           
  1.3                   0.00109744            3.426e-11             -4.6048e-09           -0.0010962           
  1.35                  0.00112294            3.384e-11             -9.3454e-09           -0.0011222           
END_DB

BEGIN_DB
 ICCAP_VAR vg         0.972          
 ICCAP_VAR vb         -1.2           
 ICCAP_VAR vs         0              

 #vd                    id                    ig                    ib                    is                   
  0                     9.1844e-07            2.0274e-10            -1.78e-12             -3.5578e-07          
  0.05                  0.00045552            1.8066e-10            -2.2e-12              -0.00045516          
  0.1                   0.00082488            1.622e-10             -1.42e-12             -0.0008247           
  0.15                  0.00110956            1.4764e-10            -2.2e-12              -0.00110916          
  0.2                   0.0013232             1.361e-10             -1.04e-12             -0.0013212           
  0.25                  0.0014818             1.2792e-10            -1.98e-12             -0.00148             
  0.3                   0.0016014             1.2112e-10            -2.02e-12             -0.0015998           
  0.35                  0.0016956             1.1652e-10            -2.02e-12             -0.0016938           
  0.4                   0.0017714             1.1296e-10            -2.38e-12             -0.0017694           
  0.45                  0.0018356             1.1044e-10            -1e-12                -0.0018338           
  0.5                   0.0018916             1.084e-10             -2.2e-12              -0.0018894           
  0.55                  0.0019428             1.0708e-10            -2.22e-12             -0.001941            
  0.6                   0.0019902             1.0594e-10            -1.46e-12             -0.0019876           
  0.65                  0.0020342             1.0506e-10            -1.76e-12             -0.0020322           
  0.7                   0.0020774             1.0424e-10            -1.68e-12             -0.0020762           
  0.75                  0.002119              1.037e-10             -1.5e-12              -0.002117            
  0.8                   0.0021586             1.03e-10              -2.54e-12             -0.0021572           
  0.85                  0.0021976             1.027e-10             -4.38e-12             -0.0021962           
  0.9                   0.002237              1.0218e-10            -1.014e-11            -0.002235            
  0.95                  0.0022748             1.0168e-10            -2.42e-11             -0.0022734           
  1                     0.0023126             1.0132e-10            -5.766e-11            -0.002311            
  1.05                  0.0023496             1.0102e-10            -1.4238e-10           -0.002348            
  1.1                   0.0023868             1.0064e-10            -3.397e-10            -0.0023854           
  1.15                  0.0024234             1.003e-10             -7.802e-10            -0.0024216           
  1.2                   0.00246               1.0004e-10            -1.7316e-09           -0.0024578           
  1.25                  0.0024952             9.95e-11              -3.6848e-09           -0.002494            
  1.3                   0.0025318             9.898e-11             -7.5042e-09           -0.00253             
  1.35                  0.0025676             9.868e-11             -1.4604e-08           -0.0025654           
END_DB

BEGIN_DB
 ICCAP_VAR vg         1.161          
 ICCAP_VAR vb         -1.2           
 ICCAP_VAR vs         0              

 #vd                    id                    ig                    ib                    is                   
  0                     1.14722e-06           4.6428e-10            5.2e-13               -5.2162e-07          
  0.05                  0.0006876             4.2268e-10            -1.44e-12             -0.0006872           
  0.1                   0.0012852             3.876e-10             2e-13                 -0.0012836           
  0.15                  0.0017772             3.5782e-10            -7e-13                -0.0017752           
  0.2                   0.002168              3.3322e-10            -2.88e-12             -0.002166            
  0.25                  0.0024738             3.1254e-10            -1.44e-12             -0.0024718           
  0.3                   0.0027114             2.9608e-10            -1.48e-12             -0.0027096           
  0.35                  0.0028974             2.8286e-10            -1.86e-12             -0.0028954           
  0.4                   0.0030444             2.722e-10             -1.22e-12             -0.0030428           
  0.45                  0.0031636             2.6366e-10            -2.6e-12              -0.003162            
  0.5                   0.0032616             2.5736e-10            -8.6e-13              -0.0032596           
  0.55                  0.003345              2.5214e-10            -1.62e-12             -0.0033436           
  0.6                   0.0034182             2.4816e-10            -1.58e-12             -0.003417            
  0.65                  0.0034844             2.4498e-10            -9.4e-13              -0.0034824           
  0.7                   0.0035442             2.4208e-10            -1.22e-12             -0.0035428           
  0.75                  0.003601              2.402e-10             -2.46e-12             -0.0035992           
  0.8                   0.0036532             2.382e-10             -2.26e-12             -0.0036514           
  0.85                  0.0037044             2.3656e-10            -7.02e-12             -0.0037024           
  0.9                   0.0037526             2.3514e-10            -1.68e-11             -0.003751            
  0.95                  0.0038004             2.3384e-10            -3.99e-11             -0.0037982           
  1                     0.0038462             2.3254e-10            -9.892e-11            -0.0038448           
  1.05                  0.0038908             2.3154e-10            -2.325e-10            -0.0038894           
  1.1                   0.0039348             2.3036e-10            -5.2558e-10           -0.0039332           
  1.15                  0.0039782             2.2952e-10            -1.144e-09            -0.0039764           
  1.2                   0.0040206             2.285e-10             -2.4094e-09           -0.0040186           
  1.25                  0.0040632             2.2768e-10            -4.8706e-09           -0.0040608           
  1.3                   0.0041042             2.27e-10              -9.4992e-09           -0.004103            
  1.35                  0.0041458             2.2594e-10            -1.7844e-08           -0.0041438           
END_DB

BEGIN_DB
 ICCAP_VAR vg         1.35           
 ICCAP_VAR vb         -1.2           
 ICCAP_VAR vs         0              

 #vd                    id                    ig                    ib                    is                   
  0                     1.11e-06              9.343e-10             -3.6e-13              -1.123e-06           
  0.05                  0.00086182            8.6188e-10            -2.8e-12              -0.0008613           
  0.1                   0.0016388             7.9996e-10            -1.92e-12             -0.001637            
  0.15                  0.0023056             7.4562e-10            -2.8e-13              -0.0023042           
  0.2                   0.0028612             6.9888e-10            -2.58e-12             -0.0028592           
  0.25                  0.0033144             6.5884e-10            -1.38e-12             -0.0033128           
  0.3                   0.0036804             6.2418e-10            -8e-13                -0.0036784           
  0.35                  0.0039744             5.956e-10             -2.28e-12             -0.0039732           
  0.4                   0.0042112             5.7092e-10            -1.44e-12             -0.0042092           
  0.45                  0.0044026             5.5098e-10            -1.32e-12             -0.0044016           
  0.5                   0.0045606             5.3424e-10            -2.8e-12              -0.004559            
  0.55                  0.0046922             5.2094e-10            -9.8e-13              -0.0046902           
  0.6                   0.004803              5.0994e-10            -1.04e-12             -0.0048012           
  0.65                  0.0048984             5.0074e-10            -2.76e-12             -0.0048956           
  0.7                   0.0049814             4.9344e-10            -7.4e-13              -0.0049798           
  0.75                  0.0050576             4.8732e-10            -2.18e-12             -0.0050564           
  0.8                   0.0051262             4.8228e-10            -4.02e-12             -0.0051246           
  0.85                  0.005191              4.7786e-10            -8.56e-12             -0.0051894           
  0.9                   0.0052506             4.738e-10             -2.174e-11            -0.0052492           
  0.95                  0.0053088             4.7062e-10            -5.346e-11            -0.0053064           
  1                     0.0053628             4.6754e-10            -1.2782e-10           -0.0053608           
  1.05                  0.0054152             4.6476e-10            -2.9596e-10           -0.0054134           
  1.1                   0.0054658             4.6272e-10            -6.5054e-10           -0.0054652           
  1.15                  0.0055156             4.6e-10               -1.3768e-09           -0.005514            
  1.2                   0.0055636             4.579e-10             -2.8072e-09           -0.005562            
  1.25                  0.00561               4.5606e-10            -5.515e-09            -0.0056082           
  1.3                   0.0056558             4.5386e-10            -1.0472e-08           -0.0056546           
  1.35                  0.0057022             4.5222e-10            -1.921e-08            -0.0057006           
END_DB

