! VERSION = 6.00
BEGIN_HEADER
 ICCAP_INPUTS
  vg         V  G GROUND SMU2 0.001 LIN        1    -0.5       1.35       38   0.05      
  vb         V  B GROUND SMU4 0.1 LIN        2    0          -1.2       5    -0.3      
  vd         V  D GROUND SMU1 0.1 LIST       3 3 0.05 0.6 1.2
  vs         V  S GROUND SMU3 0.1 CON        0
 ICCAP_OUTPUTS
  id         I  D GROUND SMU1 B
  ig         I  G GROUND SMU2 B
  ib         I  B GROUND SMU4 B
  is         I  S GROUND SMU3 B
 ICCAP_VALUES
  MASTER_SETUP_TYPE "~dc_idvg~"
  LINVT_VALUE ""
  LISTVT_VALUE ""
  TYPE "1"
  TEMP " 27.0000 "
  IS_TNOM " 1.00000 "
  MAIN.W "10.00u"
  MAIN.L "150.0n"
  MAIN.AD "3.400p"
  MAIN.AS "3.400p"
  MAIN.PD "20.68u"
  MAIN.PS "20.68u"
  MAIN.NF "1.000"
  MAIN.M "1"
  MAIN.NRD "0.000"
  MAIN.NRS "0.000"
  MAIN.LDRIFT1 "1E-06"
  MAIN.LDRIFT2 "1E-06"
  MAIN.SA "0.000"
  MAIN.SB "0.000"
  MAIN.SD "0.000"
  MAIN.SCA "0.000"
  MAIN.SCB "0.000"
  MAIN.SCC "0.000"
  MAIN.SC "0.000"
  MODULE "S540"
  PIN_D "14"
  PIN_G "7"
  PIN_S "8"
  PIN_B "13"
  PIN_E ""
  PIN_6 ""
  XY_ID ""
  FUNC "L Scale"
  STI "SA ref"
  WPE "WPE ref"
  COMMENT ""
  DIS_MEAS ""
  TypeTCI "10"
END_HEADER

BEGIN_DB
 ICCAP_VAR vb         0              
 ICCAP_VAR vd         0.05           
 ICCAP_VAR vs         0              

 #vg                    id                    ig                    ib                    is                   
  -0.5                  1.68e-12              -4.802e-11            4.55e-11              2.1e-12              
  -0.45                 1.28e-12              -9.48e-12             7.72e-12              1.56e-12             
  -0.4                  9.4e-13               -3.04e-12             2.02e-12              1.22e-12             
  -0.35                 6.8e-13               -1.26e-12             2.74e-12              7e-13                
  -0.3                  4.6e-13               -1e-12                1.98e-12              5.8e-13              
  -0.25                 4.2e-13               -2.8e-13              1.04e-12              3e-13                
  -0.2                  4.6e-13               -1.4e-13              5.6e-13               -1e-13               
  -0.15                 1.48e-12              8e-14                 1.14e-12              -1.22e-12            
  -0.1                  6.3e-12               3.2e-13               1.24e-12              -6.16e-12            
  -0.05                 2.81e-11              5.6e-13               1.82e-12              -2.804e-11           
  0                     1.2598e-10            5.2e-13               8.4e-13               -1.26e-10            
  0.05                  5.7134e-10            5.6e-13               6.8e-13               -5.7092e-10          
  0.1                   2.5944e-09            4.4e-13               7.4e-13               -2.5908e-09          
  0.15                  1.1792e-08            7.4e-13               1.16e-12              -1.1766e-08          
  0.2                   5.3132e-08            7.6e-13               6.6e-13               -5.305e-08           
  0.25                  2.3416e-07            8.8e-13               1.58e-12              -2.3406e-07          
  0.3                   9.6952e-07            1.64e-12              1.4e-12               -9.6988e-07          
  0.35                  3.553e-06             2.14e-12              6.4e-13               -3.5472e-06          
  0.4                   1.07314e-05           3.84e-12              1.8e-13               -1.07248e-05         
  0.45                  2.6096e-05            6.38e-12              1.64e-12              -2.607e-05           
  0.5                   5.1776e-05            1.064e-11             6.6e-13               -5.173e-05           
  0.55                  8.7286e-05            1.626e-11             -1.6e-13              -8.7278e-05          
  0.6                   0.00013094            2.494e-11             1.46e-12              -0.00013052          
  0.65                  0.0001796             3.646e-11             1.98e-12              -0.0001792           
  0.7                   0.00023082            5.216e-11             2.2e-13               -0.0002305           
  0.75                  0.00028296            7.224e-11             4.4e-13               -0.00028258          
  0.8                   0.0003343             9.792e-11             1.1e-12               -0.00033386          
  0.85                  0.00038428            1.3044e-10            1.42e-12              -0.0003839           
  0.9                   0.00043206            1.701e-10             5e-13                 -0.0004317           
  0.95                  0.00047756            2.1834e-10            5.2e-13               -0.0004772           
  1                     0.00052054            2.766e-10             8e-14                 -0.00052022          
  1.05                  0.00056094            3.4546e-10            9.4e-13               -0.00056056          
  1.1                   0.00059866            4.2696e-10            9.2e-13               -0.00059826          
  1.15                  0.00063386            5.2236e-10            1.2e-13               -0.00063344          
  1.2                   0.00066656            6.338e-10             3.6e-13               -0.0006662           
  1.25                  0.00069686            7.626e-10             2e-13                 -0.00069652          
  1.3                   0.00072492            9.1198e-10            -1.6e-13              -0.0007245           
  1.35                  0.00075088            1.0844e-09            -7e-13                -0.00075048          
END_DB

BEGIN_DB
 ICCAP_VAR vb         -0.3           
 ICCAP_VAR vd         0.05           
 ICCAP_VAR vs         0              

 #vg                    id                    ig                    ib                    is                   
  -0.5                  1.72e-12              -3.94e-12             -3.7e-12              1.98e-12             
  -0.45                 1.24e-12              -2.58e-12             -4.36e-12             1.66e-12             
  -0.4                  8.4e-13               -1.86e-12             -3.9e-12              1.14e-12             
  -0.35                 5.8e-13               -1.34e-12             -2.06e-12             6.8e-13              
  -0.3                  4.4e-13               -4.4e-13              -1.9e-12              5e-13                
  -0.25                 2.6e-13               -3.6e-13              -2.48e-12             3.4e-13              
  -0.2                  1.8e-13               2e-14                 -3e-12                3e-13                
  -0.15                 2.8e-13               3.2e-13               -2.36e-12             -4e-14               
  -0.1                  1.04e-12              2.6e-13               -1.48e-12             -8.4e-13             
  -0.05                 4.6e-12               5.8e-13               -1.78e-12             -4.46e-12            
  0                     2.218e-11             4.2e-13               -1.96e-12             -2.206e-11           
  0.05                  1.0658e-10            5e-13                 -1.76e-12             -1.064e-10           
  0.1                   5.1164e-10            7e-13                 -2.12e-12             -5.1154e-10          
  0.15                  2.4628e-09            5e-13                 -9.2e-13              -2.4608e-09          
  0.2                   1.1728e-08            8.8e-13               -1.48e-12             -1.1718e-08          
  0.25                  5.5284e-08            1.08e-12              -1.64e-12             -5.5278e-08          
  0.3                   2.519e-07             1.14e-12              -2.6e-13              -2.5186e-07          
  0.35                  1.06958e-06           2.32e-12              -1.32e-12             -1.07016e-06         
  0.4                   3.944e-06             3.32e-12              -1.28e-12             -3.9388e-06          
  0.45                  1.1866e-05            5.34e-12              3e-13                 -1.184e-05           
  0.5                   2.8362e-05            9.2e-12               -1.6e-12              -2.835e-05           
  0.55                  5.5258e-05            1.472e-11             -1.12e-12             -5.524e-05           
  0.6                   9.1952e-05            2.304e-11             -1.38e-12             -9.1936e-05          
  0.65                  0.00013642            3.396e-11             -3.6e-13              -0.00013598          
  0.7                   0.00018538            4.91e-11              -1.1e-12              -0.000185            
  0.75                  0.0002368             6.884e-11             -1.48e-12             -0.0002364           
  0.8                   0.00028854            9.424e-11             -1.16e-12             -0.00028818          
  0.85                  0.00033948            1.2598e-10            -1.8e-13              -0.00033912          
  0.9                   0.0003886             1.654e-10             -7.6e-13              -0.00038822          
  0.95                  0.0004356             2.1292e-10            -1.28e-12             -0.0004352           
  1                     0.00048022            2.703e-10             -1.76e-12             -0.00047978          
  1.05                  0.00052214            3.3872e-10            -1.06e-12             -0.00052176          
  1.1                   0.00056148            4.194e-10             -7.6e-13              -0.000561            
  1.15                  0.0005982             5.1404e-10            -1.12e-12             -0.00059778          
  1.2                   0.00063226            6.246e-10             -1.7e-12              -0.00063184          
  1.25                  0.00066394            7.527e-10             -1.38e-12             -0.00066354          
  1.3                   0.00069328            9.008e-10             -1.04e-12             -0.0006928           
  1.35                  0.00072044            1.0724e-09            -1.76e-12             -0.00072002          
END_DB

BEGIN_DB
 ICCAP_VAR vb         -0.6           
 ICCAP_VAR vd         0.05           
 ICCAP_VAR vs         0              

 #vg                    id                    ig                    ib                    is                   
  -0.5                  1.62e-12              -3.78e-12             -4.42e-12             2.08e-12             
  -0.45                 1.28e-12              -2.76e-12             -4.58e-12             1.48e-12             
  -0.4                  8.6e-13               -1.96e-12             -4.3e-12              1.24e-12             
  -0.35                 6.2e-13               -1.26e-12             -4.56e-12             8.8e-13              
  -0.3                  3.8e-13               -6.4e-13              -4.16e-12             5.8e-13              
  -0.25                 2.4e-13               -2.6e-13              -3.24e-12             4.2e-13              
  -0.2                  1.4e-13               -1e-13                -2.92e-12             3.4e-13              
  -0.15                 4e-14                 1.6e-13               -3.62e-12             1.6e-13              
  -0.1                  3.4e-13               2.6e-13               -3.48e-12             -4e-14               
  -0.05                 1.16e-12              5.4e-13               -3.48e-12             -1.02e-12            
  0                     5.86e-12              3e-13                 -1.6e-12              -5.78e-12            
  0.05                  2.914e-11             5.8e-13               -2.24e-12             -2.914e-11           
  0.1                   1.4522e-10            5e-13                 -3.28e-12             -1.4502e-10          
  0.15                  7.2468e-10            7.2e-13               -3.66e-12             -7.2458e-10          
  0.2                   3.5858e-09            6e-13                 -3.3e-12              -3.5834e-09          
  0.25                  1.7596e-08            9.2e-13               -2e-12                -1.7562e-08          
  0.3                   8.4376e-08            1.38e-12              -1.82e-12             -8.4278e-08          
  0.35                  3.8762e-07            2e-12                 -2.32e-12             -3.8724e-07          
  0.4                   1.615e-06             2.86e-12              -2.04e-12             -1.609e-06           
  0.45                  5.6846e-06            4.94e-12              -2.42e-12             -5.6806e-06          
  0.5                   1.6006e-05            8.24e-12              -2.86e-12             -1.597e-05           
  0.55                  3.5704e-05            1.344e-11             -2.02e-12             -3.5688e-05          
  0.6                   6.5968e-05            2.116e-11             -9e-13                -6.5934e-05          
  0.65                  0.000105392           3.222e-11             -2.54e-12             -0.000105368         
  0.7                   0.00015154            4.662e-11             -2.36e-12             -0.00015114          
  0.75                  0.0002014             6.622e-11             -2.04e-12             -0.00020108          
  0.8                   0.00025282            9.08e-11              -1.16e-12             -0.00025242          
  0.85                  0.0003042             1.2222e-10            -1.38e-12             -0.00030376          
  0.9                   0.00035416            1.611e-10             -2.7e-12              -0.0003538           
  0.95                  0.00040224            2.083e-10             -2.32e-12             -0.00040176          
  1                     0.00044796            2.6532e-10            -1.38e-12             -0.00044752          
  1.05                  0.0004912             3.331e-10             -1.18e-12             -0.00049084          
  1.1                   0.00053174            4.1308e-10            -2.18e-12             -0.00053138          
  1.15                  0.0005697             5.0746e-10            -2.2e-12              -0.00056928          
  1.2                   0.00060488            6.1666e-10            -2.06e-12             -0.00060454          
  1.25                  0.00063776            7.4478e-10            -2.16e-12             -0.00063742          
  1.3                   0.00066824            8.9214e-10            -2.16e-12             -0.00066776          
  1.35                  0.0006962             1.0626e-09            -5.1e-12              -0.00069578          
END_DB

BEGIN_DB
 ICCAP_VAR vb         -0.9           
 ICCAP_VAR vd         0.05           
 ICCAP_VAR vs         0              

 #vg                    id                    ig                    ib                    is                   
  -0.5                  1.62e-12              -3.84e-12             -4.88e-12             1.96e-12             
  -0.45                 1.14e-12              -2.74e-12             -5.3e-12              1.58e-12             
  -0.4                  8.6e-13               -1.76e-12             -4.5e-12              1.06e-12             
  -0.35                 6.2e-13               -9.8e-13              -5.4e-12              1e-12                
  -0.3                  3.8e-13               -6.2e-13              -5.24e-12             6e-13                
  -0.25                 2.8e-13               -4e-13                -3.82e-12             4.8e-13              
  -0.2                  1.8e-13               1e-13                 -3.42e-12             2e-13                
  -0.15                 1.2e-13               2.2e-13               -4.2e-12              1e-13                
  -0.1                  1.6e-13               1e-13                 -3.96e-12             1.2e-13              
  -0.05                 4.6e-13               4.4e-13               -3.78e-12             -2.6e-13             
  0                     2.18e-12              5e-13                 -2.68e-12             -2.1e-12             
  0.05                  1.076e-11             4.4e-13               -2.76e-12             -1.052e-11           
  0.1                   5.472e-11             6.6e-13               -3.18e-12             -5.462e-11           
  0.15                  2.795e-10             7e-13                 -4e-12                -2.7956e-10          
  0.2                   1.4206e-09            5e-13                 -3.2e-12              -1.4168e-09          
  0.25                  7.1582e-09            9.2e-13               -2.36e-12             -7.141e-09           
  0.3                   3.5408e-08            1.32e-12              -1.74e-12             -3.5356e-08          
  0.35                  1.702e-07             1.98e-12              -3.52e-12             -1.6994e-07          
  0.4                   7.617e-07             2.9e-12               -3.3e-12              -7.6188e-07          
  0.45                  2.9914e-06            4.3e-12               -2.74e-12             -2.9846e-06          
  0.5                   9.5638e-06            7.72e-12              -3.1e-12              -9.5548e-06          
  0.55                  2.4064e-05            1.236e-11             -2.86e-12             -2.4032e-05          
  0.6                   4.8812e-05            1.982e-11             -1.74e-12             -4.8804e-05          
  0.65                  8.3686e-05            3.04e-11              -3.8e-12              -8.3664e-05          
  0.7                   0.00012664            4.476e-11             -3e-12                -0.00012624          
  0.75                  0.00017474            6.37e-11              -3.5e-12              -0.00017438          
  0.8                   0.0002254             8.826e-11             -2.26e-12             -0.000225            
  0.85                  0.00027672            1.1924e-10            -1.58e-12             -0.00027636          
  0.9                   0.00032724            1.5766e-10            -3.64e-12             -0.00032686          
  0.95                  0.00037608            2.0454e-10            -3.18e-12             -0.00037572          
  1                     0.00042272            2.6116e-10            -2.3e-12              -0.00042236          
  1.05                  0.00046686            3.2826e-10            -2.16e-12             -0.00046638          
  1.1                   0.0005084             4.0784e-10            -2.96e-12             -0.000508            
  1.15                  0.00054734            5.014e-10             -2.64e-12             -0.0005469           
  1.2                   0.00058352            6.1092e-10            -2.7e-12              -0.00058312          
  1.25                  0.00061718            7.3754e-10            -3e-12                -0.00061676          
  1.3                   0.00064836            8.8406e-10            -2.28e-12             -0.0006478           
  1.35                  0.0006772             1.054e-09             -3.3e-12              -0.00067688          
END_DB

BEGIN_DB
 ICCAP_VAR vb         -1.2           
 ICCAP_VAR vd         0.05           
 ICCAP_VAR vs         0              

 #vg                    id                    ig                    ib                    is                   
  -0.5                  1.54e-12              -3.6e-12              -5.12e-12             2.06e-12             
  -0.45                 1.28e-12              -2.6e-12              -5.2e-12              1.58e-12             
  -0.4                  9.2e-13               -1.84e-12             -5.94e-12             1.2e-12              
  -0.35                 6e-13                 -1.16e-12             -5.66e-12             9e-13                
  -0.3                  3.4e-13               -6.8e-13              -1.52e-12             5.2e-13              
