! VERSION = 6.00
BEGIN_HEADER
 ICCAP_INPUTS
  vd         V  D GROUND SMU1 0.1 LIN        1    0          1.35       28   0.05      
  vg         V  G GROUND SMU2 0.001 LIST       2 3 0.015 0.215 0.415
  vb         V  B GROUND SMU4 0.1 CON        0
  vs         V  S GROUND SMU3 0.1 CON        0
 ICCAP_OUTPUTS
  id         I  D GROUND SMU1 B
  ig         I  G GROUND SMU2 B
  ib         I  B GROUND SMU4 B
  is         I  S GROUND SMU3 B
 ICCAP_VALUES
  MASTER_SETUP_TYPE "~dc_idvd~"
  LINVT_VALUE ""
  LISTVT_VALUE "|idvg|100.0n|-200.0m|1.000m|3|200.0m|200.0m|"
  TYPE "1"
  TEMP "-40.0000 "
  IS_TNOM " 0.00000 "
  MAIN.W "150.0n"
  MAIN.L "10.00u"
  MAIN.AD "100.5f"
  MAIN.AS "100.5f"
  MAIN.PD "1.340u"
  MAIN.PS "1.340u"
  MAIN.NF "1.000"
  MAIN.M "1"
  MAIN.NRD "0.000"
  MAIN.NRS "0.000"
  MAIN.LDRIFT1 "1E-06"
  MAIN.LDRIFT2 "1E-06"
  MAIN.SA "0.000"
  MAIN.SB "0.000"
  MAIN.SD "0.000"
  MAIN.SCA "0.000"
  MAIN.SCB "0.000"
  MAIN.SCC "0.000"
  MAIN.SC "0.000"
  MODULE "S547"
  PIN_D "16"
  PIN_G "5"
  PIN_S "6"
  PIN_B "15"
  PIN_E ""
  PIN_6 ""
  XY_ID ""
  FUNC "Narrow"
  STI "SA ref"
  WPE "WPE ref"
  COMMENT ""
  DIS_MEAS ""
  TypeTCI "10"
END_HEADER

BEGIN_DB
 ICCAP_VAR vg         0.015          
 ICCAP_VAR vb         0              
 ICCAP_VAR vs         0              

 #vd                    id                    ig                    ib                    is                   
  0                     -1.8e-13              -2.8e-13              1.66e-12              4e-14                
  0.05                  4.6e-13               -1.6e-13              4.8e-13               -1.6e-13             
  0.1                   5.2e-13               0                     2.6e-13               -4.8e-13             
  0.15                  7e-13                 -4e-14                0                     -2e-13               
  0.2                   8e-13                 -5.4e-13              1.8e-13               -4.2e-13             
  0.25                  8.2e-13               -1.6e-13              1.68e-12              -3.2e-13             
  0.3                   8.6e-13               -1.2e-13              6.4e-13               -3.2e-13             
  0.35                  8.6e-13               -4e-14                -1e-13                -4.6e-13             
  0.4                   8.4e-13               -2e-13                2e-14                 -4e-13               
  0.45                  9.4e-13               -6.6e-13              7.6e-13               -4.6e-13             
  0.5                   9.2e-13               8e-14                 2.3e-12               -5.6e-13             
  0.55                  1.08e-12              -1e-13                2e-13                 -6.4e-13             
  0.6                   1.02e-12              -2.2e-13              1.6e-13               -6.4e-13             
  0.65                  1e-12                 -2.2e-13              5.4e-13               -4.2e-13             
  0.7                   1.12e-12              -4.8e-13              3.6e-13               -4e-13               
  0.75                  1.16e-12              -3.4e-13              1.04e-12              -5.4e-13             
  0.8                   1.22e-12              -4.4e-13              5.6e-13               -2.8e-13             
  0.85                  1.38e-12              -1.4e-13              -2.2e-13              -4.8e-13             
  0.9                   1.24e-12              -4e-14                -5.8e-13              -4.6e-13             
  0.95                  1.42e-12              -5.4e-13              8.6e-13               -3.8e-13             
  1                     1.7e-12               -8.2e-13              9.6e-13               -3.2e-13             
  1.05                  1.58e-12              -6.6e-13              -3.4e-13              -4e-13               
  1.1                   1.78e-12              -4.8e-13              -4.2e-13              -4.2e-13             
  1.15                  1.86e-12              -4.8e-13              -4.2e-13              -2.4e-13             
  1.2                   1.94e-12              -4e-13                3.6e-13               -5e-13               
  1.25                  2.06e-12              -1.22e-12             6.6e-13               -2.6e-13             
  1.3                   2.2e-12               -8.8e-13              2e-13                 -5.8e-13             
  1.35                  2.32e-12              -1.36e-12             7.2e-13               -4.6e-13             
END_DB

BEGIN_DB
 ICCAP_VAR vg         0.215          
 ICCAP_VAR vb         0              
 ICCAP_VAR vs         0              

 #vd                    id                    ig                    ib                    is                   
  0                     2.18e-12              5e-13                 5.8e-13               -2.56e-12            
  0.05                  1.282e-09             3.2e-13               7.6e-13               -1.278e-09           
  0.1                   1.4806e-09            2.2e-13               5.4e-13               -1.4862e-09          
  0.15                  1.5288e-09            2.6e-13               0                     -1.5266e-09          
  0.2                   1.5494e-09            1.4e-13               1.04e-12              -1.548e-09           
  0.25                  1.5628e-09            3.6e-13               -6e-13                -1.5636e-09          
  0.3                   1.5792e-09            4.2e-13               1.42e-12              -1.5756e-09          
  0.35                  1.585e-09             2e-13                 1.54e-12              -1.5622e-09          
  0.4                   1.5746e-09            -2.8e-13              -4e-14                -1.5976e-09          
  0.45                  1.6104e-09            -2e-13                3.4e-13               -1.6086e-09          
  0.5                   1.6162e-09            2.4e-13               4.8e-13               -1.617e-09           
  0.55                  1.6256e-09            7.2e-13               1.4e-12               -1.6142e-09          
  0.6                   1.6128e-09            6e-14                 4.4e-13               -1.6092e-09          
  0.65                  1.6208e-09            -1e-13                -4e-13                -1.6324e-09          
  0.7                   1.626e-09             2.4e-13               4.8e-13               -1.626e-09           
  0.75                  1.634e-09             1.8e-13               -1.4e-13              -1.6314e-09          
  0.8                   1.6556e-09            0                     6.4e-13               -1.6538e-09          
  0.85                  1.6604e-09            -6e-14                5.8e-13               -1.658e-09           
  0.9                   1.651e-09             -8e-14                2.6e-13               -1.6474e-09          
  0.95                  1.655e-09             1.8e-13               -1.22e-12             -1.6516e-09          
  1                     1.6588e-09            0                     -2e-14                -1.6574e-09          
  1.05                  1.671e-09             8e-14                 3e-13                 -1.6706e-09          
  1.1                   1.6764e-09            -4.4e-13              5.2e-13               -1.6752e-09          
  1.15                  1.6806e-09            3e-13                 2e-13                 -1.678e-09           
  1.2                   1.6826e-09            -4.6e-13              -2e-13                -1.6792e-09          
  1.25                  1.6836e-09            -6.6e-13              -1.2e-13              -1.6794e-09          
  1.3                   1.6866e-09            -1e-13                2e-14                 -1.6824e-09          
  1.35                  1.6888e-09            -4.6e-13              1.2e-13               -1.683e-09           
END_DB

BEGIN_DB
 ICCAP_VAR vg         0.415          
 ICCAP_VAR vb         0              
 ICCAP_VAR vs         0              

 #vd                    id                    ig                    ib                    is                   
  0                     7.512e-11             7.52e-12              5.2e-13               -8.248e-11           
  0.05                  5.9958e-08            6.1e-12               4.6e-13               -5.993e-08           
  0.1                   9.747e-08             4.88e-12              -3.2e-13              -9.7458e-08          
  0.15                  1.1492e-07            4.88e-12              1.28e-12              -1.14816e-07         
  0.2                   1.2124e-07            4.08e-12              3.4e-13               -1.2108e-07          
  0.25                  1.2412e-07            4.84e-12              6e-14                 -1.242e-07           
  0.3                   1.262e-07             4.44e-12              2.6e-13               -1.2606e-07          
  0.35                  1.2756e-07            4.44e-12              1.8e-13               -1.2752e-07          
  0.4                   1.2892e-07            4.4e-12               4.8e-13               -1.2882e-07          
  0.45                  1.3014e-07            4.34e-12              -4.8e-13              -1.3002e-07          
  0.5                   1.3128e-07            3.94e-12              5.8e-13               -1.3114e-07          
  0.55                  1.3236e-07            3.94e-12              5e-13                 -1.3222e-07          
  0.6                   1.334e-07             4.3e-12               -3.4e-13              -1.3314e-07          
  0.65                  1.344e-07             3.82e-12              -3.8e-13              -1.3416e-07          
  0.7                   1.3528e-07            4.14e-12              8.4e-13               -1.3516e-07          
  0.75                  1.3624e-07            4.1e-12               9e-13                 -1.3618e-07          
  0.8                   1.372e-07             3.64e-12              -2.8e-13              -1.3706e-07          
  0.85                  1.3808e-07            4.3e-12               -9.2e-13              -1.3794e-07          
  0.9                   1.3886e-07            3.88e-12              8e-13                 -1.387e-07           
  0.95                  1.3968e-07            4.16e-12              8.4e-13               -1.3954e-07          
  1                     1.4044e-07            3.72e-12              -5.8e-13              -1.403e-07           
  1.05                  1.4122e-07            4.52e-12              1e-13                 -1.411e-07           
  1.1                   1.4192e-07            3.84e-12              2.6e-13               -1.4178e-07          
  1.15                  1.426e-07             4.02e-12              2.4e-13               -1.4248e-07          
  1.2                   1.4326e-07            3.6e-12               -8.8e-13              -1.4312e-07          
  1.25                  1.4392e-07            3.32e-12              -3.8e-13              -1.4378e-07          
  1.3                   1.4456e-07            3.74e-12              -1.8e-13              -1.4442e-07          
  1.35                  1.4512e-07            3.48e-12              -1.14e-12             -1.4502e-07          
END_DB

