! VERSION = 6.00
BEGIN_HEADER
 ICCAP_INPUTS
  vd         V  D GROUND SMU1 0.1 LIN        1    0          1.35       28   0.05      
  vg         V  G GROUND SMU2 0.001 LIST       2 3 0.212 0.412 0.612
  vb         V  B GROUND SMU4 0.1 CON        -1.2
  vs         V  S GROUND SMU3 0.1 CON        0
 ICCAP_OUTPUTS
  id         I  D GROUND SMU1 B
  ig         I  G GROUND SMU2 B
  ib         I  B GROUND SMU4 B
  is         I  S GROUND SMU3 B
 ICCAP_VALUES
  MASTER_SETUP_TYPE "~dc_idvd~"
  LINVT_VALUE ""
  LISTVT_VALUE "|idvg|100.0n|-200.0m|1.000m|3|200.0m|200.0m|"
  TYPE "1"
  TEMP " 125.000 "
  IS_TNOM " 0.00000 "
  MAIN.W "10.00u"
  MAIN.L "130.0n"
  MAIN.AD "3.400p"
  MAIN.AS "3.400p"
  MAIN.PD "20.68u"
  MAIN.PS "20.68u"
  MAIN.NF "1.000"
  MAIN.M "1"
  MAIN.NRD "0.000"
  MAIN.NRS "0.000"
  MAIN.LDRIFT1 "1E-06"
  MAIN.LDRIFT2 "1E-06"
  MAIN.SA "0.000"
  MAIN.SB "0.000"
  MAIN.SD "0.000"
  MAIN.SCA "0.000"
  MAIN.SCB "0.000"
  MAIN.SCC "0.000"
  MAIN.SC "0.000"
  MODULE "S540"
  PIN_D "18"
  PIN_G "3"
  PIN_S "4"
  PIN_B "17"
  PIN_E ""
  PIN_6 ""
  XY_ID ""
  FUNC "Short"
  STI "SA ref"
  WPE "WPE ref"
  COMMENT ""
  DIS_MEAS ""
  TypeTCI "10"
END_HEADER

BEGIN_DB
 ICCAP_VAR vg         0.212          
 ICCAP_VAR vb         -1.2           
 ICCAP_VAR vs         0              

 #vd                    id                    ig                    ib                    is                   
  0                     6.902e-11             5.6e-13               -2.932e-11            -3.914e-11           
  0.05                  2.7788e-08            5e-13                 -2.668e-11            -2.7756e-08          
  0.1                   3.8012e-08            2.6e-13               -2.624e-11            -3.8006e-08          
  0.15                  4.394e-08             5.6e-13               -2.52e-11             -4.3916e-08          
  0.2                   4.907e-08             4e-13                 -2.476e-11            -4.9086e-08          
  0.25                  5.4302e-08            3.2e-13               -2.342e-11            -5.4214e-08          
  0.3                   5.981e-08             2e-13                 -2.356e-11            -5.984e-08           
  0.35                  6.588e-08             1e-13                 -2.37e-11             -6.5894e-08          
  0.4                   7.2464e-08            2e-13                 -2.274e-11            -7.2422e-08          
  0.45                  7.9646e-08            -4e-14                -2.16e-11             -7.961e-08           
  0.5                   8.741e-08             -2.6e-13              -2.182e-11            -8.7424e-08          
  0.55                  9.5934e-08            -4e-13                -2.192e-11            -9.5922e-08          
  0.6                   1.0525e-07            -6.8e-13              -2.126e-11            -1.05274e-07         
  0.65                  1.1538e-07            -1.02e-12             -1.974e-11            -1.152e-07           
  0.7                   1.261e-07             -1.54e-12             -2.012e-11            -1.261e-07           
  0.75                  1.3792e-07            -1.94e-12             -2.04e-11             -1.379e-07           
  0.8                   1.5072e-07            -2.7e-12              -1.944e-11            -1.5082e-07          
  0.85                  1.6466e-07            -3.68e-12             -2.062e-11            -1.6462e-07          
  0.9                   1.7964e-07            -4.72e-12             -2.156e-11            -1.7954e-07          
  0.95                  1.958e-07             -6.14e-12             -2.27e-11             -1.9576e-07          
  1                     2.1344e-07            -7.62e-12             -2.62e-11             -2.1366e-07          
  1.05                  2.327e-07             -9.5e-12              -3.178e-11            -2.3268e-07          
  1.1                   2.5286e-07            -1.168e-11            -4.196e-11            -2.526e-07           
  1.15                  2.7518e-07            -1.406e-11            -5.43e-11             -2.7468e-07          
  1.2                   2.9838e-07            -1.698e-11            -7.624e-11            -2.988e-07           
  1.25                  3.237e-07             -2.026e-11            -1.0904e-10           -3.2374e-07          
  1.3                   3.52e-07              -2.39e-11             -1.5436e-10           -3.512e-07           
  1.35                  3.8144e-07            -2.82e-11             -2.1966e-10           -3.8122e-07          
END_DB

BEGIN_DB
 ICCAP_VAR vg         0.412          
 ICCAP_VAR vb         -1.2           
 ICCAP_VAR vs         0              

 #vd                    id                    ig                    ib                    is                   
  0                     2.1074e-09            5.42e-12              -1.384e-11            -2.3744e-09          
  0.05                  2.4934e-06            4.38e-12              -1.432e-11            -2.4894e-06          
  0.1                   3.5354e-06            3.78e-12              -1.366e-11            -3.5322e-06          
  0.15                  4.1332e-06            3.6e-12               -1.532e-11            -4.1288e-06          
  0.2                   4.617e-06             3.36e-12              -1.526e-11            -4.6136e-06          
  0.25                  5.0846e-06            3.2e-12               -1.496e-11            -5.0794e-06          
  0.3                   5.5664e-06            3.3e-12               -1.522e-11            -5.567e-06           
  0.35                  6.079e-06             3.18e-12              -1.526e-11            -6.0724e-06          
  0.4                   6.612e-06             3.1e-12               -1.542e-11            -6.6082e-06          
  0.45                  7.1824e-06            3.22e-12              -1.602e-11            -7.1786e-06          
  0.5                   7.7866e-06            3e-12                 -1.518e-11            -7.7864e-06          
  0.55                  8.4334e-06            2.96e-12              -1.57e-11             -8.4268e-06          
  0.6                   9.1162e-06            2.88e-12              -1.64e-11             -9.1092e-06          
  0.65                  9.845e-06             2.82e-12              -1.548e-11            -9.8398e-06          
  0.7                   1.06094e-05           2.72e-12              -1.628e-11            -1.05992e-05         
  0.75                  1.141e-05             2.6e-12               -1.682e-11            -1.14072e-05         
  0.8                   1.2264e-05            2.3e-12               -1.914e-11            -1.2254e-05          
  0.85                  1.3164e-05            1.86e-12              -2.16e-11             -1.316e-05           
  0.9                   1.4124e-05            1.34e-12              -3.224e-11            -1.4124e-05          
  0.95                  1.5124e-05            7.8e-13               -5.308e-11            -1.5134e-05          
  1                     1.6198e-05            2e-14                 -9.366e-11            -1.6182e-05          
  1.05                  1.7274e-05            -7.4e-13              -1.74e-10             -1.7272e-05          
  1.1                   1.8442e-05            -1.9e-12              -3.2102e-10           -1.8452e-05          
  1.15                  1.9692e-05            -3.14e-12             -5.7468e-10           -1.9678e-05          
  1.2                   2.0952e-05            -4.66e-12             -1.00192e-09          -2.094e-05           
  1.25                  2.23e-05              -6.62e-12             -1.6836e-09           -2.2294e-05          
  1.3                   2.3694e-05            -8.62e-12             -2.7394e-09           -2.3692e-05          
  1.35                  2.517e-05             -1.104e-11            -4.3246e-09           -2.5168e-05          
END_DB

BEGIN_DB
 ICCAP_VAR vg         0.612          
 ICCAP_VAR vb         -1.2           
 ICCAP_VAR vs         0              

 #vd                    id                    ig                    ib                    is                   
  0                     6.8642e-08            3.078e-11             -1.266e-11            -6.0468e-08          
  0.05                  5.0794e-05            2.604e-11             -1.344e-11            -5.0766e-05          
  0.1                   8.1344e-05            2.276e-11             -1.378e-11            -8.134e-05           
  0.15                  0.000100312           2.05e-11              -1.324e-11            -0.000100364         
  0.2                   0.000113322           1.918e-11             -1.394e-11            -0.000113362         
  0.25                  0.0001237             1.83e-11              -1.32e-11             -0.00012338          
  0.3                   0.00013262            1.77e-11              -1.432e-11            -0.00013228          
  0.35                  0.00014094            1.734e-11             -1.446e-11            -0.00014066          
  0.4                   0.00014908            1.714e-11             -1.452e-11            -0.00014874          
  0.45                  0.00015716            1.706e-11             -1.42e-11             -0.00015682          
  0.5                   0.00016522            1.706e-11             -1.366e-11            -0.00016492          
  0.55                  0.00017342            1.688e-11             -1.526e-11            -0.00017306          
  0.6                   0.00018166            1.684e-11             -1.418e-11            -0.00018134          
  0.65                  0.00019008            1.69e-11              -1.404e-11            -0.00018982          
  0.7                   0.0001986             1.68e-11              -1.59e-11             -0.00019824          
  0.75                  0.00020714            1.674e-11             -1.638e-11            -0.00020688          
  0.8                   0.00021602            1.678e-11             -2.062e-11            -0.0002156           
  0.85                  0.00022482            1.666e-11             -3.158e-11            -0.00022454          
  0.9                   0.00023398            1.65e-11              -5.56e-11             -0.00023376          
  0.95                  0.00024334            1.634e-11             -1.1474e-10           -0.00024306          
  1                     0.00025278            1.592e-11             -2.4376e-10           -0.00025246          
  1.05                  0.0002623             1.558e-11             -5.1318e-10           -0.00026186          
  1.1                   0.00027184            1.52e-11              -1.05314e-09          -0.00027154          
  1.15                  0.00028166            1.45e-11              -2.0702e-09           -0.0002813           
  1.2                   0.0002916             1.376e-11             -3.8948e-09           -0.0002913           
  1.25                  0.0003017             1.296e-11             -7.0136e-09           -0.00030132          
  1.3                   0.00031204            1.19e-11              -1.2148e-08           -0.00031172          
  1.35                  0.00032232            1.064e-11             -2.0198e-08           -0.00032192          
END_DB

