! VERSION = 6.00
BEGIN_HEADER
 ICCAP_INPUTS
  vg         V  G GROUND SMU2 0.001 LIN        1    -0.5       1.35       38   0.05      
  vb         V  B GROUND SMU4 0.1 LIN        2    0          -1.2       5    -0.3      
  vd         V  D GROUND SMU1 0.1 LIST       3 3 0.05 0.6 1.2
  vs         V  S GROUND SMU3 0.1 CON        0
 ICCAP_OUTPUTS
  id         I  D GROUND SMU1 B
  ig         I  G GROUND SMU2 B
  ib         I  B GROUND SMU4 B
  is         I  S GROUND SMU3 B
 ICCAP_VALUES
  MASTER_SETUP_TYPE "~dc_idvg~"
  LINVT_VALUE ""
  LISTVT_VALUE ""
  TYPE "1"
  TEMP " 27.0000 "
  IS_TNOM " 1.00000 "
  MAIN.W "150.0n"
  MAIN.L "150.0n"
  MAIN.AD "100.5f"
  MAIN.AS "100.5f"
  MAIN.PD "1.340u"
  MAIN.PS "1.340u"
  MAIN.NF "1.000"
  MAIN.M "1"
  MAIN.NRD "0.000"
  MAIN.NRS "0.000"
  MAIN.LDRIFT1 "1E-06"
  MAIN.LDRIFT2 "1E-06"
  MAIN.SA "0.000"
  MAIN.SB "0.000"
  MAIN.SD "0.000"
  MAIN.SCA "0.000"
  MAIN.SCB "0.000"
  MAIN.SCC "0.000"
  MAIN.SC "0.000"
  MODULE "S546"
  PIN_D "12"
  PIN_G "9"
  PIN_S "10"
  PIN_B "11"
  PIN_E ""
  PIN_6 ""
  XY_ID ""
  FUNC "LW Scale"
  STI "SA ref"
  WPE "WPE ref"
  COMMENT ""
  DIS_MEAS ""
  TypeTCI "10"
END_HEADER

BEGIN_DB
 ICCAP_VAR vb         0              
 ICCAP_VAR vd         0.05           
 ICCAP_VAR vs         0              

 #vg                    id                    ig                    ib                    is                   
  -0.5                  8e-14                 -4.32e-11             4.564e-11             1.4e-13              
  -0.45                 1.4e-13               -6.78e-12             8.84e-12              0                    
  -0.4                  0                     -1.12e-12             3.08e-12              2e-14                
  -0.35                 8e-14                 -1.6e-13              1.14e-12              1.6e-13              
  -0.3                  4e-14                 -1.2e-13              1.76e-12              1.6e-13              
  -0.25                 -2e-14                8e-14                 2.56e-12              8e-14                
  -0.2                  2e-14                 1.2e-13               2.28e-12              2e-13                
  -0.15                 0                     1.4e-13               -8e-13                1.2e-13              
  -0.1                  8e-14                 2.2e-13               1.3e-12               1e-13                
  -0.05                 2.8e-13               3e-13                 1.74e-12              -2e-13               
  0                     1.26e-12              4.2e-13               2.68e-12              -1.14e-12            
  0.05                  5.44e-12              3.4e-13               1.8e-12               -5.4e-12             
  0.1                   2.442e-11             2.6e-13               1.06e-12              -2.43e-11            
  0.15                  1.0962e-10            4.4e-13               1.4e-12               -1.0948e-10          
  0.2                   4.8926e-10            4.6e-13               1.54e-12              -4.8896e-10          
  0.25                  2.1528e-09            3.8e-13               2.52e-12              -2.1512e-09          
  0.3                   8.908e-09             4.6e-13               1.12e-12              -8.9048e-09          
  0.35                  3.2566e-08            4e-13                 1.5e-12               -3.254e-08           
  0.4                   9.978e-08             4.8e-13               9.4e-13               -9.9806e-08          
  0.45                  2.5376e-07            5.8e-13               2.42e-12              -2.5378e-07          
  0.5                   5.3494e-07            7.4e-13               1.32e-12              -5.35e-07            
  0.55                  9.6564e-07            7.4e-13               4.4e-13               -9.656e-07           
  0.6                   1.549e-06             7.6e-13               2.56e-12              -1.5444e-06          
  0.65                  2.2522e-06            1.08e-12              1.2e-12               -2.2484e-06          
  0.7                   3.0378e-06            1.44e-12              1.26e-12              -3.0336e-06          
  0.75                  3.8744e-06            1.72e-12              7.8e-13               -3.871e-06           
  0.8                   4.7338e-06            2.38e-12              3.4e-12               -4.7298e-06          
  0.85                  5.6018e-06            2.92e-12              2e-12                 -5.597e-06           
  0.9                   6.4604e-06            3.5e-12               6e-13                 -6.4546e-06          
  0.95                  7.3022e-06            4.4e-12               1.4e-12               -7.2978e-06          
  1                     8.1192e-06            5.4e-12               1.62e-12              -8.1146e-06          
  1.05                  8.9064e-06            6.62e-12              1.58e-12              -8.9022e-06          
  1.1                   9.6578e-06            8.1e-12               9.2e-13               -9.654e-06           
  1.15                  1.03734e-05           9.9e-12               9.2e-13               -1.03698e-05         
  1.2                   1.10514e-05           1.194e-11             1.78e-12              -1.10468e-05         
  1.25                  1.1698e-05            1.406e-11             1.48e-12              -1.168e-05           
  1.3                   1.2298e-05            1.694e-11             1.68e-12              -1.228e-05           
  1.35                  1.2862e-05            2.032e-11             3.4e-13               -1.2846e-05          
END_DB

BEGIN_DB
 ICCAP_VAR vb         -0.3           
 ICCAP_VAR vd         0.05           
 ICCAP_VAR vs         0              

 #vg                    id                    ig                    ib                    is                   
  -0.5                  -8e-14                -3.6e-13              -2.88e-12             1.2e-13              
  -0.45                 -4e-14                -2.8e-13              -3.26e-12             2.2e-13              
  -0.4                  -4e-14                -1e-13                -1.6e-12              1e-13                
  -0.35                 8e-14                 2e-14                 -2.68e-12             2e-13                
  -0.3                  -6e-14                0                     -2.5e-12              8e-14                
  -0.25                 0                     1.6e-13               -2.14e-12             1.2e-13              
  -0.2                  -2e-14                2.2e-13               -1.9e-12              2e-14                
  -0.15                 -4e-14                1.4e-13               -1.58e-12             1.8e-13              
  -0.1                  6e-14                 1.8e-13               -9.6e-13              0                    
  -0.05                 -8e-14                1.6e-13               -9e-13                6e-14                
  0                     2.6e-13               2.6e-13               -2.02e-12             -1.4e-13             
  0.05                  8.6e-13               2.2e-13               -1.22e-12             -8.2e-13             
  0.1                   4.42e-12              3e-13                 -3.6e-13              -4.46e-12            
  0.15                  2.138e-11             4e-13                 -1.18e-12             -2.1e-11             
  0.2                   1.0034e-10            2.6e-13               -1.22e-12             -1.0026e-10          
  0.25                  4.7244e-10            3.4e-13               -1.02e-12             -4.7216e-10          
  0.3                   2.1594e-09            3.2e-13               -1.42e-12             -2.1576e-09          
  0.35                  9.2162e-09            5e-13                 -2.8e-13              -9.2166e-09          
  0.4                   3.4196e-08            5.4e-13               0                     -3.4178e-08          
  0.45                  1.0561e-07            5.2e-13               -6.4e-13              -1.0563e-07          
  0.5                   2.666e-07             5e-13                 -1.12e-12             -2.6624e-07          
  0.55                  5.5412e-07            7.8e-13               6e-14                 -5.5438e-07          
  0.6                   9.9176e-07            7.6e-13               -9e-13                -9.921e-07           
  0.65                  1.5778e-06            1e-12                 -1.28e-12             -1.5732e-06          
  0.7                   2.2772e-06            1.28e-12              6.6e-13               -2.274e-06           
  0.75                  3.0572e-06            1.54e-12              -1.8e-13              -3.0538e-06          
  0.8                   3.8832e-06            2.1e-12               -9.6e-13              -3.8788e-06          
  0.85                  4.7304e-06            2.62e-12              -1.2e-12              -4.7268e-06          
  0.9                   5.5794e-06            3.4e-12               2.8e-13               -5.5764e-06          
  0.95                  6.4232e-06            4.24e-12              -1.4e-13              -6.4194e-06          
  1                     7.248e-06             5.2e-12               -1.22e-12             -7.2434e-06          
  1.05                  8.0468e-06            6.56e-12              -4.4e-13              -8.0434e-06          
  1.1                   8.812e-06             7.82e-12              -7e-13                -8.8082e-06          
  1.15                  9.5412e-06            9.66e-12              1.4e-13               -9.538e-06           
  1.2                   1.0234e-05            1.162e-11             -8.4e-13              -1.0231e-05          
  1.25                  1.08882e-05           1.396e-11             -6.6e-13              -1.08848e-05         
  1.3                   1.1512e-05            1.668e-11             1.6e-13               -1.1494e-05          
  1.35                  1.2092e-05            1.982e-11             -2e-13                -1.2076e-05          
END_DB

BEGIN_DB
 ICCAP_VAR vb         -0.6           
 ICCAP_VAR vd         0.05           
 ICCAP_VAR vs         0              

 #vg                    id                    ig                    ib                    is                   
  -0.5                  -6e-14                -4e-13                -3.34e-12             2.4e-13              
  -0.45                 2e-14                 -3e-13                -4.88e-12             2e-13                
  -0.4                  -2e-14                -6e-14                -3.7e-12              1e-13                
  -0.35                 2.2e-13               6e-14                 -3.78e-12             6e-14                
  -0.3                  -8e-14                2e-14                 -2.7e-12              1.6e-13              
  -0.25                 -8e-14                1e-13                 -2e-12                6e-14                
  -0.2                  -6e-14                1e-13                 -2.9e-12              1.4e-13              
  -0.15                 0                     2.4e-13               -3.8e-12              2.8e-13              
  -0.1                  -4e-14                2.6e-13               -2.82e-12             1e-13                
  -0.05                 6e-14                 2e-13                 -1.46e-12             2.4e-13              
  0                     -4e-14                4.6e-13               -2.78e-12             6e-14                
  0.05                  8e-14                 2.4e-13               -2.66e-12             0                    
  0.1                   1.08e-12              2.6e-13               -2.04e-12             -1.02e-12            
  0.15                  5.62e-12              4e-13                 -2.46e-12             -5.36e-12            
  0.2                   2.726e-11             4.2e-13               -8.4e-13              -2.722e-11           
  0.25                  1.3326e-10            4e-13                 -1.46e-12             -1.332e-10           
  0.3                   6.4084e-10            4e-13                 -2.66e-12             -6.4094e-10          
  0.35                  2.9698e-09            3.2e-13               -2.72e-12             -2.9686e-09          
  0.4                   1.2566e-08            4.2e-13               -1.3e-12              -1.2548e-08          
  0.45                  4.5406e-08            5.2e-13               -1.4e-12              -4.542e-08           
  0.5                   1.3476e-07            5.4e-13               -1.7e-12              -1.3486e-07          
  0.55                  3.2252e-07            6.8e-13               -1.92e-12             -3.227e-07           
  0.6                   6.4398e-07            7.8e-13               -9.2e-13              -6.4464e-07          
  0.65                  1.11664e-06           1.02e-12              -1.84e-12             -1.1162e-06          
  0.7                   1.7284e-06            1.2e-12               -1.48e-12             -1.7242e-06          
  0.75                  2.4456e-06            1.66e-12              -7e-13                -2.4414e-06          
  0.8                   3.2308e-06            2.02e-12              -1.7e-12              -3.2274e-06          
  0.85                  4.0548e-06            2.6e-12               -2.42e-12             -4.0496e-06          
  0.9                   4.8912e-06            3.38e-12              -7.4e-13              -4.8866e-06          
  0.95                  5.727e-06             4.16e-12              -5.4e-13              -5.7246e-06          
  1                     6.5542e-06            5.06e-12              -1.92e-12             -6.5508e-06          
  1.05                  7.3602e-06            6.34e-12              -1.56e-12             -7.3562e-06          
  1.1                   8.1356e-06            7.78e-12              -1.76e-12             -8.132e-06           
  1.15                  8.8794e-06            9.52e-12              -1.02e-12             -8.8754e-06          
  1.2                   9.588e-06             1.146e-11             -1.22e-12             -9.5838e-06          
  1.25                  1.02576e-05           1.374e-11             -1.8e-12              -1.02532e-05         
  1.3                   1.0887e-05            1.66e-11              -1.88e-12             -1.08838e-05         
  1.35                  1.14814e-05           1.954e-11             -1.2e-12              -1.14778e-05         
END_DB

BEGIN_DB
 ICCAP_VAR vb         -0.9           
 ICCAP_VAR vd         0.05           
 ICCAP_VAR vs         0              

 #vg                    id                    ig                    ib                    is                   
  -0.5                  -1.4e-13              -4.6e-13              -5.34e-12             2e-13                
  -0.45                 -2e-14                -1.8e-13              -5.44e-12             1e-13                
  -0.4                  -1.4e-13              -6e-14                -4.66e-12             8e-14                
  -0.35                 1.6e-13               8e-14                 -3.22e-12             -6e-14               
  -0.3                  -1.2e-13              -1.4e-13              -4e-12                2.6e-13              
  -0.25                 4e-14                 2.2e-13               -3.98e-12             -6e-14               
  -0.2                  -4e-14                0                     -4.04e-12             3e-13                
  -0.15                 2e-14                 1.2e-13               -3.48e-12             4e-14                
  -0.1                  0                     2.2e-13               -2.38e-12             8e-14                
  -0.05                 1.8e-13               8e-14                 -3.6e-12              3e-13                
  0                     -8e-14                4.8e-13               -3.18e-12             4e-14                
  0.05                  1e-13                 3e-13                 -3.58e-12             8e-14                
  0.1                   4e-13                 3.2e-13               -2.96e-12             -2.2e-13             
  0.15                  1.88e-12              3.2e-13               -1.72e-12             -1.72e-12            
  0.2                   9.12e-12              2.6e-13               -6.2e-13              -8.98e-12            
  0.25                  4.594e-11             4.6e-13               -2.54e-12             -4.594e-11           
  0.3                   2.286e-10             4e-13                 -3.3e-12              -2.286e-10           
  0.35                  1.1133e-09            5.6e-13               -2.74e-12             -1.11302e-09         
  0.4                   5.1246e-09            4.4e-13               -1.82e-12             -5.1212e-09          
  0.45                  2.093e-08             5.2e-13               -1.44e-12             -2.0908e-08          
  0.5                   7.146e-08             4.8e-13               -2.82e-12             -7.1556e-08          
  0.55                  1.9574e-07            6.8e-13               -2.6e-12              -1.9568e-07          
  0.6                   4.332e-07             7e-13                 -1.1e-12              -4.3304e-07          
  0.65                  8.136e-07             1e-12                 -1.86e-12             -8.1306e-07          
  0.7                   1.343e-06             1.06e-12              -2.72e-12             -1.339e-06           
  0.75                  1.9998e-06            1.42e-12              -1.04e-12             -1.9968e-06          
  0.8                   2.742e-06             1.92e-12              -2.02e-12             -2.7386e-06          
  0.85                  3.5416e-06            2.54e-12              -2.06e-12             -3.5362e-06          
  0.9                   4.3636e-06            3.26e-12              -1.9e-12              -4.3602e-06          
  0.95                  5.195e-06             4.02e-12              -2.08e-12             -5.1932e-06          
  1                     6.0196e-06            4.96e-12              -1.2e-12              -6.0158e-06          
  1.05                  6.829e-06             6.28e-12              -2.16e-12             -6.824e-06           
  1.1                   7.6114e-06            7.58e-12              -2.22e-12             -7.6066e-06          
  1.15                  8.3648e-06            9.32e-12              -1.38e-12             -8.36e-06            
  1.2                   9.0838e-06            1.126e-11             -1.9e-12              -9.0816e-06          
  1.25                  9.7634e-06            1.362e-11             -1.46e-12             -9.7612e-06          
  1.3                   1.04078e-05           1.638e-11             -2.5e-12              -1.04044e-05         
  1.35                  1.10158e-05           1.934e-11             -2.42e-12             -1.1011e-05          
END_DB

BEGIN_DB
 ICCAP_VAR vb         -1.2           
 ICCAP_VAR vd         0.05           
 ICCAP_VAR vs         0              

 #vg                    id                    ig                    ib                    is                   
  -0.5                  4e-14                 -3.6e-13              -5.1e-12              1.4e-13              
  -0.45                 -1.4e-13              -1e-13                -4.74e-12             1.8e-13              
  -0.4                  1.8e-13               0                     -5.26e-12             8e-14                
  -0.35                 -8e-14                1.4e-13               -5.36e-12             6e-14                
  -0.3                  -1.2e-13              1.6e-13               -5e-12                4e-14                
