! VERSION = 6.00
BEGIN_HEADER
 ICCAP_INPUTS
  vg         V  G GROUND SMU2 0.001 LIN        1    -0.5       1.35       38   0.05      
  vb         V  B GROUND SMU4 0.1 LIN        2    0          -1.2       5    -0.3      
  vd         V  D GROUND SMU1 0.1 LIST       3 3 0.05 0.6 1.2
  vs         V  S GROUND SMU3 0.1 CON        0
 ICCAP_OUTPUTS
  id         I  D GROUND SMU1 B
  ig         I  G GROUND SMU2 B
  ib         I  B GROUND SMU4 B
  is         I  S GROUND SMU3 B
 ICCAP_VALUES
  MASTER_SETUP_TYPE "~dc_idvg~"
  LINVT_VALUE ""
  LISTVT_VALUE ""
  TYPE "1"
  TEMP " 27.0000 "
  IS_TNOM " 1.00000 "
  MAIN.W "5.000u"
  MAIN.L "5.000u"
  MAIN.AD "1.700p"
  MAIN.AS "1.700p"
  MAIN.PD "10.68u"
  MAIN.PS "10.68u"
  MAIN.NF "1.000"
  MAIN.M "1"
  MAIN.NRD "0.000"
  MAIN.NRS "0.000"
  MAIN.LDRIFT1 "1E-06"
  MAIN.LDRIFT2 "1E-06"
  MAIN.SA "0.000"
  MAIN.SB "0.000"
  MAIN.SD "0.000"
  MAIN.SCA "0.000"
  MAIN.SCB "0.000"
  MAIN.SCC "0.000"
  MAIN.SC "0.000"
  MODULE "S542"
  PIN_D "18"
  PIN_G "3"
  PIN_S "4"
  PIN_B "17"
  PIN_E ""
  PIN_6 ""
  XY_ID ""
  FUNC "LW Scale"
  STI "SA ref"
  WPE "WPE ref"
  COMMENT ""
  DIS_MEAS ""
  TypeTCI "10"
END_HEADER

BEGIN_DB
 ICCAP_VAR vb         0              
 ICCAP_VAR vd         0.05           
 ICCAP_VAR vs         0              

 #vg                    id                    ig                    ib                    is                   
  -0.5                  1.16e-12              -4.856e-11            4.824e-11             1e-12                
  -0.45                 8.2e-13               -8.9e-12              9.04e-12              7e-13                
  -0.4                  7e-13                 -2.46e-12             4e-12                 5.4e-13              
  -0.35                 5.2e-13               -1.04e-12             2.38e-12              4.6e-13              
  -0.3                  3.8e-13               -6.6e-13              1.58e-12              3e-13                
  -0.25                 4.4e-13               -3.6e-13              1.16e-12              2e-14                
  -0.2                  1.18e-12              -2.8e-13              1.64e-12              -8.4e-13             
  -0.15                 4.76e-12              0                     2.36e-12              -4.44e-12            
  -0.1                  2.266e-11             6e-14                 2.36e-12              -2.258e-11           
  -0.05                 1.1052e-10            4e-14                 1.64e-12              -1.103e-10           
  0                     5.371e-10             2.4e-13               1.18e-12              -5.369e-10           
  0.05                  2.5956e-09            3.4e-13               1.56e-12              -2.594e-09           
  0.1                   1.2148e-08            1.12e-12              2.22e-12              -1.213e-08           
  0.15                  5.2698e-08            3.14e-12              7e-13                 -5.2722e-08          
  0.2                   1.9492e-07            7.96e-12              2.16e-12              -1.9484e-07          
  0.25                  5.664e-07             1.71e-11              2.1e-12               -5.6624e-07          
  0.3                   1.2544e-06            3.232e-11             5.6e-13               -1.2502e-06          
  0.35                  2.1994e-06            5.764e-11             2.02e-12              -2.1956e-06          
  0.4                   3.2712e-06            9.678e-11             2.24e-12              -3.2676e-06          
  0.45                  4.3826e-06            1.5584e-10            1.84e-12              -4.379e-06           
  0.5                   5.4952e-06            2.4172e-10            2.4e-13               -5.4918e-06          
  0.55                  6.5938e-06            3.6284e-10            1.62e-12              -6.5904e-06          
  0.6                   7.6758e-06            5.3056e-10            2.38e-12              -7.6722e-06          
  0.65                  8.7342e-06            7.5718e-10            1.22e-12              -8.7312e-06          
  0.7                   9.7636e-06            1.0578e-09            1.66e-12              -9.7608e-06          
  0.75                  1.07626e-05           1.4494e-09            1.02e-12              -1.07598e-05         
  0.8                   1.1732e-05            1.9518e-09            1.74e-12              -1.1716e-05          
  0.85                  1.2656e-05            2.5892e-09            2.2e-13               -1.264e-05           
  0.9                   1.3538e-05            3.386e-09             7.2e-13               -1.3524e-05          
  0.95                  1.4376e-05            4.3722e-09            1.46e-12              -1.4364e-05          
  1                     1.517e-05             5.5796e-09            1.66e-12              -1.5158e-05          
  1.05                  1.5918e-05            7.0436e-09            7.2e-13               -1.5906e-05          
  1.1                   1.6616e-05            8.8008e-09            3.8e-13               -1.6608e-05          
  1.15                  1.727e-05             1.09e-08              1.18e-12              -1.7264e-05          
  1.2                   1.7878e-05            1.3388e-08            -2e-13                -1.7874e-05          
  1.25                  1.8438e-05            1.6306e-08            -2.54e-12             -1.8436e-05          
  1.3                   1.8954e-05            1.972e-08             -7.88e-12             -1.8956e-05          
  1.35                  1.9428e-05            2.3702e-08            -1.75e-11             -1.9434e-05          
END_DB

BEGIN_DB
 ICCAP_VAR vb         -0.3           
 ICCAP_VAR vd         0.05           
 ICCAP_VAR vs         0              

 #vg                    id                    ig                    ib                    is                   
  -0.5                  1.18e-12              -2.16e-12             -2.36e-12             9e-13                
  -0.45                 9.6e-13               -1.5e-12              -3.4e-12              8.2e-13              
  -0.4                  5.4e-13               -9.8e-13              -2.94e-12             4.8e-13              
  -0.35                 5.8e-13               -7e-13                -2.96e-12             5e-13                
  -0.3                  4e-13                 -4.8e-13              -2.38e-12             2e-13                
  -0.25                 2.8e-13               -1.2e-13              -1.78e-12             2.4e-13              
  -0.2                  4e-13                 -1.4e-13              -1.92e-12             4e-14                
  -0.15                 1.28e-12              6e-14                 -1.44e-12             -1.12e-12            
  -0.1                  5.8e-12               1.4e-13               -2.38e-12             -5.42e-12            
  -0.05                 2.896e-11             6e-14                 -1.38e-12             -2.894e-11           
  0                     1.4854e-10            2.8e-13               -8.8e-13              -1.4812e-10          
  0.05                  7.5634e-10            4.4e-13               -1.38e-12             -7.5598e-10          
  0.1                   3.7878e-09            7.2e-13               -2.18e-12             -3.78e-09            
  0.15                  1.8152e-08            2.28e-12              -1.42e-12             -1.8122e-08          
  0.2                   7.7846e-08            6.34e-12              -5.2e-13              -7.7846e-08          
  0.25                  2.7496e-07            1.476e-11             -1.16e-12             -2.7484e-07          
  0.3                   7.3922e-07            2.96e-11              -1.4e-12              -7.3952e-07          
  0.35                  1.5198e-06            5.384e-11             -2.6e-13              -1.5156e-06          
  0.4                   2.5136e-06            9.192e-11             -1.12e-12             -2.5098e-06          
  0.45                  3.6004e-06            1.4946e-10            -1.22e-12             -3.5964e-06          
  0.5                   4.7086e-06            2.3402e-10            -8.6e-13              -4.7046e-06          
  0.55                  5.8094e-06            3.5332e-10            8e-14                 -5.8054e-06          
  0.6                   6.895e-06             5.188e-10             -3.2e-13              -6.8918e-06          
  0.65                  7.9596e-06            7.4352e-10            -1.46e-12             -7.9566e-06          
  0.7                   8.995e-06             1.0418e-09            -2e-14                -8.992e-06           
  0.75                  1.00006e-05           1.4308e-09            -6.4e-13              -9.9982e-06          
  0.8                   1.0971e-05            1.93e-09              -8e-13                -1.09692e-05         
  0.85                  1.1912e-05            2.5648e-09            -1.6e-13              -1.1896e-05          
  0.9                   1.2802e-05            3.3578e-09            -4.4e-13              -1.2788e-05          
  0.95                  1.365e-05             4.3404e-09            1e-13                 -1.3636e-05          
  1                     1.4452e-05            5.5446e-09            -1.1e-12              -1.444e-05           
  1.05                  1.521e-05             7.0052e-09            -5e-13                -1.52e-05            
  1.1                   1.592e-05             8.759e-09             -6.2e-13              -1.591e-05           
  1.15                  1.6584e-05            1.08528e-08           -6.4e-13              -1.6578e-05          
  1.2                   1.72e-05              1.3336e-08            -2.7e-12              -1.7196e-05          
  1.25                  1.777e-05             1.6252e-08            -3.86e-12             -1.777e-05           
  1.3                   1.8296e-05            1.9664e-08            -7.94e-12             -1.8298e-05          
  1.35                  1.878e-05             2.364e-08             -1.93e-11             -1.8784e-05          
END_DB

BEGIN_DB
 ICCAP_VAR vb         -0.6           
 ICCAP_VAR vd         0.05           
 ICCAP_VAR vs         0              

 #vg                    id                    ig                    ib                    is                   
  -0.5                  1.12e-12              -2.04e-12             -4.24e-12             8.8e-13              
  -0.45                 8.2e-13               -1.32e-12             -3.6e-12              6.2e-13              
  -0.4                  6.8e-13               -1.04e-12             -4.56e-12             5.6e-13              
  -0.35                 4e-13                 -5.2e-13              -4.3e-12              2.4e-13              
  -0.3                  2.6e-13               -4e-13                -3.5e-12              2e-13                
  -0.25                 3.8e-13               -2.4e-13              -3.08e-12             2.2e-13              
  -0.2                  1.6e-13               -4e-14                -2.3e-12              1.2e-13              
  -0.15                 5.2e-13               -4e-14                -3.34e-12             -2.6e-13             
  -0.1                  1.9e-12               1.6e-13               -3.28e-12             -1.82e-12            
  -0.05                 1.006e-11             2.2e-13               -2.94e-12             -9.82e-12            
  0                     5.306e-11             3.2e-13               -2.66e-12             -5.32e-11            
  0.05                  2.8132e-10            2.8e-13               -1.96e-12             -2.8106e-10          
  0.1                   1.4702e-09            5.8e-13               -3e-12                -1.4686e-09          
  0.15                  7.4778e-09            1.64e-12              -2.36e-12             -7.4692e-09          
  0.2                   3.514e-08             4.84e-12              -2.8e-12              -3.5122e-08          
  0.25                  1.4134e-07            1.248e-11             -1.38e-12             -1.412e-07           
  0.3                   4.4282e-07            2.646e-11             -1.98e-12             -4.4276e-07          
  0.35                  1.04588e-06           4.978e-11             -2.08e-12             -1.04598e-06         
  0.4                   1.9264e-06            8.672e-11             -1.1e-12              -1.9222e-06          
  0.45                  2.9594e-06            1.4288e-10            -2.22e-12             -2.9554e-06          
  0.5                   4.0456e-06            2.2558e-10            -2.54e-12             -4.0424e-06          
  0.55                  5.1386e-06            3.4318e-10            -1.66e-12             -5.1352e-06          
  0.6                   6.223e-06             5.068e-10             -1.48e-12             -6.2196e-06          
  0.65                  7.2876e-06            7.2886e-10            -2.3e-12              -7.2848e-06          
  0.7                   8.3264e-06            1.0244e-09            -2.18e-12             -8.3238e-06          
  0.75                  9.3366e-06            1.4112e-09            -8e-13                -9.334e-06           
  0.8                   1.03124e-05           1.9074e-09            -1.86e-12             -1.031e-05           
  0.85                  1.1252e-05            2.5388e-09            -1.84e-12             -1.125e-05           
  0.9                   1.2158e-05            3.328e-09             -1.8e-12              -1.2144e-05          
  0.95                  1.3014e-05            4.3062e-09            -1.68e-12             -1.3e-05             
  1                     1.3826e-05            5.5064e-09            -6.8e-13              -1.3814e-05          
  1.05                  1.4592e-05            6.9636e-09            -1.92e-12             -1.458e-05           
  1.1                   1.531e-05             8.7128e-09            -1.92e-12             -1.5302e-05          
  1.15                  1.5982e-05            1.0803e-08            -1.84e-12             -1.5974e-05          
  1.2                   1.6608e-05            1.3282e-08            -2.52e-12             -1.6604e-05          
  1.25                  1.7188e-05            1.6194e-08            -4.32e-12             -1.7186e-05          
  1.3                   1.7722e-05            1.96e-08              -1.036e-11            -1.7724e-05          
  1.35                  1.8214e-05            2.3572e-08            -2.024e-11            -1.822e-05           
END_DB

BEGIN_DB
 ICCAP_VAR vb         -0.9           
 ICCAP_VAR vd         0.05           
 ICCAP_VAR vs         0              

 #vg                    id                    ig                    ib                    is                   
  -0.5                  1.04e-12              -1.98e-12             -5.28e-12             7.8e-13              
  -0.45                 8.6e-13               -1.46e-12             -5.12e-12             7e-13                
  -0.4                  4.8e-13               -9.8e-13              -5.44e-12             5.2e-13              
  -0.35                 5.4e-13               -7.2e-13              -3.66e-12             4.4e-13              
  -0.3                  3.2e-13               -4.2e-13              -3.74e-12             3.4e-13              
  -0.25                 8e-14                 -2e-13                -3.7e-12              1.8e-13              
  -0.2                  4e-14                 -1e-13                -3.82e-12             0                    
  -0.15                 3.8e-13               1.2e-13               -3.46e-12             -8e-14               
  -0.1                  8.6e-13               8e-14                 -2.74e-12             -6.4e-13             
  -0.05                 4.06e-12              3.4e-13               -3.04e-12             -4.16e-12            
  0                     2.264e-11             2.2e-13               -3.66e-12             -2.264e-11           
  0.05                  1.2334e-10            4e-13                 -3.64e-12             -1.2324e-10          
  0.1                   6.6438e-10            6e-13                 -2.84e-12             -6.6458e-10          
  0.15                  3.521e-09             1.22e-12              -2.4e-12              -3.5224e-09          
  0.2                   1.7602e-08            3.76e-12              -1.66e-12             -1.7584e-08          
  0.25                  7.7624e-08            1.022e-11             -2.4e-12              -7.7622e-08          
  0.3                   2.7358e-07            2.314e-11             -2.52e-12             -2.735e-07           
  0.35                  7.2786e-07            4.566e-11             -1.9e-12              -7.28e-07            
  0.4                   1.479e-06             8.132e-11             -2.56e-12             -1.4748e-06          
  0.45                  2.4344e-06            1.3584e-10            -2.78e-12             -2.4304e-06          
  0.5                   3.4822e-06            2.1694e-10            -1.06e-12             -3.4784e-06          
  0.55                  4.5564e-06            3.3262e-10            -2.62e-12             -4.5528e-06          
  0.6                   5.6308e-06            4.937e-10             -2.86e-12             -5.6278e-06          
  0.65                  6.6924e-06            7.1332e-10            -2.52e-12             -6.6892e-06          
  0.7                   7.7296e-06            1.0062e-09            -1.92e-12             -7.7268e-06          
  0.75                  8.7418e-06            1.3896e-09            -2.78e-12             -8.7392e-06          
  0.8                   9.721e-06             1.8828e-09            -2.88e-12             -9.7188e-06          
  0.85                  1.06658e-05           2.5104e-09            -3.02e-12             -1.06644e-05         
  0.9                   1.1578e-05            3.2962e-09            -1.58e-12             -1.1564e-05          
  0.95                  1.244e-05             4.2716e-09            -1.94e-12             -1.2426e-05          
  1                     1.326e-05             5.4676e-09            -2.4e-12              -1.3248e-05          
  1.05                  1.4032e-05            6.9196e-09            -2.34e-12             -1.4024e-05          
  1.1                   1.476e-05             8.6632e-09            -1.7e-12              -1.475e-05           
  1.15                  1.544e-05             1.07494e-08           -2.08e-12             -1.5434e-05          
  1.2                   1.6074e-05            1.3222e-08            -3.62e-12             -1.607e-05           
  1.25                  1.6662e-05            1.613e-08             -6.32e-12             -1.6662e-05          
  1.3                   1.7204e-05            1.9532e-08            -1.1e-11              -1.7208e-05          
  1.35                  1.7706e-05            2.3498e-08            -1.978e-11            -1.771e-05           
END_DB

BEGIN_DB
 ICCAP_VAR vb         -1.2           
 ICCAP_VAR vd         0.05           
 ICCAP_VAR vs         0              

 #vg                    id                    ig                    ib                    is                   
  -0.5                  1.04e-12              -1.9e-12              -5.52e-12             9.8e-13              
  -0.45                 7.2e-13               -1.36e-12             -5.52e-12             5.2e-13              
  -0.4                  6.8e-13               -7.8e-13              -3.88e-12             4.2e-13              
  -0.35                 5e-13                 -5.4e-13              -5.1e-12              3.6e-13              
  -0.3                  2.4e-13               -3.6e-13              -5.06e-12             2.2e-13              
