! VERSION = 6.00
BEGIN_HEADER
 ICCAP_INPUTS
  vd         V  D GROUND SMU1 0.1 LIN        1    0          1.35       28   0.05      
  vg         V  G GROUND SMU2 0.001 LIN        2    0.542      1.35       5    0.202     
  vb         V  B GROUND SMU4 0.1 CON        0
  vs         V  S GROUND SMU3 0.1 CON        0
 ICCAP_OUTPUTS
  id         I  D GROUND SMU1 B
  ig         I  G GROUND SMU2 B
  ib         I  B GROUND SMU4 B
  is         I  S GROUND SMU3 B
 ICCAP_VALUES
  MASTER_SETUP_TYPE "~dc_idvd~"
  LINVT_VALUE "|idvg|100.0n|100.0m|1.000m|5|1.350|"
  LISTVT_VALUE ""
  TYPE "1"
  TEMP "-40.0000 "
  IS_TNOM " 0.00000 "
  MAIN.W "150.0n"
  MAIN.L "130.0n"
  MAIN.AD "100.5f"
  MAIN.AS "100.5f"
  MAIN.PD "1.340u"
  MAIN.PS "1.340u"
  MAIN.NF "1.000"
  MAIN.M "1"
  MAIN.NRD "0.000"
  MAIN.NRS "0.000"
  MAIN.LDRIFT1 "1E-06"
  MAIN.LDRIFT2 "1E-06"
  MAIN.SA "0.000"
  MAIN.SB "0.000"
  MAIN.SD "0.000"
  MAIN.SCA "0.000"
  MAIN.SCB "0.000"
  MAIN.SCC "0.000"
  MAIN.SC "0.000"
  MODULE "S546"
  PIN_D "16"
  PIN_G "5"
  PIN_S "6"
  PIN_B "15"
  PIN_E ""
  PIN_6 ""
  XY_ID ""
  FUNC "Small"
  STI "SA ref"
  WPE "WPE ref"
  COMMENT ""
  DIS_MEAS ""
  TypeTCI "10"
END_HEADER

BEGIN_DB
 ICCAP_VAR vg         0.542          
 ICCAP_VAR vb         0              
 ICCAP_VAR vs         0              

 #vd                    id                    ig                    ib                    is                   
  0                     1.5058e-09            5.8e-13               4.36e-12              -1.05034e-09         
  0.05                  7.236e-07             5.4e-13               3.9e-12               -7.2632e-07          
  0.1                   1.01566e-06           1.02e-12              3.82e-12              -1.0123e-06          
  0.15                  1.1394e-06            7.4e-13               4.12e-12              -1.1288e-06          
  0.2                   1.2024e-06            8e-13                 3.56e-12              -1.201e-06           
  0.25                  1.2524e-06            8.4e-13               2.92e-12              -1.2496e-06          
  0.3                   1.2954e-06            8e-13                 3.38e-12              -1.29e-06            
  0.35                  1.3352e-06            8.6e-13               2.66e-12              -1.3342e-06          
  0.4                   1.3692e-06            1.4e-13               4.12e-12              -1.364e-06           
  0.45                  1.4114e-06            6.6e-13               2.52e-12              -1.4076e-06          
  0.5                   1.4496e-06            9.6e-13               1.56e-12              -1.4488e-06          
  0.55                  1.4858e-06            7.8e-13               2.76e-12              -1.4864e-06          
  0.6                   1.5258e-06            3.4e-13               2.76e-12              -1.52e-06            
  0.65                  1.5526e-06            4e-13                 1.48e-12              -1.5556e-06          
  0.7                   1.5962e-06            8.4e-13               3.54e-12              -1.5934e-06          
  0.75                  1.6358e-06            7.2e-13               1.84e-12              -1.6304e-06          
  0.8                   1.6722e-06            8.6e-13               2.22e-12              -1.6658e-06          
  0.85                  1.7128e-06            2e-13                 3.3e-12               -1.7038e-06          
  0.9                   1.7442e-06            6e-13                 2.12e-12              -1.7418e-06          
  0.95                  1.778e-06             6.4e-13               1.44e-12              -1.7842e-06          
  1                     1.823e-06             4.4e-13               2.62e-12              -1.8202e-06          
  1.05                  1.862e-06             5.6e-13               2e-12                 -1.8558e-06          
  1.1                   1.8986e-06            3.2e-13               1.24e-12              -1.8954e-06          
  1.15                  1.9384e-06            5e-13                 1.16e-12              -1.936e-06           
  1.2                   1.9788e-06            7.8e-13               -3.46e-12             -1.9748e-06          
  1.25                  2.0228e-06            7e-13                 -8.48e-12             -2.017e-06           
  1.3                   2.0594e-06            7.6e-13               -1.968e-11            -2.0564e-06          
  1.35                  2.1092e-06            3e-13                 -4.284e-11            -2.0932e-06          
END_DB

BEGIN_DB
 ICCAP_VAR vg         0.744          
 ICCAP_VAR vb         0              
 ICCAP_VAR vs         0              

 #vd                    id                    ig                    ib                    is                   
  0                     3.1682e-09            3.48e-12              2.52e-12              -3.9982e-09          
  0.05                  5.1278e-06            3.32e-12              1.14e-12              -5.1242e-06          
  0.1                   8.7954e-06            3.26e-12              2.12e-12              -8.7902e-06          
  0.15                  1.12384e-05           3.16e-12              1.6e-12               -1.1225e-05          
  0.2                   1.2808e-05            3.28e-12              2.08e-12              -1.279e-05           
  0.25                  1.3794e-05            3.04e-12              8.6e-13               -1.3764e-05          
  0.3                   1.444e-05             2.76e-12              1.38e-12              -1.4422e-05          
  0.35                  1.4922e-05            2.46e-12              1.6e-12               -1.4904e-05          
  0.4                   1.5294e-05            3.02e-12              9.4e-13               -1.528e-05           
  0.45                  1.5614e-05            2.24e-12              6e-13                 -1.56e-05            
  0.5                   1.5892e-05            2.8e-12               9.8e-13               -1.5886e-05          
  0.55                  1.6172e-05            2.72e-12              1.6e-13               -1.6164e-05          
  0.6                   1.6434e-05            2.18e-12              2.38e-12              -1.6412e-05          
  0.65                  1.6676e-05            1.96e-12              1.1e-12               -1.6664e-05          
  0.7                   1.6914e-05            2.52e-12              1.08e-12              -1.6902e-05          
  0.75                  1.713e-05             2.42e-12              1.68e-12              -1.7132e-05          
  0.8                   1.737e-05             2.74e-12              3.4e-13               -1.733e-05           
  0.85                  1.7588e-05            2.5e-12               5.4e-13               -1.7574e-05          
  0.9                   1.7816e-05            2.48e-12              1.66e-12              -1.778e-05           
  0.95                  1.8026e-05            2.5e-12               9.4e-13               -1.801e-05           
  1                     1.8224e-05            2.98e-12              -3.6e-13              -1.8178e-05          
  1.05                  1.8456e-05            2.64e-12              9.6e-13               -1.8426e-05          
  1.1                   1.8644e-05            2.86e-12              -2.32e-12             -1.8622e-05          
  1.15                  1.8876e-05            2.48e-12              -5.78e-12             -1.8776e-05          
  1.2                   1.9082e-05            2.66e-12              -1.39e-11             -1.9068e-05          
  1.25                  1.925e-05             2.5e-12               -3.534e-11            -1.9232e-05          
  1.3                   1.9492e-05            2.42e-12              -7.802e-11            -1.9476e-05          
  1.35                  1.9694e-05            2.24e-12              -1.5732e-10           -1.9668e-05          
END_DB

BEGIN_DB
 ICCAP_VAR vg         0.946          
 ICCAP_VAR vb         0              
 ICCAP_VAR vs         0              

 #vd                    id                    ig                    ib                    is                   
  0                     1.365e-08             9.46e-12              1.2e-12               -1.2898e-08          
  0.05                  1.0678e-05            8.5e-12               2.22e-12              -1.0664e-05          
  0.1                   1.9526e-05            8.14e-12              1.8e-13               -1.9508e-05          
  0.15                  2.6446e-05            7.72e-12              4.6e-13               -2.643e-05           
  0.2                   3.1608e-05            7.56e-12              1.58e-12              -3.159e-05           
  0.25                  3.5332e-05            7.32e-12              5.8e-13               -3.5318e-05          
  0.3                   3.7978e-05            6.96e-12              1.12e-12              -3.7962e-05          
  0.35                  3.9852e-05            7.1e-12               1.26e-12              -3.9836e-05          
  0.4                   4.1224e-05            6.8e-12               -2e-13                -4.121e-05           
  0.45                  4.2252e-05            7.14e-12              2.4e-13               -4.2244e-05          
  0.5                   4.3094e-05            6.68e-12              1.52e-12              -4.3074e-05          
  0.55                  4.3794e-05            6.82e-12              -2.4e-13              -4.378e-05           
  0.6                   4.4408e-05            6.8e-12               5e-13                 -4.4394e-05          
  0.65                  4.4968e-05            7.22e-12              9.4e-13               -4.4952e-05          
  0.7                   4.5486e-05            6.9e-12               8e-13                 -4.5468e-05          
  0.75                  4.5958e-05            6.6e-12               6.4e-13               -4.5956e-05          
  0.8                   4.6436e-05            6.36e-12              1.1e-12               -4.6414e-05          
  0.85                  4.6872e-05            6.8e-12               1.2e-13               -4.6858e-05          
  0.9                   4.7304e-05            6.76e-12              6.2e-13               -4.7286e-05          
  0.95                  4.7706e-05            6.48e-12              5.2e-13               -4.773e-05           
  1                     4.8098e-05            6.86e-12              8e-14                 -4.8114e-05          
  1.05                  4.853e-05             6.94e-12              -1.34e-12             -4.8518e-05          
  1.1                   4.8926e-05            6.34e-12              -5e-12                -4.8896e-05          
  1.15                  4.9308e-05            6.58e-12              -1.388e-11            -4.9286e-05          
  1.2                   4.9686e-05            6.12e-12              -3.026e-11            -4.967e-05           
  1.25                  5.0056e-05            6.44e-12              -6.658e-11            -5.0042e-05          
  1.3                   5.0426e-05            6.32e-12              -1.3616e-10           -5.041e-05           
  1.35                  5.079e-05             6.86e-12              -2.6472e-10           -5.0776e-05          
END_DB

BEGIN_DB
 ICCAP_VAR vg         1.148          
 ICCAP_VAR vb         0              
 ICCAP_VAR vs         0              

 #vd                    id                    ig                    ib                    is                   
  0                     1.8424e-08            1.932e-11             1.28e-12              -1.7238e-08          
  0.05                  1.5424e-05            1.818e-11             7.4e-13               -1.5408e-05          
  0.1                   2.895e-05             1.816e-11             1.34e-12              -2.8938e-05          
  0.15                  4.028e-05             1.7e-11               6.6e-13               -4.027e-05           
  0.2                   4.943e-05             1.662e-11             1.08e-12              -4.9412e-05          
  0.25                  5.6622e-05            1.58e-11              8.2e-13               -5.6604e-05          
  0.3                   6.217e-05             1.598e-11             1.4e-13               -6.213e-05           
  0.35                  6.6312e-05            1.522e-11             2.8e-13               -6.6302e-05          
  0.4                   6.944e-05             1.468e-11             5e-13                 -6.9432e-05          
  0.45                  7.1804e-05            1.47e-11              -3.2e-13              -7.179e-05           
  0.5                   7.363e-05             1.46e-11              4.4e-13               -7.3618e-05          
  0.55                  7.5092e-05            1.466e-11             9.2e-13               -7.5064e-05          
  0.6                   7.6266e-05            1.446e-11             -2.2e-13              -7.6262e-05          
  0.65                  7.7282e-05            1.436e-11             8e-13                 -7.7286e-05          
  0.7                   7.8196e-05            1.446e-11             -7.4e-13              -7.816e-05           
  0.75                  7.8976e-05            1.44e-11              -1.4e-13              -7.8958e-05          
  0.8                   7.9724e-05            1.406e-11             3.4e-13               -7.9698e-05          
  0.85                  8.0392e-05            1.39e-11              -3.6e-13              -8.038e-05           
  0.9                   8.1056e-05            1.396e-11             3.92e-12              -8.1028e-05          
  0.95                  8.1652e-05            1.422e-11             1.28e-12              -8.1636e-05          
  1                     8.2252e-05            1.428e-11             -2.04e-12             -8.2232e-05          
  1.05                  8.2828e-05            1.41e-11              -4.26e-12             -8.2802e-05          
  1.1                   8.3376e-05            1.388e-11             -8.86e-12             -8.336e-05           
  1.15                  8.3916e-05            1.37e-11              -2.164e-11            -8.3904e-05          
  1.2                   8.4466e-05            1.428e-11             -4.744e-11            -8.4432e-05          
  1.25                  8.496e-05             1.372e-11             -9.332e-11            -8.4942e-05          
  1.3                   8.5482e-05            1.366e-11             -1.8488e-10           -8.5452e-05          
  1.35                  8.6004e-05            1.406e-11             -3.4646e-10           -8.595e-05           
END_DB

BEGIN_DB
 ICCAP_VAR vg         1.35           
 ICCAP_VAR vb         0              
 ICCAP_VAR vs         0              

 #vd                    id                    ig                    ib                    is                   
  0                     2.2022e-08            3.522e-11             1.08e-12              -2.0852e-08          
  0.05                  1.9144e-05            3.41e-11              2.6e-13               -1.9126e-05          
  0.1                   3.6476e-05            3.308e-11             1.06e-12              -3.6454e-05          
  0.15                  5.1512e-05            3.202e-11             0                     -5.15e-05            
  0.2                   6.4242e-05            3.136e-11             3e-13                 -6.42e-05            
  0.25                  7.4744e-05            3.028e-11             8.4e-13               -7.4686e-05          
  0.3                   8.3248e-05            2.932e-11             -8.8e-13              -8.3226e-05          
  0.35                  9.0074e-05            2.89e-11              9.4e-13               -9.0078e-05          
  0.4                   9.5486e-05            2.82e-11              6e-14                 -9.5456e-05          
  0.45                  9.9718e-05            2.754e-11             -1.2e-13              -9.975e-05           
  0.5                   0.000103082           2.668e-11             5.6e-13               -0.000103034         
  0.55                  0.000105672           2.678e-11             -1.4e-13              -0.000105684         
  0.6                   0.000107768           2.654e-11             -2.4e-13              -0.000107782         
  0.65                  0.000109584           2.636e-11             4.4e-13               -0.000109554         
  0.7                   0.000110854           2.584e-11             2e-13                 -0.000110854         
  0.75                  0.000112136           2.6e-11               -7.6e-13              -0.000112112         
  0.8                   0.000113226           2.572e-11             1.8e-13               -0.00011318          
  0.85                  0.00011436            2.568e-11             2.2e-13               -0.000114384         
  0.9                   0.00011542            2.582e-11             -8.2e-13              -0.00011528          
  0.95                  0.0001163             2.55e-11              -9e-13                -0.000116128         
  1                     0.00011708            2.542e-11             -2.84e-12             -0.000116978         
  1.05                  0.00011784            2.512e-11             -5.44e-12             -0.0001175           
  1.1                   0.00011866            2.492e-11             -1.388e-11            -0.00011806          
  1.15                  0.00011918            2.52e-11              -2.818e-11            -0.00011878          
  1.2                   0.00011982            2.518e-11             -5.796e-11            -0.00011944          
  1.25                  0.00012046            2.514e-11             -1.151e-10            -0.00012014          
  1.3                   0.00012114            2.482e-11             -2.1848e-10           -0.0001208           
  1.35                  0.00012186            2.502e-11             -3.9862e-10           -0.0001215           
END_DB

