! VERSION = 6.00
BEGIN_HEADER
 ICCAP_INPUTS
  vd         V  D GROUND SMU1 0.1 LIN        1    0          1.35       28   0.05      
  vg         V  G GROUND SMU2 0.001 LIST       2 3 0.078 0.278 0.478
  vb         V  B GROUND SMU4 0.1 CON        0
  vs         V  S GROUND SMU3 0.1 CON        0
 ICCAP_OUTPUTS
  id         I  D GROUND SMU1 B
  ig         I  G GROUND SMU2 B
  ib         I  B GROUND SMU4 B
  is         I  S GROUND SMU3 B
 ICCAP_VALUES
  MASTER_SETUP_TYPE "~dc_idvd~"
  LINVT_VALUE ""
  LISTVT_VALUE "|idvg|100.0n|-200.0m|1.000m|3|200.0m|200.0m|"
  TYPE "1"
  TEMP " 27.0000 "
  IS_TNOM " 1.00000 "
  MAIN.W "600.0n"
  MAIN.L "500.0n"
  MAIN.AD "204.0f"
  MAIN.AS "204.0f"
  MAIN.PD "1.880u"
  MAIN.PS "1.880u"
  MAIN.NF "1.000"
  MAIN.M "1"
  MAIN.NRD "0.000"
  MAIN.NRS "0.000"
  MAIN.LDRIFT1 "1E-06"
  MAIN.LDRIFT2 "1E-06"
  MAIN.SA "0.000"
  MAIN.SB "0.000"
  MAIN.SD "0.000"
  MAIN.SCA "0.000"
  MAIN.SCB "0.000"
  MAIN.SCC "0.000"
  MAIN.SC "0.000"
  MODULE "S543"
  PIN_D "14"
  PIN_G "7"
  PIN_S "8"
  PIN_B "13"
  PIN_E ""
  PIN_6 ""
  XY_ID ""
  FUNC "LW Scale"
  STI "SA ref"
  WPE "WPE ref"
  COMMENT ""
  DIS_MEAS ""
  TypeTCI "10"
END_HEADER

BEGIN_DB
 ICCAP_VAR vg         0.078          
 ICCAP_VAR vb         0              
 ICCAP_VAR vs         0              

 #vd                    id                    ig                    ib                    is                   
  0                     1.16e-12              -1.4e-13              2.28e-12              -7.6e-13             
  0.05                  2.413e-10             -2e-13                5e-13                 -2.4106e-10          
  0.1                   2.95e-10              -1.8e-13              2.6e-13               -2.9408e-10          
  0.15                  3.1754e-10            -6e-14                4.2e-13               -3.1686e-10          
  0.2                   3.3404e-10            -1.6e-13              6e-14                 -3.3322e-10          
  0.25                  3.4816e-10            -3.4e-13              1.1e-12               -3.4766e-10          
  0.3                   3.6114e-10            -1.8e-13              1.62e-12              -3.6044e-10          
  0.35                  3.727e-10             -1.8e-13              -1.8e-13              -3.718e-10           
  0.4                   3.8282e-10            -2e-13                1.6e-13               -3.8188e-10          
  0.45                  3.9184e-10            0                     4.6e-13               -3.9092e-10          
  0.5                   3.999e-10             -1e-13                1.44e-12              -3.9926e-10          
  0.55                  4.0742e-10            -1.4e-13              2.26e-12              -4.0648e-10          
  0.6                   4.1424e-10            2e-14                 1.14e-12              -4.1366e-10          
  0.65                  4.2028e-10            1e-13                 3.6e-13               -4.1888e-10          
  0.7                   4.254e-10             -4.4e-13              7.2e-13               -4.242e-10           
  0.75                  4.3004e-10            -1.6e-13              1.74e-12              -4.2946e-10          
  0.8                   4.3492e-10            -2.2e-13              9e-13                 -4.3364e-10          
  0.85                  4.3926e-10            -2e-13                6.6e-13               -4.38e-10            
  0.9                   4.4288e-10            -4.2e-13              6.4e-13               -4.419e-10           
  0.95                  4.4658e-10            -4.8e-13              5.6e-13               -4.4566e-10          
  1                     4.5004e-10            -2e-13                8.6e-13               -4.484e-10           
  1.05                  4.5336e-10            -6.2e-13              1.38e-12              -4.5174e-10          
  1.1                   4.5616e-10            -4e-13                4.4e-13               -4.5512e-10          
  1.15                  4.5922e-10            -5.8e-13              -1e-13                -4.5756e-10          
  1.2                   4.6184e-10            -6e-13                6e-14                 -4.6032e-10          
  1.25                  4.6446e-10            -7.6e-13              1.32e-12              -4.6292e-10          
  1.3                   4.6674e-10            -1.02e-12             1.66e-12              -4.6502e-10          
  1.35                  4.6934e-10            -9e-13                2.6e-13               -4.6722e-10          
END_DB

BEGIN_DB
 ICCAP_VAR vg         0.278          
 ICCAP_VAR vb         0              
 ICCAP_VAR vs         0              

 #vd                    id                    ig                    ib                    is                   
  0                     2.14e-10              3.8e-13               1.54e-12              -2.0762e-10          
  0.05                  7.3344e-08            4.8e-13               1.24e-12              -7.3324e-08          
  0.1                   9.4672e-08            1.6e-13               8e-13                 -9.4912e-08          
  0.15                  1.04846e-07           1.4e-13               4e-14                 -1.04836e-07         
  0.2                   1.1214e-07            2.2e-13               2.8e-13               -1.12062e-07         
  0.25                  1.186e-07             8e-14                 8.4e-13               -1.1846e-07          
  0.3                   1.2378e-07            2.8e-13               -4.8e-13              -1.2364e-07          
  0.35                  1.2894e-07            2e-13                 5.4e-13               -1.2874e-07          
  0.4                   1.3412e-07            1.8e-13               1.1e-12               -1.339e-07           
  0.45                  1.3814e-07            2.6e-13               2e-13                 -1.3748e-07          
  0.5                   1.4138e-07            3.4e-13               -2e-13                -1.4122e-07          
  0.55                  1.4482e-07            8e-14                 -1e-13                -1.4464e-07          
  0.6                   1.4792e-07            -4e-14                1.52e-12              -1.4774e-07          
  0.65                  1.5066e-07            -4e-14                9.4e-13               -1.5056e-07          
  0.7                   1.533e-07             4e-14                 -1.8e-13              -1.532e-07           
  0.75                  1.5568e-07            1e-13                 5e-13                 -1.5552e-07          
  0.8                   1.5772e-07            1.8e-13               1.4e-12               -1.5766e-07          
  0.85                  1.5976e-07            1.4e-13               9.4e-13               -1.5962e-07          
  0.9                   1.6254e-07            1.4e-13               -1.2e-13              -1.623e-07           
  0.95                  1.6414e-07            2e-13                 5.2e-13               -1.6402e-07          
  1                     1.6578e-07            1e-13                 1.46e-12              -1.647e-07           
  1.05                  1.664e-07             0                     5.4e-13               -1.6622e-07          
  1.1                   1.6776e-07            -2e-14                -2.4e-13              -1.6762e-07          
  1.15                  1.6938e-07            -2.6e-13              -9.4e-13              -1.693e-07           
  1.2                   1.7064e-07            -1e-13                -2.22e-12             -1.7052e-07          
  1.25                  1.718e-07             -3.6e-13              -5.16e-12             -1.7166e-07          
  1.3                   1.7288e-07            -4.4e-13              -1.06e-11             -1.7274e-07          
  1.35                  1.739e-07             -3.8e-13              -1.594e-11            -1.7374e-07          
END_DB

BEGIN_DB
 ICCAP_VAR vg         0.478          
 ICCAP_VAR vb         0              
 ICCAP_VAR vs         0              

 #vd                    id                    ig                    ib                    is                   
  0                     2.9752e-09            3.08e-12              8.2e-13               -2.862e-09           
  0.05                  2.007e-06             2.4e-12               -2e-14                -2.0018e-06          
  0.1                   3.0912e-06            2.16e-12              3.92e-12              -3.0876e-06          
  0.15                  3.6384e-06            2.12e-12              -2e-14                -3.6346e-06          
  0.2                   3.9504e-06            1.84e-12              -3.6e-13              -3.9466e-06          
  0.25                  4.169e-06             1.94e-12              9.6e-13               -4.165e-06           
  0.3                   4.3478e-06            1.8e-12               6.4e-13               -4.3438e-06          
  0.35                  4.5048e-06            1.86e-12              4e-14                 -4.5e-06             
  0.4                   4.6488e-06            1.76e-12              7.8e-13               -4.644e-06           
  0.45                  4.784e-06             1.84e-12              4.2e-13               -4.7802e-06          
  0.5                   4.9116e-06            1.64e-12              1.8e-13               -4.9084e-06          
  0.55                  5.0324e-06            1.48e-12              1.04e-12              -5.0288e-06          
  0.6                   5.1486e-06            1.36e-12              -2.2e-13              -5.1474e-06          
  0.65                  5.257e-06             1.68e-12              -2.2e-13              -5.2534e-06          
  0.7                   5.3608e-06            1.62e-12              1.1e-12               -5.357e-06           
  0.75                  5.4588e-06            1.44e-12              -3.2e-13              -5.4554e-06          
  0.8                   5.5582e-06            1.64e-12              -1.6e-13              -5.5572e-06          
  0.85                  5.6548e-06            1.4e-12               1.46e-12              -5.6464e-06          
  0.9                   5.735e-06             1.26e-12              3.8e-13               -5.7344e-06          
  0.95                  5.8228e-06            1.3e-12               2.8e-13               -5.8168e-06          
  1                     5.9022e-06            1.34e-12              6e-13                 -5.8988e-06          
  1.05                  5.9812e-06            1.34e-12              -6.8e-13              -5.9706e-06          
  1.1                   6.0512e-06            1.38e-12              -2.6e-12              -6.048e-06           
  1.15                  6.127e-06             1.06e-12              -5.6e-12              -6.1314e-06          
  1.2                   6.2008e-06            9.2e-13               -1.544e-11            -6.1968e-06          
  1.25                  6.2726e-06            1.16e-12              -3.438e-11            -6.2686e-06          
  1.3                   6.3432e-06            1.24e-12              -6.902e-11            -6.3388e-06          
  1.35                  6.4114e-06            1.04e-12              -1.317e-10            -6.4072e-06          
END_DB

