! VERSION = 6.00
BEGIN_HEADER
 ICCAP_INPUTS
  vd         V  D GROUND SMU1 0.1 LIN        1    0          1.35       28   0.05      
  vg         V  G GROUND SMU2 0.001 LIST       2 3 0.154 0.354 0.554
  vb         V  B GROUND SMU4 0.1 CON        0
  vs         V  S GROUND SMU3 0.1 CON        0
 ICCAP_OUTPUTS
  id         I  D GROUND SMU1 B
  ig         I  G GROUND SMU2 B
  ib         I  B GROUND SMU4 B
  is         I  S GROUND SMU3 B
 ICCAP_VALUES
  MASTER_SETUP_TYPE "~dc_idvd~"
  LINVT_VALUE ""
  LISTVT_VALUE "|idvg|100.0n|-200.0m|1.000m|3|200.0m|200.0m|"
  TYPE "1"
  TEMP " 27.0000 "
  IS_TNOM " 1.00000 "
  MAIN.W "10.00u"
  MAIN.L "150.0n"
  MAIN.AD "3.400p"
  MAIN.AS "3.400p"
  MAIN.PD "20.68u"
  MAIN.PS "20.68u"
  MAIN.NF "1.000"
  MAIN.M "1"
  MAIN.NRD "0.000"
  MAIN.NRS "0.000"
  MAIN.LDRIFT1 "1E-06"
  MAIN.LDRIFT2 "1E-06"
  MAIN.SA "0.000"
  MAIN.SB "0.000"
  MAIN.SD "0.000"
  MAIN.SCA "0.000"
  MAIN.SCB "0.000"
  MAIN.SCC "0.000"
  MAIN.SC "0.000"
  MODULE "S540"
  PIN_D "14"
  PIN_G "7"
  PIN_S "8"
  PIN_B "13"
  PIN_E ""
  PIN_6 ""
  XY_ID ""
  FUNC "L Scale"
  STI "SA ref"
  WPE "WPE ref"
  COMMENT ""
  DIS_MEAS ""
  TypeTCI "10"
END_HEADER

BEGIN_DB
 ICCAP_VAR vg         0.154          
 ICCAP_VAR vb         0              
 ICCAP_VAR vs         0              

 #vd                    id                    ig                    ib                    is                   
  0                     6.152e-11             0                     5.2e-13               -3.836e-11           
  0.05                  1.3272e-08            -1e-13                9e-13                 -1.3244e-08          
  0.1                   1.6008e-08            -1e-13                -3.8e-13              -1.5974e-08          
  0.15                  1.7094e-08            -6e-14                3.6e-13               -1.7074e-08          
  0.2                   1.7908e-08            -1.4e-13              1.26e-12              -1.7906e-08          
  0.25                  1.8712e-08            -1.2e-13              6.4e-13               -1.8692e-08          
  0.3                   1.9526e-08            -1.4e-13              9.2e-13               -1.9502e-08          
  0.35                  2.0324e-08            -6e-14                -2.4e-13              -2.0304e-08          
  0.4                   2.1128e-08            -2e-14                5.8e-13               -2.11e-08            
  0.45                  2.1938e-08            -1.8e-13              1.2e-12               -2.1924e-08          
  0.5                   2.2778e-08            -3.8e-13              0                     -2.2704e-08          
  0.55                  2.3616e-08            -5.8e-13              -5.6e-13              -2.3612e-08          
  0.6                   2.4494e-08            -9.4e-13              -4.8e-13              -2.4476e-08          
  0.65                  2.5388e-08            -1.26e-12             5.4e-13               -2.5342e-08          
  0.7                   2.627e-08             -1.58e-12             1.2e-12               -2.624e-08           
  0.75                  2.7168e-08            -2.12e-12             1.2e-13               -2.716e-08           
  0.8                   2.8108e-08            -2.64e-12             -1.6e-13              -2.8088e-08          
  0.85                  2.9082e-08            -3.34e-12             7.2e-13               -2.9054e-08          
  0.9                   3.0054e-08            -4.18e-12             7.4e-13               -3.0044e-08          
  0.95                  3.1042e-08            -5.08e-12             6e-14                 -3.104e-08           
  1                     3.208e-08             -6.36e-12             4e-14                 -3.204e-08           
  1.05                  3.3134e-08            -8.06e-12             -6.6e-13              -3.3088e-08          
  1.1                   3.422e-08             -9.54e-12             3.6e-13               -3.419e-08           
  1.15                  3.532e-08             -1.106e-11            -1.94e-12             -3.5278e-08          
  1.2                   3.6486e-08            -1.346e-11            -2.96e-12             -3.6444e-08          
  1.25                  3.7642e-08            -1.568e-11            -4.7e-12              -3.7616e-08          
  1.3                   3.884e-08             -1.854e-11            -7.54e-12             -3.8814e-08          
  1.35                  4.0054e-08            -2.16e-11             -1.098e-11            -4.0032e-08          
END_DB

BEGIN_DB
 ICCAP_VAR vg         0.354          
 ICCAP_VAR vb         0              
 ICCAP_VAR vs         0              

 #vd                    id                    ig                    ib                    is                   
  0                     9.31e-09              2.42e-12              6.4e-13               -9.276e-09           
  0.05                  3.8992e-06            1.96e-12              8e-14                 -3.8858e-06          
  0.1                   4.9536e-06            1.46e-12              1.22e-12              -4.9526e-06          
  0.15                  5.3844e-06            1.36e-12              3e-13                 -5.3824e-06          
  0.2                   5.6928e-06            1.24e-12              -6e-14                -5.6848e-06          
  0.25                  5.9486e-06            1.46e-12              1.4e-13               -5.945e-06           
  0.3                   6.1936e-06            1.64e-12              5.8e-13               -6.1944e-06          
  0.35                  6.4402e-06            1.3e-12               -6.4e-13              -6.4394e-06          
  0.4                   6.6824e-06            1.42e-12              0                     -6.6778e-06          
  0.45                  6.9218e-06            1.1e-12               3.8e-13               -6.9198e-06          
  0.5                   7.165e-06             9.6e-13               0                     -7.163e-06           
  0.55                  7.404e-06             1.3e-12               4.8e-13               -7.4052e-06          
  0.6                   7.6496e-06            1.04e-12              2.8e-13               -7.6466e-06          
  0.65                  7.8964e-06            7.8e-13               -2e-13                -7.8974e-06          
  0.7                   8.1498e-06            7.2e-13               -1.2e-13              -8.1454e-06          
  0.75                  8.3966e-06            7.2e-13               2e-14                 -8.3914e-06          
  0.8                   8.6502e-06            5e-13                 -1.2e-13              -8.6452e-06          
  0.85                  8.9028e-06            2e-13                 -6.8e-13              -8.9042e-06          
  0.9                   9.165e-06             -2.6e-13              5e-13                 -9.1598e-06          
  0.95                  9.4246e-06            -7e-13                -2.3e-12              -9.418e-06           
  1                     9.6902e-06            -1.52e-12             -5.7e-12              -9.686e-06           
  1.05                  9.9534e-06            -2.12e-12             -1.464e-11            -9.95e-06            
  1.1                   1.02274e-05           -2.84e-12             -3.634e-11            -1.02246e-05         
  1.15                  1.05066e-05           -3.96e-12             -7.876e-11            -1.05058e-05         
  1.2                   1.07672e-05           -5.04e-12             -1.5618e-10           -1.07614e-05         
  1.25                  1.10458e-05           -6.5e-12              -2.944e-10            -1.10492e-05         
  1.3                   1.1346e-05            -8.04e-12             -5.1916e-10           -1.13522e-05         
  1.35                  1.166e-05             -9.76e-12             -8.7136e-10           -1.16484e-05         
END_DB

BEGIN_DB
 ICCAP_VAR vg         0.554          
 ICCAP_VAR vb         0              
 ICCAP_VAR vs         0              

 #vd                    id                    ig                    ib                    is                   
  0                     2.6518e-07            2.014e-11             1.64e-12              -1.16784e-07         
  0.05                  9.0472e-05            1.664e-11             2.2e-13               -9.0434e-05          
  0.1                   0.00014224            1.402e-11             1.32e-12              -0.00014182          
  0.15                  0.00016988            1.236e-11             -1.4e-13              -0.00016954          
  0.2                   0.00018526            1.138e-11             4.6e-13               -0.00018486          
  0.25                  0.00019498            1.09e-11              9.2e-13               -0.00019464          
  0.3                   0.00020224            1.05e-11              1.4e-13               -0.0002019           
  0.35                  0.00020828            1.042e-11             8.2e-13               -0.00020788          
  0.4                   0.00021366            1.032e-11             8.6e-13               -0.00021332          
  0.45                  0.00021876            1.002e-11             6e-14                 -0.00021838          
  0.5                   0.00022362            1e-11                 4.8e-13               -0.00022322          
  0.55                  0.00022828            1.002e-11             3.2e-13               -0.00022792          
  0.6                   0.00023292            9.74e-12              -1.8e-13              -0.0002325           
  0.65                  0.00023746            9.7e-12               8.8e-13               -0.00023702          
  0.7                   0.00024178            9.96e-12              1.4e-13               -0.00024146          
  0.75                  0.0002462             9.76e-12              -4e-13                -0.00024584          
  0.8                   0.00025058            9.58e-12              1.34e-12              -0.00025024          
  0.85                  0.00025498            9.26e-12              -4.2e-13              -0.00025458          
  0.9                   0.00025928            9.24e-12              -1.76e-12             -0.0002589           
  0.95                  0.00026356            8.82e-12              -5.7e-12              -0.00026314          
  1                     0.00026776            8.9e-12               -1.886e-11            -0.00026746          
  1.05                  0.00027202            8.48e-12              -5.218e-11            -0.00027158          
  1.1                   0.00027616            7.92e-12              -1.374e-10            -0.00027584          
  1.15                  0.0002805             7.34e-12              -3.402e-10            -0.00028006          
  1.2                   0.00028462            6.56e-12              -7.7854e-10           -0.00028422          
  1.25                  0.00028886            5.96e-12              -1.6546e-09           -0.00028844          
  1.3                   0.00029308            5.3e-12               -3.29e-09             -0.00029268          
  1.35                  0.00029734            3.94e-12              -6.1372e-09           -0.0002969           
END_DB

