! VERSION = 6.00
BEGIN_HEADER
 ICCAP_INPUTS
  vd         V  D GROUND SMU1 0.1 LIN        1    0          1.35       28   0.05      
  vg         V  G GROUND SMU2 0.001 LIST       2 3 -0.004 0.196 0.396
  vb         V  B GROUND SMU4 0.1 CON        0
  vs         V  S GROUND SMU3 0.1 CON        0
 ICCAP_OUTPUTS
  id         I  D GROUND SMU1 B
  ig         I  G GROUND SMU2 B
  ib         I  B GROUND SMU4 B
  is         I  S GROUND SMU3 B
 ICCAP_VALUES
  MASTER_SETUP_TYPE "~dc_idvd~"
  LINVT_VALUE ""
  LISTVT_VALUE "|idvg|100.0n|-200.0m|1.000m|3|200.0m|200.0m|"
  TYPE "1"
  TEMP " 27.0000 "
  IS_TNOM " 1.00000 "
  MAIN.W "2.000u"
  MAIN.L "2.000u"
  MAIN.AD "680.0f"
  MAIN.AS "680.0f"
  MAIN.PD "4.680u"
  MAIN.PS "4.680u"
  MAIN.NF "1.000"
  MAIN.M "1"
  MAIN.NRD "0.000"
  MAIN.NRS "0.000"
  MAIN.LDRIFT1 "1E-06"
  MAIN.LDRIFT2 "1E-06"
  MAIN.SA "0.000"
  MAIN.SB "0.000"
  MAIN.SD "0.000"
  MAIN.SCA "0.000"
  MAIN.SCB "0.000"
  MAIN.SCC "0.000"
  MAIN.SC "0.000"
  MODULE "S542"
  PIN_D "12"
  PIN_G "9"
  PIN_S "10"
  PIN_B "11"
  PIN_E ""
  PIN_6 ""
  XY_ID ""
  FUNC "LW Scale"
  STI "SA ref"
  WPE "WPE ref"
  COMMENT ""
  DIS_MEAS ""
  TypeTCI "10"
END_HEADER

BEGIN_DB
 ICCAP_VAR vg         -0.004         
 ICCAP_VAR vb         0              
 ICCAP_VAR vs         0              

 #vd                    id                    ig                    ib                    is                   
  0                     7.6e-13               -2.2e-13              1.26e-12              -5e-13               
  0.05                  1.696e-10             -3e-13                4.8e-13               -1.6928e-10          
  0.1                   2.0116e-10            -2.2e-13              2.2e-13               -2.0114e-10          
  0.15                  2.1162e-10            -1.8e-13              1.2e-12               -2.117e-10           
  0.2                   2.1936e-10            -1.6e-13              1.28e-12              -2.189e-10           
  0.25                  2.255e-10             -1.6e-13              8e-13                 -2.251e-10           
  0.3                   2.3158e-10            -1.8e-13              6.2e-13               -2.3106e-10          
  0.35                  2.3762e-10            -2e-13                4.6e-13               -2.368e-10           
  0.4                   2.4288e-10            -3e-13                -3.8e-13              -2.4208e-10          
  0.45                  2.4848e-10            -3.4e-13              1.94e-12              -2.4776e-10          
  0.5                   2.5332e-10            -3.8e-13              3.6e-13               -2.5288e-10          
  0.55                  2.5882e-10            -5.2e-13              2.2e-13               -2.5786e-10          
  0.6                   2.639e-10             -6.2e-13              2.2e-13               -2.6284e-10          
  0.65                  2.6876e-10            -6.4e-13              -1.6e-13              -2.6742e-10          
  0.7                   2.7322e-10            -7.8e-13              1.62e-12              -2.714e-10           
  0.75                  2.7784e-10            -9.6e-13              6e-13                 -2.7608e-10          
  0.8                   2.8218e-10            -1.18e-12             -1e-13                -2.8028e-10          
  0.85                  2.8622e-10            -1.46e-12             -3.4e-13              -2.8396e-10          
  0.9                   2.9052e-10            -1.8e-12              -8e-14                -2.883e-10           
  0.95                  2.942e-10             -1.94e-12             1.84e-12              -2.9218e-10          
  1                     2.9854e-10            -2.36e-12             0                     -2.952e-10           
  1.05                  3.0244e-10            -2.76e-12             3.2e-13               -2.9886e-10          
  1.1                   3.0564e-10            -3.18e-12             8e-13                 -3.0176e-10          
  1.15                  3.0968e-10            -3.78e-12             6.4e-13               -3.0468e-10          
  1.2                   3.1294e-10            -4.38e-12             8.6e-13               -3.077e-10           
  1.25                  3.1594e-10            -5.14e-12             6.6e-13               -3.1014e-10          
  1.3                   3.1978e-10            -5.86e-12             -6e-14                -3.1296e-10          
  1.35                  3.2274e-10            -6.68e-12             2.6e-13               -3.1524e-10          
END_DB

BEGIN_DB
 ICCAP_VAR vg         0.196          
 ICCAP_VAR vb         0              
 ICCAP_VAR vs         0              

 #vd                    id                    ig                    ib                    is                   
  0                     1.6166e-10            1.24e-12              7.8e-13               -1.6098e-10          
  0.05                  6.702e-08             9.2e-13               1.44e-12              -6.6996e-08          
  0.1                   8.3972e-08            7.6e-13               -4e-14                -8.387e-08           
  0.15                  9.0376e-08            7e-13                 -1.6e-13              -9.037e-08           
  0.2                   9.46e-08              7.8e-13               8.6e-13               -9.4506e-08          
  0.25                  9.8e-08               7.4e-13               4.4e-13               -9.8028e-08          
  0.3                   1.01438e-07           8e-13                 3.4e-13               -1.01466e-07         
  0.35                  1.04566e-07           7.4e-13               4.2e-13               -1.04514e-07         
  0.4                   1.0745e-07            6.8e-13               -8e-14                -1.07506e-07         
  0.45                  1.1036e-07            7.2e-13               6e-13                 -1.10254e-07         
  0.5                   1.1278e-07            5e-13                 1.22e-12              -1.12938e-07         
  0.55                  1.1554e-07            4.6e-13               7e-13                 -1.15494e-07         
  0.6                   1.1802e-07            6e-13                 1.06e-12              -1.1786e-07          
  0.65                  1.2036e-07            4.6e-13               -6e-14                -1.202e-07           
  0.7                   1.2258e-07            4e-13                 -8e-13                -1.2248e-07          
  0.75                  1.2478e-07            2.2e-13               2.6e-13               -1.2462e-07          
  0.8                   1.2678e-07            1.8e-13               5.2e-13               -1.2662e-07          
  0.85                  1.2878e-07            8e-14                 6e-13                 -1.2862e-07          
  0.9                   1.3058e-07            -1.2e-13              7.2e-13               -1.3042e-07          
  0.95                  1.323e-07             -2.6e-13              9e-13                 -1.3228e-07          
  1                     1.3412e-07            -4.8e-13              9e-13                 -1.3402e-07          
  1.05                  1.3586e-07            -7.6e-13              -8e-14                -1.3572e-07          
  1.1                   1.3728e-07            -1.08e-12             -9.6e-13              -1.373e-07           
  1.15                  1.39e-07              -1.42e-12             -1.66e-12             -1.3872e-07          
  1.2                   1.4034e-07            -1.82e-12             -2.92e-12             -1.4028e-07          
  1.25                  1.418e-07             -2.24e-12             -8.1e-12              -1.4164e-07          
  1.3                   1.4308e-07            -2.74e-12             -1.196e-11            -1.4292e-07          
  1.35                  1.442e-07             -3.28e-12             -1.852e-11            -1.4414e-07          
END_DB

BEGIN_DB
 ICCAP_VAR vg         0.396          
 ICCAP_VAR vb         0              
 ICCAP_VAR vs         0              

 #vd                    id                    ig                    ib                    is                   
  0                     2.76e-09              1.724e-11             1.86e-12              -2.6376e-09          
  0.05                  2.0994e-06            1.398e-11             2e-13                 -2.095e-06           
  0.1                   3.1566e-06            1.246e-11             3.2e-13               -3.1516e-06          
  0.15                  3.6062e-06            1.164e-11             1.42e-12              -3.6026e-06          
  0.2                   3.8224e-06            1.146e-11             2.8e-13               -3.8178e-06          
  0.25                  3.963e-06             1.116e-11             -5.6e-13              -3.9592e-06          
  0.3                   4.0766e-06            1.092e-11             7.2e-13               -4.072e-06           
  0.35                  4.1788e-06            1.072e-11             1.08e-12              -4.1758e-06          
  0.4                   4.2738e-06            1.076e-11             -2e-13                -4.2702e-06          
  0.45                  4.365e-06             1.054e-11             1.08e-12              -4.361e-06           
  0.5                   4.4516e-06            1.022e-11             -2.4e-13              -4.4472e-06          
  0.55                  4.5344e-06            1.026e-11             4.6e-13               -4.5308e-06          
  0.6                   4.613e-06             1.01e-11              4.4e-13               -4.6094e-06          
  0.65                  4.6916e-06            1.002e-11             1.8e-13               -4.6878e-06          
  0.7                   4.7654e-06            1.006e-11             -1e-13                -4.7624e-06          
  0.75                  4.8384e-06            9.74e-12              4e-13                 -4.834e-06           
  0.8                   4.9076e-06            9.7e-12               -3.2e-13              -4.9038e-06          
  0.85                  4.9748e-06            9.5e-12               2e-14                 -4.9726e-06          
  0.9                   5.0414e-06            9.4e-12               5.4e-13               -5.038e-06           
  0.95                  5.107e-06             9.12e-12              -6.4e-13              -5.1032e-06          
  1                     5.1686e-06            8.96e-12              -7e-13                -5.1648e-06          
  1.05                  5.2302e-06            8.82e-12              -4.8e-13              -5.2266e-06          
  1.1                   5.2894e-06            8.62e-12              -3.16e-12             -5.2858e-06          
  1.15                  5.3474e-06            8.44e-12              -8.84e-12             -5.3436e-06          
  1.2                   5.4044e-06            8.28e-12              -1.998e-11            -5.399e-06           
  1.25                  5.457e-06             7.64e-12              -4.182e-11            -5.4552e-06          
  1.3                   5.5128e-06            7.36e-12              -8.25e-11             -5.5088e-06          
  1.35                  5.565e-06             7.04e-12              -1.4852e-10           -5.5606e-06          
END_DB

