! VERSION = 6.00
BEGIN_HEADER
 ICCAP_INPUTS
  vg         V  G GROUND SMU2 0.001 LIN        1    -0.5       1.35       38   0.05      
  vb         V  B GROUND SMU4 0.1 LIN        2    0          -1.2       5    -0.3      
  vd         V  D GROUND SMU1 0.1 LIST       3 3 0.05 0.6 1.2
  vs         V  S GROUND SMU3 0.1 CON        0
 ICCAP_OUTPUTS
  id         I  D GROUND SMU1 B
  ig         I  G GROUND SMU2 B
  ib         I  B GROUND SMU4 B
  is         I  S GROUND SMU3 B
 ICCAP_VALUES
  MASTER_SETUP_TYPE "~dc_idvg~"
  LINVT_VALUE ""
  LISTVT_VALUE ""
  TYPE "1"
  TEMP " 70.0000 "
  IS_TNOM " 0.00000 "
  MAIN.W "150.0n"
  MAIN.L "130.0n"
  MAIN.AD "100.5f"
  MAIN.AS "100.5f"
  MAIN.PD "1.340u"
  MAIN.PS "1.340u"
  MAIN.NF "1.000"
  MAIN.M "1"
  MAIN.NRD "0.000"
  MAIN.NRS "0.000"
  MAIN.LDRIFT1 "1E-06"
  MAIN.LDRIFT2 "1E-06"
  MAIN.SA "0.000"
  MAIN.SB "0.000"
  MAIN.SD "0.000"
  MAIN.SCA "0.000"
  MAIN.SCB "0.000"
  MAIN.SCC "0.000"
  MAIN.SC "0.000"
  MODULE "S546"
  PIN_D "16"
  PIN_G "5"
  PIN_S "6"
  PIN_B "15"
  PIN_E ""
  PIN_6 ""
  XY_ID ""
  FUNC "Small"
  STI "SA ref"
  WPE "WPE ref"
  COMMENT ""
  DIS_MEAS ""
  TypeTCI "10"
END_HEADER

BEGIN_DB
 ICCAP_VAR vb         0              
 ICCAP_VAR vd         0.05           
 ICCAP_VAR vs         0              

 #vg                    id                    ig                    ib                    is                   
  -0.5                  1e-13                 -1.6084e-09           1.6104e-09            6e-14                
  -0.45                 -2e-13                -3.0044e-10           3.0318e-10            6e-14                
  -0.4                  -2e-13                -5.67e-11             5.998e-11             -8e-14               
  -0.35                 -6e-14                -1.072e-11            1.414e-11             1e-13                
  -0.3                  -6e-14                -1.98e-12             5.22e-12              -2e-14               
  -0.25                 -1.2e-13              -2.8e-13              4.1e-12               -1.2e-13             
  -0.2                  2e-14                 0                     3.68e-12              -2e-14               
  -0.15                 4e-14                 2.2e-13               2.48e-12              -2.8e-13             
  -0.1                  7.6e-13               1.8e-13               2.34e-12              -7e-13               
  -0.05                 2.54e-12              2.6e-13               2.76e-12              -2.7e-12             
  0                     9.32e-12              3.6e-13               4.68e-12              -9.5e-12             
  0.05                  3.396e-11             3e-13                 2.46e-12              -3.37e-11            
  0.1                   1.227e-10             5e-13                 2.38e-12              -1.2304e-10          
  0.15                  4.4798e-10            2.6e-13               2.62e-12              -4.4786e-10          
  0.2                   1.6256e-09            2.4e-13               2.7e-12               -1.6242e-09          
  0.25                  5.8548e-09            3.4e-13               3.64e-12              -5.853e-09           
  0.3                   2.0426e-08            4e-13                 3.8e-12               -2.0408e-08          
  0.35                  6.6568e-08            6.4e-13               2.06e-12              -6.6558e-08          
  0.4                   1.8964e-07            6e-13                 2.44e-12              -1.8962e-07          
  0.45                  4.4952e-07            1e-12                 3.42e-12              -4.4966e-07          
  0.5                   8.8974e-07            1.08e-12              2.68e-12              -8.8992e-07          
  0.55                  1.5188e-06            1.44e-12              2.04e-12              -1.5148e-06          
  0.6                   2.307e-06             1.88e-12              3.26e-12              -2.3038e-06          
  0.65                  3.2124e-06            2.62e-12              3.24e-12              -3.2082e-06          
  0.7                   4.1834e-06            3.24e-12              1e-12                 -4.1804e-06          
  0.75                  5.1874e-06            4.26e-12              2.32e-12              -5.1864e-06          
  0.8                   6.2032e-06            5.72e-12              1.96e-12              -6.1984e-06          
  0.85                  7.1986e-06            6.96e-12              3.28e-12              -7.203e-06           
  0.9                   8.1886e-06            8.8e-12               1.46e-12              -8.1832e-06          
  0.95                  9.1314e-06            1.082e-11             1.84e-12              -9.1294e-06          
  1                     1.00482e-05           1.308e-11             1.68e-12              -1.00474e-05         
  1.05                  1.09282e-05           1.576e-11             1.76e-12              -1.0923e-05          
  1.1                   1.1762e-05            1.876e-11             3.32e-12              -1.1762e-05          
  1.15                  1.2558e-05            2.208e-11             1.54e-12              -1.2552e-05          
  1.2                   1.3308e-05            2.606e-11             1.16e-12              -1.33e-05            
  1.25                  1.4014e-05            2.998e-11             2.12e-12              -1.4014e-05          
  1.3                   1.4688e-05            3.47e-11              3.4e-12               -1.4682e-05          
  1.35                  1.5316e-05            3.972e-11             1.92e-12              -1.531e-05           
END_DB

BEGIN_DB
 ICCAP_VAR vb         -0.3           
 ICCAP_VAR vd         0.05           
 ICCAP_VAR vs         0              

 #vg                    id                    ig                    ib                    is                   
  -0.5                  2e-14                 -6e-13                -4.94e-12             1.4e-13              
  -0.45                 0                     -3.2e-13              -4.6e-12              2e-14                
  -0.4                  0                     -3e-13                -3.62e-12             -4e-14               
  -0.35                 -4e-14                -4e-14                -4.08e-12             1e-13                
  -0.3                  -1e-13                2e-14                 -3.7e-12              8e-14                
  -0.25                 0                     1.4e-13               -2.84e-12             -2e-14               
  -0.2                  -6e-14                1.4e-13               -2.7e-12              2e-14                
  -0.15                 0                     2.8e-13               -2.08e-12             0                    
  -0.1                  8e-14                 2e-13                 -3.26e-12             -8e-14               
  -0.05                 4e-13                 4e-14                 -3.1e-12              -2e-13               
  0                     1.66e-12              2.6e-13               -1.88e-12             -1.66e-12            
  0.05                  6.68e-12              2.8e-13               -2.2e-12              -6.6e-12             
  0.1                   2.558e-11             3e-13                 -2.16e-12             -2.558e-11           
  0.15                  9.76e-11              3.2e-13               -2.3e-12              -9.802e-11           
  0.2                   3.7336e-10            3.6e-13               -2.1e-12              -3.7318e-10          
  0.25                  1.4174e-09            3.8e-13               -1.46e-12             -1.415e-09           
  0.3                   5.284e-09             3.6e-13               -9.2e-13              -5.2954e-09          
  0.35                  1.912e-08             4.6e-13               -1.24e-12             -1.9104e-08          
  0.4                   6.3856e-08            6.2e-13               -2.12e-12             -6.3838e-08          
  0.45                  1.8508e-07            7e-13                 -1.88e-12             -1.8502e-07          
  0.5                   4.4376e-07            1.14e-12              -1.06e-12             -4.4354e-07          
  0.55                  8.861e-07             1.42e-12              -6.6e-13              -8.861e-07           
  0.6                   1.5224e-06            1.78e-12              -1.3e-12              -1.5192e-06          
  0.65                  2.3168e-06            2.42e-12              -7.2e-13              -2.3134e-06          
  0.7                   3.216e-06             3.28e-12              -8.2e-13              -3.2134e-06          
  0.75                  4.1814e-06            4.28e-12              -8.4e-13              -4.1778e-06          
  0.8                   5.1728e-06            5.38e-12              -1.62e-12             -5.1684e-06          
  0.85                  6.169e-06             7.04e-12              -1.04e-12             -6.1624e-06          
  0.9                   7.1492e-06            8.64e-12              -1.6e-13              -7.1418e-06          
  0.95                  8.1072e-06            1.084e-11             -1.6e-12              -8.1062e-06          
  1                     9.0386e-06            1.294e-11             -1.3e-12              -9.0308e-06          
  1.05                  9.9302e-06            1.566e-11             -1.42e-12             -9.921e-06           
  1.1                   1.0782e-05            1.874e-11             -4.2e-13              -1.07732e-05         
  1.15                  1.1592e-05            2.198e-11             2e-13                 -1.159e-05           
  1.2                   1.237e-05             2.574e-11             -1.26e-12             -1.2364e-05          
  1.25                  1.3096e-05            2.992e-11             -9.6e-13              -1.3096e-05          
  1.3                   1.3784e-05            3.436e-11             -3e-13                -1.3782e-05          
  1.35                  1.4436e-05            3.948e-11             2.4e-13               -1.4434e-05          
END_DB

BEGIN_DB
 ICCAP_VAR vb         -0.6           
 ICCAP_VAR vd         0.05           
 ICCAP_VAR vs         0              

 #vg                    id                    ig                    ib                    is                   
  -0.5                  0                     -5.2e-13              -7.44e-12             2.6e-13              
  -0.45                 -1e-13                -2e-13                -7.46e-12             1.6e-13              
  -0.4                  0                     -3e-13                -7.46e-12             1e-13                
  -0.35                 0                     -6e-14                -7.02e-12             2.4e-13              
  -0.3                  -1e-13                1.2e-13               -6.48e-12             4e-14                
  -0.25                 -1e-13                6e-14                 -4.98e-12             1.2e-13              
  -0.2                  -1.2e-13              2.2e-13               -5.08e-12             1.2e-13              
  -0.15                 -1.2e-13              2e-13                 -5.22e-12             2e-14                
  -0.1                  0                     1.2e-13               -4.66e-12             1.2e-13              
  -0.05                 2e-14                 3.8e-13               -4.68e-12             -6e-14               
  0                     3.6e-13               2.2e-13               -3.52e-12             -3.8e-13             
  0.05                  1.72e-12              2e-13                 -3.76e-12             -1.78e-12            
  0.1                   7.14e-12              4e-13                 -4.42e-12             -7.04e-12            
  0.15                  2.826e-11             2.6e-13               -4.26e-12             -2.83e-11            
  0.2                   1.1122e-10            3.6e-13               -4.22e-12             -1.1118e-10          
  0.25                  4.3612e-10            3.6e-13               -3.22e-12             -4.3582e-10          
  0.3                   1.6912e-09            4.2e-13               -2.9e-12              -1.6912e-09          
  0.35                  6.441e-09             4.2e-13               -3.26e-12             -6.4092e-09          
  0.4                   2.3408e-08            6.4e-13               -3.06e-12             -2.337e-08           
  0.45                  7.7638e-08            8e-13                 -3.56e-12             -7.762e-08           
  0.5                   2.1892e-07            9e-13                 -2.54e-12             -2.1884e-07          
  0.55                  5.0892e-07            1.32e-12              -2.86e-12             -5.0888e-07          
  0.6                   9.9162e-07            1.78e-12              -4.38e-12             -9.9172e-07          
  0.65                  1.6654e-06            2.3e-12               -1.8e-12              -1.6604e-06          
  0.7                   2.482e-06             3.12e-12              -3.24e-12             -2.4786e-06          
  0.75                  3.393e-06             4.12e-12              -3.34e-12             -3.391e-06           
  0.8                   4.3552e-06            5.28e-12              -2.18e-12             -4.3524e-06          
  0.85                  5.3412e-06            6.94e-12              -2.06e-12             -5.3374e-06          
  0.9                   6.3156e-06            8.58e-12              -1.98e-12             -6.3136e-06          
  0.95                  7.2834e-06            1.07e-11              -3.5e-12              -7.2788e-06          
  1                     8.2202e-06            1.294e-11             -2.98e-12             -8.2152e-06          
  1.05                  9.1212e-06            1.562e-11             -2.04e-12             -9.1198e-06          
  1.1                   9.9906e-06            1.85e-11              -2.32e-12             -9.9896e-06          
  1.15                  1.0816e-05            2.184e-11             -2.88e-12             -1.08142e-05         
  1.2                   1.1602e-05            2.554e-11             -2.86e-12             -1.16e-05            
  1.25                  1.2346e-05            2.96e-11              -1.94e-12             -1.2352e-05          
  1.3                   1.3052e-05            3.43e-11              -1.02e-12             -1.305e-05           
  1.35                  1.3724e-05            3.924e-11             -2.08e-12             -1.3712e-05          
END_DB

BEGIN_DB
 ICCAP_VAR vb         -0.9           
 ICCAP_VAR vd         0.05           
 ICCAP_VAR vs         0              

 #vg                    id                    ig                    ib                    is                   
  -0.5                  2e-14                 -3.8e-13              -8e-12                3.4e-13              
  -0.45                 -2e-14                -2e-13                -8.14e-12             0                    
  -0.4                  0                     -2e-14                -7.84e-12             8e-14                
  -0.35                 -6e-14                4e-14                 -6.86e-12             8e-14                
  -0.3                  -1e-13                -8e-14                -6.44e-12             8e-14                
  -0.25                 -2e-14                6e-14                 -6.06e-12             8e-14                
  -0.2                  -1e-13                1.2e-13               -6.64e-12             2e-14                
  -0.15                 0                     2.4e-13               -6.54e-12             1.2e-13              
  -0.1                  -4e-14                2e-13                 -5.96e-12             4e-14                
  -0.05                 -6e-14                2e-13                 -6.82e-12             1e-13                
  0                     1e-13                 1.8e-13               -4.78e-12             0                    
  0.05                  5e-13                 2.2e-13               -4.12e-12             -5.8e-13             
  0.1                   2.4e-12               5.2e-13               -5.94e-12             -2.46e-12            
  0.15                  1.022e-11             2.8e-13               -5.16e-12             -1.02e-11            
  0.2                   4.128e-11             2.6e-13               -5.14e-12             -4.134e-11           
  0.25                  1.6552e-10            4e-13                 -3.82e-12             -1.6568e-10          
  0.3                   6.5866e-10            4e-13                 -4.52e-12             -6.5898e-10          
  0.35                  2.5904e-09            3e-13                 -3.98e-12             -2.589e-09           
  0.4                   9.8812e-09            5.8e-13               -5.84e-12             -9.879e-09           
  0.45                  3.55e-08              7.4e-13               -4.72e-12             -3.549e-08           
  0.5                   1.1287e-07            9e-13                 -3.76e-12             -1.12864e-07         
  0.55                  2.986e-07             1.26e-12              -3.5e-12              -2.986e-07           
  0.6                   6.5482e-07            1.76e-12              -3.82e-12             -6.538e-07           
  0.65                  1.2118e-06            2.14e-12              -3.48e-12             -1.2078e-06          
  0.7                   1.9386e-06            3.12e-12              -3.64e-12             -1.9368e-06          
  0.75                  2.795e-06             4.12e-12              -4.84e-12             -2.7918e-06          
  0.8                   3.7238e-06            5.28e-12              -4.24e-12             -3.7202e-06          
  0.85                  4.688e-06             6.72e-12              -2.8e-12              -4.6868e-06          
  0.9                   5.6602e-06            8.46e-12              -3.16e-12             -5.6592e-06          
  0.95                  6.6278e-06            1.062e-11             -4.02e-12             -6.6238e-06          
  1                     7.5652e-06            1.288e-11             -3.64e-12             -7.5668e-06          
  1.05                  8.4796e-06            1.538e-11             -3.16e-12             -8.4764e-06          
  1.1                   9.3582e-06            1.84e-11              -2.96e-12             -9.3558e-06          
  1.15                  1.0194e-05            2.172e-11             -3.22e-12             -1.01922e-05         
  1.2                   1.09958e-05           2.546e-11             -3.8e-12              -1.0991e-05          
  1.25                  1.1756e-05            2.948e-11             -2.96e-12             -1.1748e-05          
  1.3                   1.2476e-05            3.394e-11             -2.88e-12             -1.2466e-05          
  1.35                  1.3156e-05            3.912e-11             -2.36e-12             -1.315e-05           
END_DB

BEGIN_DB
 ICCAP_VAR vb         -1.2           
 ICCAP_VAR vd         0.05           
 ICCAP_VAR vs         0              

 #vg                    id                    ig                    ib                    is                   
  -0.5                  4e-14                 -4.2e-13              -9.54e-12             2.2e-13              
  -0.45                 -1.2e-13              -3e-13                -8.88e-12             1e-13                
  -0.4                  -8e-14                -6e-14                -8.86e-12             1.6e-13              
  -0.35                 -6e-14                -1.8e-13              -7.4e-12              1.8e-13              
  -0.3                  -6e-14                1e-13                 -7.84e-12             2.2e-13              
