! VERSION = 6.00
BEGIN_HEADER
 ICCAP_INPUTS
  vd         V  D GROUND SMU1 0.1 LIN        1    0          1.35       28   0.05      
  vg         V  G GROUND SMU2 0.001 LIST       2 3 0.26 0.46 0.66
  vb         V  B GROUND SMU4 0.1 CON        -1.2
  vs         V  S GROUND SMU3 0.1 CON        0
 ICCAP_OUTPUTS
  id         I  D GROUND SMU1 B
  ig         I  G GROUND SMU2 B
  ib         I  B GROUND SMU4 B
  is         I  S GROUND SMU3 B
 ICCAP_VALUES
  MASTER_SETUP_TYPE "~dc_idvd~"
  LINVT_VALUE ""
  LISTVT_VALUE "|idvg|100.0n|-200.0m|1.000m|3|200.0m|200.0m|"
  TYPE "1"
  TEMP " 27.0000 "
  IS_TNOM " 1.00000 "
  MAIN.W "150.0n"
  MAIN.L "180.0n"
  MAIN.AD "100.5f"
  MAIN.AS "100.5f"
  MAIN.PD "1.340u"
  MAIN.PS "1.340u"
  MAIN.NF "1.000"
  MAIN.M "1"
  MAIN.NRD "0.000"
  MAIN.NRS "0.000"
  MAIN.LDRIFT1 "1E-06"
  MAIN.LDRIFT2 "1E-06"
  MAIN.SA "0.000"
  MAIN.SB "0.000"
  MAIN.SD "0.000"
  MAIN.SCA "0.000"
  MAIN.SCB "0.000"
  MAIN.SCC "0.000"
  MAIN.SC "0.000"
  MODULE "S547"
  PIN_D "20"
  PIN_G "1"
  PIN_S "2"
  PIN_B "19"
  PIN_E ""
  PIN_6 ""
  XY_ID ""
  FUNC "LW Scale"
  STI "SA ref"
  WPE "WPE ref"
  COMMENT ""
  DIS_MEAS ""
  TypeTCI "10"
END_HEADER

BEGIN_DB
 ICCAP_VAR vg         0.26           
 ICCAP_VAR vb         -1.2           
 ICCAP_VAR vs         0              

 #vd                    id                    ig                    ib                    is                   
  0                     8e-14                 -1.2e-13              -6.14e-12             -1.2e-13             
  0.05                  7.014e-11             -1.4e-13              -5.72e-12             -6.966e-11           
  0.1                   8.568e-11             -6e-14                -6e-12                -8.526e-11           
  0.15                  9.304e-11             -8e-14                -5.36e-12             -9.248e-11           
  0.2                   9.936e-11             -2e-14                -5.24e-12             -9.868e-11           
  0.25                  1.0578e-10            -1.2e-13              -4.98e-12             -1.0498e-10          
  0.3                   1.1236e-10            0                     -3.38e-12             -1.1162e-10          
  0.35                  1.1928e-10            0                     -3.44e-12             -1.1864e-10          
  0.4                   1.2656e-10            -2e-14                -4.1e-12              -1.2566e-10          
  0.45                  1.3406e-10            2e-14                 -4.16e-12             -1.3322e-10          
  0.5                   1.4198e-10            2e-14                 -3.26e-12             -1.412e-10           
  0.55                  1.501e-10             -6e-14                -2.02e-12             -1.4926e-10          
  0.6                   1.5878e-10            -2e-14                -2.44e-12             -1.5786e-10          
  0.65                  1.678e-10             2e-14                 -9e-13                -1.667e-10           
  0.7                   1.7706e-10            -2e-14                -2.6e-12              -1.7606e-10          
  0.75                  1.8644e-10            1.4e-13               -2.48e-12             -1.8574e-10          
  0.8                   1.9654e-10            6e-14                 -2e-12                -1.9526e-10          
  0.85                  2.0684e-10            6e-14                 -1.66e-12             -2.0568e-10          
  0.9                   2.1786e-10            0                     -2.08e-12             -2.1648e-10          
  0.95                  2.2904e-10            0                     -2.48e-12             -2.2778e-10          
  1                     2.4046e-10            -6e-14                -2.38e-12             -2.393e-10           
  1.05                  2.523e-10             -6e-14                -1.6e-12              -2.5086e-10          
  1.1                   2.6476e-10            -2e-14                -1.6e-12              -2.633e-10           
  1.15                  2.778e-10             -1.4e-13              -2.48e-12             -2.7608e-10          
  1.2                   2.9046e-10            -1.4e-13              -2.4e-12              -2.8902e-10          
  1.25                  3.0416e-10            -1e-13                -2.58e-12             -3.0292e-10          
  1.3                   3.1848e-10            -2e-13                -7e-13                -3.167e-10           
  1.35                  3.3304e-10            -2.4e-13              -1.38e-12             -3.3156e-10          
END_DB

BEGIN_DB
 ICCAP_VAR vg         0.46           
 ICCAP_VAR vb         -1.2           
 ICCAP_VAR vs         0              

 #vd                    id                    ig                    ib                    is                   
  0                     1.133e-10             1.8e-13               -7.4e-13              -1.1034e-10          
  0.05                  4.1884e-08            2.6e-13               -1.82e-12             -4.1888e-08          
  0.1                   5.3268e-08            1e-13                 -1.52e-12             -5.3312e-08          
  0.15                  5.8392e-08            1e-13                 -7.4e-13              -5.833e-08           
  0.2                   6.2214e-08            1.8e-13               -1.52e-12             -6.2226e-08          
  0.25                  6.5986e-08            2.2e-13               -1.88e-12             -6.5956e-08          
  0.3                   6.9744e-08            1.4e-13               -2.26e-12             -6.978e-08           
  0.35                  7.3642e-08            2.6e-13               -1.02e-12             -7.3614e-08          
  0.4                   7.7634e-08            1.4e-13               -7.8e-13              -7.7548e-08          
  0.45                  8.171e-08             2.6e-13               -1.74e-12             -8.1656e-08          
  0.5                   8.5932e-08            1.4e-13               -2.22e-12             -8.5824e-08          
  0.55                  9.0184e-08            1.4e-13               -1.42e-12             -9.0192e-08          
  0.6                   9.4646e-08            1e-13                 -1.38e-12             -9.4646e-08          
  0.65                  9.9248e-08            1.8e-13               -2.04e-12             -9.9194e-08          
  0.7                   1.0388e-07            2.6e-13               -2.44e-12             -1.03928e-07         
  0.75                  1.08592e-07           1e-13                 -2.24e-12             -1.08718e-07         
  0.8                   1.137e-07             1.8e-13               -1.04e-12             -1.1356e-07          
  0.85                  1.1874e-07            8e-14                 -1.44e-12             -1.1864e-07          
  0.9                   1.2396e-07            1e-13                 -8.2e-13              -1.237e-07           
  0.95                  1.2912e-07            6e-14                 -4.6e-13              -1.29e-07            
  1                     1.3446e-07            1.8e-13               -1.7e-12              -1.3432e-07          
  1.05                  1.3998e-07            1e-13                 -1.5e-12              -1.398e-07           
  1.1                   1.4552e-07            8e-14                 -1.84e-12             -1.4544e-07          
  1.15                  1.5134e-07            1.6e-13               -1.7e-12              -1.5106e-07          
  1.2                   1.5704e-07            8e-14                 -3.76e-12             -1.5696e-07          
  1.25                  1.6314e-07            2e-14                 -5.3e-12              -1.6282e-07          
  1.3                   1.6906e-07            6e-14                 -8.42e-12             -1.6906e-07          
  1.35                  1.7544e-07            4e-14                 -1.218e-11            -1.752e-07           
END_DB

BEGIN_DB
 ICCAP_VAR vg         0.66           
 ICCAP_VAR vb         -1.2           
 ICCAP_VAR vs         0              

 #vd                    id                    ig                    ib                    is                   
  0                     2.0696e-09            9.2e-13               -3.6e-13              -1.8666e-09          
  0.05                  1.1798e-06            8.6e-13               -1.86e-12             -1.1756e-06          
  0.1                   1.9098e-06            7.6e-13               -5.4e-13              -1.906e-06           
  0.15                  2.3398e-06            7.6e-13               -6.4e-13              -2.337e-06           
  0.2                   2.5942e-06            6.8e-13               -1.72e-12             -2.59e-06            
  0.25                  2.7574e-06            6.2e-13               -8.6e-13              -2.7534e-06          
  0.3                   2.8808e-06            6.2e-13               -5e-13                -2.877e-06           
  0.35                  2.984e-06             7.4e-13               -1.62e-12             -2.9796e-06          
  0.4                   3.0776e-06            6e-13                 -1.4e-12              -3.0736e-06          
  0.45                  3.1684e-06            6.4e-13               -5e-13                -3.1644e-06          
  0.5                   3.256e-06             6.2e-13               -1.7e-12              -3.2524e-06          
  0.55                  3.3424e-06            5.8e-13               -1.02e-12             -3.3392e-06          
  0.6                   3.4278e-06            6.6e-13               -1.22e-12             -3.424e-06           
  0.65                  3.5112e-06            5.4e-13               -1.76e-12             -3.508e-06           
  0.7                   3.5974e-06            6.8e-13               -1e-13                -3.5924e-06          
  0.75                  3.6806e-06            6.4e-13               -9.8e-13              -3.6764e-06          
  0.8                   3.765e-06             6.4e-13               -2.42e-12             -3.7612e-06          
  0.85                  3.848e-06             6.4e-13               -5e-13                -3.8444e-06          
  0.9                   3.931e-06             6.6e-13               -7e-13                -3.928e-06           
  0.95                  4.0148e-06            5.6e-13               -1.84e-12             -4.0114e-06          
  1                     4.0968e-06            6.6e-13               -1.24e-12             -4.093e-06           
  1.05                  4.1826e-06            7e-13                 -1.1e-12              -4.1782e-06          
  1.1                   4.265e-06             6.4e-13               -3.24e-12             -4.2606e-06          
  1.15                  4.3476e-06            6.2e-13               -4.2e-12              -4.345e-06           
  1.2                   4.43e-06              5.6e-13               -8.78e-12             -4.4274e-06          
  1.25                  4.5146e-06            4.6e-13               -1.88e-11             -4.5098e-06          
  1.3                   4.5976e-06            5.8e-13               -3.612e-11            -4.5938e-06          
  1.35                  4.682e-06             5.8e-13               -6.836e-11            -4.6788e-06          
END_DB

