! VERSION = 6.00
BEGIN_HEADER
 ICCAP_INPUTS
  vd         V  D GROUND SMU1 0.1 LIN        1    0          1.35       28   0.05      
  vg         V  G GROUND SMU2 0.001 LIN        2    0.662      1.35       5    0.172     
  vb         V  B GROUND SMU4 0.1 CON        -1.2
  vs         V  S GROUND SMU3 0.1 CON        0
 ICCAP_OUTPUTS
  id         I  D GROUND SMU1 B
  ig         I  G GROUND SMU2 B
  ib         I  B GROUND SMU4 B
  is         I  S GROUND SMU3 B
 ICCAP_VALUES
  MASTER_SETUP_TYPE "~dc_idvd~"
  LINVT_VALUE "|idvg|100.0n|100.0m|1.000m|5|1.350|"
  LISTVT_VALUE ""
  TYPE "1"
  TEMP "-40.0000 "
  IS_TNOM " 0.00000 "
  MAIN.W "150.0n"
  MAIN.L "130.0n"
  MAIN.AD "100.5f"
  MAIN.AS "100.5f"
  MAIN.PD "1.340u"
  MAIN.PS "1.340u"
  MAIN.NF "1.000"
  MAIN.M "1"
  MAIN.NRD "0.000"
  MAIN.NRS "0.000"
  MAIN.LDRIFT1 "1E-06"
  MAIN.LDRIFT2 "1E-06"
  MAIN.SA "0.000"
  MAIN.SB "0.000"
  MAIN.SD "0.000"
  MAIN.SCA "0.000"
  MAIN.SCB "0.000"
  MAIN.SCC "0.000"
  MAIN.SC "0.000"
  MODULE "S546"
  PIN_D "16"
  PIN_G "5"
  PIN_S "6"
  PIN_B "15"
  PIN_E ""
  PIN_6 ""
  XY_ID ""
  FUNC "Small"
  STI "SA ref"
  WPE "WPE ref"
  COMMENT ""
  DIS_MEAS ""
  TypeTCI "10"
END_HEADER

BEGIN_DB
 ICCAP_VAR vg         0.662          
 ICCAP_VAR vb         -1.2           
 ICCAP_VAR vs         0              

 #vd                    id                    ig                    ib                    is                   
  0                     1.211e-09             1.72e-12              -8.04e-12             -8.1736e-10          
  0.05                  5.6182e-07            1.68e-12              -7.5e-12              -5.6148e-07          
  0.1                   8.0486e-07            1.88e-12              -8.38e-12             -8.021e-07           
  0.15                  9.3418e-07            1.62e-12              -6.54e-12             -9.31e-07            
  0.2                   1.02198e-06           1.86e-12              -6.62e-12             -1.02106e-06         
  0.25                  1.09732e-06           1.66e-12              -7.1e-12              -1.09882e-06         
  0.3                   1.1708e-06            1.84e-12              -5.02e-12             -1.1678e-06          
  0.35                  1.2438e-06            1.52e-12              -4.82e-12             -1.241e-06           
  0.4                   1.3164e-06            1.54e-12              -5.7e-12              -1.312e-06           
  0.45                  1.3972e-06            1.3e-12               -5.52e-12             -1.3908e-06          
  0.5                   1.4652e-06            1.64e-12              -4.06e-12             -1.46e-06            
  0.55                  1.5458e-06            1.58e-12              -5.8e-12              -1.5412e-06          
  0.6                   1.6236e-06            1.64e-12              -4.98e-12             -1.6196e-06          
  0.65                  1.7074e-06            1.34e-12              -4.12e-12             -1.7066e-06          
  0.7                   1.7994e-06            1.46e-12              -5.02e-12             -1.7924e-06          
  0.75                  1.8852e-06            1.74e-12              -3.82e-12             -1.8848e-06          
  0.8                   1.993e-06             1.44e-12              -3.5e-12              -1.9786e-06          
  0.85                  2.0786e-06            1.5e-12               -4.36e-12             -2.0858e-06          
  0.9                   2.1906e-06            1.6e-12               -3.66e-12             -2.1758e-06          
  0.95                  2.2852e-06            1.48e-12              -9.1e-12              -2.282e-06           
  1                     2.3972e-06            1.24e-12              -5.06e-12             -2.391e-06           
  1.05                  2.5086e-06            1.44e-12              -3.2e-12              -2.5044e-06          
  1.1                   2.6246e-06            1.66e-12              -4.1e-12              -2.6344e-06          
  1.15                  2.7554e-06            1.42e-12              -6.24e-12             -2.7538e-06          
  1.2                   2.881e-06             1.42e-12              -8.14e-12             -2.8768e-06          
  1.25                  3.024e-06             1.68e-12              -1.484e-11            -3.0198e-06          
  1.3                   3.166e-06             1.4e-12               -2.944e-11            -3.179e-06           
  1.35                  3.339e-06             1.28e-12              -5.394e-11            -3.3138e-06          
END_DB

BEGIN_DB
 ICCAP_VAR vg         0.834          
 ICCAP_VAR vb         -1.2           
 ICCAP_VAR vs         0              

 #vd                    id                    ig                    ib                    is                   
  0                     3.0136e-09            5.12e-12              -5.82e-12             -3.1736e-09          
  0.05                  3.965e-06             4.96e-12              -2.68e-12             -3.961e-06           
  0.1                   6.709e-06             4.5e-12               -3.06e-12             -6.7032e-06          
  0.15                  8.513e-06             4.38e-12              -2.92e-12             -8.5098e-06          
  0.2                   9.6936e-06            4.32e-12              -2.78e-12             -9.6884e-06          
  0.25                  1.05014e-05           4.3e-12               -1.98e-12             -1.04942e-05         
  0.3                   1.11098e-05           4.36e-12              -2.28e-12             -1.11056e-05         
  0.35                  1.1616e-05            4e-12                 -2.64e-12             -1.16032e-05         
  0.4                   1.205e-05             4.32e-12              -3.12e-12             -1.203e-05           
  0.45                  1.2454e-05            4.1e-12               -2.74e-12             -1.2436e-05          
  0.5                   1.2844e-05            4.18e-12              -1.6e-12              -1.2828e-05          
  0.55                  1.3226e-05            3.98e-12              -2.46e-12             -1.321e-05           
  0.6                   1.3602e-05            3.98e-12              -2.84e-12             -1.3586e-05          
  0.65                  1.3978e-05            4.28e-12              -1.84e-12             -1.3964e-05          
  0.7                   1.4358e-05            4.34e-12              -1.64e-12             -1.4334e-05          
  0.75                  1.4734e-05            4.44e-12              -1.78e-12             -1.4716e-05          
  0.8                   1.5108e-05            4.14e-12              -2.6e-12              -1.5092e-05          
  0.85                  1.5492e-05            4e-12                 -1.98e-12             -1.5478e-05          
  0.9                   1.588e-05             4.06e-12              -1.28e-12             -1.5862e-05          
  0.95                  1.6258e-05            3.84e-12              -2.48e-12             -1.6244e-05          
  1                     1.6656e-05            4.16e-12              -2.32e-12             -1.6638e-05          
  1.05                  1.705e-05             3.96e-12              -2.1e-12              -1.7036e-05          
  1.1                   1.7458e-05            4.18e-12              -3.94e-12             -1.744e-05           
  1.15                  1.7882e-05            4.1e-12               -7.76e-12             -1.7864e-05          
  1.2                   1.8298e-05            3.8e-12               -1.458e-11            -1.8292e-05          
  1.25                  1.874e-05             4.24e-12              -3.36e-11             -1.8722e-05          
  1.3                   1.9174e-05            4.02e-12              -7.156e-11            -1.9148e-05          
  1.35                  1.9602e-05            4.18e-12              -1.4168e-10           -1.96e-05            
END_DB

BEGIN_DB
 ICCAP_VAR vg         1.006          
 ICCAP_VAR vb         -1.2           
 ICCAP_VAR vs         0              

 #vd                    id                    ig                    ib                    is                   
  0                     1.0442e-08            1.13e-11              -8e-13                -1.0164e-08          
  0.05                  8.5324e-06            1.058e-11             -1.58e-12             -8.5268e-06          
  0.1                   1.5486e-05            1.006e-11             -2.02e-12             -1.5466e-05          
  0.15                  2.0814e-05            9.72e-12              -3.8e-13              -2.0794e-05          
  0.2                   2.4736e-05            9.74e-12              -2.2e-12              -2.4718e-05          
  0.25                  2.757e-05             9.3e-12               -1.28e-12             -2.7554e-05          
  0.3                   2.963e-05             9.46e-12              -1.4e-13              -2.9612e-05          
  0.35                  3.1166e-05            8.66e-12              -2.18e-12             -3.1156e-05          
  0.4                   3.239e-05             8.9e-12               -1.88e-12             -3.237e-05           
  0.45                  3.3372e-05            8.84e-12              -1.14e-12             -3.336e-05           
  0.5                   3.4244e-05            8.78e-12              -2.18e-12             -3.4226e-05          
  0.55                  3.5028e-05            8.36e-12              -1.64e-12             -3.5016e-05          
  0.6                   3.5762e-05            8.72e-12              -7.4e-13              -3.575e-05           
  0.65                  3.6464e-05            8.94e-12              -2.36e-12             -3.6448e-05          
  0.7                   3.7136e-05            8.7e-12               -1.88e-12             -3.712e-05           
  0.75                  3.7792e-05            8.7e-12               -9.4e-13              -3.7768e-05          
  0.8                   3.843e-05             8.44e-12              -3e-12                -3.842e-05           
  0.85                  3.9064e-05            8.98e-12              -1.66e-12             -3.9036e-05          
  0.9                   3.9684e-05            8.54e-12              -1.12e-12             -3.9664e-05          
  0.95                  4.0316e-05            8.58e-12              -2.42e-12             -4.0302e-05          
  1                     4.0946e-05            8.08e-12              -1.82e-12             -4.0912e-05          
  1.05                  4.1548e-05            9.06e-12              -3.96e-12             -4.1536e-05          
  1.1                   4.2184e-05            8.06e-12              -9.76e-12             -4.217e-05           
  1.15                  4.2834e-05            8.94e-12              -1.218e-11            -4.281e-05           
  1.2                   4.347e-05             8.48e-12              -2.766e-11            -4.3444e-05          
  1.25                  4.41e-05              8.38e-12              -5.738e-11            -4.4086e-05          
  1.3                   4.4732e-05            8.62e-12              -1.1352e-10           -4.4716e-05          
  1.35                  4.5366e-05            8.6e-12               -2.247e-10            -4.5348e-05          
END_DB

BEGIN_DB
 ICCAP_VAR vg         1.178          
 ICCAP_VAR vb         -1.2           
 ICCAP_VAR vs         0              

 #vd                    id                    ig                    ib                    is                   
  0                     1.5286e-08            2.064e-11             -2.6e-13              -1.479e-08           
  0.05                  1.2648e-05            1.97e-11              -1.08e-12             -1.2634e-05          
  0.1                   2.3614e-05            1.928e-11             -7.8e-13              -2.36e-05            
  0.15                  3.2666e-05            1.844e-11             -1.34e-12             -3.2666e-05          
  0.2                   3.9882e-05            1.818e-11             -1.34e-12             -3.9874e-05          
  0.25                  4.548e-05             1.778e-11             -1.02e-12             -4.5472e-05          
  0.3                   4.977e-05             1.7e-11               -1.46e-12             -4.977e-05           
  0.35                  5.3056e-05            1.64e-11              -1.22e-12             -5.3036e-05          
  0.4                   5.5568e-05            1.696e-11             -8.4e-13              -5.5566e-05          
  0.45                  5.7546e-05            1.638e-11             -1.08e-12             -5.7544e-05          
  0.5                   5.9192e-05            1.67e-11              -9.8e-13              -5.9156e-05          
  0.55                  6.0546e-05            1.6e-11               -1.32e-12             -6.0508e-05          
  0.6                   6.1708e-05            1.574e-11             -1.64e-12             -6.1734e-05          
  0.65                  6.2798e-05            1.63e-11              -8.8e-13              -6.2802e-05          
  0.7                   6.3796e-05            1.598e-11             -1.7e-12              -6.3784e-05          
  0.75                  6.4738e-05            1.59e-11              -1.9e-12              -6.4724e-05          
  0.8                   6.5636e-05            1.56e-11              -1.18e-12             -6.5622e-05          
  0.85                  6.6502e-05            1.614e-11             -9.4e-13              -6.6532e-05          
  0.9                   6.738e-05             1.578e-11             -2.7e-12              -6.734e-05           
  0.95                  6.8194e-05            1.576e-11             -8.4e-13              -6.8174e-05          
  1                     6.902e-05             1.562e-11             -3.24e-12             -6.8998e-05          
  1.05                  6.9824e-05            1.608e-11             -4.52e-12             -6.9808e-05          
  1.1                   7.0636e-05            1.584e-11             -9.14e-12             -7.0622e-05          
  1.15                  7.1436e-05            1.552e-11             -1.904e-11            -7.1422e-05          
  1.2                   7.222e-05             1.516e-11             -3.984e-11            -7.2216e-05          
  1.25                  7.3016e-05            1.582e-11             -7.848e-11            -7.3042e-05          
  1.3                   7.382e-05             1.558e-11             -1.5558e-10           -7.3808e-05          
  1.35                  7.4618e-05            1.562e-11             -2.935e-10            -7.4616e-05          
END_DB

BEGIN_DB
 ICCAP_VAR vg         1.35           
 ICCAP_VAR vb         -1.2           
 ICCAP_VAR vs         0              

 #vd                    id                    ig                    ib                    is                   
  0                     1.9612e-08            3.442e-11             -1.12e-12             -1.8748e-08          
  0.05                  1.605e-05             3.312e-11             -1e-13                -1.604e-05           
  0.1                   3.0432e-05            3.238e-11             -1.66e-12             -3.041e-05           
  0.15                  4.2734e-05            3.162e-11             -1.68e-12             -4.2694e-05          
  0.2                   5.3022e-05            3.076e-11             -3.96e-12             -5.3018e-05          
  0.25                  6.1494e-05            2.954e-11             -5.4e-12              -6.1488e-05          
  0.3                   6.8258e-05            2.918e-11             -6.2e-13              -6.8274e-05          
  0.35                  7.3676e-05            2.852e-11             -3e-13                -7.3652e-05          
  0.4                   7.7912e-05            2.774e-11             -1.48e-12             -7.792e-05           
  0.45                  8.1366e-05            2.742e-11             -1.4e-12              -8.1296e-05          
  0.5                   8.4086e-05            2.686e-11             -2e-13                -8.4046e-05          
  0.55                  8.6282e-05            2.698e-11             -1.54e-12             -8.6264e-05          
  0.6                   8.8064e-05            2.696e-11             -1.58e-12             -8.8088e-05          
  0.65                  8.9702e-05            2.628e-11             -1e-12                -8.9712e-05          
  0.7                   9.1136e-05            2.636e-11             -1.22e-12             -9.1142e-05          
  0.75                  9.2388e-05            2.636e-11             -1.78e-12             -9.2416e-05          
  0.8                   9.352e-05             2.612e-11             -1.62e-12             -9.3594e-05          
  0.85                  9.4942e-05            2.662e-11             -1e-12                -9.4838e-05          
  0.9                   9.5884e-05            2.578e-11             -1.14e-12             -9.5866e-05          
  0.95                  9.6966e-05            2.578e-11             -2.78e-12             -9.683e-05           
  1                     9.7814e-05            2.546e-11             -4.36e-12             -9.7884e-05          
  1.05                  9.8912e-05            2.568e-11             -6.58e-12             -9.888e-05           
  1.1                   9.993e-05             2.562e-11             -1.24e-11             -9.9904e-05          
  1.15                  0.000100876           2.55e-11              -2.53e-11             -0.00010083          
  1.2                   0.00010178            2.556e-11             -5.038e-11            -0.00010178          
  1.25                  0.000102624           2.554e-11             -9.786e-11            -0.000102706         
  1.3                   0.000103788           2.554e-11             -1.871e-10            -0.000103822         
  1.35                  0.000104724           2.552e-11             -3.4376e-10           -0.000104726         
END_DB

