! VERSION = 6.00
BEGIN_HEADER
 ICCAP_INPUTS
  vg         V  G GROUND SMU2 0.001 LIN        1    -0.5       1.35       38   0.05      
  vb         V  B GROUND SMU4 0.1 LIN        2    0          -1.2       5    -0.3      
  vd         V  D GROUND SMU1 0.1 LIST       3 3 0.05 0.6 1.2
  vs         V  S GROUND SMU3 0.1 CON        0
 ICCAP_OUTPUTS
  id         I  D GROUND SMU1 B
  ig         I  G GROUND SMU2 B
  ib         I  B GROUND SMU4 B
  is         I  S GROUND SMU3 B
 ICCAP_VALUES
  MASTER_SETUP_TYPE "~dc_idvg~"
  LINVT_VALUE ""
  LISTVT_VALUE ""
  TYPE "1"
  TEMP " 27.0000 "
  IS_TNOM " 1.00000 "
  MAIN.W "10.00u"
  MAIN.L "180.0n"
  MAIN.AD "3.400p"
  MAIN.AS "3.400p"
  MAIN.PD "20.68u"
  MAIN.PS "20.68u"
  MAIN.NF "1.000"
  MAIN.M "1"
  MAIN.NRD "0.000"
  MAIN.NRS "0.000"
  MAIN.LDRIFT1 "1E-06"
  MAIN.LDRIFT2 "1E-06"
  MAIN.SA "0.000"
  MAIN.SB "0.000"
  MAIN.SD "0.000"
  MAIN.SCA "0.000"
  MAIN.SCB "0.000"
  MAIN.SCC "0.000"
  MAIN.SC "0.000"
  MODULE "S540"
  PIN_D "12"
  PIN_G "9"
  PIN_S "10"
  PIN_B "11"
  PIN_E ""
  PIN_6 ""
  XY_ID ""
  FUNC "L Scale"
  STI "SA ref"
  WPE "WPE ref"
  COMMENT ""
  DIS_MEAS ""
  TypeTCI "10"
END_HEADER

BEGIN_DB
 ICCAP_VAR vb         0              
 ICCAP_VAR vd         0.05           
 ICCAP_VAR vs         0              

 #vg                    id                    ig                    ib                    is                   
  -0.5                  1.66e-12              -4.738e-11            3.914e-11             2.08e-12             
  -0.45                 1.24e-12              -9.22e-12             1.7e-12               1.54e-12             
  -0.4                  8.8e-13               -2.86e-12             -4.3e-12              1.18e-12             
  -0.35                 6.2e-13               -1.3e-12              -4.16e-12             7e-13                
  -0.3                  6e-13                 -7.2e-13              -3.24e-12             5.8e-13              
  -0.25                 6.2e-13               -2.8e-13              -4.42e-12             3.4e-13              
  -0.2                  1.04e-12              -1.6e-13              -3.76e-12             -4e-13               
  -0.15                 3.38e-12              1e-13                 -5.18e-12             -3.18e-12            
  -0.1                  1.528e-11             2e-13                 -4.32e-12             -1.476e-11           
  -0.05                 6.916e-11             2.4e-13               -3.46e-12             -6.88e-11            
  0                     3.1762e-10            3e-13                 -4.18e-12             -3.172e-10           
  0.05                  1.4722e-09            4e-13                 -3.98e-12             -1.4708e-09          
  0.1                   6.8214e-09            4e-13                 -4.52e-12             -6.8174e-09          
  0.15                  3.1552e-08            4.4e-13               -3.48e-12             -3.152e-08           
  0.2                   1.4284e-07            5.4e-13               -3.96e-12             -1.4264e-07          
  0.25                  6.166e-07             8.4e-13               -4.24e-12             -6.1642e-07          
  0.3                   2.3802e-06            1.3e-12               -2.5e-12              -2.3732e-06          
  0.35                  7.6118e-06            2.38e-12              -2.9e-12              -7.6086e-06          
  0.4                   1.948e-05             4.22e-12              -3.74e-12             -1.945e-05           
  0.45                  4.0292e-05            7.32e-12              -3.96e-12             -4.0242e-05          
  0.5                   7.0012e-05            1.196e-11             -3.08e-12             -7e-05               
  0.55                  0.000106824           1.878e-11             -2.14e-12             -0.000106774         
  0.6                   0.00014868            2.828e-11             -2.94e-12             -0.00014828          
  0.65                  0.00019326            4.132e-11             -4.04e-12             -0.00019288          
  0.7                   0.00023882            5.83e-11              -3.24e-12             -0.00023846          
  0.75                  0.00028436            8.06e-11              -2.5e-12              -0.000284            
  0.8                   0.00032888            1.0888e-10            -2.5e-12              -0.00032852          
  0.85                  0.0003719             1.4462e-10            -3.9e-12              -0.0003715           
  0.9                   0.00041292            1.8892e-10            -2.64e-12             -0.00041254          
  0.95                  0.00045184            2.427e-10             -3.34e-12             -0.00045152          
  1                     0.00048866            3.0894e-10            -1.9e-12              -0.00048826          
  1.05                  0.0005232             3.8818e-10            -3.14e-12             -0.0005228           
  1.1                   0.0005554             4.818e-10             -3.36e-12             -0.00055504          
  1.15                  0.00058558            5.9426e-10            -2.8e-12              -0.00058518          
  1.2                   0.00061356            7.2512e-10            -2.88e-12             -0.00061318          
  1.25                  0.00063952            8.7726e-10            -2.7e-12              -0.0006391           
  1.3                   0.0006635             1.0556e-09            -3.88e-12             -0.00066312          
  1.35                  0.0006856             1.2608e-09            -4.8e-12              -0.00068518          
END_DB

BEGIN_DB
 ICCAP_VAR vb         -0.3           
 ICCAP_VAR vd         0.05           
 ICCAP_VAR vs         0              

 #vg                    id                    ig                    ib                    is                   
  -0.5                  1.7e-12               -3.72e-12             -6.9e-12              2.16e-12             
  -0.45                 1.16e-12              -2.46e-12             -6.22e-12             1.4e-12              
  -0.4                  9.2e-13               -1.76e-12             -5.52e-12             1.08e-12             
  -0.35                 7e-13                 -1.26e-12             -4.52e-12             7.8e-13              
  -0.3                  4.4e-13               -6.6e-13              -4.42e-12             5.2e-13              
  -0.25                 3.8e-13               -3.6e-13              -5.38e-12             4.8e-13              
  -0.2                  1.8e-13               -1e-13                -5.6e-12              2e-14                
  -0.15                 7.4e-13               2e-14                 -5.62e-12             -1.8e-13             
  -0.1                  2.72e-12              2.2e-13               -4.18e-12             -2.52e-12            
  -0.05                 1.308e-11             2.2e-13               -4.56e-12             -1.278e-11           
  0                     6.372e-11             2.2e-13               -5.32e-12             -6.322e-11           
  0.05                  3.1146e-10            5.2e-13               -4.78e-12             -3.1128e-10          
  0.1                   1.523e-09             4.2e-13               -4.16e-12             -1.5214e-09          
  0.15                  7.4428e-09            4.4e-13               -3.08e-12             -7.4416e-09          
  0.2                   3.5894e-08            5.6e-13               -3.8e-12              -3.5866e-08          
  0.25                  1.6888e-07            7.4e-13               -4.68e-12             -1.6876e-07          
  0.3                   7.4476e-07            1.28e-12              -3.1e-12              -7.4476e-07          
  0.35                  2.8866e-06            2.06e-12              -4.06e-12             -2.8786e-06          
  0.4                   9.0488e-06            3.62e-12              -3.72e-12             -9.0446e-06          
  0.45                  2.2538e-05            6.2e-12               -3.72e-12             -2.2502e-05          
  0.5                   4.5222e-05            1.058e-11             -2.46e-12             -4.5146e-05          
  0.55                  7.6514e-05            1.702e-11             -4.44e-12             -7.6534e-05          
  0.6                   0.000114662           2.626e-11             -3.52e-12             -0.000114642         
  0.65                  0.00015724            3.874e-11             -3.54e-12             -0.00015686          
  0.7                   0.00020184            5.532e-11             -2.48e-12             -0.00020146          
  0.75                  0.00024732            7.71e-11              -3.04e-12             -0.00024694          
  0.8                   0.0002922             1.0496e-10            -4.16e-12             -0.00029182          
  0.85                  0.00033602            1.4022e-10            -3.08e-12             -0.0003356           
  0.9                   0.00037808            1.8348e-10            -2.46e-12             -0.0003777           
  0.95                  0.00041816            2.3744e-10            -2.98e-12             -0.00041776          
  1                     0.00045608            3.0274e-10            -2.92e-12             -0.00045568          
  1.05                  0.00049176            3.8104e-10            -3.6e-12              -0.00049142          
  1.1                   0.00052512            4.7474e-10            -3.4e-12              -0.00052478          
  1.15                  0.00055638            5.854e-10             -3.28e-12             -0.000556            
  1.2                   0.00058538            7.1476e-10            -3.82e-12             -0.000585            
  1.25                  0.00061232            8.661e-10             -3.5e-12              -0.00061186          
  1.3                   0.00063716            1.0444e-09            -3.78e-12             -0.0006368           
  1.35                  0.00066032            1.248e-09             -4.22e-12             -0.00065996          
END_DB

BEGIN_DB
 ICCAP_VAR vb         -0.6           
 ICCAP_VAR vd         0.05           
 ICCAP_VAR vs         0              

 #vg                    id                    ig                    ib                    is                   
  -0.5                  1.58e-12              -3.68e-12             -5.9e-12              1.94e-12             
  -0.45                 1.24e-12              -2.48e-12             -5.38e-12             1.42e-12             
  -0.4                  8.2e-13               -1.82e-12             -5.76e-12             1.18e-12             
  -0.35                 6e-13                 -1.04e-12             -6.7e-12              6.4e-13              
  -0.3                  4.2e-13               -7.2e-13              -5.5e-12              5.4e-13              
  -0.25                 3.2e-13               -2.4e-13              -5.04e-12             3.2e-13              
  -0.2                  1.4e-13               -6e-14                -4.78e-12             1.8e-13              
  -0.15                 2.8e-13               2e-14                 -4.04e-12             2e-14                
  -0.1                  6.6e-13               1.6e-13               -5.3e-12              -4.4e-13             
  -0.05                 3.6e-12               2.8e-13               -4.98e-12             -3.32e-12            
  0                     1.784e-11             3e-13                 -4.74e-12             -1.774e-11           
  0.05                  9.07e-11              2.4e-13               -4.02e-12             -9.044e-11           
  0.1                   4.592e-10             4.6e-13               -4e-12                -4.591e-10           
  0.15                  2.3274e-09            3.8e-13               -4.74e-12             -2.3262e-09          
  0.2                   1.1676e-08            4.6e-13               -3.92e-12             -1.1654e-08          
  0.25                  5.7638e-08            8.2e-13               -3.68e-12             -5.7624e-08          
  0.3                   2.7344e-07            1.16e-12              -4.62e-12             -2.7326e-07          
  0.35                  1.1926e-06            1.7e-12               -3.74e-12             -1.1864e-06          
  0.4                   4.3752e-06            3.16e-12              -4.64e-12             -4.3682e-06          
  0.45                  1.28e-05              5.58e-12              -3.54e-12             -1.2772e-05          
  0.5                   2.952e-05             9.52e-12              -2.68e-12             -2.9506e-05          
  0.55                  5.5588e-05            1.562e-11             -3.4e-12              -5.5574e-05          
  0.6                   8.976e-05             2.44e-11              -4.86e-12             -8.9706e-05          
  0.65                  0.00012982            3.662e-11             -3.62e-12             -0.00012942          
  0.7                   0.00017306            5.268e-11             -3.74e-12             -0.00017266          
  0.75                  0.00021802            7.428e-11             -3.48e-12             -0.00021764          
  0.8                   0.00026308            1.0158e-10            -3.48e-12             -0.0002627           
  0.85                  0.0003074             1.3638e-10            -3.92e-12             -0.00030702          
  0.9                   0.00035016            1.7948e-10            -4.1e-12              -0.00034978          
  0.95                  0.00039106            2.327e-10             -2.42e-12             -0.00039066          
  1                     0.00042986            2.973e-10             -3.36e-12             -0.00042948          
  1.05                  0.00046646            3.7506e-10            -3.76e-12             -0.00046608          
  1.1                   0.00050072            4.6808e-10            -4.18e-12             -0.00050036          
  1.15                  0.00053286            5.771e-10             -2.86e-12             -0.00053244          
  1.2                   0.00056268            7.0734e-10            -4.36e-12             -0.00056226          
  1.25                  0.00059038            8.5748e-10            -3.44e-12             -0.00058998          
  1.3                   0.0006161             1.0342e-09            -4.04e-12             -0.00061574          
  1.35                  0.00063992            1.2376e-09            -4.28e-12             -0.00063952          
END_DB

BEGIN_DB
 ICCAP_VAR vb         -0.9           
 ICCAP_VAR vd         0.05           
 ICCAP_VAR vs         0              

 #vg                    id                    ig                    ib                    is                   
  -0.5                  1.64e-12              -3.64e-12             -6.06e-12             2.02e-12             
  -0.45                 1.1e-12               -2.64e-12             -6.72e-12             1.44e-12             
  -0.4                  9e-13                 -1.74e-12             -6.42e-12             9.4e-13              
  -0.35                 5.4e-13               -1.06e-12             -6.3e-12              8.4e-13              
  -0.3                  4.2e-13               -6.6e-13              -5.14e-12             4.4e-13              
  -0.25                 3e-13                 -3e-13                -5.58e-12             3.4e-13              
  -0.2                  1.8e-13               -1.2e-13              -5.52e-12             4.2e-13              
  -0.15                 2e-14                 6e-14                 -1.74e-12             8e-14                
  -0.1                  3.2e-13               2e-13                 -5.2e-12              -8e-14               
  -0.05                 1.2e-12               1.8e-13               -4.66e-12             -1e-12               
  0                     6.42e-12              3e-13                 -4.4e-12              -6.46e-12            
  0.05                  3.372e-11             2.2e-13               -5.28e-12             -3.348e-11           
  0.1                   1.752e-10             5e-13                 -5.02e-12             -1.7516e-10          
  0.15                  9.1048e-10            3.4e-13               -4.62e-12             -9.0996e-10          
  0.2                   4.6926e-09            4.6e-13               -4.18e-12             -4.6914e-09          
  0.25                  2.3922e-08            6.8e-13               -3.74e-12             -2.3898e-08          
  0.3                   1.1836e-07            1.06e-12              -4.66e-12             -1.1822e-07          
  0.35                  5.5224e-07            1.66e-12              -4.32e-12             -5.5222e-07          
  0.4                   2.2676e-06            2.94e-12              -3.82e-12             -2.2616e-06          
  0.45                  7.5582e-06            5.06e-12              -4.72e-12             -7.5568e-06          
  0.5                   1.9776e-05            8.56e-12              -5.06e-12             -1.9728e-05          
  0.55                  4.1102e-05            1.436e-11             -3.28e-12             -4.1094e-05          
  0.6                   7.1446e-05            2.294e-11             -3.18e-12             -7.1438e-05          
  0.65                  0.000108794           3.466e-11             -4.82e-12             -0.000108736         
  0.7                   0.0001506             5.072e-11             -3.8e-12              -0.00015022          
  0.75                  0.00019484            7.18e-11              -3.64e-12             -0.00019444          
  0.8                   0.00023976            9.872e-11             -3.26e-12             -0.00023938          
  0.85                  0.0002843             1.3302e-10            -3.84e-12             -0.00028392          
  0.9                   0.00032758            1.758e-10             -4.22e-12             -0.00032718          
  0.95                  0.0003691             2.2802e-10            -3.88e-12             -0.00036868          
  1                     0.00040858            2.925e-10             -2.82e-12             -0.0004082           
  1.05                  0.00044592            3.6984e-10            -3.68e-12             -0.00044552          
  1.1                   0.00048092            4.6228e-10            -4.44e-12             -0.00048044          
  1.15                  0.00051368            5.7174e-10            -3.56e-12             -0.00051334          
  1.2                   0.00054426            6.9944e-10            -3.84e-12             -0.0005439           
  1.25                  0.00057274            8.509e-10             -3.42e-12             -0.00057232          
  1.3                   0.00059902            1.0254e-09            -4.16e-12             -0.00059864          
  1.35                  0.00062346            1.2274e-09            -5.06e-12             -0.00062302          
END_DB

BEGIN_DB
 ICCAP_VAR vb         -1.2           
 ICCAP_VAR vd         0.05           
 ICCAP_VAR vs         0              

 #vg                    id                    ig                    ib                    is                   
  -0.5                  1.42e-12              -3.56e-12             -5.66e-12             1.88e-12             
  -0.45                 1.24e-12              -2.6e-12              -7.76e-12             1.48e-12             
  -0.4                  8.2e-13               -1.72e-12             -6.6e-12              1.04e-12             
  -0.35                 6.4e-13               -1.26e-12             -7.1e-12              1.04e-12             
  -0.3                  3.6e-13               -6.6e-13              -5.84e-12             5.4e-13              
