! VERSION = 6.00
BEGIN_HEADER
 ICCAP_INPUTS
  vg         V  G GROUND SMU2 0.001 LIN        1    -0.5       1.35       38   0.05      
  vb         V  B GROUND SMU4 0.1 LIN        2    0          -1.2       5    -0.3      
  vd         V  D GROUND SMU1 0.1 LIST       3 3 0.05 0.6 1.2
  vs         V  S GROUND SMU3 0.1 CON        0
 ICCAP_OUTPUTS
  id         I  D GROUND SMU1 B
  ig         I  G GROUND SMU2 B
  ib         I  B GROUND SMU4 B
  is         I  S GROUND SMU3 B
 ICCAP_VALUES
  MASTER_SETUP_TYPE "~dc_idvg~"
  LINVT_VALUE ""
  LISTVT_VALUE ""
  TYPE "1"
  TEMP "-40.0000 "
  IS_TNOM " 0.00000 "
  MAIN.W "10.00u"
  MAIN.L "180.0n"
  MAIN.AD "3.400p"
  MAIN.AS "3.400p"
  MAIN.PD "20.68u"
  MAIN.PS "20.68u"
  MAIN.NF "1.000"
  MAIN.M "1"
  MAIN.NRD "0.000"
  MAIN.NRS "0.000"
  MAIN.LDRIFT1 "1E-06"
  MAIN.LDRIFT2 "1E-06"
  MAIN.SA "0.000"
  MAIN.SB "0.000"
  MAIN.SD "0.000"
  MAIN.SCA "0.000"
  MAIN.SCB "0.000"
  MAIN.SCC "0.000"
  MAIN.SC "0.000"
  MODULE "S540"
  PIN_D "12"
  PIN_G "9"
  PIN_S "10"
  PIN_B "11"
  PIN_E ""
  PIN_6 ""
  XY_ID ""
  FUNC "L Scale"
  STI "SA ref"
  WPE "WPE ref"
  COMMENT ""
  DIS_MEAS ""
  TypeTCI "10"
END_HEADER

BEGIN_DB
 ICCAP_VAR vb         0              
 ICCAP_VAR vd         0.05           
 ICCAP_VAR vs         0              

 #vg                    id                    ig                    ib                    is                   
  -0.5                  1.36e-12              -3.42e-12             -1.98e-12             1.7e-12              
  -0.45                 1e-12                 -2.12e-12             -2.94e-12             1.26e-12             
  -0.4                  7e-13                 -1.46e-12             -1.28e-12             9e-13                
  -0.35                 5e-13                 -9e-13                -2.04e-12             6.4e-13              
  -0.3                  3.2e-13               -4.8e-13              -2.98e-12             5e-13                
  -0.25                 1.6e-13               -1.6e-13              -2.16e-12             4e-13                
  -0.2                  1e-13                 -6e-14                -2.4e-12              3.2e-13              
  -0.15                 1.2e-13               1.4e-13               -1.6e-12              1e-13                
  -0.1                  4e-14                 1.4e-13               -2.1e-12              8e-14                
  -0.05                 5.4e-13               3.2e-13               -2.18e-12             -3e-13               
  0                     3.74e-12              3.8e-13               -2.42e-12             -3.62e-12            
  0.05                  2.808e-11             3.2e-13               -3.26e-12             -2.776e-11           
  0.1                   2.0698e-10            4.2e-13               -2.42e-12             -2.0674e-10          
  0.15                  1.531e-09             4.6e-13               -2.16e-12             -1.5282e-09          
  0.2                   1.11348e-08           5.4e-13               -2.04e-12             -1.10984e-08         
  0.25                  7.8186e-08            5.4e-13               -2.6e-12              -7.8164e-08          
  0.3                   4.9904e-07            9.2e-13               -8.8e-13              -4.9968e-07          
  0.35                  2.5744e-06            1.72e-12              -1.58e-12             -2.5676e-06          
  0.4                   9.6914e-06            3.2e-12               -2.98e-12             -9.6754e-06          
  0.45                  2.672e-05             5.62e-12              -1.46e-12             -2.6686e-05          
  0.5                   5.647e-05             9.5e-12               -1.12e-12             -5.6426e-05          
  0.55                  9.7964e-05            1.524e-11             -2.34e-12             -9.791e-05           
  0.6                   0.0001486             2.35e-11              -2.92e-12             -0.00014822          
  0.65                  0.00020456            3.466e-11             -1.18e-12             -0.00020418          
  0.7                   0.0002629             4.97e-11              -1.22e-12             -0.00026254          
  0.75                  0.00032176            6.964e-11             -1.52e-12             -0.00032138          
  0.8                   0.00037926            9.51e-11              -2.68e-12             -0.0003789           
  0.85                  0.00043472            1.2708e-10            -1.8e-12              -0.00043434          
  0.9                   0.00048722            1.6718e-10            -1e-12                -0.0004868           
  0.95                  0.00053662            2.1646e-10            -2.4e-12              -0.0005363           
  1                     0.00058298            2.7646e-10            -1.52e-12             -0.00058264          
  1.05                  0.00062594            3.4884e-10            -2.24e-12             -0.00062556          
  1.1                   0.00066574            4.3506e-10            -2.02e-12             -0.00066536          
  1.15                  0.00070248            5.3732e-10            -8.4e-13              -0.00070216          
  1.2                   0.00073616            6.5782e-10            -1.56e-12             -0.00073578          
  1.25                  0.00076714            7.986e-10             -1.7e-12              -0.00076672          
  1.3                   0.00079534            9.6134e-10            -2.3e-12              -0.00079498          
  1.35                  0.00082096            1.152e-09             -1.26e-12             -0.00082058          
END_DB

BEGIN_DB
 ICCAP_VAR vb         -0.3           
 ICCAP_VAR vd         0.05           
 ICCAP_VAR vs         0              

 #vg                    id                    ig                    ib                    is                   
  -0.5                  1.38e-12              -3.1e-12              -3.56e-12             1.62e-12             
  -0.45                 8.8e-13               -2.18e-12             -2.64e-12             1.2e-12              
  -0.4                  7.8e-13               -1.56e-12             -3.02e-12             1.16e-12             
  -0.35                 4.6e-13               -8.8e-13              -3.06e-12             6.6e-13              
  -0.3                  3.8e-13               -5.4e-13              -4e-12                5.8e-13              
  -0.25                 1.8e-13               -2.8e-13              -2.28e-12             4e-13                
  -0.2                  1e-13                 0                     -2.3e-12              3.2e-13              
  -0.15                 6e-14                 -4e-14                -3.16e-12             2.2e-13              
  -0.1                  0                     2.2e-13               -3.22e-12             4e-14                
  -0.05                 4e-14                 1.6e-13               -2.72e-12             1.4e-13              
  0                     7e-13                 4e-13                 -1.86e-12             -5.4e-13             
  0.05                  4.34e-12              3.8e-13               3.74e-12              -4.3e-12             
  0.1                   3.354e-11             4.8e-13               -2.36e-12             -3.346e-11           
  0.15                  2.641e-10             4.8e-13               -2.62e-12             -2.641e-10           
  0.2                   2.047e-09             4.4e-13               -2.26e-12             -2.0462e-09          
  0.25                  1.5512e-08            6.4e-13               -1.8e-12              -1.5482e-08          
  0.3                   1.12138e-07           1.02e-12              -2.02e-12             -1.12112e-07         
  0.35                  7.1616e-07            1.68e-12              -2.58e-12             -7.1614e-07          
  0.4                   3.5336e-06            2.6e-12               -1.4e-12              -3.5244e-06          
  0.45                  1.2574e-05            4.68e-12              -1.72e-12             -1.254e-05           
  0.5                   3.2502e-05            8.42e-12              -1.94e-12             -3.2478e-05          
  0.55                  6.5298e-05            1.376e-11             -2.14e-12             -6.5238e-05          
  0.6                   0.000109294           2.172e-11             -1.38e-12             -0.000109294         
  0.65                  0.0001615             3.264e-11             -1.3e-12              -0.00016114          
  0.7                   0.00021796            4.728e-11             -2.28e-12             -0.00021756          
  0.75                  0.00027616            6.67e-11              -2.84e-12             -0.00027586          
  0.8                   0.00033432            9.174e-11             -1.32e-12             -0.00033398          
  0.85                  0.00039078            1.2344e-10            -1.08e-12             -0.00039032          
  0.9                   0.0004447             1.6298e-10            -2.12e-12             -0.0004443           
  0.95                  0.00049578            2.1156e-10            -3.12e-12             -0.00049534          
  1                     0.00054358            2.711e-10             -2.2e-12              -0.00054324          
  1.05                  0.00058828            3.4272e-10            -1.48e-12             -0.0005879           
  1.1                   0.00062972            4.282e-10             -2.28e-12             -0.0006293           
  1.15                  0.00066796            5.2994e-10            -3.08e-12             -0.00066754          
  1.2                   0.00070312            6.4908e-10            -1.16e-12             -0.00070274          
  1.25                  0.00073534            7.8924e-10            -2.24e-12             -0.00073496          
  1.3                   0.00076488            9.5048e-10            -1.66e-12             -0.00076446          
  1.35                  0.0007917             1.1394e-09            -2.96e-12             -0.00079136          
END_DB

BEGIN_DB
 ICCAP_VAR vb         -0.6           
 ICCAP_VAR vd         0.05           
 ICCAP_VAR vs         0              

 #vg                    id                    ig                    ib                    is                   
  -0.5                  1.24e-12              -3e-12                -2.46e-12             1.62e-12             
  -0.45                 9e-13                 -2.28e-12             -3.48e-12             1.2e-12              
  -0.4                  6.6e-13               -1.38e-12             -3.76e-12             9.4e-13              
  -0.35                 4.8e-13               -9.4e-13              -3.52e-12             6.2e-13              
  -0.3                  2.8e-13               -6.8e-13              -3.12e-12             4.2e-13              
  -0.25                 2.6e-13               -3e-13                -2.52e-12             4.2e-13              
  -0.2                  1.6e-13               -4e-14                -3.16e-12             2.4e-13              
  -0.15                 8e-14                 2e-14                 -2.98e-12             1.2e-13              
  -0.1                  4e-14                 1e-13                 -2.74e-12             1.4e-13              
  -0.05                 4e-14                 3.2e-13               -3.74e-12             2e-13                
  0                     1.4e-13               2.2e-13               -2.3e-12              0                    
  0.05                  9.6e-13               2.8e-13               -8e-13                -8.2e-13             
  0.1                   7.78e-12              3.2e-13               -2.78e-12             -7.6e-12             
  0.15                  6.43e-11              4.4e-13               -3.08e-12             -6.42e-11            
  0.2                   5.2006e-10            5.2e-13               -2.82e-12             -5.198e-10           
  0.25                  4.147e-09             4.6e-13               -2.32e-12             -4.1362e-09          
  0.3                   3.1792e-08            8.2e-13               -1.86e-12             -3.1786e-08          
  0.35                  2.283e-07             1.42e-12              -2.9e-12              -2.283e-07           
  0.4                   1.364e-06             2.22e-12              -1.78e-12             -1.36e-06            
  0.45                  6.0088e-06            4.18e-12              -2.02e-12             -6.005e-06           
  0.5                   1.8876e-05            7.38e-12              -2.02e-12             -1.8846e-05          
  0.55                  4.387e-05             1.258e-11             -2.7e-12              -4.3838e-05          
  0.6                   8.1524e-05            2.016e-11             -2.04e-12             -8.1508e-05          
  0.65                  0.0001293             3.072e-11             -1.3e-12              -0.0001289           
  0.7                   0.0001832             4.512e-11             -2.94e-12             -0.0001828           
  0.75                  0.00024042            6.414e-11             -2.54e-12             -0.00024008          
  0.8                   0.00029838            8.88e-11              3.8e-13               -0.00029796          
  0.85                  0.00035534            1.2006e-10            -1.44e-12             -0.00035504          
  0.9                   0.00041036            1.5894e-10            -2.38e-12             -0.00040998          
  0.95                  0.00046246            2.073e-10             -2.86e-12             -0.00046206          
  1                     0.00051168            2.6606e-10            -1.96e-12             -0.00051134          
  1.05                  0.00055764            3.3734e-10            -1.88e-12             -0.00055724          
  1.1                   0.00060018            4.2236e-10            -2.84e-12             -0.00059986          
  1.15                  0.0006397             5.2404e-10            -2.04e-12             -0.0006393           
  1.2                   0.00067604            6.4302e-10            -2.7e-12              -0.00067564          
  1.25                  0.00070944            7.8176e-10            -2.14e-12             -0.0007091           
  1.3                   0.00074004            9.4204e-10            -2e-12                -0.00073958          
  1.35                  0.00076792            1.1312e-09            -3.14e-12             -0.00076754          
END_DB

BEGIN_DB
 ICCAP_VAR vb         -0.9           
 ICCAP_VAR vd         0.05           
 ICCAP_VAR vs         0              

 #vg                    id                    ig                    ib                    is                   
  -0.5                  1.18e-12              -3.06e-12             -3.74e-12             1.62e-12             
  -0.45                 1.02e-12              -2.12e-12             -4.6e-12              1.32e-12             
  -0.4                  6.8e-13               -1.52e-12             -2.96e-12             8.4e-13              
  -0.35                 3.6e-13               -9.4e-13              -2.84e-12             6.6e-13              
  -0.3                  3e-13                 -4.8e-13              -3.52e-12             5.4e-13              
  -0.25                 2e-13                 -2.8e-13              -3.7e-12              2.6e-13              
  -0.2                  1.8e-13               -1e-13                -3.92e-12             2.6e-13              
  -0.15                 1.8e-13               1.2e-13               -3.06e-12             1.8e-13              
  -0.1                  0                     1.8e-13               -2e-12                1.4e-13              
  -0.05                 8e-14                 2.8e-13               -3.04e-12             1.8e-13              
  0                     6e-14                 2.6e-13               -3.22e-12             8e-14                
  0.05                  3.2e-13               3.6e-13               -3.02e-12             -8e-14               
  0.1                   2.4e-12               3.2e-13               -2.34e-12             -2.38e-12            
  0.15                  2.032e-11             3.6e-13               -3.08e-12             -2.034e-11           
  0.2                   1.7006e-10            4.6e-13               -2.36e-12             -1.7042e-10          
  0.25                  1.4076e-09            6.6e-13               -3.38e-12             -1.404e-09           
  0.3                   1.1233e-08            7.8e-13               -2.86e-12             -1.12362e-08         
  0.35                  8.5986e-08            1.22e-12              -1.92e-12             -8.6024e-08          
  0.4                   5.7888e-07            2.22e-12              -2.94e-12             -5.7862e-07          
  0.45                  3.0272e-06            3.74e-12              -2.66e-12             -3.0206e-06          
  0.5                   1.12404e-05           6.74e-12              -2.1e-12              -1.123e-05           
  0.55                  2.9996e-05            1.158e-11             -2.2e-12              -2.9968e-05          
  0.6                   6.1696e-05            1.882e-11             -2.08e-12             -6.1658e-05          
  0.65                  0.000104848           2.926e-11             -3e-12                -0.000104852         
  0.7                   0.00015616            4.314e-11             -1.58e-12             -0.00015578          
  0.75                  0.00021196            6.208e-11             -1.16e-12             -0.00021156          
  0.8                   0.00026938            8.636e-11             -4.72e-12             -0.00026902          
  0.85                  0.0003267             1.1714e-10            -2.64e-12             -0.00032628          
  0.9                   0.00038234            1.5592e-10            -2.34e-12             -0.00038186          
  0.95                  0.00043532            2.0344e-10            -1.68e-12             -0.00043498          
  1                     0.0004855             2.6224e-10            -2.04e-12             -0.00048514          
  1.05                  0.0005325             3.3268e-10            -3.48e-12             -0.0005321           
  1.1                   0.0005762             4.1736e-10            -1.82e-12             -0.00057582          
  1.15                  0.00061666            5.178e-10             -9.4e-13              -0.00061624          
  1.2                   0.000654              6.3602e-10            -2e-12                -0.00065368          
  1.25                  0.00068832            7.755e-10             -1.36e-12             -0.0006879           
  1.3                   0.00071974            9.35e-10              -3.34e-12             -0.0007194           
  1.35                  0.00074852            1.1224e-09            -2.1e-12              -0.0007481           
END_DB

BEGIN_DB
 ICCAP_VAR vb         -1.2           
 ICCAP_VAR vd         0.05           
 ICCAP_VAR vs         0              

 #vg                    id                    ig                    ib                    is                   
  -0.5                  1.28e-12              -3.08e-12             -3.62e-12             1.58e-12             
  -0.45                 1.02e-12              -2.1e-12              -4.54e-12             1.28e-12             
  -0.4                  6e-13                 -1.46e-12             -3.88e-12             8.4e-13              
  -0.35                 5e-13                 -9.6e-13              -3.02e-12             4.8e-13              
  -0.3                  3.2e-13               -7.8e-13              -2.76e-12             6.4e-13              
