! VERSION = 6.00
BEGIN_HEADER
 ICCAP_INPUTS
  vd         V  D GROUND SMU1 0.1 LIN        1    0          1.35       28   0.05      
  vg         V  G GROUND SMU2 0.001 LIST       2 3 0.002 0.202 0.402
  vb         V  B GROUND SMU4 0.1 CON        0
  vs         V  S GROUND SMU3 0.1 CON        0
 ICCAP_OUTPUTS
  id         I  D GROUND SMU1 B
  ig         I  G GROUND SMU2 B
  ib         I  B GROUND SMU4 B
  is         I  S GROUND SMU3 B
 ICCAP_VALUES
  MASTER_SETUP_TYPE "~dc_idvd~"
  LINVT_VALUE ""
  LISTVT_VALUE "|idvg|100.0n|-200.0m|1.000m|3|200.0m|200.0m|"
  TYPE "1"
  TEMP " 27.0000 "
  IS_TNOM " 1.00000 "
  MAIN.W "10.00u"
  MAIN.L "1.200u"
  MAIN.AD "3.400p"
  MAIN.AS "3.400p"
  MAIN.PD "20.68u"
  MAIN.PS "20.68u"
  MAIN.NF "1.000"
  MAIN.M "1"
  MAIN.NRD "0.000"
  MAIN.NRS "0.000"
  MAIN.LDRIFT1 "1E-06"
  MAIN.LDRIFT2 "1E-06"
  MAIN.SA "0.000"
  MAIN.SB "0.000"
  MAIN.SD "0.000"
  MAIN.SCA "0.000"
  MAIN.SCB "0.000"
  MAIN.SCC "0.000"
  MAIN.SC "0.000"
  MODULE "S541"
  PIN_D "18"
  PIN_G "3"
  PIN_S "4"
  PIN_B "17"
  PIN_E ""
  PIN_6 ""
  XY_ID ""
  FUNC "L Scale"
  STI "SA ref"
  WPE "WPE ref"
  COMMENT ""
  DIS_MEAS ""
  TypeTCI "10"
END_HEADER

BEGIN_DB
 ICCAP_VAR vg         0.002          
 ICCAP_VAR vb         0              
 ICCAP_VAR vs         0              

 #vd                    id                    ig                    ib                    is                   
  0                     5.74e-12              -2e-13                8.6e-13               -3.14e-12            
  0.05                  1.3004e-09            -8e-14                6.2e-13               -1.298e-09           
  0.1                   1.5634e-09            -2.4e-13              1.28e-12              -1.5612e-09          
  0.15                  1.6626e-09            -2.8e-13              4.6e-13               -1.6608e-09          
  0.2                   1.7342e-09            -2.8e-13              -1.4e-13              -1.7324e-09          
  0.25                  1.7982e-09            -4e-13                5e-13                 -1.7954e-09          
  0.3                   1.8584e-09            -4.8e-13              1.04e-12              -1.8564e-09          
  0.35                  1.9162e-09            -5.4e-13              1.28e-12              -1.9138e-09          
  0.4                   1.9712e-09            -8.2e-13              -2e-13                -1.9678e-09          
  0.45                  2.0238e-09            -1.02e-12             -1.6e-13              -2.0202e-09          
  0.5                   2.0732e-09            -1.5e-12              3.8e-13               -2.069e-09           
  0.55                  2.12e-09              -1.92e-12             -2.74e-12             -2.1162e-09          
  0.6                   2.165e-09             -2.4e-12              1.34e-12              -2.1608e-09          
  0.65                  2.2088e-09            -3.2e-12              -2e-14                -2.203e-09           
  0.7                   2.2498e-09            -3.78e-12             3.2e-13               -2.243e-09           
  0.75                  2.2886e-09            -4.8e-12              8e-14                 -2.281e-09           
  0.8                   2.326e-09             -5.88e-12             1e-12                 -2.3166e-09          
  0.85                  2.3604e-09            -7.12e-12             1.1e-12               -2.3522e-09          
  0.9                   2.3958e-09            -8.46e-12             -1.2e-13              -2.3842e-09          
  0.95                  2.4286e-09            -1.012e-11            3e-13                 -2.4152e-09          
  1                     2.4592e-09            -1.2e-11              4.6e-13               -2.4446e-09          
  1.05                  2.4888e-09            -1.42e-11             1.26e-12              -2.472e-09           
  1.1                   2.5174e-09            -1.666e-11            5e-13                 -2.498e-09           
  1.15                  2.5448e-09            -1.934e-11            -6e-13                -2.5232e-09          
  1.2                   2.5714e-09            -2.26e-11             -9e-13                -2.5456e-09          
  1.25                  2.5978e-09            -2.642e-11            6e-14                 -2.5676e-09          
  1.3                   2.623e-09             -3.066e-11            -1.4e-13              -2.5882e-09          
  1.35                  2.648e-09             -3.568e-11            -8.6e-13              -2.6082e-09          
END_DB

BEGIN_DB
 ICCAP_VAR vg         0.202          
 ICCAP_VAR vb         0              
 ICCAP_VAR vs         0              

 #vd                    id                    ig                    ib                    is                   
  0                     1.2618e-09            4.46e-12              4.6e-13               -1.3348e-09          
  0.05                  5.3748e-07            3.4e-12               8e-14                 -5.3682e-07          
  0.1                   6.7e-07               3.1e-12               1.2e-12               -6.7e-07             
  0.15                  7.2402e-07            2.86e-12              5.4e-13               -7.2428e-07          
  0.2                   7.6242e-07            2.9e-12               3.2e-13               -7.6206e-07          
  0.25                  7.9584e-07            2.74e-12              -6e-14                -7.958e-07           
  0.3                   8.2728e-07            2.5e-12               4.2e-13               -8.2802e-07          
  0.35                  8.5716e-07            2.48e-12              4e-14                 -8.574e-07           
  0.4                   8.8516e-07            2.32e-12              3e-13                 -8.8516e-07          
  0.45                  9.1188e-07            2.18e-12              -3e-13                -9.1174e-07          
  0.5                   9.3714e-07            2.02e-12              1.1e-12               -9.368e-07           
  0.55                  9.605e-07             1.94e-12              9.2e-13               -9.613e-07           
  0.6                   9.8322e-07            1.64e-12              2.4e-13               -9.8374e-07          
  0.65                  1.00552e-06           1.46e-12              7e-13                 -1.00576e-06         
  0.7                   1.02608e-06           9.2e-13               9.6e-13               -1.02604e-06         
  0.75                  1.04546e-06           2.4e-13               -3.8e-13              -1.04586e-06         
  0.8                   1.06468e-06           -1.6e-13              8e-14                 -1.06408e-06         
  0.85                  1.0817e-06            -1.22e-12             -5.2e-13              -1.0817e-06          
  0.9                   1.0984e-06            -1.94e-12             5.4e-13               -1.09864e-06         
  0.95                  1.11492e-06           -2.84e-12             -1.2e-13              -1.11496e-06         
  1                     1.1308e-06            -4.02e-12             -2.4e-12              -1.13072e-06         
  1.05                  1.1443e-06            -5.28e-12             -4.24e-12             -1.14452e-06         
  1.1                   1.159e-06             -6.72e-12             -8.48e-12             -1.15768e-06         
  1.15                  1.1714e-06            -8.42e-12             -1.596e-11            -1.1695e-06          
  1.2                   1.1856e-06            -1.03e-11             -3.08e-11             -1.181e-06           
  1.25                  1.1972e-06            -1.226e-11            -5.434e-11            -1.1924e-06          
  1.3                   1.2082e-06            -1.48e-11             -8.962e-11            -1.2034e-06          
  1.35                  1.218e-06             -1.77e-11             -1.404e-10            -1.2138e-06          
END_DB

BEGIN_DB
 ICCAP_VAR vg         0.402          
 ICCAP_VAR vb         0              
 ICCAP_VAR vs         0              

 #vd                    id                    ig                    ib                    is                   
  0                     3.383e-08             5.636e-11             1.38e-12              -3.2728e-08          
  0.05                  1.7894e-05            4.532e-11             5.2e-13               -1.787e-05           
  0.1                   2.714e-05             3.966e-11             1.16e-12              -2.7122e-05          
  0.15                  3.1222e-05            3.714e-11             -8.4e-13              -3.1188e-05          
  0.2                   3.318e-05             3.584e-11             -2e-14                -3.3172e-05          
  0.25                  3.4474e-05            3.508e-11             1.06e-12              -3.4458e-05          
  0.3                   3.5524e-05            3.454e-11             3e-13                 -3.5502e-05          
  0.35                  3.647e-05             3.386e-11             1.4e-13               -3.645e-05           
  0.4                   3.7344e-05            3.348e-11             7e-13                 -3.733e-05           
  0.45                  3.817e-05             3.302e-11             -6.6e-13              -3.8154e-05          
  0.5                   3.8964e-05            3.242e-11             2.8e-13               -3.896e-05           
  0.55                  3.9732e-05            3.218e-11             8.6e-13               -3.972e-05           
  0.6                   4.0462e-05            3.16e-11              -6e-14                -4.0448e-05          
  0.65                  4.1184e-05            3.128e-11             2.6e-13               -4.1156e-05          
  0.7                   4.186e-05             3.074e-11             8e-13                 -4.1844e-05          
  0.75                  4.2532e-05            3.012e-11             -6.8e-13              -4.2518e-05          
  0.8                   4.318e-05             2.954e-11             1e-12                 -4.3164e-05          
  0.85                  4.3814e-05            2.906e-11             2.6e-13               -4.3798e-05          
  0.9                   4.4428e-05            2.828e-11             -8.2e-13              -4.4416e-05          
  0.95                  4.5028e-05            2.74e-11              -4.4e-13              -4.5014e-05          
  1                     4.5614e-05            2.666e-11             -3.3e-12              -4.5598e-05          
  1.05                  4.618e-05             2.56e-11              -8.58e-12             -4.6164e-05          
  1.1                   4.6734e-05            2.44e-11              -2.358e-11            -4.6718e-05          
  1.15                  4.7278e-05            2.328e-11             -6.134e-11            -4.7256e-05          
  1.2                   4.7804e-05            2.19e-11              -1.4274e-10           -4.7786e-05          
  1.25                  4.8314e-05            2.032e-11             -3.0608e-10           -4.8288e-05          
  1.3                   4.8812e-05            1.876e-11             -6.0978e-10           -4.8796e-05          
  1.35                  4.9306e-05            1.694e-11             -1.1296e-09           -4.9284e-05          
END_DB

