! VERSION = 6.00
BEGIN_HEADER
 ICCAP_INPUTS
  vd         V  D GROUND SMU1 0.1 LIN        1    0          1.35       28   0.05      
  vg         V  G GROUND SMU2 0.001 LIST       2 3 0.301 0.501 0.701
  vb         V  B GROUND SMU4 0.1 CON        -1.2
  vs         V  S GROUND SMU3 0.1 CON        0
 ICCAP_OUTPUTS
  id         I  D GROUND SMU1 B
  ig         I  G GROUND SMU2 B
  ib         I  B GROUND SMU4 B
  is         I  S GROUND SMU3 B
 ICCAP_VALUES
  MASTER_SETUP_TYPE "~dc_idvd~"
  LINVT_VALUE ""
  LISTVT_VALUE "|idvg|100.0n|-200.0m|1.000m|3|200.0m|200.0m|"
  TYPE "1"
  TEMP "-40.0000 "
  IS_TNOM " 0.00000 "
  MAIN.W "150.0n"
  MAIN.L "180.0n"
  MAIN.AD "100.5f"
  MAIN.AS "100.5f"
  MAIN.PD "1.340u"
  MAIN.PS "1.340u"
  MAIN.NF "1.000"
  MAIN.M "1"
  MAIN.NRD "0.000"
  MAIN.NRS "0.000"
  MAIN.LDRIFT1 "1E-06"
  MAIN.LDRIFT2 "1E-06"
  MAIN.SA "0.000"
  MAIN.SB "0.000"
  MAIN.SD "0.000"
  MAIN.SCA "0.000"
  MAIN.SCB "0.000"
  MAIN.SCC "0.000"
  MAIN.SC "0.000"
  MODULE "S547"
  PIN_D "20"
  PIN_G "1"
  PIN_S "2"
  PIN_B "19"
  PIN_E ""
  PIN_6 ""
  XY_ID ""
  FUNC "LW Scale"
  STI "SA ref"
  WPE "WPE ref"
  COMMENT ""
  DIS_MEAS ""
  TypeTCI "10"
END_HEADER

BEGIN_DB
 ICCAP_VAR vg         0.301          
 ICCAP_VAR vb         -1.2           
 ICCAP_VAR vs         0              

 #vd                    id                    ig                    ib                    is                   
  0                     -6e-14                -1e-13                -3.62e-12             6e-14                
  0.05                  1.09e-11              -2e-14                -2.84e-12             -1.076e-11           
  0.1                   1.294e-11             -1e-13                -3.82e-12             -1.264e-11           
  0.15                  1.418e-11             -1e-13                -2.52e-12             -1.376e-11           
  0.2                   1.554e-11             -1e-13                -1.3e-12              -1.486e-11           
  0.25                  1.672e-11             -1.2e-13              -2.96e-12             -1.628e-11           
  0.3                   1.808e-11             -2e-14                -2.2e-12              -1.76e-11            
  0.35                  1.972e-11             2e-14                 -2.18e-12             -1.9e-11             
  0.4                   2.126e-11             -4e-14                -2.08e-12             -2.066e-11           
  0.45                  2.294e-11             6e-14                 -1.32e-12             -2.196e-11           
  0.5                   2.474e-11             -4e-14                -1.48e-12             -2.388e-11           
  0.55                  2.642e-11             1.4e-13               -2.1e-12              -2.542e-11           
  0.6                   2.846e-11             8e-14                 -2.9e-12              -2.754e-11           
  0.65                  3.042e-11             -2e-14                -1.54e-12             -2.972e-11           
  0.7                   3.31e-11              -8e-14                -9e-13                -3.162e-11           
  0.75                  3.482e-11             -4e-14                -1.22e-12             -3.396e-11           
  0.8                   3.758e-11             -6e-14                -1.76e-12             -3.662e-11           
  0.85                  4.024e-11             1.4e-13               -1.7e-12              -3.866e-11           
  0.9                   4.292e-11             0                     -1.18e-12             -4.178e-11           
  0.95                  4.542e-11             -8e-14                -1.46e-12             -4.53e-11            
  1                     4.886e-11             0                     2.2e-13               -4.778e-11           
  1.05                  5.212e-11             -8e-14                -1.22e-12             -5.094e-11           
  1.1                   5.618e-11             2e-14                 -1.14e-12             -5.384e-11           
  1.15                  5.91e-11              -8e-14                -1.72e-12             -5.87e-11            
  1.2                   6.264e-11             -4e-14                -1.24e-12             -6.162e-11           
  1.25                  6.714e-11             -1.8e-13              -2e-13                -6.62e-11            
  1.3                   7.082e-11             -2.2e-13              -1e-12                -6.956e-11           
  1.35                  7.452e-11             -1.4e-13              -1.24e-12             -7.36e-11            
END_DB

BEGIN_DB
 ICCAP_VAR vg         0.501          
 ICCAP_VAR vb         -1.2           
 ICCAP_VAR vs         0              

 #vd                    id                    ig                    ib                    is                   
  0                     1.1474e-10            1.2e-13               -1.46e-12             -1.1534e-10          
  0.05                  3.7744e-08            1.8e-13               -1.44e-12             -3.8158e-08          
  0.1                   4.6896e-08            1.6e-13               -2e-14                -4.7482e-08          
  0.15                  5.184e-08             2.8e-13               -8.2e-13              -5.1686e-08          
  0.2                   5.6364e-08            1.8e-13               -1.02e-12             -5.534e-08           
  0.25                  5.99e-08              1.8e-13               -7.6e-13              -5.9462e-08          
  0.3                   6.407e-08             2e-13                 -1e-12                -6.3872e-08          
  0.35                  6.8688e-08            2.4e-13               -7e-13                -6.8464e-08          
  0.4                   7.3692e-08            2e-13                 -1.94e-12             -7.3852e-08          
  0.45                  7.8082e-08            2.6e-13               -1.48e-12             -7.7712e-08          
  0.5                   8.2324e-08            1e-13                 -2.4e-13              -8.318e-08           
  0.55                  8.8228e-08            1.4e-13               -1.46e-12             -8.7894e-08          
  0.6                   9.2958e-08            2.6e-13               -1.48e-12             -9.345e-08           
  0.65                  9.898e-08             1.4e-13               -1.44e-12             -9.9186e-08          
  0.7                   1.05352e-07           4e-14                 -1.18e-12             -1.05036e-07         
  0.75                  1.1222e-07            1.4e-13               -8.8e-13              -1.10144e-07         
  0.8                   1.1786e-07            6e-14                 -1.02e-12             -1.1732e-07          
  0.85                  1.2268e-07            3.8e-13               -4.6e-13              -1.2226e-07          
  0.9                   1.3192e-07            3e-13                 -8.6e-13              -1.2984e-07          
  0.95                  1.3702e-07            2.2e-13               -5e-13                -1.366e-07           
  1                     1.4334e-07            1.2e-13               -1.24e-12             -1.434e-07           
  1.05                  1.5168e-07            8e-14                 -1.04e-12             -1.498e-07           
  1.1                   1.5704e-07            6e-14                 -8e-13                -1.5798e-07          
  1.15                  1.6418e-07            2.2e-13               -1.8e-12              -1.659e-07           
  1.2                   1.7184e-07            -2e-14                -1.9e-12              -1.7368e-07          
  1.25                  1.8118e-07            1e-13                 -1.26e-12             -1.8034e-07          
  1.3                   1.8754e-07            1e-13                 -4.12e-12             -1.912e-07           
  1.35                  1.9736e-07            8e-14                 -6.64e-12             -1.973e-07           
END_DB

BEGIN_DB
 ICCAP_VAR vg         0.701          
 ICCAP_VAR vb         -1.2           
 ICCAP_VAR vs         0              

 #vd                    id                    ig                    ib                    is                   
  0                     2.3792e-09            9.8e-13               3.6e-13               -2.1768e-09          
  0.05                  1.4904e-06            1.02e-12              -1.12e-12             -1.4868e-06          
  0.1                   2.4232e-06            9e-13                 -3e-13                -2.4182e-06          
  0.15                  2.985e-06             7.2e-13               -1.4e-13              -2.9818e-06          
  0.2                   3.3302e-06            7.4e-13               -1.42e-12             -3.3262e-06          
  0.25                  3.5568e-06            7.8e-13               -5.2e-13              -3.5542e-06          
  0.3                   3.7254e-06            7e-13                 -8e-13                -3.7212e-06          
  0.35                  3.8648e-06            6.6e-13               -1e-12                -3.8618e-06          
  0.4                   3.9938e-06            6e-13                 -3.8e-13              -3.9906e-06          
  0.45                  4.1134e-06            6e-13                 -1.54e-12             -4.109e-06           
  0.5                   4.2298e-06            5.2e-13               -1.88e-12             -4.227e-06           
  0.55                  4.3472e-06            7e-13                 -1.1e-12              -4.3406e-06          
  0.6                   4.4598e-06            6.2e-13               -1.38e-12             -4.457e-06           
  0.65                  4.5722e-06            7.4e-13               -1.3e-12              -4.5706e-06          
  0.7                   4.6874e-06            7.4e-13               -3.6e-13              -4.6836e-06          
  0.75                  4.7968e-06            6e-13                 -8.6e-13              -4.7938e-06          
  0.8                   4.9108e-06            7.4e-13               -1.36e-12             -4.9034e-06          
  0.85                  5.0212e-06            7e-13                 -1.2e-13              -5.0168e-06          
  0.9                   5.1314e-06            6.6e-13               -1.78e-12             -5.13e-06            
  0.95                  5.2462e-06            6.2e-13               -1.56e-12             -5.2402e-06          
  1                     5.3594e-06            6.2e-13               2.18e-12              -5.3512e-06          
  1.05                  5.4694e-06            6.2e-13               -9.2e-13              -5.4632e-06          
  1.1                   5.5818e-06            6.4e-13               -1.4e-12              -5.5772e-06          
  1.15                  5.6926e-06            7e-13                 -1.18e-12             -5.6914e-06          
  1.2                   5.8034e-06            6.6e-13               -3.36e-12             -5.8026e-06          
  1.25                  5.9192e-06            7.2e-13               -7.44e-12             -5.9108e-06          
  1.3                   6.0278e-06            6.2e-13               -1.614e-11            -6.0266e-06          
  1.35                  6.1398e-06            5.8e-13               -3.726e-11            -6.1368e-06          
END_DB

