! VERSION = 6.00
BEGIN_HEADER
 ICCAP_INPUTS
  vg         V  G GROUND SMU2 0.001 LIN        1    -0.5       1.35       38   0.05      
  vb         V  B GROUND SMU4 0.1 LIN        2    0          -1.2       5    -0.3      
  vd         V  D GROUND SMU1 0.1 LIST       3 3 0.05 0.6 1.2
  vs         V  S GROUND SMU3 0.1 CON        0
 ICCAP_OUTPUTS
  id         I  D GROUND SMU1 B
  ig         I  G GROUND SMU2 B
  ib         I  B GROUND SMU4 B
  is         I  S GROUND SMU3 B
 ICCAP_VALUES
  MASTER_SETUP_TYPE "~dc_idvg~"
  LINVT_VALUE ""
  LISTVT_VALUE ""
  TYPE "1"
  TEMP " 27.0000 "
  IS_TNOM " 1.00000 "
  MAIN.W "180.0n"
  MAIN.L "130.0n"
  MAIN.AD "102.6f"
  MAIN.AS "102.6f"
  MAIN.PD "1.340u"
  MAIN.PS "1.340u"
  MAIN.NF "1.000"
  MAIN.M "1"
  MAIN.NRD "0.000"
  MAIN.NRS "0.000"
  MAIN.LDRIFT1 "1E-06"
  MAIN.LDRIFT2 "1E-06"
  MAIN.SA "0.000"
  MAIN.SB "0.000"
  MAIN.SD "0.000"
  MAIN.SCA "0.000"
  MAIN.SCB "0.000"
  MAIN.SCC "0.000"
  MAIN.SC "0.000"
  MODULE "S545"
  PIN_D "16"
  PIN_G "5"
  PIN_S "6"
  PIN_B "15"
  PIN_E ""
  PIN_6 ""
  XY_ID ""
  FUNC "LW Scale"
  STI "SA ref"
  WPE "WPE ref"
  COMMENT ""
  DIS_MEAS ""
  TypeTCI "10"
END_HEADER

BEGIN_DB
 ICCAP_VAR vb         0              
 ICCAP_VAR vd         0.05           
 ICCAP_VAR vs         0              

 #vg                    id                    ig                    ib                    is                   
  -0.5                  4e-14                 -4.6e-11              4.682e-11             1.6e-13              
  -0.45                 1e-13                 -7.18e-12             8.24e-12              1.4e-13              
  -0.4                  -1e-13                -1.12e-12             3.16e-12              0                    
  -0.35                 -8e-14                -2.4e-13              2.48e-12              2.6e-13              
  -0.3                  0                     -2e-14                2.46e-12              2e-14                
  -0.25                 0                     2e-14                 1.3e-12               8e-14                
  -0.2                  0                     1.4e-13               1.9e-12               -4e-14               
  -0.15                 -1e-13                3e-13                 3.12e-12              2e-14                
  -0.1                  4e-14                 8e-14                 1.48e-12              4e-14                
  -0.05                 8e-14                 3.6e-13               2.22e-12              -1.8e-13             
  0                     5.4e-13               2.8e-13               1.72e-12              -5.4e-13             
  0.05                  2.12e-12              2.6e-13               1.36e-12              -2.08e-12            
  0.1                   8.94e-12              4.2e-13               1.72e-12              -8.92e-12            
  0.15                  3.804e-11             3.2e-13               2.3e-12               -3.784e-11           
  0.2                   1.6156e-10            4.2e-13               2e-12                 -1.6128e-10          
  0.25                  6.8332e-10            3e-13                 1.26e-12              -6.8406e-10          
  0.3                   2.761e-09             3.8e-13               1e-12                 -2.7534e-09          
  0.35                  1.0107e-08            4.8e-13               1.1e-12               -1.01322e-08         
  0.4                   3.6342e-08            4.6e-13               1.9e-12               -3.6326e-08          
  0.45                  1.172e-07             5.4e-13               1.28e-12              -1.1694e-07          
  0.5                   3.1266e-07            5.2e-13               8.8e-13               -3.1274e-07          
  0.55                  6.912e-07             9e-13                 1.22e-12              -6.9094e-07          
  0.6                   1.289e-06             1.08e-12              1.34e-12              -1.2848e-06          
  0.65                  2.0626e-06            1.22e-12              7e-13                 -2.059e-06           
  0.7                   2.983e-06             1.8e-12               1.5e-12               -2.9788e-06          
  0.75                  4.0068e-06            2.28e-12              2.32e-12              -4.0028e-06          
  0.8                   5.0918e-06            2.96e-12              1.02e-12              -5.088e-06           
  0.85                  6.2e-06               3.8e-12               1.28e-12              -6.196e-06           
  0.9                   7.2974e-06            4.56e-12              5.2e-13               -7.294e-06           
  0.95                  8.3704e-06            5.84e-12              2e-12                 -8.3662e-06          
  1                     9.4078e-06            7.14e-12              1.52e-12              -9.4048e-06          
  1.05                  1.04066e-05           8.66e-12              5.6e-13               -1.0403e-05          
  1.1                   1.13588e-05           1.072e-11             3.2e-13               -1.1355e-05          
  1.15                  1.2272e-05            1.266e-11             2.02e-12              -1.2254e-05          
  1.2                   1.3128e-05            1.508e-11             1.58e-12              -1.3108e-05          
  1.25                  1.393e-05             1.786e-11             3.6e-13               -1.3914e-05          
  1.3                   1.4688e-05            2.102e-11             8.2e-13               -1.467e-05           
  1.35                  1.5396e-05            2.458e-11             1.4e-12               -1.5382e-05          
END_DB

BEGIN_DB
 ICCAP_VAR vb         -0.3           
 ICCAP_VAR vd         0.05           
 ICCAP_VAR vs         0              

 #vg                    id                    ig                    ib                    is                   
  -0.5                  2e-13                 -4.4e-13              -3.04e-12             1.6e-13              
  -0.45                 4e-14                 -2.2e-13              -3.74e-12             2e-13                
  -0.4                  8e-14                 0                     -2.2e-12              0                    
  -0.35                 6e-14                 -6e-14                -1.74e-12             1.6e-13              
  -0.3                  0                     0                     -1.8e-12              2e-14                
  -0.25                 4e-14                 8e-14                 -2.94e-12             1.8e-13              
  -0.2                  2e-14                 1.2e-13               -3.04e-12             -2e-14               
  -0.15                 8e-14                 2e-13                 -9.6e-13              -4e-14               
  -0.1                  0                     2.6e-13               -1.08e-12             8e-14                
  -0.05                 -8e-14                2.4e-13               -1.5e-12              2e-14                
  0                     1e-13                 2.4e-13               -1.66e-12             0                    
  0.05                  4e-13                 2.8e-13               -1.6e-12              -3e-13               
  0.1                   1.5e-12               4.8e-13               -5.4e-13              -1.64e-12            
  0.15                  7e-12                 2.2e-13               1.4e-13               -6.92e-12            
  0.2                   3.138e-11             1.6e-13               -8.6e-13              -3.136e-11           
  0.25                  1.4144e-10            3.2e-13               -1.58e-12             -1.414e-10           
  0.3                   6.2932e-10            4e-13                 -1.52e-12             -6.269e-10           
  0.35                  2.5668e-09            2.6e-13               -5.6e-13              -2.5674e-09          
  0.4                   9.7058e-09            3.4e-13               -5.6e-13              -9.677e-09           
  0.45                  3.6204e-08            4.8e-13               2e-14                 -3.6212e-08          
  0.5                   1.1886e-07            7.2e-13               -7.4e-13              -1.1868e-07          
  0.55                  3.187e-07             7.6e-13               -1e-12                -3.183e-07           
  0.6                   7.0592e-07            9.4e-13               2.6e-13               -7.0598e-07          
  0.65                  1.305e-06             1.2e-12               -5.4e-13              -1.301e-06           
  0.7                   2.0858e-06            1.76e-12              -1.02e-12             -2.0782e-06          
  0.75                  3e-06                 2.26e-12              8.8e-13               -2.9962e-06          
  0.8                   4.0104e-06            2.8e-12               -2e-13                -4.0068e-06          
  0.85                  5.0836e-06            3.56e-12              -1.26e-12             -5.0798e-06          
  0.9                   6.1764e-06            4.5e-12               -8e-13                -6.1726e-06          
  0.95                  7.2592e-06            5.76e-12              2.4e-13               -7.2556e-06          
  1                     8.3144e-06            6.98e-12              -5.6e-13              -8.3102e-06          
  1.05                  9.3302e-06            8.64e-12              -6.4e-13              -9.327e-06           
  1.1                   1.0301e-05            1.054e-11             -8.8e-13              -1.02992e-05         
  1.15                  1.12284e-05           1.248e-11             -4.4e-13              -1.12244e-05         
  1.2                   1.2078e-05            1.484e-11             3.4e-13               -1.2058e-05          
  1.25                  1.291e-05             1.754e-11             -1.14e-12             -1.2894e-05          
  1.3                   1.3686e-05            2.07e-11              -7e-13                -1.3666e-05          
  1.35                  1.4422e-05            2.432e-11             4.6e-13               -1.4398e-05          
END_DB

BEGIN_DB
 ICCAP_VAR vb         -0.6           
 ICCAP_VAR vd         0.05           
 ICCAP_VAR vs         0              

 #vg                    id                    ig                    ib                    is                   
  -0.5                  1.2e-13               -3.2e-13              -3.8e-12              6e-14                
  -0.45                 6e-14                 -1.4e-13              -4.52e-12             2e-13                
  -0.4                  8e-14                 -2e-14                -4.26e-12             2e-13                
  -0.35                 4e-14                 -6e-14                -4.28e-12             1e-13                
  -0.3                  1e-13                 1.2e-13               -3.08e-12             4e-14                
  -0.25                 4e-14                 1e-13                 -2.54e-12             8e-14                
  -0.2                  0                     1.6e-13               -3.08e-12             4e-14                
  -0.15                 0                     1.6e-13               -3.06e-12             8e-14                
  -0.1                  -8e-14                1.4e-13               -3.74e-12             4e-14                
  -0.05                 -1e-13                3.8e-13               -2.26e-12             -4e-14               
  0                     -4e-14                1.2e-13               5.4e-13               2e-14                
  0.05                  8e-14                 2.8e-13               -2.38e-12             -1.4e-13             
  0.1                   4.2e-13               3.6e-13               -2.64e-12             -4.2e-13             
  0.15                  1.88e-12              3.2e-13               -2.54e-12             -1.72e-12            
  0.2                   8.56e-12              5e-13                 -1.08e-12             -8.64e-12            
  0.25                  4.012e-11             3.6e-13               -1.66e-12             -4.026e-11           
  0.3                   1.8578e-10            3.6e-13               -2.3e-12              -1.8542e-10          
  0.35                  8.3424e-10            3.8e-13               -2.94e-12             -8.367e-10           
  0.4                   3.3262e-09            4e-13                 -1.86e-12             -3.3216e-09          
  0.45                  1.2798e-08            6e-13                 -6.6e-13              -1.2832e-08          
  0.5                   4.8038e-08            6e-13                 -1.96e-12             -4.8012e-08          
  0.55                  1.5182e-07            6.6e-13               -1.54e-12             -1.5178e-07          
  0.6                   3.9092e-07            1.06e-12              -2e-13                -3.9054e-07          
  0.65                  8.238e-07             1.16e-12              -1.6e-12              -8.2354e-07          
  0.7                   1.4686e-06            1.58e-12              -1.78e-12             -1.4646e-06          
  0.75                  2.275e-06             2.06e-12              -4.8e-13              -2.2714e-06          
  0.8                   3.196e-06             2.7e-12               -5.2e-13              -3.1928e-06          
  0.85                  4.2064e-06            3.46e-12              -2.4e-12              -4.2016e-06          
  0.9                   5.2644e-06            4.58e-12              -1.6e-12              -5.261e-06           
  0.95                  6.3392e-06            5.56e-12              -1.16e-12             -6.3364e-06          
  1                     7.4024e-06            6.76e-12              -1.4e-12              -7.3996e-06          
  1.05                  8.4338e-06            8.4e-12               -1.1e-12              -8.4288e-06          
  1.1                   9.4202e-06            1.01e-11              -2.08e-12             -9.4166e-06          
  1.15                  1.03614e-05           1.236e-11             -1.2e-12              -1.03592e-05         
  1.2                   1.12588e-05           1.464e-11             -1e-12                -1.1253e-05          
  1.25                  1.211e-05             1.734e-11             -1.82e-12             -1.2102e-05          
  1.3                   1.2916e-05            2.064e-11             -1.28e-12             -1.2896e-05          
  1.35                  1.3614e-05            2.4e-11               -2.6e-13              -1.3538e-05          
END_DB

BEGIN_DB
 ICCAP_VAR vb         -0.9           
 ICCAP_VAR vd         0.05           
 ICCAP_VAR vs         0              

 #vg                    id                    ig                    ib                    is                   
  -0.5                  1.6e-13               -4e-13                -4.18e-12             1.2e-13              
  -0.45                 6e-14                 -1e-13                -4.54e-12             2.2e-13              
  -0.4                  1e-13                 -1e-13                -5.52e-12             6e-14                
  -0.35                 6e-14                 4e-14                 -4.2e-12              1e-13                
  -0.3                  0                     1.8e-13               -3.92e-12             2e-14                
  -0.25                 -4e-14                6e-14                 -4.18e-12             2e-13                
  -0.2                  -8e-14                2.8e-13               -3.2e-12              6e-14                
  -0.15                 4e-14                 1.8e-13               -3.9e-12              1.2e-13              
  -0.1                  8e-14                 6e-14                 -3.64e-12             4e-14                
  -0.05                 -6e-14                2.8e-13               -3.3e-12              6e-14                
  0                     -2e-14                3.2e-13               -2.14e-12             1.8e-13              
  0.05                  6e-14                 3e-13                 -2.44e-12             -4e-14               
  0.1                   1.4e-13               3.6e-13               -3.16e-12             -8e-14               
  0.15                  6.2e-13               2.6e-13               -3.26e-12             -6.2e-13             
  0.2                   3.04e-12              5e-13                 -2.26e-12             -3.02e-12            
  0.25                  1.476e-11             3.6e-13               -1.74e-12             -1.45e-11            
  0.3                   6.96e-11              3.2e-13               -2.4e-12              -6.948e-11           
  0.35                  3.259e-10             5.2e-13               -3.06e-12             -3.2606e-10          
  0.4                   1.3888e-09            2.8e-13               -2.88e-12             -1.4352e-09          
  0.45                  5.5164e-09            5e-13                 -1.58e-12             -5.5372e-09          
  0.5                   2.178e-08             4.8e-13               -1.3e-12              -2.1768e-08          
  0.55                  7.7656e-08            6.6e-13               -2.2e-12              -7.7732e-08          
  0.6                   2.2726e-07            9.2e-13               -2.6e-12              -2.2762e-07          
  0.65                  5.4086e-07            1.24e-12              -1.92e-12             -5.4002e-07          
  0.7                   1.0645e-06            1.58e-12              -2.14e-12             -1.06434e-06         
  0.75                  1.7724e-06            1.92e-12              -1.66e-12             -1.7674e-06          
  0.8                   2.621e-06             2.68e-12              -1.18e-12             -2.6172e-06          
  0.85                  3.5678e-06            3.52e-12              -1.86e-12             -3.5638e-06          
  0.9                   4.5858e-06            4.3e-12               -1.9e-12              -4.5818e-06          
  0.95                  5.6438e-06            5.46e-12              -2.46e-12             -5.6404e-06          
  1                     6.704e-06             6.82e-12              -2.24e-12             -6.701e-06           
  1.05                  7.7444e-06            8.42e-12              -1.26e-12             -7.739e-06           
  1.1                   8.7428e-06            1.014e-11             -2.12e-12             -8.7414e-06          
  1.15                  9.701e-06             1.212e-11             -2.38e-12             -9.6978e-06          
  1.2                   1.06098e-05           1.456e-11             -2.4e-12              -1.0605e-05          
  1.25                  1.14728e-05           1.716e-11             -1.8e-12              -1.14688e-05         
  1.3                   1.2298e-05            2.024e-11             -1.54e-12             -1.228e-05           
  1.35                  1.3062e-05            2.386e-11             -2.26e-12             -1.3046e-05          
END_DB

BEGIN_DB
 ICCAP_VAR vb         -1.2           
 ICCAP_VAR vd         0.05           
 ICCAP_VAR vs         0              

 #vg                    id                    ig                    ib                    is                   
  -0.5                  1.6e-13               -3.6e-13              -5.68e-12             1.2e-13              
  -0.45                 2e-14                 -1e-13                -5.62e-12             1.4e-13              
  -0.4                  0                     -1.6e-13              -5.16e-12             2.2e-13              
  -0.35                 -4e-14                1.2e-13               -4.36e-12             1e-13                
  -0.3                  1e-13                 -6e-14                -4.66e-12             1.2e-13              
