! VERSION = 6.00
BEGIN_HEADER
 ICCAP_INPUTS
  vd         V  D GROUND SMU1 0.1 LIN        1    0          1.35       28   0.05      
  vg         V  G GROUND SMU2 0.001 LIN        2    0.622      1.35       5    0.182     
  vb         V  B GROUND SMU4 0.1 CON        -1.2
  vs         V  S GROUND SMU3 0.1 CON        0
 ICCAP_OUTPUTS
  id         I  D GROUND SMU1 B
  ig         I  G GROUND SMU2 B
  ib         I  B GROUND SMU4 B
  is         I  S GROUND SMU3 B
 ICCAP_VALUES
  MASTER_SETUP_TYPE "~dc_idvd~"
  LINVT_VALUE "|idvg|100.0n|100.0m|1.000m|5|1.350|"
  LISTVT_VALUE ""
  TYPE "1"
  TEMP " 27.0000 "
  IS_TNOM " 1.00000 "
  MAIN.W "150.0n"
  MAIN.L "140.0n"
  MAIN.AD "100.5f"
  MAIN.AS "100.5f"
  MAIN.PD "1.340u"
  MAIN.PS "1.340u"
  MAIN.NF "1.000"
  MAIN.M "1"
  MAIN.NRD "0.000"
  MAIN.NRS "0.000"
  MAIN.LDRIFT1 "1E-06"
  MAIN.LDRIFT2 "1E-06"
  MAIN.SA "0.000"
  MAIN.SB "0.000"
  MAIN.SD "0.000"
  MAIN.SCA "0.000"
  MAIN.SCB "0.000"
  MAIN.SCC "0.000"
  MAIN.SC "0.000"
  MODULE "S546"
  PIN_D "14"
  PIN_G "7"
  PIN_S "8"
  PIN_B "13"
  PIN_E ""
  PIN_6 ""
  XY_ID ""
  FUNC "LW Scale"
  STI "SA ref"
  WPE "WPE ref"
  COMMENT ""
  DIS_MEAS ""
  TypeTCI "10"
END_HEADER

BEGIN_DB
 ICCAP_VAR vg         0.622          
 ICCAP_VAR vb         -1.2           
 ICCAP_VAR vs         0              

 #vd                    id                    ig                    ib                    is                   
  0                     8.9074e-10            8e-13                 -1.308e-11            -7.3072e-10          
  0.05                  3.6518e-07            5.4e-13               -1.548e-11            -3.6542e-07          
  0.1                   5.3302e-07            5.2e-13               -1.206e-11            -5.3296e-07          
  0.15                  6.1308e-07            6e-13                 -1.156e-11            -6.1298e-07          
  0.2                   6.6272e-07            5.2e-13               -1.184e-11            -6.6252e-07          
  0.25                  7.0198e-07            3.2e-13               -1.072e-11            -7.019e-07           
  0.3                   7.3758e-07            2.2e-13               -9.56e-12             -7.3754e-07          
  0.35                  7.7188e-07            3.2e-13               -1.014e-11            -7.7148e-07          
  0.4                   8.0464e-07            3.8e-13               -9.14e-12             -8.0482e-07          
  0.45                  8.37e-07              3.8e-13               -8.44e-12             -8.369e-07           
  0.5                   8.7004e-07            5.2e-13               -7.7e-12              -8.7034e-07          
  0.55                  9.0402e-07            4.4e-13               -8.24e-12             -9.0354e-07          
  0.6                   9.3816e-07            4.6e-13               -8.94e-12             -9.3796e-07          
  0.65                  9.7266e-07            5.2e-13               -7.52e-12             -9.733e-07           
  0.7                   1.00906e-06           2.8e-13               -6.68e-12             -1.0087e-06          
  0.75                  1.04616e-06           4.4e-13               -7.32e-12             -1.04614e-06         
  0.8                   1.08418e-06           2.4e-13               -7.08e-12             -1.08432e-06         
  0.85                  1.1238e-06            3.8e-13               -7.04e-12             -1.1232e-06          
  0.9                   1.1652e-06            2.4e-13               -6.68e-12             -1.16336e-06         
  0.95                  1.2066e-06            3.8e-13               -5.88e-12             -1.203e-06           
  1                     1.2498e-06            4.6e-13               -5.34e-12             -1.2454e-06          
  1.05                  1.294e-06             4.8e-13               -6.68e-12             -1.2904e-06          
  1.1                   1.34e-06              2.8e-13               -6.96e-12             -1.3344e-06          
  1.15                  1.386e-06             5e-13                 -7.18e-12             -1.3816e-06          
  1.2                   1.4344e-06            3.6e-13               -1.19e-11             -1.4306e-06          
  1.25                  1.4844e-06            2e-13                 -1.832e-11            -1.4804e-06          
  1.3                   1.5366e-06            3.2e-13               -2.804e-11            -1.5316e-06          
  1.35                  1.5882e-06            3.6e-13               -5.06e-11             -1.585e-06           
END_DB

BEGIN_DB
 ICCAP_VAR vg         0.804          
 ICCAP_VAR vb         -1.2           
 ICCAP_VAR vs         0              

 #vd                    id                    ig                    ib                    is                   
  0                     2.6924e-09            1.92e-12              -3.22e-12             -2.5638e-09          
  0.05                  2.088e-06             1.7e-12               -3.84e-12             -2.084e-06           
  0.1                   3.5692e-06            1.52e-12              -3.68e-12             -3.5684e-06          
  0.15                  4.5932e-06            1.32e-12              -3.18e-12             -4.5926e-06          
  0.2                   5.2928e-06            1.34e-12              -4.34e-12             -5.2876e-06          
  0.25                  5.7596e-06            1.24e-12              -3.74e-12             -5.75e-06            
  0.3                   6.081e-06             8.8e-13               -2.52e-12             -6.088e-06           
  0.35                  6.343e-06             9.4e-13               -3.88e-12             -6.3394e-06          
  0.4                   6.5614e-06            1e-12                 -3.22e-12             -6.5552e-06          
  0.45                  6.7626e-06            1.28e-12              -3.18e-12             -6.7526e-06          
  0.5                   6.947e-06             9.4e-13               -3.44e-12             -6.9438e-06          
  0.55                  7.1272e-06            8.4e-13               -3.02e-12             -7.119e-06           
  0.6                   7.3016e-06            1.16e-12              -2.9e-12              -7.296e-06           
  0.65                  7.475e-06             1e-12                 -3.88e-12             -7.4676e-06          
  0.7                   7.648e-06             8.4e-13               -3.5e-12              -7.6424e-06          
  0.75                  7.8224e-06            9.2e-13               -3.64e-12             -7.8166e-06          
  0.8                   7.9974e-06            1.08e-12              -3.68e-12             -7.9954e-06          
  0.85                  8.175e-06             8.8e-13               -2.94e-12             -8.1742e-06          
  0.9                   8.3578e-06            8.2e-13               -3.3e-12              -8.352e-06           
  0.95                  8.541e-06             1.14e-12              -3.24e-12             -8.5364e-06          
  1                     8.7242e-06            1.04e-12              -3.06e-12             -8.7192e-06          
  1.05                  8.9112e-06            8e-13                 -5.9e-12              -8.9072e-06          
  1.1                   9.1024e-06            8.6e-13               -6.28e-12             -9.1004e-06          
  1.15                  9.2992e-06            9.8e-13               -9.26e-12             -9.2934e-06          
  1.2                   9.4948e-06            9.6e-13               -1.754e-11            -9.4914e-06          
  1.25                  9.7002e-06            9.8e-13               -3.382e-11            -9.6944e-06          
  1.3                   9.9066e-06            9.6e-13               -6.524e-11            -9.9028e-06          
  1.35                  1.0118e-05            7.6e-13               -1.226e-10            -1.01142e-05         
END_DB

BEGIN_DB
 ICCAP_VAR vg         0.986          
 ICCAP_VAR vb         -1.2           
 ICCAP_VAR vs         0              

 #vd                    id                    ig                    ib                    is                   
  0                     3.2766e-09            4.98e-12              -1.66e-12             -4.6588e-09          
  0.05                  4.9366e-06            4.4e-12               -2.32e-12             -4.931e-06           
  0.1                   8.942e-06             4.08e-12              -2.56e-12             -8.9394e-06          
  0.15                  1.2114e-05            3.6e-12               -1.1e-12              -1.2092e-05          
  0.2                   1.433e-05             3.12e-12              -2.64e-12             -1.453e-05           
  0.25                  1.6394e-05            3.02e-12              -2.8e-12              -1.6158e-05          
  0.3                   1.7502e-05            2.78e-12              -1.46e-12             -1.7482e-05          
  0.35                  1.852e-05             2.54e-12              -2.64e-12             -1.8502e-05          
  0.4                   1.9304e-05            2.52e-12              -2.34e-12             -1.9588e-05          
  0.45                  2.0266e-05            2.64e-12              -9.4e-13              -2.0238e-05          
  0.5                   2.0786e-05            2.54e-12              -3e-12                -2.0794e-05          
  0.55                  2.1294e-05            2.38e-12              -2.12e-12             -2.1282e-05          
  0.6                   2.1724e-05            2.52e-12              -1.58e-12             -2.161e-05           
  0.65                  2.1794e-05            2.34e-12              -2.46e-12             -2.1776e-05          
  0.7                   2.2184e-05            2.36e-12              -2.26e-12             -2.2168e-05          
  0.75                  2.2566e-05            2.4e-12               -1.34e-12             -2.2548e-05          
  0.8                   2.3338e-05            2.4e-12               -2.36e-12             -2.3318e-05          
  0.85                  2.3714e-05            2.32e-12              -2.52e-12             -2.3698e-05          
  0.9                   2.4092e-05            2.38e-12              -1.92e-12             -2.402e-05           
  0.95                  2.4468e-05            2.32e-12              -2.5e-12              -2.4452e-05          
  1                     2.4848e-05            2.38e-12              -2.76e-12             -2.4832e-05          
  1.05                  2.523e-05             2.14e-12              -4.02e-12             -2.5212e-05          
  1.1                   2.5552e-05            2.44e-12              -7.08e-12             -2.5586e-05          
  1.15                  2.6e-05               2.46e-12              -1.264e-11            -2.5962e-05          
  1.2                   2.635e-05             2.32e-12              -2.596e-11            -2.6372e-05          
  1.25                  2.6568e-05            2.34e-12              -5.1e-11              -2.6302e-05          
  1.3                   2.7182e-05            2.48e-12              -1.027e-10            -2.715e-05           
  1.35                  2.7576e-05            2.32e-12              -1.942e-10            -2.7546e-05          
END_DB

BEGIN_DB
 ICCAP_VAR vg         1.168          
 ICCAP_VAR vb         -1.2           
 ICCAP_VAR vs         0              

 #vd                    id                    ig                    ib                    is                   
  0                     1.21e-08              1.114e-11             -1.2e-12              -1.183e-08           
  0.05                  8.0164e-06            1.008e-11             -1.96e-12             -8.0122e-06          
  0.1                   1.4994e-05            8.88e-12              -1.62e-12             -1.4976e-05          
  0.15                  2.0866e-05            8.12e-12              -1.84e-12             -2.085e-05           
  0.2                   2.569e-05             7.42e-12              -1.02e-12             -2.5674e-05          
  0.25                  2.958e-05             7.06e-12              -1.9e-12              -2.9564e-05          
  0.3                   3.2674e-05            6.44e-12              -2.28e-12             -3.2912e-05          
  0.35                  3.5114e-05            6.22e-12              -1.06e-12             -3.5388e-05          
  0.4                   3.7028e-05            5.88e-12              -1.36e-12             -3.7016e-05          
  0.45                  3.8546e-05            5.68e-12              -2.2e-12              -3.8528e-05          
  0.5                   3.9766e-05            5.48e-12              -1.2e-12              -3.9748e-05          
  0.55                  4.0774e-05            5.38e-12              -2.26e-12             -4.0758e-05          
  0.6                   4.1638e-05            5.36e-12              -3.24e-12             -4.1622e-05          
  0.65                  4.24e-05              5.26e-12              -7.2e-13              -4.2388e-05          
  0.7                   4.3098e-05            5.1e-12               -1.86e-12             -4.3076e-05          
  0.75                  4.3734e-05            5.24e-12              -2.2e-12              -4.3716e-05          
  0.8                   4.4342e-05            5.26e-12              -5.6e-13              -4.4324e-05          
  0.85                  4.4926e-05            5.1e-12               -1.62e-12             -4.4906e-05          
  0.9                   4.5492e-05            5.08e-12              -2.02e-12             -4.5476e-05          
  0.95                  4.6048e-05            4.96e-12              -1.26e-12             -4.6036e-05          
  1                     4.6882e-05            5.08e-12              -2.98e-12             -4.6894e-05          
  1.05                  4.7374e-05            4.96e-12              -5.16e-12             -4.7516e-05          
  1.1                   4.7684e-05            5.08e-12              -8.14e-12             -4.767e-05           
  1.15                  4.8226e-05            5.16e-12              -1.72e-11             -4.8208e-05          
  1.2                   4.877e-05             5.04e-12              -3.504e-11            -4.8752e-05          
  1.25                  4.9314e-05            4.64e-12              -6.772e-11            -4.9298e-05          
  1.3                   4.9868e-05            4.96e-12              -1.3052e-10           -4.985e-05           
  1.35                  5.0422e-05            5.02e-12              -2.431e-10            -5.0404e-05          
END_DB

BEGIN_DB
 ICCAP_VAR vg         1.35           
 ICCAP_VAR vb         -1.2           
 ICCAP_VAR vs         0              

 #vd                    id                    ig                    ib                    is                   
  0                     1.578e-08             2.126e-11             -6.8e-13              -1.5532e-08          
  0.05                  1.083e-05             1.934e-11             -1.88e-12             -1.0814e-05          
  0.1                   2.063e-05             1.796e-11             -7.2e-13              -2.0612e-05          
  0.15                  2.9232e-05            1.666e-11             -2.06e-12             -2.9214e-05          
  0.2                   3.6596e-05            1.552e-11             -1.7e-12              -3.6578e-05          
  0.25                  4.2784e-05            1.46e-11              -1.1e-12              -4.2772e-05          
  0.3                   4.7912e-05            1.36e-11              -1.36e-12             -4.7892e-05          
  0.35                  5.2108e-05            1.284e-11             -1.22e-12             -5.209e-05           
  0.4                   5.552e-05             1.226e-11             -1e-12                -5.5506e-05          
  0.45                  5.8282e-05            1.184e-11             -1.86e-12             -5.8266e-05          
  0.5                   6.053e-05             1.114e-11             -1.4e-12              -6.051e-05           
  0.55                  6.2366e-05            1.074e-11             -5.2e-13              -6.2352e-05          
  0.6                   6.3892e-05            1.076e-11             -1.52e-12             -6.388e-05           
  0.65                  6.519e-05             1.042e-11             -1.32e-12             -6.5172e-05          
  0.7                   6.6316e-05            1.032e-11             -1.1e-12              -6.6294e-05          
  0.75                  6.7314e-05            1.018e-11             -1.8e-12              -6.7298e-05          
  0.8                   6.822e-05             1.018e-11             -1.08e-12             -6.8204e-05          
  0.85                  6.906e-05             1.006e-11             -1.04e-12             -6.9042e-05          
  0.9                   6.9852e-05            9.88e-12              -2.36e-12             -6.9834e-05          
  0.95                  7.0604e-05            1.006e-11             -2.04e-12             -7.0588e-05          
  1                     7.1334e-05            9.88e-12              -3.38e-12             -7.1316e-05          
  1.05                  7.2042e-05            9.6e-12               -6.3e-12              -7.2024e-05          
  1.1                   7.274e-05             9.76e-12              -1.06e-11             -7.2722e-05          
  1.15                  7.3428e-05            9.9e-12               -2.198e-11            -7.3412e-05          
  1.2                   7.4108e-05            9.7e-12               -4.356e-11            -7.4094e-05          
  1.25                  7.4786e-05            9.66e-12              -8.16e-11             -7.4768e-05          
  1.3                   7.5462e-05            9.62e-12              -1.5624e-10           -7.5446e-05          
  1.35                  7.6144e-05            9.56e-12              -2.8048e-10           -7.6128e-05          
END_DB

