! VERSION = 6.00
BEGIN_HEADER
 ICCAP_INPUTS
  vd         V  D GROUND SMU1 0.1 LIN        1    0          1.35       28   0.05      
  vg         V  G GROUND SMU2 0.001 LIST       2 3 0.11 0.31 0.51
  vb         V  B GROUND SMU4 0.1 CON        0
  vs         V  S GROUND SMU3 0.1 CON        0
 ICCAP_OUTPUTS
  id         I  D GROUND SMU1 B
  ig         I  G GROUND SMU2 B
  ib         I  B GROUND SMU4 B
  is         I  S GROUND SMU3 B
 ICCAP_VALUES
  MASTER_SETUP_TYPE "~dc_idvd~"
  LINVT_VALUE ""
  LISTVT_VALUE "|idvg|100.0n|-200.0m|1.000m|3|200.0m|200.0m|"
  TYPE "1"
  TEMP " 125.000 "
  IS_TNOM " 0.00000 "
  MAIN.W "150.0n"
  MAIN.L "130.0n"
  MAIN.AD "100.5f"
  MAIN.AS "100.5f"
  MAIN.PD "1.340u"
  MAIN.PS "1.340u"
  MAIN.NF "1.000"
  MAIN.M "1"
  MAIN.NRD "0.000"
  MAIN.NRS "0.000"
  MAIN.LDRIFT1 "1E-06"
  MAIN.LDRIFT2 "1E-06"
  MAIN.SA "0.000"
  MAIN.SB "0.000"
  MAIN.SD "0.000"
  MAIN.SCA "0.000"
  MAIN.SCB "0.000"
  MAIN.SCC "0.000"
  MAIN.SC "0.000"
  MODULE "S546"
  PIN_D "16"
  PIN_G "5"
  PIN_S "6"
  PIN_B "15"
  PIN_E ""
  PIN_6 ""
  XY_ID ""
  FUNC "Small"
  STI "SA ref"
  WPE "WPE ref"
  COMMENT ""
  DIS_MEAS ""
  TypeTCI "10"
END_HEADER

BEGIN_DB
 ICCAP_VAR vg         0.11           
 ICCAP_VAR vb         0              
 ICCAP_VAR vs         0              

 #vd                    id                    ig                    ib                    is                   
  0                     3.08e-12              -3.4e-13              2.58e-12              -1.84e-12            
  0.05                  1.02014e-09           -2.4e-13              1.74e-12              -1.01982e-09         
  0.1                   1.2924e-09            -2.8e-13              2.8e-12               -1.2916e-09          
  0.15                  1.384e-09             -3.6e-13              3.08e-12              -1.3832e-09          
  0.2                   1.4318e-09            -2e-13                2.02e-12              -1.4306e-09          
  0.25                  1.4678e-09            -1.8e-13              1.5e-12               -1.4672e-09          
  0.3                   1.503e-09             -2.8e-13              1.5e-12               -1.5002e-09          
  0.35                  1.5356e-09            -1.8e-13              2.44e-12              -1.5348e-09          
  0.4                   1.5692e-09            -2.4e-13              2.52e-12              -1.5674e-09          
  0.45                  1.6024e-09            -4e-14                1.74e-12              -1.6008e-09          
  0.5                   1.6362e-09            -3e-13                1.72e-12              -1.6344e-09          
  0.55                  1.67e-09              -1.8e-13              1.72e-12              -1.6686e-09          
  0.6                   1.7042e-09            -2.2e-13              1.18e-12              -1.7026e-09          
  0.65                  1.739e-09             -2.4e-13              1.68e-12              -1.738e-09           
  0.7                   1.7744e-09            -2.6e-13              3.24e-12              -1.7722e-09          
  0.75                  1.8098e-09            -3.4e-13              6.4e-13               -1.8072e-09          
  0.8                   1.8456e-09            -1.4e-13              9.2e-13               -1.844e-09           
  0.85                  1.882e-09             -4.2e-13              1.34e-12              -1.8806e-09          
  0.9                   1.92e-09              -3e-13                1.1e-12               -1.9172e-09          
  0.95                  1.9578e-09            -3e-13                2.5e-12               -1.9554e-09          
  1                     1.9964e-09            -3.2e-13              2.02e-12              -1.9942e-09          
  1.05                  2.036e-09             -4e-13                1.76e-12              -2.0334e-09          
  1.1                   2.0758e-09            -4.2e-13              7.2e-13               -2.0732e-09          
  1.15                  2.1168e-09            -5e-13                6.6e-13               -2.1148e-09          
  1.2                   2.1588e-09            -5.2e-13              1.26e-12              -2.1556e-09          
  1.25                  2.202e-09             -6.2e-13              8.4e-13               -2.1978e-09          
  1.3                   2.2448e-09            -5.8e-13              -4.8e-13              -2.2412e-09          
  1.35                  2.2906e-09            -8.6e-13              -1.72e-12             -2.2846e-09          
END_DB

BEGIN_DB
 ICCAP_VAR vg         0.31           
 ICCAP_VAR vb         0              
 ICCAP_VAR vs         0              

 #vd                    id                    ig                    ib                    is                   
  0                     1.4106e-10            2.6e-13               3.42e-12              -1.3754e-10          
  0.05                  7.2384e-08            1.2e-13               8.8e-13               -7.2338e-08          
  0.1                   9.4548e-08            1.6e-13               1.94e-12              -9.4548e-08          
  0.15                  1.02526e-07           4e-14                 2.22e-12              -1.0253e-07          
  0.2                   1.06806e-07           0                     1.34e-12              -1.06776e-07         
  0.25                  1.1002e-07            1.2e-13               2.52e-12              -1.1e-07             
  0.3                   1.129e-07             1.4e-13               1e-12                 -1.12886e-07         
  0.35                  1.1566e-07            1.2e-13               5.2e-13               -1.1567e-07          
  0.4                   1.1838e-07            1.8e-13               1.66e-12              -1.184e-07           
  0.45                  1.2112e-07            1e-13                 4.4e-13               -1.2108e-07          
  0.5                   1.2382e-07            8e-14                 9.4e-13               -1.238e-07           
  0.55                  1.2652e-07            4e-14                 1.9e-12               -1.2652e-07          
  0.6                   1.2926e-07            1.4e-13               1.24e-12              -1.2916e-07          
  0.65                  1.3196e-07            4e-14                 7.8e-13               -1.3192e-07          
  0.7                   1.347e-07             -2e-14                4.2e-13               -1.3466e-07          
  0.75                  1.3744e-07            6e-14                 2.02e-12              -1.3742e-07          
  0.8                   1.4024e-07            0                     1.28e-12              -1.402e-07           
  0.85                  1.4306e-07            4e-14                 9.8e-13               -1.4306e-07          
  0.9                   1.4594e-07            4e-14                 1e-12                 -1.459e-07           
  0.95                  1.4886e-07            -2e-14                6e-13                 -1.4882e-07          
  1                     1.5172e-07            0                     -1.06e-12             -1.5174e-07          
  1.05                  1.5476e-07            -4e-14                -2.56e-12             -1.5472e-07          
  1.1                   1.5778e-07            -1.2e-13              -4.12e-12             -1.5774e-07          
  1.15                  1.6086e-07            -2e-14                -6.54e-12             -1.608e-07           
  1.2                   1.64e-07              -2e-13                -1.342e-11            -1.6394e-07          
  1.25                  1.6714e-07            -2e-13                -2.18e-11             -1.6708e-07          
  1.3                   1.7034e-07            -2.2e-13              -3.148e-11            -1.7026e-07          
  1.35                  1.7358e-07            -3.8e-13              -4.854e-11            -1.735e-07           
END_DB

BEGIN_DB
 ICCAP_VAR vg         0.51           
 ICCAP_VAR vb         0              
 ICCAP_VAR vs         0              

 #vd                    id                    ig                    ib                    is                   
  0                     1.7732e-09            9.6e-13               3.12e-12              -1.5548e-09          
  0.05                  1.2816e-06            1e-12                 1.5e-12               -1.2784e-06          
  0.1                   1.9934e-06            8.6e-13               9e-13                 -1.9902e-06          
  0.15                  2.3588e-06            8.2e-13               2.28e-12              -2.3554e-06          
  0.2                   2.5472e-06            8.2e-13               1.3e-12               -2.5438e-06          
  0.25                  2.6594e-06            8.4e-13               1.12e-12              -2.656e-06           
  0.3                   2.7402e-06            8.8e-13               2.44e-12              -2.737e-06           
  0.35                  2.807e-06             9.6e-13               8e-13                 -2.8034e-06          
  0.4                   2.8678e-06            8e-13                 1.34e-12              -2.8648e-06          
  0.45                  2.9248e-06            7e-13                 6e-13                 -2.921e-06           
  0.5                   2.9798e-06            7e-13                 4.4e-13               -2.9768e-06          
  0.55                  3.0338e-06            7.6e-13               1.9e-12               -3.0308e-06          
  0.6                   3.0862e-06            8.4e-13               1.24e-12              -3.0828e-06          
  0.65                  3.1384e-06            8.6e-13               1.8e-13               -3.1348e-06          
  0.7                   3.1882e-06            7.6e-13               2e-12                 -3.1858e-06          
  0.75                  3.24e-06              6.6e-13               7.8e-13               -3.237e-06           
  0.8                   3.2904e-06            6.4e-13               4e-14                 -3.2876e-06          
  0.85                  3.3412e-06            7.2e-13               1.42e-12              -3.3374e-06          
  0.9                   3.3902e-06            7.8e-13               -3.8e-13              -3.3868e-06          
  0.95                  3.4404e-06            6.6e-13               -2.24e-12             -3.4378e-06          
  1                     3.4904e-06            7e-13                 -3.44e-12             -3.488e-06           
  1.05                  3.5416e-06            6.8e-13               -1.028e-11            -3.5388e-06          
  1.1                   3.5924e-06            7.4e-13               -2.178e-11            -3.589e-06           
  1.15                  3.6432e-06            7e-13                 -4.048e-11            -3.639e-06           
  1.2                   3.6932e-06            7.4e-13               -7.518e-11            -3.6892e-06          
  1.25                  3.7438e-06            6.6e-13               -1.3158e-10           -3.741e-06           
  1.3                   3.7954e-06            4.8e-13               -2.182e-10            -3.7912e-06          
  1.35                  3.8474e-06            4.6e-13               -3.5212e-10           -3.8434e-06          
END_DB

