! VERSION = 6.00
BEGIN_HEADER
 ICCAP_INPUTS
  vg         V  G GROUND SMU2 0.001 LIN        1    -0.5       1.35       38   0.05      
  vb         V  B GROUND SMU4 0.1 LIN        2    0          -1.2       5    -0.3      
  vd         V  D GROUND SMU1 0.1 LIST       3 3 0.05 0.6 1.2
  vs         V  S GROUND SMU3 0.1 CON        0
 ICCAP_OUTPUTS
  id         I  D GROUND SMU1 B
  ig         I  G GROUND SMU2 B
  ib         I  B GROUND SMU4 B
  is         I  S GROUND SMU3 B
 ICCAP_VALUES
  MASTER_SETUP_TYPE "~dc_idvg~"
  LINVT_VALUE ""
  LISTVT_VALUE ""
  TYPE "1"
  TEMP " 125.000 "
  IS_TNOM " 0.00000 "
  MAIN.W "300.0n"
  MAIN.L "130.0n"
  MAIN.AD "102.0f"
  MAIN.AS "102.0f"
  MAIN.PD "1.280u"
  MAIN.PS "1.280u"
  MAIN.NF "1.000"
  MAIN.M "1"
  MAIN.NRD "0.000"
  MAIN.NRS "0.000"
  MAIN.LDRIFT1 "1E-06"
  MAIN.LDRIFT2 "1E-06"
  MAIN.SA "0.000"
  MAIN.SB "0.000"
  MAIN.SD "0.000"
  MAIN.SCA "0.000"
  MAIN.SCB "0.000"
  MAIN.SCC "0.000"
  MAIN.SC "0.000"
  MODULE "S544"
  PIN_D "18"
  PIN_G "3"
  PIN_S "4"
  PIN_B "17"
  PIN_E ""
  PIN_6 ""
  XY_ID ""
  FUNC "LW Scale"
  STI "SA ref"
  WPE "WPE ref"
  COMMENT ""
  DIS_MEAS ""
  TypeTCI "10"
END_HEADER

BEGIN_DB
 ICCAP_VAR vb         0              
 ICCAP_VAR vd         0.05           
 ICCAP_VAR vs         0              

 #vg                    id                    ig                    ib                    is                   
  -0.5                  5.8e-13               -5.6706e-08           5.6682e-08            3.2e-13              
  -0.45                 -1.58e-12             -1.3366e-08           1.3374e-08            3.2e-13              
  -0.4                  -1.32e-12             -3.1528e-09           3.1616e-09            2.8e-13              
  -0.35                 3e-13                 -7.41e-10             7.4838e-10            0                    
  -0.3                  2.6e-13               -1.7462e-10           1.8258e-10            0                    
  -0.25                 5.4e-13               -4.094e-11            4.936e-11             -4e-13               
  -0.2                  1.16e-12              -9.46e-12             1.814e-11             -1.1e-12             
  -0.15                 3.24e-12              -2.22e-12             8.76e-12              -2.88e-12            
  -0.1                  8.6e-12               -2e-13                6.98e-12              -8.42e-12            
  -0.05                 2.418e-11             3.8e-13               5.72e-12              -2.416e-11           
  0                     6.922e-11             4.2e-13               6.64e-12              -6.932e-11           
  0.05                  2.0062e-10            5.2e-13               6.22e-12              -2.0028e-10          
  0.1                   5.8364e-10            4.4e-13               6.22e-12              -5.8354e-10          
  0.15                  1.7026e-09            5.8e-13               5.68e-12              -1.703e-09           
  0.2                   4.9376e-09            4.8e-13               5.72e-12              -4.9358e-09          
  0.25                  1.4126e-08            6.2e-13               6.12e-12              -1.4102e-08          
  0.3                   3.9162e-08            5e-13                 5.22e-12              -3.9104e-08          
  0.35                  1.03462e-07           7.2e-13               5.9e-12               -1.02418e-07         
  0.4                   2.5094e-07            6.4e-13               3.44e-12              -2.4968e-07          
  0.45                  5.4034e-07            9.6e-13               5.7e-12               -5.4048e-07          
  0.5                   1.02118e-06           1e-12                 6.58e-12              -1.02294e-06         
  0.55                  1.7112e-06            9.8e-13               5.26e-12              -1.7074e-06          
  0.6                   2.586e-06             1.18e-12              4.4e-12               -2.582e-06           
  0.65                  3.5948e-06            1.9e-12               5.9e-12               -3.5942e-06          
  0.7                   4.696e-06             2.12e-12              4.7e-12               -4.6954e-06          
  0.75                  5.8638e-06            2.6e-12               3.52e-12              -5.8486e-06          
  0.8                   7.0416e-06            3.46e-12              3.34e-12              -7.0346e-06          
  0.85                  8.2044e-06            4.24e-12              4.76e-12              -8.1982e-06          
  0.9                   9.3546e-06            5.26e-12              4e-12                 -9.363e-06           
  0.95                  1.0498e-05            6.56e-12              4.08e-12              -1.04834e-05         
  1                     1.1594e-05            7.86e-12              3.64e-12              -1.1574e-05          
  1.05                  1.2638e-05            9.8e-12               4.3e-12               -1.2632e-05          
  1.1                   1.365e-05             1.196e-11             4.3e-12               -1.364e-05           
  1.15                  1.4618e-05            1.464e-11             3.68e-12              -1.4608e-05          
  1.2                   1.5546e-05            1.756e-11             3.1e-12               -1.5536e-05          
  1.25                  1.642e-05             2.112e-11             3.48e-12              -1.6414e-05          
  1.3                   1.7248e-05            2.508e-11             3.82e-12              -1.7242e-05          
  1.35                  1.8038e-05            2.97e-11              3.84e-12              -1.8034e-05          
END_DB

BEGIN_DB
 ICCAP_VAR vb         -0.3           
 ICCAP_VAR vd         0.05           
 ICCAP_VAR vs         0              

 #vg                    id                    ig                    ib                    is                   
  -0.5                  2.6e-13               -1.04e-11             -1.6e-12              1.6e-13              
  -0.45                 1.2e-13               -2.6e-12              -8.7e-12              2.8e-13              
  -0.4                  -6e-14                -7e-13                -7.86e-12             2e-13                
  -0.35                 1e-13                 -1.2e-13              -7.98e-12             2e-13                
  -0.3                  2e-14                 1.2e-13               -7.06e-12             1.6e-13              
  -0.25                 1.6e-13               2e-14                 -7.04e-12             1.8e-13              
  -0.2                  1.2e-13               3e-13                 -6.8e-12              -4e-14               
  -0.15                 4.2e-13               3e-13                 -5.76e-12             -3.2e-13             
  -0.1                  1.52e-12              3.6e-13               -4.84e-12             -1.34e-12            
  -0.05                 4.44e-12              4.6e-13               -4.1e-12              -4.44e-12            
  0                     1.396e-11             2.8e-13               -5.16e-12             -1.362e-11           
  0.05                  4.264e-11             4.6e-13               -4.92e-12             -4.248e-11           
  0.1                   1.3134e-10            4.6e-13               -4.4e-12              -1.3098e-10          
  0.15                  4.0416e-10            5.4e-13               -4.02e-12             -4.0384e-10          
  0.2                   1.2364e-09            4e-13                 -3.1e-12              -1.2362e-09          
  0.25                  3.7644e-09            4.8e-13               -3.88e-12             -3.7534e-09          
  0.3                   1.11622e-08           5e-13                 -3.84e-12             -1.11444e-08         
  0.35                  3.2088e-08            4.6e-13               -3.42e-12             -3.1988e-08          
  0.4                   8.7016e-08            7.2e-13               -3.04e-12             -8.7618e-08          
  0.45                  2.1886e-07            7.8e-13               -3.14e-12             -2.1922e-07          
  0.5                   4.8772e-07            9.6e-13               -3.18e-12             -4.8774e-07          
  0.55                  9.4544e-07            1.16e-12              -2.88e-12             -9.4566e-07          
  0.6                   1.6122e-06            1.32e-12              -2.52e-12             -1.6176e-06          
  0.65                  2.4622e-06            1.54e-12              -3.26e-12             -2.4614e-06          
  0.7                   3.4546e-06            2.04e-12              -2.52e-12             -3.4632e-06          
  0.75                  4.5382e-06            2.5e-12               -2.42e-12             -4.5424e-06          
  0.8                   5.6732e-06            3.26e-12              -1.94e-12             -5.6708e-06          
  0.85                  6.8482e-06            3.94e-12              -2.94e-12             -6.8434e-06          
  0.9                   7.9968e-06            5.06e-12              -1.94e-12             -7.999e-06           
  0.95                  9.1428e-06            6.32e-12              -2.78e-12             -9.1322e-06          
  1                     1.02586e-05           7.86e-12              -1.84e-12             -1.0247e-05          
  1.05                  1.13386e-05           9.58e-12              -1.46e-12             -1.1328e-05          
  1.1                   1.2378e-05            1.16e-11              -2.14e-12             -1.2364e-05          
  1.15                  1.337e-05             1.422e-11             -2.4e-12              -1.3364e-05          
  1.2                   1.432e-05             1.728e-11             -1.64e-12             -1.4316e-05          
  1.25                  1.5228e-05            2.074e-11             -1.22e-12             -1.522e-05           
  1.3                   1.6088e-05            2.47e-11              -1.84e-12             -1.608e-05           
  1.35                  1.69e-05              2.938e-11             -2.22e-12             -1.6896e-05          
END_DB

BEGIN_DB
 ICCAP_VAR vb         -0.6           
 ICCAP_VAR vd         0.05           
 ICCAP_VAR vs         0              

 #vg                    id                    ig                    ib                    is                   
  -0.5                  1.4e-13               -5.6e-13              -1.544e-11            4.4e-13              
  -0.45                 6e-14                 -2.2e-13              -1.424e-11            2.4e-13              
  -0.4                  6e-14                 -1.2e-13              -1.334e-11            3.2e-13              
  -0.35                 2e-14                 -4e-14                -1.128e-11            2e-13                
  -0.3                  0                     1e-13                 -1.102e-11            2.4e-13              
  -0.25                 -4e-14                1.4e-13               -1.106e-11            2e-13                
  -0.2                  6e-14                 2e-13                 -1.08e-11             2e-13                
  -0.15                 1.6e-13               2.8e-13               -1.034e-11            1.4e-13              
  -0.1                  2.6e-13               2.6e-13               -8.7e-12              -3e-13               
  -0.05                 1.22e-12              3.2e-13               -8.26e-12             -1.12e-12            
  0                     4.06e-12              3.8e-13               -8.1e-12              -3.84e-12            
  0.05                  1.264e-11             4.4e-13               -8.4e-12              -1.254e-11           
  0.1                   4.054e-11             5.4e-13               -8.26e-12             -4.02e-11            
  0.15                  1.2876e-10            5e-13                 -7.98e-12             -1.288e-10           
  0.2                   4.0686e-10            6.2e-13               -6.64e-12             -4.0696e-10          
  0.25                  1.2796e-09            3e-13                 -6.76e-12             -1.2786e-09          
  0.3                   3.958e-09             5.2e-13               -7.48e-12             -3.952e-09           
  0.35                  1.1922e-08            6.4e-13               -6.22e-12             -1.191e-08           
  0.4                   3.4746e-08            6.4e-13               -5.24e-12             -3.4388e-08          
  0.45                  9.514e-08             6.8e-13               -6.64e-12             -9.5156e-08          
  0.5                   2.3926e-07            9.2e-13               -6.5e-12              -2.3856e-07          
  0.55                  5.2612e-07            1.04e-12              -4.88e-12             -5.2678e-07          
  0.6                   1.01354e-06           1.3e-12               -5.6e-12              -1.00794e-06         
  0.65                  1.6994e-06            1.46e-12              -5.54e-12             -1.695e-06           
  0.7                   2.565e-06             1.9e-12               -5.2e-12              -2.5534e-06          
  0.75                  3.5544e-06            2.46e-12              -4.8e-12              -3.5526e-06          
  0.8                   4.6488e-06            3.12e-12              -5.8e-12              -4.6378e-06          
  0.85                  5.7808e-06            3.92e-12              -5.78e-12             -5.7778e-06          
  0.9                   6.9262e-06            4.94e-12              -4.98e-12             -6.9206e-06          
  0.95                  8.0672e-06            6.14e-12              -4.4e-12              -8.068e-06           
  1                     9.1968e-06            7.52e-12              -4.66e-12             -9.1858e-06          
  1.05                  1.02838e-05           9.3e-12               -4.6e-12              -1.02866e-05         
  1.1                   1.13494e-05           1.156e-11             -5.46e-12             -1.13452e-05         
  1.15                  1.237e-05             1.392e-11             -4.86e-12             -1.2362e-05          
  1.2                   1.3346e-05            1.694e-11             -3.82e-12             -1.3334e-05          
  1.25                  1.426e-05             2.034e-11             -4.6e-12              -1.4252e-05          
  1.3                   1.5134e-05            2.442e-11             -5.3e-12              -1.5128e-05          
  1.35                  1.5972e-05            2.908e-11             -4.6e-12              -1.5964e-05          
END_DB

BEGIN_DB
 ICCAP_VAR vb         -0.9           
 ICCAP_VAR vd         0.05           
 ICCAP_VAR vs         0              

 #vg                    id                    ig                    ib                    is                   
  -0.5                  2.2e-13               -3.8e-13              -1.636e-11            4e-13                
  -0.45                 1.4e-13               -2.8e-13              -1.606e-11            2.8e-13              
  -0.4                  -2e-14                -6e-14                -1.456e-11            1.8e-13              
  -0.35                 1.8e-13               -2e-14                -1.442e-11            4e-13                
  -0.3                  0                     1.8e-13               -1.244e-11            2.4e-13              
  -0.25                 0                     1.2e-13               -1.256e-11            1.8e-13              
  -0.2                  -2e-14                2.8e-13               -1.26e-11             2.4e-13              
  -0.15                 -2e-14                2.4e-13               -1.2e-11              1.8e-13              
  -0.1                  1.6e-13               3.8e-13               -1.168e-11            1e-13                
  -0.05                 3.2e-13               5e-13                 -1.004e-11            -4e-13               
  0                     1.44e-12              2.6e-13               -9.64e-12             -1.26e-12            
  0.05                  4.82e-12              4.2e-13               -1.05e-11             -4.76e-12            
  0.1                   1.558e-11             5e-13                 -1.01e-11             -1.548e-11           
  0.15                  5.078e-11             4.6e-13               -1.068e-11            -5.046e-11           
  0.2                   1.6328e-10            6.4e-13               -9.08e-12             -1.6328e-10          
  0.25                  5.2664e-10            5.4e-13               -8.06e-12             -5.2888e-10          
  0.3                   1.6668e-09            5e-13                 -8.68e-12             -1.6666e-09          
  0.35                  5.1878e-09            6e-13                 -9.12e-12             -5.1856e-09          
  0.4                   1.5632e-08            6.6e-13               -8.32e-12             -1.5624e-08          
  0.45                  4.571e-08             6.4e-13               -8.2e-12              -4.5322e-08          
  0.5                   1.2268e-07            9.4e-13               -8.1e-12              -1.227e-07           
  0.55                  2.9988e-07            9.8e-13               -8.7e-12              -3.003e-07           
  0.6                   6.4136e-07            1.24e-12              -8.34e-12             -6.393e-07           
  0.65                  1.1776e-06            1.34e-12              -6.48e-12             -1.1794e-06          
  0.7                   1.9188e-06            1.9e-12               -7.68e-12             -1.9158e-06          
  0.75                  2.8186e-06            2.4e-12               -7.8e-12              -2.813e-06           
  0.8                   3.841e-06             2.96e-12              -7.72e-12             -3.8264e-06          
  0.85                  4.93e-06              3.8e-12               -6.16e-12             -4.9294e-06          
  0.9                   6.0626e-06            4.68e-12              -6.96e-12             -6.0598e-06          
  0.95                  7.192e-06             5.84e-12              -8.24e-12             -7.1962e-06          
  1                     8.3278e-06            7.4e-12               -7.98e-12             -8.3168e-06          
  1.05                  9.4304e-06            9.18e-12              -5.98e-12             -9.4304e-06          
  1.1                   1.0507e-05            1.118e-11             -7.06e-12             -1.04994e-05         
  1.15                  1.1544e-05            1.356e-11             -6e-12                -1.1528e-05          
  1.2                   1.2536e-05            1.668e-11             -6.14e-12             -1.2526e-05          
  1.25                  1.3482e-05            2.008e-11             -6.94e-12             -1.3478e-05          
  1.3                   1.438e-05             2.402e-11             -6.54e-12             -1.4372e-05          
  1.35                  1.5232e-05            2.87e-11              -5.94e-12             -1.5224e-05          
END_DB

BEGIN_DB
 ICCAP_VAR vb         -1.2           
 ICCAP_VAR vd         0.05           
 ICCAP_VAR vs         0              

 #vg                    id                    ig                    ib                    is                   
  -0.5                  1.2e-13               -5.8e-13              -1.712e-11            3.2e-13              
  -0.45                 4e-14                 -2.8e-13              -1.688e-11            3.6e-13              
  -0.4                  1.2e-13               -1e-13                -1.674e-11            3.8e-13              
  -0.35                 -2e-14                8e-14                 -1.59e-11             2.8e-13              
  -0.3                  6e-14                 1.8e-13               -1.512e-11            2e-13                
