! VERSION = 6.00
BEGIN_HEADER
 ICCAP_INPUTS
  vd         V  D GROUND SMU1 0.1 LIN        1    0          1.35       28   0.05      
  vg         V  G GROUND SMU2 0.001 LIST       2 3 0.089 0.289 0.489
  vb         V  B GROUND SMU4 0.1 CON        -1.2
  vs         V  S GROUND SMU3 0.1 CON        0
 ICCAP_OUTPUTS
  id         I  D GROUND SMU1 B
  ig         I  G GROUND SMU2 B
  ib         I  B GROUND SMU4 B
  is         I  S GROUND SMU3 B
 ICCAP_VALUES
  MASTER_SETUP_TYPE "~dc_idvd~"
  LINVT_VALUE ""
  LISTVT_VALUE "|idvg|100.0n|-200.0m|1.000m|3|200.0m|200.0m|"
  TYPE "1"
  TEMP " 27.0000 "
  IS_TNOM " 1.00000 "
  MAIN.W "10.00u"
  MAIN.L "2.000u"
  MAIN.AD "3.400p"
  MAIN.AS "3.400p"
  MAIN.PD "20.68u"
  MAIN.PS "20.68u"
  MAIN.NF "1.000"
  MAIN.M "1"
  MAIN.NRD "0.000"
  MAIN.NRS "0.000"
  MAIN.LDRIFT1 "1E-06"
  MAIN.LDRIFT2 "1E-06"
  MAIN.SA "0.000"
  MAIN.SB "0.000"
  MAIN.SD "0.000"
  MAIN.SCA "0.000"
  MAIN.SCB "0.000"
  MAIN.SCC "0.000"
  MAIN.SC "0.000"
  MODULE "S541"
  PIN_D "16"
  PIN_G "5"
  PIN_S "6"
  PIN_B "15"
  PIN_E ""
  PIN_6 ""
  XY_ID ""
  FUNC "L Scale"
  STI "SA ref"
  WPE "WPE ref"
  COMMENT ""
  DIS_MEAS ""
  TypeTCI "10"
END_HEADER

BEGIN_DB
 ICCAP_VAR vg         0.089          
 ICCAP_VAR vb         -1.2           
 ICCAP_VAR vs         0              

 #vd                    id                    ig                    ib                    is                   
  0                     2.12e-12              2e-14                 -6.42e-12             -1.12e-12            
  0.05                  5.163e-10             2e-14                 -6.72e-12             -5.1612e-10          
  0.1                   6.2252e-10            -1.4e-13              -4.18e-12             -6.2202e-10          
  0.15                  6.6226e-10            -8e-14                -4.56e-12             -6.6202e-10          
  0.2                   6.9064e-10            0                     -4.72e-12             -6.901e-10           
  0.25                  7.1492e-10            -2.2e-13              -4.34e-12             -7.1418e-10          
  0.3                   7.3744e-10            -1.4e-13              -4.26e-12             -7.3742e-10          
  0.35                  7.5862e-10            -3.2e-13              -4.02e-12             -7.5796e-10          
  0.4                   7.7742e-10            -1.8e-13              -2.2e-12              -7.7674e-10          
  0.45                  7.9524e-10            -5.2e-13              -4.06e-12             -7.9418e-10          
  0.5                   8.113e-10             -6.8e-13              -2.3e-12              -8.1094e-10          
  0.55                  8.2636e-10            -8e-13                -3.56e-12             -8.251e-10           
  0.6                   8.4058e-10            -1.1e-12              -3.1e-12              -8.3878e-10          
  0.65                  8.5322e-10            -1.62e-12             -2.04e-12             -8.5136e-10          
  0.7                   8.6482e-10            -2.06e-12             -3.52e-12             -8.6274e-10          
  0.75                  8.7602e-10            -2.58e-12             -2.52e-12             -8.7262e-10          
  0.8                   8.8616e-10            -3.3e-12              -2.8e-12              -8.8126e-10          
  0.85                  8.9594e-10            -3.86e-12             -2.1e-12              -8.9102e-10          
  0.9                   9.0412e-10            -4.76e-12             -2.24e-12             -8.9966e-10          
  0.95                  9.131e-10             -5.9e-12              -2.5e-12              -9.0684e-10          
  1                     9.2112e-10            -7.1e-12              -1.58e-12             -9.1356e-10          
  1.05                  9.2884e-10            -8.34e-12             -3e-12                -9.1952e-10          
  1.1                   9.361e-10             -1.002e-11            -1.7e-12              -9.2528e-10          
  1.15                  9.4308e-10            -1.176e-11            -2.28e-12             -9.3062e-10          
  1.2                   9.5002e-10            -1.39e-11             -2.5e-12              -9.3548e-10          
  1.25                  9.5666e-10            -1.626e-11            -1.86e-12             -9.3996e-10          
  1.3                   9.6338e-10            -1.898e-11            -1.74e-12             -9.4372e-10          
  1.35                  9.7094e-10            -2.192e-11            -2.46e-12             -9.48e-10            
END_DB

BEGIN_DB
 ICCAP_VAR vg         0.289          
 ICCAP_VAR vb         -1.2           
 ICCAP_VAR vs         0              

 #vd                    id                    ig                    ib                    is                   
  0                     6.8478e-10            1.534e-11             -1.1e-12              -7.0296e-10          
  0.05                  3.3486e-07            1.12e-11              -7.6e-13              -3.3478e-07          
  0.1                   4.183e-07             9.88e-12              -2.4e-13              -4.2086e-07          
  0.15                  4.5416e-07            9.3e-12               -1.98e-12             -4.5394e-07          
  0.2                   4.7702e-07            9e-12                 -1.94e-12             -4.7706e-07          
  0.25                  4.9676e-07            8.52e-12              -7e-13                -4.9674e-07          
  0.3                   5.148e-07             8.36e-12              -1.62e-12             -5.1478e-07          
  0.35                  5.313e-07             7.96e-12              -2.04e-12             -5.3104e-07          
  0.4                   5.4652e-07            7.74e-12              -1.56e-12             -5.463e-07           
  0.45                  5.6058e-07            7.42e-12              -1.2e-12              -5.6046e-07          
  0.5                   5.7334e-07            7.08e-12              -1.02e-12             -5.7344e-07          
  0.55                  5.8538e-07            6.82e-12              -1.98e-12             -5.853e-07           
  0.6                   5.9624e-07            6.5e-12               -1.82e-12             -5.9608e-07          
  0.65                  6.0638e-07            6.1e-12               -7e-13                -6.064e-07           
  0.7                   6.1562e-07            5.7e-12               -2.08e-12             -6.1554e-07          
  0.75                  6.2412e-07            5.38e-12              -2.02e-12             -6.2438e-07          
  0.8                   6.326e-07             4.82e-12              -1.22e-12             -6.3232e-07          
  0.85                  6.3908e-07            4.44e-12              -5.8e-13              -6.3902e-07          
  0.9                   6.4604e-07            3.74e-12              -5.2e-13              -6.4612e-07          
  0.95                  6.525e-07             3.02e-12              -2.3e-12              -6.5258e-07          
  1                     6.5822e-07            2.28e-12              -2.36e-12             -6.583e-07           
  1.05                  6.6372e-07            1.18e-12              -2.38e-12             -6.6358e-07          
  1.1                   6.6854e-07            3e-13                 -5.98e-12             -6.6812e-07          
  1.15                  6.7294e-07            -7.6e-13              -9.66e-12             -6.7278e-07          
  1.2                   6.7716e-07            -2.02e-12             -1.448e-11            -6.7666e-07          
  1.25                  6.8068e-07            -3.5e-12              -2.496e-11            -6.8074e-07          
  1.3                   6.8448e-07            -5.26e-12             -4.092e-11            -6.8412e-07          
  1.35                  6.8754e-07            -7.06e-12             -6.438e-11            -6.8798e-07          
END_DB

BEGIN_DB
 ICCAP_VAR vg         0.489          
 ICCAP_VAR vb         -1.2           
 ICCAP_VAR vs         0              

 #vd                    id                    ig                    ib                    is                   
  0                     2.0522e-08            1.7218e-10            -1.4e-13              -1.9832e-08          
  0.05                  1.1588e-05            1.399e-10             -1.26e-12             -1.1568e-05          
  0.1                   1.8066e-05            1.2176e-10            -9e-13                -1.805e-05           
  0.15                  2.1038e-05            1.1346e-10            -2.22e-12             -2.1022e-05          
  0.2                   2.2418e-05            1.0956e-10            -9.8e-13              -2.2402e-05          
  0.25                  2.326e-05             1.0724e-10            -1.14e-12             -2.3248e-05          
  0.3                   2.3924e-05            1.054e-10             -1.66e-12             -2.3904e-05          
  0.35                  2.4504e-05            1.0384e-10            -7.2e-13              -2.4486e-05          
  0.4                   2.5034e-05            1.0234e-10            -9.8e-13              -2.5016e-05          
  0.45                  2.5528e-05            1.012e-10             -1.34e-12             -2.5512e-05          
  0.5                   2.599e-05             9.992e-11             -2e-14                -2.5974e-05          
  0.55                  2.643e-05             9.872e-11             -1.06e-12             -2.6414e-05          
  0.6                   2.6848e-05            9.766e-11             -1.6e-13              -2.6826e-05          
  0.65                  2.7244e-05            9.642e-11             -1.12e-12             -2.7228e-05          
  0.7                   2.7626e-05            9.532e-11             -1.48e-12             -2.7612e-05          
  0.75                  2.7984e-05            9.444e-11             -2e-12                -2.7968e-05          
  0.8                   2.833e-05             9.328e-11             -7e-13                -2.8312e-05          
  0.85                  2.8658e-05            9.248e-11             -1.36e-12             -2.8644e-05          
  0.9                   2.8978e-05            9.116e-11             -1.94e-12             -2.896e-05           
  0.95                  2.9276e-05            9.032e-11             -9.4e-13              -2.9258e-05          
  1                     2.956e-05             8.922e-11             -1.94e-12             -2.9546e-05          
  1.05                  2.9838e-05            8.822e-11             -4.04e-12             -2.982e-05           
  1.1                   3.0102e-05            8.7e-11               -8.14e-12             -3.0082e-05          
  1.15                  3.035e-05             8.564e-11             -2.092e-11            -3.0332e-05          
  1.2                   3.0592e-05            8.444e-11             -5.006e-11            -3.0574e-05          
  1.25                  3.0824e-05            8.286e-11             -1.091e-10            -3.0806e-05          
  1.3                   3.1044e-05            8.168e-11             -2.2834e-10           -3.103e-05           
  1.35                  3.1258e-05            7.99e-11              -4.4188e-10           -3.1242e-05          
END_DB

