! VERSION = 6.00
BEGIN_HEADER
 ICCAP_INPUTS
  vd         V  D GROUND SMU1 0.1 LIN        1    0          1.35       28   0.05      
  vg         V  G GROUND SMU2 0.001 LIST       2 3 0.307 0.507 0.707
  vb         V  B GROUND SMU4 0.1 CON        -1.2
  vs         V  S GROUND SMU3 0.1 CON        0
 ICCAP_OUTPUTS
  id         I  D GROUND SMU1 B
  ig         I  G GROUND SMU2 B
  ib         I  B GROUND SMU4 B
  is         I  S GROUND SMU3 B
 ICCAP_VALUES
  MASTER_SETUP_TYPE "~dc_idvd~"
  LINVT_VALUE ""
  LISTVT_VALUE "|idvg|100.0n|-200.0m|1.000m|3|200.0m|200.0m|"
  TYPE "1"
  TEMP " 27.0000 "
  IS_TNOM " 1.00000 "
  MAIN.W "150.0n"
  MAIN.L "150.0n"
  MAIN.AD "100.5f"
  MAIN.AS "100.5f"
  MAIN.PD "1.340u"
  MAIN.PS "1.340u"
  MAIN.NF "1.000"
  MAIN.M "1"
  MAIN.NRD "0.000"
  MAIN.NRS "0.000"
  MAIN.LDRIFT1 "1E-06"
  MAIN.LDRIFT2 "1E-06"
  MAIN.SA "0.000"
  MAIN.SB "0.000"
  MAIN.SD "0.000"
  MAIN.SCA "0.000"
  MAIN.SCB "0.000"
  MAIN.SCC "0.000"
  MAIN.SC "0.000"
  MODULE "S546"
  PIN_D "12"
  PIN_G "9"
  PIN_S "10"
  PIN_B "11"
  PIN_E ""
  PIN_6 ""
  XY_ID ""
  FUNC "LW Scale"
  STI "SA ref"
  WPE "WPE ref"
  COMMENT ""
  DIS_MEAS ""
  TypeTCI "10"
END_HEADER

BEGIN_DB
 ICCAP_VAR vg         0.307          
 ICCAP_VAR vb         -1.2           
 ICCAP_VAR vs         0              

 #vd                    id                    ig                    ib                    is                   
  0                     6.8e-13               -4e-14                -7.02e-12             -3.6e-13             
  0.05                  1.262e-10             2e-14                 -6.54e-12             -1.2652e-10          
  0.1                   1.5444e-10            -1.6e-13              -5.94e-12             -1.547e-10           
  0.15                  1.6726e-10            -1.2e-13              -4.1e-12              -1.67e-10            
  0.2                   1.7836e-10            -1.8e-13              -5.4e-12              -1.7784e-10          
  0.25                  1.8908e-10            -6e-14                -4.68e-12             -1.888e-10           
  0.3                   2.0054e-10            -4e-14                -4.24e-12             -2.0036e-10          
  0.35                  2.1264e-10            -8e-14                -4e-12                -2.1186e-10          
  0.4                   2.2494e-10            8e-14                 -2.58e-12             -2.2412e-10          
  0.45                  2.3806e-10            -6e-14                -3.02e-12             -2.3732e-10          
  0.5                   2.5068e-10            -8e-14                -3.64e-12             -2.5044e-10          
  0.55                  2.6502e-10            1.6e-13               -3.44e-12             -2.652e-10           
  0.6                   2.8062e-10            -8e-14                -2.54e-12             -2.814e-10           
  0.65                  2.9796e-10            -1e-13                -2.36e-12             -2.969e-10           
  0.7                   3.1374e-10            -6e-14                -2.82e-12             -3.138e-10           
  0.75                  3.3252e-10            -1.4e-13              -3.08e-12             -3.3146e-10          
  0.8                   3.5282e-10            -6e-14                -2.78e-12             -3.5194e-10          
  0.85                  3.7434e-10            -1.6e-13              -2.62e-12             -3.7268e-10          
  0.9                   3.9736e-10            -2e-14                -1.66e-12             -3.9602e-10          
  0.95                  4.2038e-10            -1e-13                -3.1e-12              -4.1904e-10          
  1                     4.4788e-10            -8e-14                -2.56e-12             -4.45e-10            
  1.05                  4.7356e-10            -3e-13                -3.08e-12             -4.7454e-10          
  1.1                   5.0536e-10            -2e-13                -1.9e-12              -5.0414e-10          
  1.15                  5.3764e-10            -2.4e-13              -1.72e-12             -5.357e-10           
  1.2                   5.7124e-10            -2.4e-13              -2.28e-12             -5.6826e-10          
  1.25                  6.0744e-10            -1.2e-13              -2.52e-12             -6.0692e-10          
  1.3                   6.44e-10              -3.2e-13              -1.76e-12             -6.4212e-10          
  1.35                  6.86e-10              -2.6e-13              -2.3e-12              -6.8636e-10          
END_DB

BEGIN_DB
 ICCAP_VAR vg         0.507          
 ICCAP_VAR vb         -1.2           
 ICCAP_VAR vs         0              

 #vd                    id                    ig                    ib                    is                   
  0                     1.1328e-10            1.8e-13               4e-14                 -1.1824e-10          
  0.05                  4.9454e-08            1.8e-13               -2.06e-12             -4.9346e-08          
  0.1                   6.4082e-08            1.4e-13               -1.4e-12              -6.3788e-08          
  0.15                  7.0024e-08            1.4e-13               -1.34e-12             -7.015e-08           
  0.2                   7.468e-08             1.4e-13               -7.6e-13              -7.4844e-08          
  0.25                  7.8758e-08            4e-14                 -1.66e-12             -7.9132e-08          
  0.3                   8.3138e-08            4e-14                 -2.24e-12             -8.3028e-08          
  0.35                  8.7246e-08            1.2e-13               -1.4e-12              -8.7316e-08          
  0.4                   9.2372e-08            2e-13                 -1.18e-12             -9.2032e-08          
  0.45                  9.672e-08             8e-14                 -1.94e-12             -9.643e-08           
  0.5                   1.01282e-07           1.6e-13               -1.64e-12             -1.01222e-07         
  0.55                  1.06204e-07           1.4e-13               -1.9e-12              -1.06482e-07         
  0.6                   1.1166e-07            2.2e-13               -1.74e-12             -1.11668e-07         
  0.65                  1.172e-07             0                     -1.12e-12             -1.1692e-07          
  0.7                   1.2268e-07            2e-13                 -4.6e-13              -1.229e-07           
  0.75                  1.2932e-07            1.4e-13               -1.44e-12             -1.2916e-07          
  0.8                   1.3528e-07            4e-14                 -2.06e-12             -1.3482e-07          
  0.85                  1.418e-07             1e-13                 -1.54e-12             -1.4214e-07          
  0.9                   1.49e-07              1.2e-13               -5e-13                -1.4886e-07          
  0.95                  1.5638e-07            6e-14                 -1.3e-12              -1.5616e-07          
  1                     1.6402e-07            6e-14                 -1.46e-12             -1.6296e-07          
  1.05                  1.7124e-07            6e-14                 -2.16e-12             -1.7112e-07          
  1.1                   1.7982e-07            8e-14                 -1.16e-12             -1.7934e-07          
  1.15                  1.8832e-07            1.4e-13               -1.66e-12             -1.8806e-07          
  1.2                   1.973e-07             2e-14                 -3.36e-12             -1.9668e-07          
  1.25                  2.0676e-07            4e-14                 -5.42e-12             -2.0566e-07          
  1.3                   2.1586e-07            2e-14                 -7.86e-12             -2.1562e-07          
  1.35                  2.256e-07             -8e-14                -1.42e-11             -2.2564e-07          
END_DB

BEGIN_DB
 ICCAP_VAR vg         0.707          
 ICCAP_VAR vb         -1.2           
 ICCAP_VAR vs         0              

 #vd                    id                    ig                    ib                    is                   
  0                     1.9236e-09            9.6e-13               -8.2e-13              -1.7594e-09          
  0.05                  1.1702e-06            7.6e-13               -8e-14                -1.1662e-06          
  0.1                   1.86e-06              6.8e-13               -1.1e-12              -1.8548e-06          
  0.15                  2.261e-06             6.4e-13               -1.56e-12             -2.259e-06           
  0.2                   2.5066e-06            6e-13                 1.8e-13               -2.5056e-06          
  0.25                  2.6842e-06            6.2e-13               -1.32e-12             -2.6752e-06          
  0.3                   2.8206e-06            5.6e-13               -1.4e-12              -2.8092e-06          
  0.35                  2.9394e-06            6e-13                 8e-13                 -2.9376e-06          
  0.4                   3.057e-06             5e-13                 -1.52e-12             -3.0566e-06          
  0.45                  3.1688e-06            6.6e-13               -1.68e-12             -3.1688e-06          
  0.5                   3.2774e-06            5.6e-13               4e-14                 -3.2806e-06          
  0.55                  3.3882e-06            5e-13                 -1.72e-12             -3.3816e-06          
  0.6                   3.4992e-06            5.6e-13               -1.84e-12             -3.4884e-06          
  0.65                  3.6084e-06            5.8e-13               -5.6e-13              -3.6062e-06          
  0.7                   3.7228e-06            5e-13                 -1.7e-12              -3.7162e-06          
  0.75                  3.8332e-06            5.4e-13               -1.62e-12             -3.8384e-06          
  0.8                   3.9498e-06            5.8e-13               -4e-13                -3.9462e-06          
  0.85                  4.0722e-06            5.2e-13               -1.46e-12             -4.0708e-06          
  0.9                   4.1958e-06            5.8e-13               -1.84e-12             -4.1834e-06          
  0.95                  4.316e-06             5.6e-13               -8.4e-13              -4.308e-06           
  1                     4.43e-06              5e-13                 -1.66e-12             -4.4344e-06          
  1.05                  4.5582e-06            3e-13                 -2.44e-12             -4.5574e-06          
  1.1                   4.6904e-06            5.6e-13               -2.28e-12             -4.6884e-06          
  1.15                  4.8136e-06            5.8e-13               -6.12e-12             -4.8192e-06          
  1.2                   4.9486e-06            3.8e-13               -1.222e-11            -4.9454e-06          
  1.25                  5.0872e-06            4.2e-13               -2.31e-11             -5.0688e-06          
  1.3                   5.216e-06             4e-13                 -4.742e-11            -5.2096e-06          
  1.35                  5.3582e-06            3.6e-13               -8.976e-11            -5.3516e-06          
END_DB

