! VERSION = 6.00
BEGIN_HEADER
 ICCAP_INPUTS
  vg         V  G GROUND SMU2 0.001 LIN        1    -0.5       1.35       38   0.05      
  vb         V  B GROUND SMU4 0.1 LIN        2    0          -1.2       5    -0.3      
  vd         V  D GROUND SMU1 0.1 LIST       3 3 0.05 0.6 1.2
  vs         V  S GROUND SMU3 0.1 CON        0
 ICCAP_OUTPUTS
  id         I  D GROUND SMU1 B
  ig         I  G GROUND SMU2 B
  ib         I  B GROUND SMU4 B
  is         I  S GROUND SMU3 B
 ICCAP_VALUES
  MASTER_SETUP_TYPE "~dc_idvg~"
  LINVT_VALUE ""
  LISTVT_VALUE ""
  TYPE "1"
  TEMP " 125.000 "
  IS_TNOM " 0.00000 "
  MAIN.W "150.0n"
  MAIN.L "130.0n"
  MAIN.AD "100.5f"
  MAIN.AS "100.5f"
  MAIN.PD "1.340u"
  MAIN.PS "1.340u"
  MAIN.NF "1.000"
  MAIN.M "1"
  MAIN.NRD "0.000"
  MAIN.NRS "0.000"
  MAIN.LDRIFT1 "1E-06"
  MAIN.LDRIFT2 "1E-06"
  MAIN.SA "0.000"
  MAIN.SB "0.000"
  MAIN.SD "0.000"
  MAIN.SCA "0.000"
  MAIN.SCB "0.000"
  MAIN.SCC "0.000"
  MAIN.SC "0.000"
  MODULE "S546"
  PIN_D "16"
  PIN_G "5"
  PIN_S "6"
  PIN_B "15"
  PIN_E ""
  PIN_6 ""
  XY_ID ""
  FUNC "Small"
  STI "SA ref"
  WPE "WPE ref"
  COMMENT ""
  DIS_MEAS ""
  TypeTCI "10"
END_HEADER

BEGIN_DB
 ICCAP_VAR vb         0              
 ICCAP_VAR vd         0.05           
 ICCAP_VAR vs         0              

 #vg                    id                    ig                    ib                    is                   
  -0.5                  4.6e-13               -5.4966e-08           5.4934e-08            5.8e-13              
  -0.45                 -1.32e-12             -1.2922e-08           1.2926e-08            2.8e-13              
  -0.4                  -1.12e-12             -3.0368e-09           3.0432e-09            1e-13                
  -0.35                 2.4e-13               -7.1154e-10           7.1738e-10            0                    
  -0.3                  4e-13                 -1.6698e-10           1.7228e-10            1.2e-13              
  -0.25                 6.4e-13               -3.888e-11            4.464e-11             -2.4e-13             
  -0.2                  1.48e-12              -8.98e-12             1.57e-11              -1.26e-12            
  -0.15                 3.82e-12              -1.9e-12              8.44e-12              -3.74e-12            
  -0.1                  1.11e-11              -1.4e-13              6.12e-12              -1.082e-11           
  -0.05                 3.18e-11              3e-13                 4.36e-12              -3.156e-11           
  0                     9.302e-11             4e-13                 5.22e-12              -9.29e-11            
  0.05                  2.749e-10             5.8e-13               5.56e-12              -2.7484e-10          
  0.1                   8.1714e-10            4.8e-13               5.12e-12              -8.1704e-10          
  0.15                  2.4418e-09            4.8e-13               5.32e-12              -2.4418e-09          
  0.2                   7.2488e-09            5.4e-13               4.22e-12              -7.2442e-09          
  0.25                  2.117e-08             5.2e-13               4.3e-12               -2.1156e-08          
  0.3                   5.9256e-08            7.2e-13               4.34e-12              -5.9248e-08          
  0.35                  1.5298e-07            8e-13                 5.78e-12              -1.529e-07           
  0.4                   3.4722e-07            9.4e-13               5.14e-12              -3.4716e-07          
  0.45                  6.8066e-07            1.16e-12              3.92e-12              -6.8054e-07          
  0.5                   1.1666e-06            1.34e-12              5.46e-12              -1.1628e-06          
  0.55                  1.7872e-06            1.8e-12               4.16e-12              -1.7838e-06          
  0.6                   2.5176e-06            2.36e-12              4.2e-12               -2.5142e-06          
  0.65                  3.3198e-06            3.28e-12              4e-12                 -3.316e-06           
  0.7                   4.1616e-06            3.96e-12              4.78e-12              -4.1588e-06          
  0.75                  5.0222e-06            5.16e-12              4.7e-12               -5.019e-06           
  0.8                   5.884e-06             6.42e-12              3.68e-12              -5.8794e-06          
  0.85                  6.735e-06             8.02e-12              3.32e-12              -6.7306e-06          
  0.9                   7.5622e-06            9.9e-12               3.64e-12              -7.5608e-06          
  0.95                  8.3714e-06            1.202e-11             4.48e-12              -8.3676e-06          
  1                     9.1484e-06            1.438e-11             3.74e-12              -9.1444e-06          
  1.05                  9.8942e-06            1.74e-11              2.48e-12              -9.8908e-06          
  1.1                   1.06068e-05           2.062e-11             3.02e-12              -1.06034e-05         
  1.15                  1.12828e-05           2.416e-11             4.04e-12              -1.12838e-05         
  1.2                   1.1936e-05            2.816e-11             3.88e-12              -1.1932e-05          
  1.25                  1.255e-05             3.254e-11             3.38e-12              -1.2544e-05          
  1.3                   1.3114e-05            3.746e-11             3.02e-12              -1.3108e-05          
  1.35                  1.368e-05             4.296e-11             3.42e-12              -1.3668e-05          
END_DB

BEGIN_DB
 ICCAP_VAR vb         -0.3           
 ICCAP_VAR vd         0.05           
 ICCAP_VAR vs         0              

 #vg                    id                    ig                    ib                    is                   
  -0.5                  1.6e-13               -9.8e-12              3.2e-13               3.6e-13              
  -0.45                 8e-14                 -2.38e-12             -6.76e-12             4e-13                
  -0.4                  6e-14                 -6.6e-13              -7.08e-12             2.8e-13              
  -0.35                 2e-14                 -6e-14                -8.06e-12             3.6e-13              
  -0.3                  6e-14                 1.4e-13               -7.22e-12             1.4e-13              
  -0.25                 0                     2e-13                 -6.46e-12             1.4e-13              
  -0.2                  3e-13                 6e-14                 -5.04e-12             -4e-14               
  -0.15                 6.8e-13               3.2e-13               -3.88e-12             -6e-13               
  -0.1                  2.2e-12               3e-13                 -5.4e-12              -1.94e-12            
  -0.05                 6.38e-12              4e-13                 -5.04e-12             -6.28e-12            
  0                     2.012e-11             4.8e-13               -4.08e-12             -2.014e-11           
  0.05                  6.318e-11             4.2e-13               -4.46e-12             -6.296e-11           
  0.1                   1.9768e-10            3e-13                 -3.48e-12             -1.9742e-10          
  0.15                  6.1998e-10            4.6e-13               -3.22e-12             -6.202e-10           
  0.2                   1.9362e-09            6e-13                 -2.86e-12             -1.9358e-09          
  0.25                  6.0086e-09            6.2e-13               -3.66e-12             -6.006e-09           
  0.3                   1.8226e-08            6.6e-13               -3.5e-12              -1.8212e-08          
  0.35                  5.2854e-08            7.6e-13               -2.4e-12              -5.2824e-08          
  0.4                   1.403e-07             7.4e-13               -3.3e-12              -1.4028e-07          
  0.45                  3.2674e-07            1.12e-12              -2.98e-12             -3.2674e-07          
  0.5                   6.5234e-07            1.38e-12              -2.56e-12             -6.5234e-07          
  0.55                  1.13054e-06           1.78e-12              -1.54e-12             -1.13036e-06         
  0.6                   1.7504e-06            2.2e-12               -2.3e-12              -1.747e-06           
  0.65                  2.4752e-06            2.96e-12              -3.24e-12             -2.4718e-06          
  0.7                   3.2682e-06            3.76e-12              -1.18e-12             -3.2644e-06          
  0.75                  4.101e-06             4.92e-12              -1.98e-12             -4.0976e-06          
  0.8                   4.9476e-06            6.3e-12               -2.16e-12             -4.9432e-06          
  0.85                  5.7936e-06            7.82e-12              -2.98e-12             -5.7904e-06          
  0.9                   6.6258e-06            9.7e-12               -2.42e-12             -6.623e-06           
  0.95                  7.4396e-06            1.2e-11               -7.4e-13              -7.436e-06           
  1                     8.228e-06             1.432e-11             -1.86e-12             -8.2242e-06          
  1.05                  8.9878e-06            1.728e-11             -2.34e-12             -8.9856e-06          
  1.1                   9.715e-06             2.042e-11             -1.96e-12             -9.7126e-06          
  1.15                  1.0411e-05            2.394e-11             -1.42e-12             -1.04072e-05         
  1.2                   1.10746e-05           2.812e-11             -1.1e-12              -1.10704e-05         
  1.25                  1.1708e-05            3.23e-11              -2.06e-12             -1.17e-05            
  1.3                   1.2288e-05            3.718e-11             -2.1e-12              -1.2288e-05          
  1.35                  1.2868e-05            4.266e-11             -1.3e-12              -1.286e-05           
END_DB

BEGIN_DB
 ICCAP_VAR vb         -0.6           
 ICCAP_VAR vd         0.05           
 ICCAP_VAR vs         0              

 #vg                    id                    ig                    ib                    is                   
  -0.5                  4e-14                 -6.6e-13              -1.398e-11            3.8e-13              
  -0.45                 6e-14                 -3.2e-13              -1.304e-11            2.4e-13              
  -0.4                  0                     -8e-14                -1.096e-11            1.4e-13              
  -0.35                 2e-13                 0                     -1.102e-11            3.2e-13              
  -0.3                  0                     6e-14                 -1.068e-11            1e-13                
  -0.25                 1e-13                 6e-14                 -1.008e-11            1.6e-13              
  -0.2                  1e-13                 1.8e-13               -1.02e-11             3.4e-13              
  -0.15                 2e-13                 2.8e-13               -8.98e-12             -1.2e-13             
  -0.1                  8e-13                 3.6e-13               -8.02e-12             -2.6e-13             
  -0.05                 1.86e-12              3.8e-13               -7.52e-12             -1.6e-12             
  0                     6.18e-12              4.6e-13               -8.6e-12              -5.74e-12            
  0.05                  1.946e-11             4.6e-13               -8.32e-12             -1.928e-11           
  0.1                   6.31e-11              4.2e-13               -7.34e-12             -6.288e-11           
  0.15                  2.0364e-10            6.8e-13               -5.88e-12             -2.0326e-10          
  0.2                   6.5476e-10            5.2e-13               -6.78e-12             -6.5422e-10          
  0.25                  2.0986e-09            5.2e-13               -6.54e-12             -2.0992e-09          
  0.3                   6.645e-09             5.2e-13               -7.3e-12              -6.6406e-09          
  0.35                  2.049e-08             6.8e-13               -6.36e-12             -2.0476e-08          
  0.4                   5.98e-08              9.8e-13               -6.58e-12             -5.978e-08           
  0.45                  1.582e-07             1.04e-12              -5.62e-12             -1.5816e-07          
  0.5                   3.6276e-07            1.34e-12              -5.58e-12             -3.6274e-07          
  0.55                  7.1084e-07            1.76e-12              -6.42e-12             -7.1092e-07          
  0.6                   1.215e-06             2.2e-12               -5.1e-12              -1.2116e-06          
  0.65                  1.8522e-06            2.82e-12              -5.84e-12             -1.8496e-06          
  0.7                   2.5868e-06            3.74e-12              -5.38e-12             -2.5836e-06          
  0.75                  3.3834e-06            4.88e-12              -4.74e-12             -3.3804e-06          
  0.8                   4.2104e-06            6.04e-12              -4.22e-12             -4.208e-06           
  0.85                  5.0476e-06            7.72e-12              -4.36e-12             -5.0448e-06          
  0.9                   5.88e-06              9.76e-12              -4.96e-12             -5.8766e-06          
  0.95                  6.698e-06             1.156e-11             -5.12e-12             -6.694e-06           
  1                     7.4928e-06            1.428e-11             -4.96e-12             -7.4908e-06          
  1.05                  8.262e-06             1.706e-11             -4.16e-12             -8.2588e-06          
  1.1                   8.9994e-06            2.024e-11             -4.62e-12             -8.9956e-06          
  1.15                  9.7082e-06            2.378e-11             -4.72e-12             -9.7052e-06          
  1.2                   1.03846e-05           2.768e-11             -4.58e-12             -1.03798e-05         
  1.25                  1.1026e-05            3.216e-11             -3.8e-12              -1.10228e-05         
  1.3                   1.1638e-05            3.702e-11             -3.6e-12              -1.163e-05           
  1.35                  1.2218e-05            4.222e-11             -5.08e-12             -1.221e-05           
END_DB

BEGIN_DB
 ICCAP_VAR vb         -0.9           
 ICCAP_VAR vd         0.05           
 ICCAP_VAR vs         0              

 #vg                    id                    ig                    ib                    is                   
  -0.5                  1.4e-13               -5.6e-13              -1.554e-11            3.4e-13              
  -0.45                 6e-14                 -5.2e-13              -1.482e-11            3.2e-13              
  -0.4                  8e-14                 -1.8e-13              -1.404e-11            2.4e-13              
  -0.35                 1.2e-13               8e-14                 -1.358e-11            1.2e-13              
  -0.3                  0                     2e-14                 -1.29e-11             3e-13                
  -0.25                 8e-14                 2.6e-13               -1.212e-11            1.8e-13              
  -0.2                  4e-14                 1.2e-13               -1.196e-11            1.8e-13              
  -0.15                 4e-14                 4.2e-13               -1.038e-11            1.4e-13              
  -0.1                  1.4e-13               3.4e-13               -1.098e-11            -2e-14               
  -0.05                 7.2e-13               2.4e-13               -1.132e-11            -3.8e-13             
  0                     2.22e-12              4e-13                 -1.052e-11            -2.08e-12            
  0.05                  7.6e-12               3.4e-13               -1.012e-11            -7.26e-12            
  0.1                   2.482e-11             4.6e-13               -8.7e-12              -2.486e-11           
  0.15                  8.2e-11               4.6e-13               -9.24e-12             -8.186e-11           
  0.2                   2.6968e-10            4.8e-13               -9.7e-12              -2.6952e-10          
  0.25                  8.8404e-10            4.8e-13               -9.62e-12             -8.8338e-10          
  0.3                   2.8698e-09            4.8e-13               -8.7e-12              -2.87e-09            
  0.35                  9.1772e-09            8.2e-13               -8.22e-12             -9.1774e-09          
  0.4                   2.8276e-08            7.4e-13               -7.04e-12             -2.8246e-08          
  0.45                  8.1358e-08            1.02e-12              -8.38e-12             -8.1338e-08          
  0.5                   2.0784e-07            1.26e-12              -8.84e-12             -2.0782e-07          
  0.55                  4.5476e-07            1.66e-12              -7.66e-12             -4.5478e-07          
  0.6                   8.5346e-07            2.24e-12              -6.4e-12              -8.5346e-07          
  0.65                  1.4052e-06            2.66e-12              -7.3e-12              -1.4012e-06          
  0.7                   2.076e-06             3.74e-12              -7.1e-12              -2.0726e-06          
  0.75                  2.831e-06             4.62e-12              -6.78e-12             -2.8278e-06          
  0.8                   3.6348e-06            6.08e-12              -5.68e-12             -3.632e-06           
  0.85                  4.4612e-06            7.64e-12              -7.42e-12             -4.4572e-06          
  0.9                   5.2884e-06            9.44e-12              -8.16e-12             -5.2854e-06          
  0.95                  6.1054e-06            1.158e-11             -6.32e-12             -6.1038e-06          
  1                     6.9062e-06            1.396e-11             -5.6e-12              -6.9026e-06          
  1.05                  7.6814e-06            1.696e-11             -6.6e-12              -7.6784e-06          
  1.1                   8.4278e-06            2.008e-11             -7.22e-12             -8.4244e-06          
  1.15                  9.1462e-06            2.36e-11              -7.06e-12             -9.144e-06           
  1.2                   9.8314e-06            2.748e-11             -6.28e-12             -9.828e-06           
  1.25                  1.04834e-05           3.198e-11             -6.5e-12              -1.04806e-05         
  1.3                   1.11056e-05           3.676e-11             -6.72e-12             -1.11024e-05         
  1.35                  1.1696e-05            4.194e-11             -6.04e-12             -1.169e-05           
END_DB

BEGIN_DB
 ICCAP_VAR vb         -1.2           
 ICCAP_VAR vd         0.05           
 ICCAP_VAR vs         0              

 #vg                    id                    ig                    ib                    is                   
  -0.5                  -6e-14                -7.2e-13              -1.818e-11            5e-13                
  -0.45                 3.6e-13               -3e-13                -1.75e-11             3.6e-13              
  -0.4                  4e-14                 -2.8e-13              -1.496e-11            1.4e-13              
  -0.35                 8e-14                 -1e-13                -1.5e-11              4.6e-13              
  -0.3                  2e-13                 4e-14                 -1.514e-11            6e-14                
