! VERSION = 6.00
BEGIN_HEADER
 ICCAP_INPUTS
  vd         V  D GROUND SMU1 0.1 LIN        1    0          1.35       28   0.05      
  vg         V  G GROUND SMU2 0.001 LIN        2    0.326      1.35       5    0.256     
  vb         V  B GROUND SMU4 0.1 CON        -1.2
  vs         V  S GROUND SMU3 0.1 CON        0
 ICCAP_OUTPUTS
  id         I  D GROUND SMU1 B
  ig         I  G GROUND SMU2 B
  ib         I  B GROUND SMU4 B
  is         I  S GROUND SMU3 B
 ICCAP_VALUES
  MASTER_SETUP_TYPE "~dc_idvd~"
  LINVT_VALUE "|idvg|100.0n|100.0m|1.000m|5|1.350|"
  LISTVT_VALUE ""
  TYPE "1"
  TEMP " 70.0000 "
  IS_TNOM " 0.00000 "
  MAIN.W "150.0n"
  MAIN.L "10.00u"
  MAIN.AD "100.5f"
  MAIN.AS "100.5f"
  MAIN.PD "1.340u"
  MAIN.PS "1.340u"
  MAIN.NF "1.000"
  MAIN.M "1"
  MAIN.NRD "0.000"
  MAIN.NRS "0.000"
  MAIN.LDRIFT1 "1E-06"
  MAIN.LDRIFT2 "1E-06"
  MAIN.SA "0.000"
  MAIN.SB "0.000"
  MAIN.SD "0.000"
  MAIN.SCA "0.000"
  MAIN.SCB "0.000"
  MAIN.SCC "0.000"
  MAIN.SC "0.000"
  MODULE "S547"
  PIN_D "16"
  PIN_G "5"
  PIN_S "6"
  PIN_B "15"
  PIN_E ""
  PIN_6 ""
  XY_ID ""
  FUNC "Narrow"
  STI "SA ref"
  WPE "WPE ref"
  COMMENT ""
  DIS_MEAS ""
  TypeTCI "10"
END_HEADER

BEGIN_DB
 ICCAP_VAR vg         0.326          
 ICCAP_VAR vb         -1.2           
 ICCAP_VAR vs         0              

 #vd                    id                    ig                    ib                    is                   
  0                     1.778e-11             3.6e-12               -2.282e-11            -1.626e-11           
  0.05                  9.475e-09             2.5e-12               -2.156e-11            -9.4698e-09          
  0.1                   1.3356e-08            2.06e-12              -1.914e-11            -1.334e-08           
  0.15                  1.464e-08             1.92e-12              -1.754e-11            -1.4624e-08          
  0.2                   1.514e-08             1.98e-12              -1.684e-11            -1.511e-08           
  0.25                  1.5394e-08            1.7e-12               -1.698e-11            -1.5406e-08          
  0.3                   1.564e-08             1.76e-12              -1.708e-11            -1.5644e-08          
  0.35                  1.5824e-08            1.74e-12              -1.642e-11            -1.584e-08           
  0.4                   1.5992e-08            1.72e-12              -1.372e-11            -1.6016e-08          
  0.45                  1.6172e-08            1.64e-12              -1.438e-11            -1.6166e-08          
  0.5                   1.6322e-08            1.68e-12              -1.484e-11            -1.6314e-08          
  0.55                  1.6454e-08            1.68e-12              -1.384e-11            -1.6436e-08          
  0.6                   1.6582e-08            1.58e-12              -1.222e-11            -1.6578e-08          
  0.65                  1.6706e-08            1.68e-12              -1.298e-11            -1.6678e-08          
  0.7                   1.681e-08             1.56e-12              -1.33e-11             -1.679e-08           
  0.75                  1.6898e-08            1.6e-12               -1.272e-11            -1.6892e-08          
  0.8                   1.698e-08             1.52e-12              -1.132e-11            -1.6972e-08          
  0.85                  1.7066e-08            1.44e-12              -1.198e-11            -1.705e-08           
  0.9                   1.7112e-08            1.4e-12               -1.262e-11            -1.7102e-08          
  0.95                  1.7186e-08            1.48e-12              -1.162e-11            -1.72e-08            
  1                     1.7274e-08            1.46e-12              -1.108e-11            -1.726e-08           
  1.05                  1.7338e-08            1.3e-12               -9.26e-12             -1.7316e-08          
  1.1                   1.739e-08             1.34e-12              -1.08e-11             -1.7378e-08          
  1.15                  1.7442e-08            1.26e-12              -1.104e-11            -1.7422e-08          
  1.2                   1.7486e-08            1.06e-12              -9.52e-12             -1.7472e-08          
  1.25                  1.753e-08             1e-12                 -1.004e-11            -1.7514e-08          
  1.3                   1.7572e-08            7.8e-13               -1.124e-11            -1.7552e-08          
  1.35                  1.7608e-08            6.6e-13               -1.168e-11            -1.7598e-08          
END_DB

BEGIN_DB
 ICCAP_VAR vg         0.582          
 ICCAP_VAR vb         -1.2           
 ICCAP_VAR vs         0              

 #vd                    id                    ig                    ib                    is                   
  0                     5.944e-11             3.802e-11             -5.9e-12              -9.86e-11            
  0.05                  6.0886e-08            3.172e-11             -7.26e-12             -6.0902e-08          
  0.1                   1.1029e-07            2.692e-11             -6.28e-12             -1.10332e-07         
  0.15                  1.48e-07              2.348e-11             -7.76e-12             -1.48e-07            
  0.2                   1.7386e-07            2.118e-11             -7.1e-12              -1.7386e-07          
  0.25                  1.8878e-07            2.012e-11             -6.7e-12              -1.8872e-07          
  0.3                   1.957e-07             1.942e-11             -7.5e-12              -1.9574e-07          
  0.35                  1.9896e-07            1.914e-11             -6.5e-12              -1.9892e-07          
  0.4                   2.0082e-07            1.898e-11             -6.28e-12             -2.008e-07           
  0.45                  2.0218e-07            1.898e-11             -6.8e-12              -2.022e-07           
  0.5                   2.0332e-07            1.896e-11             -6.68e-12             -2.0336e-07          
  0.55                  2.0448e-07            1.876e-11             -7.48e-12             -2.0446e-07          
  0.6                   2.0556e-07            1.856e-11             -5.6e-12              -2.0558e-07          
  0.65                  2.0646e-07            1.872e-11             -5.9e-12              -2.0644e-07          
  0.7                   2.0738e-07            1.854e-11             -7.04e-12             -2.0722e-07          
  0.75                  2.0814e-07            1.836e-11             -5.64e-12             -2.0818e-07          
  0.8                   2.0902e-07            1.842e-11             -5.72e-12             -2.09e-07            
  0.85                  2.097e-07             1.83e-11              -6.34e-12             -2.0966e-07          
  0.9                   2.1044e-07            1.812e-11             -5.78e-12             -2.1044e-07          
  0.95                  2.1118e-07            1.818e-11             -6.38e-12             -2.1106e-07          
  1                     2.1172e-07            1.81e-11              -5.32e-12             -2.1174e-07          
  1.05                  2.1238e-07            1.806e-11             -5.34e-12             -2.1236e-07          
  1.1                   2.1288e-07            1.794e-11             -6.38e-12             -2.1284e-07          
  1.15                  2.1342e-07            1.798e-11             -5.3e-12              -2.1346e-07          
  1.2                   2.139e-07             1.786e-11             -4.68e-12             -2.1398e-07          
  1.25                  2.1436e-07            1.77e-11              -6.5e-12              -2.1444e-07          
  1.3                   2.1486e-07            1.766e-11             -5.98e-12             -2.1484e-07          
  1.35                  2.1532e-07            1.756e-11             -6.14e-12             -2.153e-07           
END_DB

BEGIN_DB
 ICCAP_VAR vg         0.838          
 ICCAP_VAR vb         -1.2           
 ICCAP_VAR vs         0              

 #vd                    id                    ig                    ib                    is                   
  0                     4.224e-11             1.8598e-10            -4.24e-12             -2.3314e-10          
  0.05                  1.1102e-07            1.6288e-10            -5e-12                -1.1116e-07          
  0.1                   2.1192e-07            1.4356e-10            -4.72e-12             -2.1204e-07          
  0.15                  3.0228e-07            1.278e-10             -3.6e-12              -3.0236e-07          
  0.2                   3.8162e-07            1.1492e-10            -5e-12                -3.8168e-07          
  0.25                  4.497e-07             1.0462e-10            -5.46e-12             -4.4982e-07          
  0.3                   5.062e-07             9.64e-11              -4.56e-12             -5.0638e-07          
  0.35                  5.5084e-07            9.026e-11             -4.36e-12             -5.5092e-07          
  0.4                   5.831e-07             8.608e-11             -4.36e-12             -5.832e-07           
  0.45                  6.0366e-07            8.37e-11              -5.02e-12             -6.0378e-07          
  0.5                   6.149e-07             8.216e-11             -5.02e-12             -6.1506e-07          
  0.55                  6.2076e-07            8.132e-11             -3.58e-12             -6.2094e-07          
  0.6                   6.2398e-07            8.082e-11             -5.2e-12              -6.244e-07           
  0.65                  6.266e-07             8.056e-11             -5.54e-12             -6.2676e-07          
  0.7                   6.288e-07             8.04e-11              -3.94e-12             -6.2894e-07          
  0.75                  6.3044e-07            8.008e-11             -4.34e-12             -6.306e-07           
  0.8                   6.3236e-07            8.008e-11             -4.78e-12             -6.3234e-07          
  0.85                  6.3406e-07            7.976e-11             -5.64e-12             -6.342e-07           
  0.9                   6.3544e-07            7.968e-11             -4.22e-12             -6.3572e-07          
  0.95                  6.3682e-07            7.942e-11             -4.08e-12             -6.3688e-07          
  1                     6.3808e-07            7.924e-11             -5.08e-12             -6.3838e-07          
  1.05                  6.397e-07             7.92e-11              -4.92e-12             -6.396e-07           
  1.1                   6.4084e-07            7.892e-11             -2.94e-12             -6.4102e-07          
  1.15                  6.419e-07             7.874e-11             -3.92e-12             -6.4218e-07          
  1.2                   6.4304e-07            7.872e-11             -3.94e-12             -6.431e-07           
  1.25                  6.44e-07              7.86e-11              -4.28e-12             -6.4438e-07          
  1.3                   6.4522e-07            7.848e-11             -4.32e-12             -6.4526e-07          
  1.35                  6.4626e-07            7.836e-11             -4.3e-12              -6.4624e-07          
END_DB

BEGIN_DB
 ICCAP_VAR vg         1.094          
 ICCAP_VAR vb         -1.2           
 ICCAP_VAR vs         0              

 #vd                    id                    ig                    ib                    is                   
  0                     -1.316e-10            6.25e-10              -2.88e-12             -5.0748e-10          
  0.05                  1.5198e-07            5.627e-10             -3.6e-12              -1.5252e-07          
  0.1                   2.9604e-07            5.081e-10             -3.66e-12             -2.9652e-07          
  0.15                  4.3146e-07            4.6058e-10            -2.66e-12             -4.3192e-07          
  0.2                   5.5768e-07            4.1972e-10            -4.26e-12             -5.5816e-07          
  0.25                  6.7456e-07            3.8434e-10            -3.62e-12             -6.7494e-07          
  0.3                   7.8148e-07            3.5464e-10            -3.96e-12             -7.8192e-07          
  0.35                  8.7828e-07            3.2912e-10            -2.42e-12             -8.7866e-07          
  0.4                   9.6434e-07            3.0798e-10            -4.48e-12             -9.6474e-07          
  0.45                  1.03934e-06           2.9038e-10            -4.28e-12             -1.03972e-06         
  0.5                   1.103e-06             2.763e-10             -3.56e-12             -1.1034e-06          
  0.55                  1.1562e-06            2.6536e-10            -4.08e-12             -1.15554e-06         
  0.6                   1.1962e-06            2.5728e-10            -3.96e-12             -1.193e-06           
  0.65                  1.2236e-06            2.5176e-10            -3.34e-12             -1.2204e-06          
  0.7                   1.2406e-06            2.4846e-10            -3.92e-12             -1.2376e-06          
  0.75                  1.2504e-06            2.4668e-10            -3.84e-12             -1.2472e-06          
  0.8                   1.256e-06             2.455e-10             -2.9e-12              -1.253e-06           
  0.85                  1.26e-06              2.4484e-10            -2.46e-12             -1.2568e-06          
  0.9                   1.2628e-06            2.4414e-10            -4.12e-12             -1.2598e-06          
  0.95                  1.2654e-06            2.4372e-10            -3.46e-12             -1.2624e-06          
  1                     1.2682e-06            2.4324e-10            -3.4e-12              -1.265e-06           
  1.05                  1.2704e-06            2.4272e-10            -2.84e-12             -1.267e-06           
  1.1                   1.2722e-06            2.4248e-10            -3.4e-12              -1.2694e-06          
  1.15                  1.2746e-06            2.4208e-10            -4.04e-12             -1.2714e-06          
  1.2                   1.2762e-06            2.4164e-10            -3.76e-12             -1.2732e-06          
  1.25                  1.2782e-06            2.4134e-10            -3.1e-12              -1.275e-06           
  1.3                   1.2798e-06            2.4106e-10            -3.68e-12             -1.2768e-06          
  1.35                  1.2814e-06            2.4056e-10            -2.92e-12             -1.2782e-06          
END_DB

BEGIN_DB
 ICCAP_VAR vg         1.35           
 ICCAP_VAR vb         -1.2           
 ICCAP_VAR vs         0              

 #vd                    id                    ig                    ib                    is                   
  0                     -6.1144e-10           1.6646e-09            -4.06e-12             -1.0438e-09          
  0.05                  1.8274e-07            1.5258e-09            -4.98e-12             -1.8424e-07          
  0.1                   3.6e-07               1.4004e-09            -4e-12                -3.6138e-07          
  0.15                  5.306e-07             1.2882e-09            -2.76e-12             -5.3184e-07          
  0.2                   6.9394e-07            1.1888e-09            -3.52e-12             -6.9514e-07          
  0.25                  8.4988e-07            1.0996e-09            -3.52e-12             -8.5112e-07          
  0.3                   9.981e-07             1.0214e-09            -4.5e-12              -9.9922e-07          
  0.35                  1.13796e-06           9.5138e-10            -2.68e-12             -1.13904e-06         
  0.4                   1.2706e-06            8.9038e-10            -3.04e-12             -1.268e-06           
  0.45                  1.3926e-06            8.3726e-10            -2.4e-12              -1.39e-06            
  0.5                   1.5054e-06            7.9078e-10            -2.12e-12             -1.5028e-06          
  0.55                  1.6082e-06            7.5068e-10            -3.94e-12             -1.6058e-06          
  0.6                   1.701e-06             7.1636e-10            -3.68e-12             -1.6984e-06          
  0.65                  1.7832e-06            6.8766e-10            -3.1e-12              -1.7804e-06          
  0.7                   1.8542e-06            6.639e-10             -3.3e-12              -1.8516e-06          
  0.75                  1.9138e-06            6.4468e-10            -2.52e-12             -1.9112e-06          
  0.8                   1.9616e-06            6.2978e-10            -3.06e-12             -1.959e-06           
  0.85                  1.9974e-06            6.188e-10             -3.98e-12             -1.9944e-06          
  0.9                   2.0216e-06            6.115e-10             -2.56e-12             -2.0188e-06          
  0.95                  2.0368e-06            6.072e-10             -2.9e-12              -2.0342e-06          
  1                     2.046e-06             6.044e-10             -3.9e-12              -2.0432e-06          
  1.05                  2.0518e-06            6.028e-10             -2.36e-12             -2.0492e-06          
  1.1                   2.0562e-06            6.0146e-10            -2.92e-12             -2.0534e-06          
  1.15                  2.0598e-06            6.0012e-10            -2.88e-12             -2.0572e-06          
  1.2                   2.0628e-06            5.9962e-10            -1.88e-12             -2.0602e-06          
  1.25                  2.0658e-06            5.9858e-10            -3.32e-12             -2.0634e-06          
  1.3                   2.0688e-06            5.9806e-10            -4.22e-12             -2.066e-06           
  1.35                  2.0712e-06            5.972e-10             -1.46e-12             -2.0686e-06          
END_DB

