! VERSION = 6.00
BEGIN_HEADER
 ICCAP_INPUTS
  vd         V  D GROUND SMU1 0.1 LIN        1    0          1.35       28   0.05      
  vg         V  G GROUND SMU2 0.001 LIST       2 3 0.045 0.245 0.445
  vb         V  B GROUND SMU4 0.1 CON        0
  vs         V  S GROUND SMU3 0.1 CON        0
 ICCAP_OUTPUTS
  id         I  D GROUND SMU1 B
  ig         I  G GROUND SMU2 B
  ib         I  B GROUND SMU4 B
  is         I  S GROUND SMU3 B
 ICCAP_VALUES
  MASTER_SETUP_TYPE "~dc_idvd~"
  LINVT_VALUE ""
  LISTVT_VALUE "|idvg|100.0n|-200.0m|1.000m|3|200.0m|200.0m|"
  TYPE "1"
  TEMP "-40.0000 "
  IS_TNOM " 0.00000 "
  MAIN.W "300.0n"
  MAIN.L "10.00u"
  MAIN.AD "102.0f"
  MAIN.AS "102.0f"
  MAIN.PD "1.280u"
  MAIN.PS "1.280u"
  MAIN.NF "1.000"
  MAIN.M "1"
  MAIN.NRD "0.000"
  MAIN.NRS "0.000"
  MAIN.LDRIFT1 "1E-06"
  MAIN.LDRIFT2 "1E-06"
  MAIN.SA "0.000"
  MAIN.SB "0.000"
  MAIN.SD "0.000"
  MAIN.SCA "0.000"
  MAIN.SCB "0.000"
  MAIN.SCC "0.000"
  MAIN.SC "0.000"
  MODULE "S545"
  PIN_D "18"
  PIN_G "3"
  PIN_S "4"
  PIN_B "17"
  PIN_E ""
  PIN_6 ""
  XY_ID ""
  FUNC "W Scale"
  STI "SA ref"
  WPE "WPE ref"
  COMMENT ""
  DIS_MEAS ""
  TypeTCI "10"
END_HEADER

BEGIN_DB
 ICCAP_VAR vg         0.045          
 ICCAP_VAR vb         0              
 ICCAP_VAR vs         0              

 #vd                    id                    ig                    ib                    is                   
  0                     -8e-14                -1.6e-13              6.4e-13               1.2e-13              
  0.05                  7e-13                 -2.4e-13              1.06e-12              -6.4e-13             
  0.1                   9e-13                 -1.6e-13              2.4e-13               -5.8e-13             
  0.15                  9.8e-13               -2e-14                1.2e-12               -7.8e-13             
  0.2                   1.18e-12              -1.4e-13              4.2e-13               -7e-13               
  0.25                  1.24e-12              -1.8e-13              5.8e-13               -7.8e-13             
  0.3                   1.3e-12               -2e-14                -4.2e-13              -8.4e-13             
  0.35                  1.28e-12              -1.4e-13              -1.6e-13              -7.6e-13             
  0.4                   1.32e-12              -6e-14                1.04e-12              -9.4e-13             
  0.45                  1.5e-12               -8e-14                7.6e-13               -7.4e-13             
  0.5                   1.58e-12              -1.8e-13              -6e-14                -1.04e-12            
  0.55                  1.64e-12              -8e-14                -7.6e-13              -8.8e-13             
  0.6                   1.62e-12              -2.2e-13              4e-14                 -9.2e-13             
  0.65                  1.74e-12              -1e-13                6e-13                 -1.2e-12             
  0.7                   1.94e-12              -3e-13                5.4e-13               -1.1e-12             
  0.75                  2.08e-12              -2.6e-13              -2.4e-13              -1.16e-12            
  0.8                   2e-12                 -4e-13                2.6e-13               -1.02e-12            
  0.85                  2.1e-12               -3.6e-13              -1.6e-13              -1.18e-12            
  0.9                   2.3e-12               -3.2e-13              5.6e-13               -1.28e-12            
  0.95                  2.4e-12               -4e-13                1.18e-12              -1.24e-12            
  1                     2.4e-12               -4.6e-13              1.8e-13               -1.36e-12            
  1.05                  2.46e-12              -6e-13                -4.2e-13              -1.24e-12            
  1.1                   2.62e-12              -6.6e-13              -3.4e-13              -1.32e-12            
  1.15                  2.86e-12              -8.8e-13              1.02e-12              -1.5e-12             
  1.2                   3.24e-12              -9.2e-13              6.8e-13               -1.54e-12            
  1.25                  3.3e-12               -1.12e-12             -6e-14                -1.36e-12            
  1.3                   3.42e-12              -1.28e-12             -6e-14                -1.48e-12            
  1.35                  3.74e-12              -1.4e-12              7.2e-13               -1.36e-12            
END_DB

BEGIN_DB
 ICCAP_VAR vg         0.245          
 ICCAP_VAR vb         0              
 ICCAP_VAR vs         0              

 #vd                    id                    ig                    ib                    is                   
  0                     2.82e-12              1.76e-12              8.2e-13               -5.06e-12            
  0.05                  1.746e-09             1.32e-12              3.8e-13               -1.7474e-09          
  0.1                   2.096e-09             1.3e-12               4.8e-13               -2.097e-09           
  0.15                  2.2846e-09            1.3e-12               -8e-14                -2.2822e-09          
  0.2                   2.4488e-09            1.34e-12              6.8e-13               -2.446e-09           
  0.25                  2.605e-09             1.28e-12              1.8e-13               -2.6026e-09          
  0.3                   2.754e-09             1.28e-12              7e-13                 -2.7538e-09          
  0.35                  2.8986e-09            1.18e-12              -1e-13                -2.8982e-09          
  0.4                   3.0402e-09            1.16e-12              -6.6e-13              -3.036e-09           
  0.45                  3.1712e-09            1.3e-12               2.6e-13               -3.1708e-09          
  0.5                   3.3012e-09            1.04e-12              7.8e-13               -3.297e-09           
  0.55                  3.4236e-09            1.02e-12              1.52e-12              -3.4206e-09          
  0.6                   3.5418e-09            1.08e-12              -1.22e-12             -3.5386e-09          
  0.65                  3.6554e-09            9.8e-13               -7.4e-13              -3.653e-09           
  0.7                   3.7662e-09            9.4e-13               6e-13                 -3.7644e-09          
  0.75                  3.8748e-09            9e-13                 1.2e-13               -3.8738e-09          
  0.8                   3.9762e-09            8.6e-13               2e-14                 -3.9766e-09          
  0.85                  4.0746e-09            7.8e-13               -8e-14                -4.0742e-09          
  0.9                   4.1672e-09            7.6e-13               8e-14                 -4.1654e-09          
  0.95                  4.2552e-09            7.2e-13               -4e-13                -4.2508e-09          
  1                     4.3446e-09            6e-13                 5.2e-13               -4.3436e-09          
  1.05                  4.4234e-09            5.6e-13               2e-14                 -4.424e-09           
  1.1                   4.4998e-09            4.8e-13               -3.8e-13              -4.4946e-09          
  1.15                  4.5724e-09            4e-13                 3.6e-13               -4.5714e-09          
  1.2                   4.639e-09             2e-13                 -1.8e-13              -4.6398e-09          
  1.25                  4.7064e-09            1.2e-13               6.4e-13               -4.701e-09           
  1.3                   4.763e-09             6e-14                 1.2e-13               -4.76e-09            
  1.35                  4.8174e-09            -6e-14                -9e-13                -4.8248e-09          
END_DB

BEGIN_DB
 ICCAP_VAR vg         0.445          
 ICCAP_VAR vb         0              
 ICCAP_VAR vs         0              

 #vd                    id                    ig                    ib                    is                   
  0                     1.7154e-10            1.954e-11             1.24e-12              -1.914e-10           
  0.05                  1.1702e-07            1.59e-11              -4.2e-13              -1.1692e-07          
  0.1                   1.7424e-07            1.41e-11              -9.6e-13              -1.7412e-07          
  0.15                  1.9364e-07            1.36e-11              7e-13                 -1.9352e-07          
  0.2                   2.0262e-07            1.332e-11             1.8e-13               -2.0252e-07          
  0.25                  2.0958e-07            1.314e-11             4e-14                 -2.0954e-07          
  0.3                   2.1564e-07            1.3e-11               0                     -2.1572e-07          
  0.35                  2.2106e-07            1.266e-11             9.8e-13               -2.209e-07           
  0.4                   2.2612e-07            1.278e-11             9e-13                 -2.2602e-07          
  0.45                  2.3086e-07            1.25e-11              4e-14                 -2.3064e-07          
  0.5                   2.3522e-07            1.24e-11              -9.8e-13              -2.3512e-07          
  0.55                  2.3958e-07            1.232e-11             1.32e-12              -2.3944e-07          
  0.6                   2.437e-07             1.206e-11             0                     -2.4358e-07          
  0.65                  2.4764e-07            1.194e-11             4.6e-13               -2.4752e-07          
  0.7                   2.5152e-07            1.196e-11             -2e-14                -2.5144e-07          
  0.75                  2.5542e-07            1.174e-11             3e-13                 -2.5528e-07          
  0.8                   2.591e-07             1.164e-11             6e-13                 -2.59e-07            
  0.85                  2.6272e-07            1.158e-11             -2.6e-13              -2.6264e-07          
  0.9                   2.6636e-07            1.15e-11              -1.6e-13              -2.6614e-07          
  0.95                  2.6964e-07            1.12e-11              1.04e-12              -2.6956e-07          
  1                     2.7314e-07            1.12e-11              -1.6e-13              -2.7306e-07          
  1.05                  2.7662e-07            1.11e-11              -5.4e-13              -2.7646e-07          
  1.1                   2.7996e-07            1.08e-11              -4.8e-13              -2.7982e-07          
  1.15                  2.832e-07             1.094e-11             9.2e-13               -2.8314e-07          
  1.2                   2.8656e-07            1.078e-11             3.2e-13               -2.865e-07           
  1.25                  2.8976e-07            1.062e-11             -1.1e-12              -2.8962e-07          
  1.3                   2.928e-07             1.046e-11             -3e-12                -2.9266e-07          
  1.35                  2.9578e-07            1.024e-11             -2.98e-12             -2.957e-07           
END_DB

