! VERSION = 6.00
BEGIN_HEADER
 ICCAP_INPUTS
  vd         V  D GROUND SMU1 0.1 LIN        1    0          1.35       28   0.05      
  vg         V  G GROUND SMU2 0.001 LIST       2 3 0.104 0.304 0.504
  vb         V  B GROUND SMU4 0.1 CON        -1.2
  vs         V  S GROUND SMU3 0.1 CON        0
 ICCAP_OUTPUTS
  id         I  D GROUND SMU1 B
  ig         I  G GROUND SMU2 B
  ib         I  B GROUND SMU4 B
  is         I  S GROUND SMU3 B
 ICCAP_VALUES
  MASTER_SETUP_TYPE "~dc_idvd~"
  LINVT_VALUE ""
  LISTVT_VALUE "|idvg|100.0n|-200.0m|1.000m|3|200.0m|200.0m|"
  TYPE "1"
  TEMP " 27.0000 "
  IS_TNOM " 1.00000 "
  MAIN.W "2.000u"
  MAIN.L "2.000u"
  MAIN.AD "680.0f"
  MAIN.AS "680.0f"
  MAIN.PD "4.680u"
  MAIN.PS "4.680u"
  MAIN.NF "1.000"
  MAIN.M "1"
  MAIN.NRD "0.000"
  MAIN.NRS "0.000"
  MAIN.LDRIFT1 "1E-06"
  MAIN.LDRIFT2 "1E-06"
  MAIN.SA "0.000"
  MAIN.SB "0.000"
  MAIN.SD "0.000"
  MAIN.SCA "0.000"
  MAIN.SCB "0.000"
  MAIN.SCC "0.000"
  MAIN.SC "0.000"
  MODULE "S542"
  PIN_D "12"
  PIN_G "9"
  PIN_S "10"
  PIN_B "11"
  PIN_E ""
  PIN_6 ""
  XY_ID ""
  FUNC "LW Scale"
  STI "SA ref"
  WPE "WPE ref"
  COMMENT ""
  DIS_MEAS ""
  TypeTCI "10"
END_HEADER

BEGIN_DB
 ICCAP_VAR vg         0.104          
 ICCAP_VAR vb         -1.2           
 ICCAP_VAR vs         0              

 #vd                    id                    ig                    ib                    is                   
  0                     3.2e-13               -1.2e-13              -6.92e-12             -1.6e-13             
  0.05                  1.0468e-10            -2e-13                -6e-12                -1.0436e-10          
  0.1                   1.267e-10             -1.2e-13              -6.4e-12              -1.2642e-10          
  0.15                  1.3592e-10            -6e-14                -5.26e-12             -1.3572e-10          
  0.2                   1.428e-10             -1.6e-13              -5.44e-12             -1.4242e-10          
  0.25                  1.492e-10             -4e-14                -3.86e-12             -1.4894e-10          
  0.3                   1.5514e-10            -1e-13                -3.12e-12             -1.5474e-10          
  0.35                  1.6072e-10            -1.2e-13              -3.78e-12             -1.602e-10           
  0.4                   1.6594e-10            -1e-13                -4.36e-12             -1.6548e-10          
  0.45                  1.7116e-10            -2.6e-13              -4.04e-12             -1.7034e-10          
  0.5                   1.7544e-10            -1.2e-13              -2.94e-12             -1.751e-10           
  0.55                  1.8008e-10            -3.2e-13              -2.28e-12             -1.7926e-10          
  0.6                   1.841e-10             -3.6e-13              -3.04e-12             -1.834e-10           
  0.65                  1.8782e-10            -3e-13                2.4e-13               -1.8686e-10          
  0.7                   1.9142e-10            -5.2e-13              -3.34e-12             -1.9044e-10          
  0.75                  1.9414e-10            -6.4e-13              -3.14e-12             -1.9368e-10          
  0.8                   1.9742e-10            -7.4e-13              -1.76e-12             -1.9606e-10          
  0.85                  2.0054e-10            -9.6e-13              -2.22e-12             -1.989e-10           
  0.9                   2.0264e-10            -1.08e-12             -3.18e-12             -2.0122e-10          
  0.95                  2.0552e-10            -1.36e-12             -2.36e-12             -2.033e-10           
  1                     2.0808e-10            -1.58e-12             -2.12e-12             -2.056e-10           
  1.05                  2.099e-10             -1.96e-12             -1.22e-12             -2.0748e-10          
  1.1                   2.1138e-10            -2.18e-12             -2.18e-12             -2.0872e-10          
  1.15                  2.14e-10              -2.68e-12             -2.74e-12             -2.105e-10           
  1.2                   2.1584e-10            -3.08e-12             -2.1e-12              -2.1228e-10          
  1.25                  2.1794e-10            -3.58e-12             -2.44e-12             -2.1328e-10          
  1.3                   2.1938e-10            -4.14e-12             -5e-13                -2.1464e-10          
  1.35                  2.2152e-10            -4.86e-12             -1.58e-12             -2.1574e-10          
END_DB

BEGIN_DB
 ICCAP_VAR vg         0.304          
 ICCAP_VAR vb         -1.2           
 ICCAP_VAR vs         0              

 #vd                    id                    ig                    ib                    is                   
  0                     1.5406e-10            3.46e-12              2.6e-13               -1.5994e-10          
  0.05                  6.2704e-08            2.76e-12              -2.08e-12             -6.2736e-08          
  0.1                   7.9476e-08            2.46e-12              -2.46e-12             -7.9522e-08          
  0.15                  8.6524e-08            2.28e-12              -1.1e-12              -8.6448e-08          
  0.2                   9.1518e-08            2.22e-12              -1.74e-12             -9.1508e-08          
  0.25                  9.5902e-08            2.18e-12              -2.52e-12             -9.5902e-08          
  0.3                   9.9914e-08            2.12e-12              -1.9e-12              -9.9922e-08          
  0.35                  1.03726e-07           2.06e-12              -1.22e-12             -1.03748e-07         
  0.4                   1.07096e-07           1.98e-12              -7.8e-13              -1.07104e-07         
  0.45                  1.1076e-07            1.94e-12              -6.6e-13              -1.10668e-07         
  0.5                   1.1396e-07            1.82e-12              -1.42e-12             -1.13802e-07         
  0.55                  1.168e-07             1.84e-12              -2.18e-12             -1.16732e-07         
  0.6                   1.1958e-07            1.68e-12              -1.6e-12              -1.1942e-07          
  0.65                  1.2214e-07            1.54e-12              -6e-13                -1.22e-07            
  0.7                   1.2452e-07            1.5e-12               -1.7e-12              -1.244e-07           
  0.75                  1.267e-07             1.48e-12              -1.68e-12             -1.266e-07           
  0.8                   1.2878e-07            1.52e-12              -1.38e-12             -1.2866e-07          
  0.85                  1.3064e-07            1.28e-12              -4.8e-13              -1.304e-07           
  0.9                   1.324e-07             1.06e-12              -2.02e-12             -1.3228e-07          
  0.95                  1.3414e-07            1.02e-12              -1.98e-12             -1.3394e-07          
  1                     1.3568e-07            8e-13                 -1.52e-12             -1.3544e-07          
  1.05                  1.3696e-07            6e-13                 -7.4e-13              -1.368e-07           
  1.1                   1.3822e-07            3.2e-13               -2.6e-12              -1.3808e-07          
  1.15                  1.394e-07             2e-14                 -3.28e-12             -1.3922e-07          
  1.2                   1.405e-07             -2e-13                -4.08e-12             -1.4036e-07          
  1.25                  1.4152e-07            -5.4e-13              -6.68e-12             -1.4142e-07          
  1.3                   1.4244e-07            -9.4e-13              -1.124e-11            -1.4234e-07          
  1.35                  1.433e-07             -1.44e-12             -1.508e-11            -1.4312e-07          
END_DB

BEGIN_DB
 ICCAP_VAR vg         0.504          
 ICCAP_VAR vb         -1.2           
 ICCAP_VAR vs         0              

 #vd                    id                    ig                    ib                    is                   
  0                     2.7112e-09            3.908e-11             -4e-13                -2.669e-09           
  0.05                  2.0476e-06            3.228e-11             -1.06e-12             -2.0434e-06          
  0.1                   3.1536e-06            2.852e-11             -9.4e-13              -3.1498e-06          
  0.15                  3.6672e-06            2.684e-11             -1.62e-12             -3.6634e-06          
  0.2                   3.9226e-06            2.608e-11             -1.06e-12             -3.92e-06            
  0.25                  4.0886e-06            2.538e-11             -2.6e-13              -4.0844e-06          
  0.3                   4.2184e-06            2.504e-11             -1.88e-12             -4.216e-06           
  0.35                  4.3344e-06            2.466e-11             -1.56e-12             -4.3308e-06          
  0.4                   4.442e-06             2.424e-11             -8.6e-13              -4.4382e-06          
  0.45                  4.5414e-06            2.394e-11             -1.18e-12             -4.5388e-06          
  0.5                   4.6372e-06            2.368e-11             -4.4e-13              -4.633e-06           
  0.55                  4.728e-06             2.358e-11             -9.2e-13              -4.7224e-06          
  0.6                   4.8126e-06            2.312e-11             -1.8e-12              -4.81e-06            
  0.65                  4.8954e-06            2.276e-11             -1.48e-12             -4.8928e-06          
  0.7                   4.9728e-06            2.262e-11             2.1e-12               -4.9696e-06          
  0.75                  5.049e-06             2.232e-11             -2.06e-12             -5.0458e-06          
  0.8                   5.1206e-06            2.212e-11             -1.4e-12              -5.1168e-06          
  0.85                  5.1902e-06            2.19e-11              -3.8e-13              -5.1858e-06          
  0.9                   5.2562e-06            2.158e-11             -1.74e-12             -5.2516e-06          
  0.95                  5.3188e-06            2.126e-11             -1.34e-12             -5.316e-06           
  1                     5.38e-06              2.116e-11             -7.2e-13              -5.3764e-06          
  1.05                  5.4388e-06            2.09e-11              -2.48e-12             -5.434e-06           
  1.1                   5.4944e-06            2.056e-11             -3.64e-12             -5.4914e-06          
  1.15                  5.5476e-06            2.034e-11             -5.02e-12             -5.5436e-06          
  1.2                   5.5984e-06            1.994e-11             -1.214e-11            -5.595e-06           
  1.25                  5.6472e-06            1.966e-11             -2.506e-11            -5.6444e-06          
  1.3                   5.6952e-06            1.932e-11             -4.854e-11            -5.6914e-06          
  1.35                  5.7388e-06            1.894e-11             -9.27e-11             -5.7356e-06          
END_DB

