! VERSION = 6.00
BEGIN_HEADER
 ICCAP_INPUTS
  vd         V  D GROUND SMU1 0.1 LIN        1    0          1.35       28   0.05      
  vg         V  G GROUND SMU2 0.001 LIN        2    0.318      1.35       5    0.258     
  vb         V  B GROUND SMU4 0.1 CON        0
  vs         V  S GROUND SMU3 0.1 CON        0
 ICCAP_OUTPUTS
  id         I  D GROUND SMU1 B
  ig         I  G GROUND SMU2 B
  ib         I  B GROUND SMU4 B
  is         I  S GROUND SMU3 B
 ICCAP_VALUES
  MASTER_SETUP_TYPE "~dc_idvd~"
  LINVT_VALUE "|idvg|100.0n|100.0m|1.000m|5|1.350|"
  LISTVT_VALUE ""
  TYPE "1"
  TEMP "-40.0000 "
  IS_TNOM " 0.00000 "
  MAIN.W "150.0n"
  MAIN.L "10.00u"
  MAIN.AD "100.5f"
  MAIN.AS "100.5f"
  MAIN.PD "1.340u"
  MAIN.PS "1.340u"
  MAIN.NF "1.000"
  MAIN.M "1"
  MAIN.NRD "0.000"
  MAIN.NRS "0.000"
  MAIN.LDRIFT1 "1E-06"
  MAIN.LDRIFT2 "1E-06"
  MAIN.SA "0.000"
  MAIN.SB "0.000"
  MAIN.SD "0.000"
  MAIN.SCA "0.000"
  MAIN.SCB "0.000"
  MAIN.SCC "0.000"
  MAIN.SC "0.000"
  MODULE "S547"
  PIN_D "16"
  PIN_G "5"
  PIN_S "6"
  PIN_B "15"
  PIN_E ""
  PIN_6 ""
  XY_ID ""
  FUNC "Narrow"
  STI "SA ref"
  WPE "WPE ref"
  COMMENT ""
  DIS_MEAS ""
  TypeTCI "10"
END_HEADER

BEGIN_DB
 ICCAP_VAR vg         0.318          
 ICCAP_VAR vb         0              
 ICCAP_VAR vs         0              

 #vd                    id                    ig                    ib                    is                   
  0                     4.248e-11             2.66e-12              5.12e-12              -3.29e-11            
  0.05                  2.1994e-08            1.52e-12              4.78e-12              -2.1976e-08          
  0.1                   2.9912e-08            1.64e-12              4.34e-12              -2.9884e-08          
  0.15                  3.2226e-08            1.98e-12              3.7e-12               -3.2202e-08          
  0.2                   3.3222e-08            1.4e-12               3.48e-12              -3.3202e-08          
  0.25                  3.389e-08             1.62e-12              3.14e-12              -3.3874e-08          
  0.3                   3.4492e-08            1.62e-12              4.68e-12              -3.4454e-08          
  0.35                  3.5004e-08            1.66e-12              3.28e-12              -3.4924e-08          
  0.4                   3.5494e-08            1.7e-12               2.22e-12              -3.5398e-08          
  0.45                  3.5898e-08            1.32e-12              2.86e-12              -3.5828e-08          
  0.5                   3.6278e-08            1.12e-12              3.62e-12              -3.629e-08           
  0.55                  3.6802e-08            1.84e-12              3.24e-12              -3.6798e-08          
  0.6                   3.7196e-08            1.02e-12              2.32e-12              -3.7202e-08          
  0.65                  3.7524e-08            1.68e-12              2.08e-12              -3.7444e-08          
  0.7                   3.7822e-08            1.04e-12              3.26e-12              -3.7808e-08          
  0.75                  3.8338e-08            8.4e-13               3.28e-12              -3.8312e-08          
  0.8                   3.8608e-08            1.48e-12              2.16e-12              -3.849e-08           
  0.85                  3.8854e-08            1.42e-12              2.54e-12              -3.9e-08             
  0.9                   3.914e-08             1.32e-12              2.26e-12              -3.912e-08           
  0.95                  3.944e-08             1.04e-12              3.66e-12              -3.9416e-08          
  1                     3.9802e-08            8.4e-13               2.66e-12              -3.9862e-08          
  1.05                  4.015e-08             1.58e-12              1.46e-12              -4.015e-08           
  1.1                   4.0408e-08            8.6e-13               1.92e-12              -4.0238e-08          
  1.15                  4.059e-08             9.8e-13               2.78e-12              -4.0576e-08          
  1.2                   4.0684e-08            9.2e-13               2.48e-12              -4.066e-08           
  1.25                  4.0904e-08            7.6e-13               1.6e-12               -4.0908e-08          
  1.3                   4.1126e-08            1.04e-12              8.2e-13               -4.1094e-08          
  1.35                  4.1496e-08            8.4e-13               1.14e-12              -4.1464e-08          
END_DB

BEGIN_DB
 ICCAP_VAR vg         0.576          
 ICCAP_VAR vb         0              
 ICCAP_VAR vs         0              

 #vd                    id                    ig                    ib                    is                   
  0                     1.3154e-10            2.904e-11             2.5e-12               -1.6226e-10          
  0.05                  1.2228e-07            2.468e-11             1.54e-12              -1.2216e-07          
  0.1                   2.2278e-07            2.1e-11               1.02e-12              -2.2268e-07          
  0.15                  3.0044e-07            1.786e-11             1.14e-12              -3.0034e-07          
  0.2                   3.5366e-07            1.636e-11             1.3e-12               -3.5352e-07          
  0.25                  3.8322e-07            1.528e-11             4.4e-13               -3.831e-07           
  0.3                   3.9672e-07            1.542e-11             1.6e-12               -3.9676e-07          
  0.35                  4.0386e-07            1.506e-11             2e-12                 -4.0378e-07          
  0.4                   4.0798e-07            1.48e-11              1.6e-12               -4.079e-07           
  0.45                  4.11e-07              1.458e-11             8.2e-13               -4.1092e-07          
  0.5                   4.136e-07             1.52e-11              1.4e-12               -4.1326e-07          
  0.55                  4.1588e-07            1.452e-11             1.52e-12              -4.1578e-07          
  0.6                   4.1804e-07            1.462e-11             7.8e-13               -4.18e-07            
  0.65                  4.2012e-07            1.43e-11              5.8e-13               -4.2006e-07          
  0.7                   4.2208e-07            1.404e-11             1.06e-12              -4.2196e-07          
  0.75                  4.2394e-07            1.414e-11             1.7e-12               -4.2384e-07          
  0.8                   4.2558e-07            1.422e-11             8e-13                 -4.2526e-07          
  0.85                  4.2756e-07            1.388e-11             4.4e-13               -4.2742e-07          
  0.9                   4.2922e-07            1.438e-11             1.3e-12               -4.2888e-07          
  0.95                  4.3044e-07            1.416e-11             1.18e-12              -4.3052e-07          
  1                     4.3224e-07            1.376e-11             1.28e-12              -4.3236e-07          
  1.05                  4.3402e-07            1.344e-11             3.6e-13               -4.3396e-07          
  1.1                   4.3518e-07            1.392e-11             1.46e-12              -4.3504e-07          
  1.15                  4.3658e-07            1.332e-11             3.46e-12              -4.3648e-07          
  1.2                   4.3794e-07            1.386e-11             4.2e-13               -4.381e-07           
  1.25                  4.3956e-07            1.366e-11             5.6e-13               -4.3948e-07          
  1.3                   4.4078e-07            1.352e-11             9.6e-13               -4.4072e-07          
  1.35                  4.4206e-07            1.38e-11              8.4e-13               -4.4198e-07          
END_DB

BEGIN_DB
 ICCAP_VAR vg         0.834          
 ICCAP_VAR vb         0              
 ICCAP_VAR vs         0              

 #vd                    id                    ig                    ib                    is                   
  0                     1.6498e-10            1.4928e-10            1.62e-12              -3.2048e-10          
  0.05                  2.1108e-07            1.306e-10             -3.8e-13              -2.111e-07           
  0.1                   4.036e-07             1.1468e-10            1.56e-12              -4.0356e-07          
  0.15                  5.7658e-07            1.0162e-10            1.56e-12              -5.7658e-07          
  0.2                   7.292e-07             9.1e-11               -3.6e-13              -7.2924e-07          
  0.25                  8.61e-07              8.266e-11             6.6e-13               -8.61e-07            
  0.3                   9.7094e-07            7.62e-11              6.8e-13               -9.71e-07            
  0.35                  1.05752e-06           7.116e-11             6.8e-13               -1.0575e-06          
  0.4                   1.11902e-06           6.832e-11             1.6e-13               -1.11902e-06         
  0.45                  1.158e-06             6.636e-11             9e-13                 -1.15666e-06         
  0.5                   1.1786e-06            6.498e-11             1.08e-12              -1.175e-06           
  0.55                  1.1902e-06            6.506e-11             5e-13                 -1.1864e-06          
  0.6                   1.1982e-06            6.418e-11             1.44e-12              -1.194e-06           
  0.65                  1.2032e-06            6.358e-11             3.8e-13               -1.1994e-06          
  0.7                   1.2078e-06            6.378e-11             1.6e-13               -1.2042e-06          
  0.75                  1.2124e-06            6.306e-11             3.8e-13               -1.208e-06           
  0.8                   1.2154e-06            6.332e-11             2.6e-13               -1.2118e-06          
  0.85                  1.219e-06             6.32e-11              -6e-14                -1.2156e-06          
  0.9                   1.2224e-06            6.272e-11             1.48e-12              -1.2192e-06          
  0.95                  1.2262e-06            6.282e-11             1.14e-12              -1.2224e-06          
  1                     1.2292e-06            6.246e-11             1.2e-13               -1.2254e-06          
  1.05                  1.2318e-06            6.258e-11             1.44e-12              -1.2278e-06          
  1.1                   1.2344e-06            6.236e-11             2.8e-13               -1.231e-06           
  1.15                  1.2368e-06            6.204e-11             -4e-13                -1.2332e-06          
  1.2                   1.2396e-06            6.194e-11             5.4e-13               -1.2364e-06          
  1.25                  1.2426e-06            6.184e-11             1.1e-12               -1.239e-06           
  1.3                   1.245e-06             6.158e-11             -1e-13                -1.2408e-06          
  1.35                  1.2472e-06            6.166e-11             4.8e-13               -1.2438e-06          
END_DB

BEGIN_DB
 ICCAP_VAR vg         1.092          
 ICCAP_VAR vb         0              
 ICCAP_VAR vs         0              

 #vd                    id                    ig                    ib                    is                   
  0                     6.066e-11             5.2732e-10            1.44e-12              -5.8332e-10          
  0.05                  2.796e-07             4.731e-10             1.44e-12              -2.7998e-07          
  0.1                   5.4524e-07            4.265e-10             8.4e-13               -5.456e-07           
  0.15                  7.9568e-07            3.8546e-10            2.8e-13               -7.9604e-07          
  0.2                   1.02998e-06           3.501e-10             -2.8e-13              -1.03032e-06         
  0.25                  1.249e-06             3.1984e-10            1.16e-12              -1.2456e-06          
  0.3                   1.4488e-06            2.9438e-10            -2.2e-13              -1.4454e-06          
  0.35                  1.63e-06              2.7274e-10            1.58e-12              -1.6264e-06          
  0.4                   1.7916e-06            2.5478e-10            4.2e-13               -1.788e-06           
  0.45                  1.9326e-06            2.3962e-10            -7.4e-13              -1.929e-06           
  0.5                   2.0526e-06            2.2812e-10            1.78e-12              -2.049e-06           
  0.55                  2.1498e-06            2.1904e-10            7e-13                 -2.1462e-06          
  0.6                   2.223e-06             2.1224e-10            2.8e-13               -2.2196e-06          
  0.65                  2.2728e-06            2.0762e-10            8.2e-13               -2.2694e-06          
  0.7                   2.303e-06             2.0556e-10            0                     -2.2996e-06          
  0.75                  2.3206e-06            2.0382e-10            -6.6e-13              -2.3174e-06          
  0.8                   2.3322e-06            2.0288e-10            1.22e-12              -2.3288e-06          
  0.85                  2.3406e-06            2.0228e-10            -3.4e-13              -2.337e-06           
  0.9                   2.347e-06             2.0134e-10            5e-13                 -2.3436e-06          
  0.95                  2.3532e-06            2.013e-10             1.2e-12               -2.3502e-06          
  1                     2.3588e-06            2.0044e-10            3e-13                 -2.3554e-06          
  1.05                  2.363e-06             2.0012e-10            -1.6e-13              -2.3604e-06          
  1.1                   2.3682e-06            2.0018e-10            8e-13                 -2.3646e-06          
  1.15                  2.3724e-06            1.9898e-10            -7.2e-13              -2.369e-06           
  1.2                   2.3766e-06            1.9936e-10            4.8e-13               -2.373e-06           
  1.25                  2.3806e-06            1.9854e-10            1.76e-12              -2.3766e-06          
  1.3                   2.3842e-06            1.9822e-10            -4.2e-13              -2.3808e-06          
  1.35                  2.388e-06             1.9796e-10            6.8e-13               -2.3842e-06          
END_DB

BEGIN_DB
 ICCAP_VAR vg         1.35           
 ICCAP_VAR vb         0              
 ICCAP_VAR vs         0              

 #vd                    id                    ig                    ib                    is                   
  0                     -3.6604e-10           1.4564e-09            0                     -1.073e-09           
  0.05                  3.2574e-07            1.3318e-09            2.8e-13               -3.2698e-07          
  0.1                   6.423e-07             1.2208e-09            4e-14                 -6.4348e-07          
  0.15                  9.4814e-07            1.1204e-09            -3.2e-13              -9.492e-07           
  0.2                   1.2436e-06            1.0318e-09            0                     -1.241e-06           
  0.25                  1.5254e-06            9.513e-10             -4e-14                -1.5228e-06          
  0.3                   1.7942e-06            8.8148e-10            9.8e-13               -1.7912e-06          
  0.35                  2.0486e-06            8.2018e-10            8e-13                 -2.0456e-06          
  0.4                   2.2882e-06            7.6562e-10            2e-13                 -2.2852e-06          
  0.45                  2.5116e-06            7.1844e-10            1.56e-12              -2.5086e-06          
  0.5                   2.7184e-06            6.7708e-10            1e-13                 -2.7156e-06          
  0.55                  2.9078e-06            6.4232e-10            -8.6e-13              -2.9048e-06          
  0.6                   3.0788e-06            6.1244e-10            1.24e-12              -3.0758e-06          
  0.65                  3.2302e-06            5.8692e-10            -3.6e-13              -3.2272e-06          
  0.7                   3.3612e-06            5.6566e-10            -1.14e-12             -3.3584e-06          
  0.75                  3.4708e-06            5.4972e-10            7.8e-13               -3.4678e-06          
  0.8                   3.5572e-06            5.3682e-10            3.4e-13               -3.5542e-06          
  0.85                  3.621e-06             5.2812e-10            -1.1e-12              -3.618e-06           
  0.9                   3.6634e-06            5.2112e-10            1.26e-12              -3.6602e-06          
  0.95                  3.6902e-06            5.1794e-10            -4.8e-13              -3.687e-06           
  1                     3.707e-06             5.1586e-10            4.4e-13               -3.7038e-06          
  1.05                  3.7194e-06            5.1404e-10            1.08e-12              -3.7164e-06          
  1.1                   3.729e-06             5.1238e-10            3.4e-13               -3.7258e-06          
  1.15                  3.7364e-06            5.1132e-10            4e-14                 -3.733e-06           
  1.2                   3.7428e-06            5.1076e-10            1.04e-12              -3.7396e-06          
  1.25                  3.7486e-06            5.1008e-10            -1.02e-12             -3.7464e-06          
  1.3                   3.7548e-06            5.0896e-10            6.4e-13               -3.7518e-06          
  1.35                  3.7604e-06            5.085e-10             9.2e-13               -3.7564e-06          
END_DB

