! VERSION = 6.00
BEGIN_HEADER
 ICCAP_INPUTS
  vg         V  G GROUND SMU2 0.001 LIN        1    -0.5       1.35       38   0.05      
  vb         V  B GROUND SMU4 0.1 LIN        2    0          -1.2       5    -0.3      
  vd         V  D GROUND SMU1 0.1 LIST       3 3 0.05 0.6 1.2
  vs         V  S GROUND SMU3 0.1 CON        0
 ICCAP_OUTPUTS
  id         I  D GROUND SMU1 B
  ig         I  G GROUND SMU2 B
  ib         I  B GROUND SMU4 B
  is         I  S GROUND SMU3 B
 ICCAP_VALUES
  MASTER_SETUP_TYPE "~dc_idvg~"
  LINVT_VALUE ""
  LISTVT_VALUE ""
  TYPE "1"
  TEMP " 27.0000 "
  IS_TNOM " 1.00000 "
  MAIN.W "5.000u"
  MAIN.L "130.0n"
  MAIN.AD "1.700p"
  MAIN.AS "1.700p"
  MAIN.PD "10.68u"
  MAIN.PS "10.68u"
  MAIN.NF "1.000"
  MAIN.M "1"
  MAIN.NRD "0.000"
  MAIN.NRS "0.000"
  MAIN.LDRIFT1 "1E-06"
  MAIN.LDRIFT2 "1E-06"
  MAIN.SA "0.000"
  MAIN.SB "0.000"
  MAIN.SD "0.000"
  MAIN.SCA "0.000"
  MAIN.SCB "0.000"
  MAIN.SCC "0.000"
  MAIN.SC "0.000"
  MODULE "S542"
  PIN_D "20"
  PIN_G "1"
  PIN_S "2"
  PIN_B "19"
  PIN_E ""
  PIN_6 ""
  XY_ID ""
  FUNC "LW Scale"
  STI "SA ref"
  WPE "WPE ref"
  COMMENT ""
  DIS_MEAS ""
  TypeTCI "10"
END_HEADER

BEGIN_DB
 ICCAP_VAR vb         0              
 ICCAP_VAR vd         0.05           
 ICCAP_VAR vs         0              

 #vg                    id                    ig                    ib                    is                   
  -0.5                  1.02e-12              -4.87e-11             4.778e-11             1.12e-12             
  -0.45                 6.8e-13               -8.56e-12             8.26e-12              8e-13                
  -0.4                  6e-13                 -2.24e-12             3.42e-12              5.8e-13              
  -0.35                 3e-13                 -1.02e-12             3.02e-12              3.8e-13              
  -0.3                  2.4e-13               -4.6e-13              2.06e-12              2e-13                
  -0.25                 2.4e-13               -2.4e-13              1.08e-12              2.2e-13              
  -0.2                  1.2e-13               -4e-14                1.32e-12              2e-14                
  -0.15                 5.8e-13               1.6e-13               2.88e-12              -3e-13               
  -0.1                  1.94e-12              3e-13                 2.84e-12              -1.86e-12            
  -0.05                 8.26e-12              3.2e-13               1.18e-12              -8.1e-12             
  0                     3.558e-11             2.8e-13               -4.8e-13              -3.546e-11           
  0.05                  1.5546e-10            3.2e-13               1.68e-12              -1.555e-10           
  0.1                   6.8132e-10            4.2e-13               2.08e-12              -6.8094e-10          
  0.15                  2.9954e-09            4e-13                 2.76e-12              -2.9964e-09          
  0.2                   1.3066e-08            5.2e-13               1.24e-12              -1.3036e-08          
  0.25                  5.5656e-08            6.6e-13               1.34e-12              -5.5646e-08          
  0.3                   2.254e-07             9.6e-13               2.02e-12              -2.2526e-07          
  0.35                  8.5478e-07            1.32e-12              1.36e-12              -8.5566e-07          
  0.4                   2.8304e-06            1.98e-12              1.76e-12              -2.8198e-06          
  0.45                  7.736e-06             3.16e-12              2.62e-12              -7.727e-06           
  0.5                   1.7406e-05            4.92e-12              1.04e-12              -1.7394e-05          
  0.55                  3.2854e-05            7.64e-12              1.22e-12              -3.284e-05           
  0.6                   5.388e-05             1.152e-11             1.44e-12              -5.3872e-05          
  0.65                  7.9186e-05            1.654e-11             2.34e-12              -7.9176e-05          
  0.7                   0.000107124           2.342e-11             1.3e-12               -0.000107086         
  0.75                  0.0001366             3.22e-11              1.28e-12              -0.0001362           
  0.8                   0.00016626            4.364e-11             1.2e-12               -0.00016586          
  0.85                  0.00019556            5.794e-11             1.46e-12              -0.00019528          
  0.9                   0.00022408            7.57e-11              1.7e-12               -0.00022376          
  0.95                  0.00025162            9.734e-11             1.08e-12              -0.00025124          
  1                     0.0002778             1.2384e-10            7e-13                 -0.00027736          
  1.05                  0.00030246            1.5572e-10            1.92e-12              -0.00030208          
  1.1                   0.00032562            1.9366e-10            1.74e-12              -0.00032524          
  1.15                  0.00034732            2.3898e-10            9e-13                 -0.00034692          
  1.2                   0.00036756            2.9198e-10            3.6e-13               -0.0003672           
  1.25                  0.0003863             3.5356e-10            1.36e-12              -0.00038596          
  1.3                   0.00040382            4.239e-10             1.68e-12              -0.0004034           
  1.35                  0.00041994            5.0484e-10            5.8e-13               -0.00041956          
END_DB

BEGIN_DB
 ICCAP_VAR vb         -0.3           
 ICCAP_VAR vd         0.05           
 ICCAP_VAR vs         0              

 #vg                    id                    ig                    ib                    is                   
  -0.5                  1.1e-12               -2.48e-12             -3.42e-12             1.16e-12             
  -0.45                 8.2e-13               -1.66e-12             -3.78e-12             8.6e-13              
  -0.4                  5.8e-13               -1.08e-12             -3.64e-12             4.8e-13              
  -0.35                 3.8e-13               -6.6e-13              -2.02e-12             5e-13                
  -0.3                  3.2e-13               -4e-13                -1.58e-12             4.6e-13              
  -0.25                 1.4e-13               -2.4e-13              -2.64e-12             1.6e-13              
  -0.2                  1e-13                 2e-14                 -2.26e-12             8e-14                
  -0.15                 2.8e-13               1e-13                 -2.12e-12             8e-14                
  -0.1                  3.8e-13               1.2e-13               -2e-12                -2.2e-13             
  -0.05                 1.4e-12               3.2e-13               -4.2e-13              -1.28e-12            
  0                     6.48e-12              4e-13                 -1.44e-12             -6.36e-12            
  0.05                  3.006e-11             4.8e-13               -1.46e-12             -2.994e-11           
  0.1                   1.396e-10             4.2e-13               -1.18e-12             -1.3956e-10          
  0.15                  6.486e-10             5.4e-13               -1.1e-12              -6.4882e-10          
  0.2                   2.9936e-09            4.2e-13               -4.6e-13              -2.9914e-09          
  0.25                  1.363e-08             5.8e-13               -1.3e-12              -1.3614e-08          
  0.3                   5.9592e-08            9.4e-13               -1.38e-12             -5.9576e-08          
  0.35                  2.474e-07             1.16e-12              -3.4e-13              -2.4738e-07          
  0.4                   9.5038e-07            1.98e-12              -1.08e-12             -9.4898e-07          
  0.45                  3.1254e-06            2.76e-12              -1.8e-13              -3.1186e-06          
  0.5                   8.4106e-06            4.58e-12              -4.8e-13              -8.4224e-06          
  0.55                  1.8618e-05            6.9e-12               -9.2e-13              -1.8602e-05          
  0.6                   3.4752e-05            1.06e-11              -8.8e-13              -3.472e-05           
  0.65                  5.6282e-05            1.548e-11             -1.04e-12             -5.6282e-05          
  0.7                   8.1826e-05            2.208e-11             0                     -8.1814e-05          
  0.75                  0.000109902           3.068e-11             -3.6e-13              -0.000109876         
  0.8                   0.00013926            4.162e-11             -1.08e-12             -0.00013886          
  0.85                  0.0001688             5.586e-11             -1.04e-12             -0.00016838          
  0.9                   0.0001978             7.316e-11             8e-14                 -0.0001974           
  0.95                  0.00022592            9.468e-11             8e-14                 -0.00022564          
  1                     0.00025302            1.2078e-10            -3.4e-13              -0.00025264          
  1.05                  0.0002786             1.5226e-10            -7.8e-13              -0.0002782           
  1.1                   0.0003026             1.8992e-10            -1e-13                -0.00030222          
  1.15                  0.00032524            2.3446e-10            6e-14                 -0.00032488          
  1.2                   0.00034634            2.875e-10             -8.6e-13              -0.00034602          
  1.25                  0.00036606            3.485e-10             -1.4e-12              -0.00036568          
  1.3                   0.00038426            4.1866e-10            -2.6e-13              -0.0003839           
  1.35                  0.00040118            4.992e-10             -6.8e-13              -0.00040076          
END_DB

BEGIN_DB
 ICCAP_VAR vb         -0.6           
 ICCAP_VAR vd         0.05           
 ICCAP_VAR vs         0              

 #vg                    id                    ig                    ib                    is                   
  -0.5                  1.14e-12              -2.34e-12             -4.62e-12             1e-12                
  -0.45                 8.8e-13               -1.6e-12              -4.98e-12             9.2e-13              
  -0.4                  5.6e-13               -1.02e-12             -4.56e-12             6.2e-13              
  -0.35                 3.8e-13               -6.6e-13              -3.46e-12             4.2e-13              
  -0.3                  2.2e-13               -4.4e-13              -3.48e-12             2.2e-13              
  -0.25                 2e-13                 -1.4e-13              -3.14e-12             2.6e-13              
  -0.2                  1.6e-13               -2e-14                -3.3e-12              1.6e-13              
  -0.15                 4e-14                 2.4e-13               -3.4e-12              1.2e-13              
  -0.1                  1e-13                 2.2e-13               -2.22e-12             -6e-14               
  -0.05                 5.2e-13               2.8e-13               -1.28e-12             -2.6e-13             
  0                     1.96e-12              4.4e-13               -2.58e-12             -1.84e-12            
  0.05                  9.1e-12               3.8e-13               -3e-12                -9e-12               
  0.1                   4.404e-11             3.8e-13               -6.6e-13              -4.386e-11           
  0.15                  2.1102e-10            5.4e-13               -1.4e-12              -2.1094e-10          
  0.2                   1.00712e-09           5.6e-13               -2.06e-12             -1.00566e-09         
  0.25                  4.7604e-09            5.6e-13               -1.84e-12             -4.757e-09           
  0.3                   2.1816e-08            8.4e-13               -1.98e-12             -2.1808e-08          
  0.35                  9.4438e-08            1.16e-12              -2.66e-12             -9.452e-08           
  0.4                   3.9206e-07            1.8e-12               -1.4e-12              -3.9196e-07          
  0.45                  1.454e-06             2.62e-12              -2.4e-12              -1.4494e-06          
  0.5                   4.4746e-06            4.22e-12              -9.8e-13              -4.4782e-06          
  0.55                  1.12544e-05           6.58e-12              -1.34e-12             -1.12574e-05         
  0.6                   2.3448e-05            9.82e-12              -2.28e-12             -2.341e-05           
  0.65                  4.1476e-05            1.46e-11              -1.9e-12              -4.1454e-05          
  0.7                   6.445e-05             2.106e-11             -1.84e-12             -6.4424e-05          
  0.75                  9.0916e-05            2.944e-11             -1.1e-12              -9.087e-05           
  0.8                   0.00011956            4.028e-11             -1.12e-12             -0.00011916          
  0.85                  0.00014884            5.41e-11              -2.02e-12             -0.00014848          
  0.9                   0.00017802            7.124e-11             -2.32e-12             -0.00017768          
  0.95                  0.00020666            9.254e-11             -1.26e-12             -0.0002063           
  1                     0.00023424            1.185e-10             -4.36e-12             -0.00023384          
  1.05                  0.00026034            1.4952e-10            -1.48e-12             -0.00025998          
  1.1                   0.00028514            1.8692e-10            -2.02e-12             -0.00028484          
  1.15                  0.00030852            2.3178e-10            -6e-13                -0.0003081           
  1.2                   0.0003303             2.839e-10             -1.6e-13              -0.00032994          
  1.25                  0.00035066            3.4466e-10            -2.1e-12              -0.00035024          
  1.3                   0.00036948            4.1424e-10            -1.78e-12             -0.00036916          
  1.35                  0.00038704            4.943e-10             -1.8e-12              -0.00038666          
END_DB

BEGIN_DB
 ICCAP_VAR vb         -0.9           
 ICCAP_VAR vd         0.05           
 ICCAP_VAR vs         0              

 #vg                    id                    ig                    ib                    is                   
  -0.5                  9.8e-13               -2.5e-12              -3.64e-12             1.12e-12             
  -0.45                 8e-13                 -1.68e-12             -4.76e-12             8.6e-13              
  -0.4                  6.2e-13               -1.04e-12             -5.12e-12             6.8e-13              
  -0.35                 4e-13                 -6e-13                -4.84e-12             4.8e-13              
  -0.3                  2.8e-13               -3.4e-13              -4.76e-12             3.2e-13              
  -0.25                 2e-13                 -1.6e-13              -3.82e-12             2.2e-13              
  -0.2                  1.6e-13               2e-14                 -3.5e-12              1.8e-13              
  -0.15                 1.8e-13               1.6e-13               -3.38e-12             1.2e-13              
  -0.1                  6e-14                 2.2e-13               -3.46e-12             -4e-14               
  -0.05                 2.8e-13               2e-13                 -3.54e-12             -1e-13               
  0                     9.6e-13               4e-13                 -2.08e-12             -7e-13               
  0.05                  4.2e-12               4.2e-13               -2.64e-12             -4.08e-12            
  0.1                   2.028e-11             4.4e-13               -3.08e-12             -2.016e-11           
  0.15                  9.932e-11             4.4e-13               -3.34e-12             -9.956e-11           
  0.2                   4.851e-10             6.4e-13               -3.7e-12              -4.8466e-10          
  0.25                  2.3504e-09            6.6e-13               -1.68e-12             -2.3494e-09          
  0.3                   1.10982e-08           9.4e-13               -2.34e-12             -1.10986e-08         
  0.35                  4.9298e-08            1.26e-12              -1.78e-12             -4.9332e-08          
  0.4                   2.1178e-07            1.68e-12              -2.92e-12             -2.118e-07           
  0.45                  8.3738e-07            2.62e-12              -3.14e-12             -8.3612e-07          
  0.5                   2.8116e-06            3.86e-12              -2.72e-12             -2.8008e-06          
  0.55                  7.7002e-06            6.18e-12              -2.34e-12             -7.684e-06           
  0.6                   1.7342e-05            9.34e-12              -1.64e-12             -1.7304e-05          
  0.65                  3.2718e-05            1.396e-11             -2.38e-12             -3.2718e-05          
  0.7                   5.3554e-05            2.024e-11             -2.88e-12             -5.3514e-05          
  0.75                  7.8536e-05            2.858e-11             -2.68e-12             -7.8518e-05          
  0.8                   0.000106108           3.932e-11             -2.54e-12             -0.000106098         
  0.85                  0.00013516            5.282e-11             -1.42e-12             -0.0001348           
  0.9                   0.00016424            6.984e-11             -1.4e-12              -0.00016384          
  0.95                  0.00019308            9.086e-11             -1.48e-12             -0.00019268          
  1                     0.00022098            1.164e-10             -2.8e-12              -0.00022056          
  1.05                  0.00024766            1.4792e-10            -1.58e-12             -0.00024726          
  1.1                   0.00027288            1.849e-10             -9e-13                -0.00027242          
  1.15                  0.00029662            2.2924e-10            -3.06e-12             -0.00029626          
  1.2                   0.00031894            2.8124e-10            -1.94e-12             -0.00031856          
  1.25                  0.00033976            3.4164e-10            -1.82e-12             -0.00033934          
  1.3                   0.00035904            4.112e-10             -1.58e-12             -0.0003587           
  1.35                  0.00037698            4.907e-10             -2.34e-12             -0.00037658          
END_DB

BEGIN_DB
 ICCAP_VAR vb         -1.2           
 ICCAP_VAR vd         0.05           
 ICCAP_VAR vs         0              

 #vg                    id                    ig                    ib                    is                   
  -0.5                  1.04e-12              -2.4e-12              -5.96e-12             1.14e-12             
  -0.45                 8.4e-13               -1.52e-12             -5.48e-12             8e-13                
  -0.4                  6.6e-13               -1.1e-12              -5.36e-12             5.2e-13              
  -0.35                 4.2e-13               -6e-13                -4.34e-12             4.2e-13              
  -0.3                  3.8e-13               -3.4e-13              -4.24e-12             2.4e-13              
