! VERSION = 6.00
BEGIN_HEADER
 ICCAP_INPUTS
  vd         V  D GROUND SMU1 0.1 LIN        1    0          1.35       28   0.05      
  vg         V  G GROUND SMU2 0.001 LIN        2    0.478      1.35       5    0.218     
  vb         V  B GROUND SMU4 0.1 CON        -1.2
  vs         V  S GROUND SMU3 0.1 CON        0
 ICCAP_OUTPUTS
  id         I  D GROUND SMU1 B
  ig         I  G GROUND SMU2 B
  ib         I  B GROUND SMU4 B
  is         I  S GROUND SMU3 B
 ICCAP_VALUES
  MASTER_SETUP_TYPE "~dc_idvd~"
  LINVT_VALUE "|idvg|100.0n|100.0m|1.000m|5|1.350|"
  LISTVT_VALUE ""
  TYPE "1"
  TEMP " 125.000 "
  IS_TNOM " 0.00000 "
  MAIN.W "10.00u"
  MAIN.L "180.0n"
  MAIN.AD "3.400p"
  MAIN.AS "3.400p"
  MAIN.PD "20.68u"
  MAIN.PS "20.68u"
  MAIN.NF "1.000"
  MAIN.M "1"
  MAIN.NRD "0.000"
  MAIN.NRS "0.000"
  MAIN.LDRIFT1 "1E-06"
  MAIN.LDRIFT2 "1E-06"
  MAIN.SA "0.000"
  MAIN.SB "0.000"
  MAIN.SD "0.000"
  MAIN.SCA "0.000"
  MAIN.SCB "0.000"
  MAIN.SCC "0.000"
  MAIN.SC "0.000"
  MODULE "S540"
  PIN_D "12"
  PIN_G "9"
  PIN_S "10"
  PIN_B "11"
  PIN_E ""
  PIN_6 ""
  XY_ID ""
  FUNC "L Scale"
  STI "SA ref"
  WPE "WPE ref"
  COMMENT ""
  DIS_MEAS ""
  TypeTCI "10"
END_HEADER

BEGIN_DB
 ICCAP_VAR vg         0.478          
 ICCAP_VAR vb         -1.2           
 ICCAP_VAR vs         0              

 #vd                    id                    ig                    ib                    is                   
  0                     4.6968e-08            1.228e-11             -5.752e-11            -3.894e-08           
  0.05                  1.7602e-05            9.76e-12              -4.948e-11            -1.7584e-05          
  0.1                   2.5738e-05            8.48e-12              -4.956e-11            -2.5732e-05          
  0.15                  2.9608e-05            7.42e-12              -4.776e-11            -2.9614e-05          
  0.2                   3.1866e-05            7.04e-12              -4.502e-11            -3.1852e-05          
  0.25                  3.3526e-05            6.8e-12               -4.506e-11            -3.3526e-05          
  0.3                   3.4954e-05            6.58e-12              -4.3e-11              -3.4954e-05          
  0.35                  3.6304e-05            6.34e-12              -4.16e-11             -3.6284e-05          
  0.4                   3.7594e-05            6.24e-12              -4.068e-11            -3.7584e-05          
  0.45                  3.8864e-05            6.44e-12              -3.908e-11            -3.886e-05           
  0.5                   4.01e-05              6.34e-12              -3.926e-11            -4.0098e-05          
  0.55                  4.1314e-05            6.24e-12              -3.866e-11            -4.1334e-05          
  0.6                   4.253e-05             5.98e-12              -3.666e-11            -4.2538e-05          
  0.65                  4.3752e-05            5.98e-12              -3.728e-11            -4.3754e-05          
  0.7                   4.4956e-05            5.84e-12              -3.662e-11            -4.4936e-05          
  0.75                  4.6162e-05            5.66e-12              -3.536e-11            -4.6152e-05          
  0.8                   4.7376e-05            5.48e-12              -3.692e-11            -4.7368e-05          
  0.85                  4.8566e-05            5.28e-12              -3.89e-11             -4.8576e-05          
  0.9                   4.9764e-05            4.96e-12              -4.468e-11            -4.9784e-05          
  0.95                  5.099e-05             4.72e-12              -6.3e-11              -5.0966e-05          
  1                     5.2198e-05            4.1e-12               -9.742e-11            -5.2192e-05          
  1.05                  5.3408e-05            3.48e-12              -1.694e-10            -5.341e-05           
  1.1                   5.4652e-05            2.92e-12              -3.1164e-10           -5.461e-05           
  1.15                  5.5856e-05            2.04e-12              -5.696e-10            -5.586e-05           
  1.2                   5.7074e-05            1.1e-12               -1.02012e-09          -5.7082e-05          
  1.25                  5.8332e-05            1.4e-13               -1.7656e-09           -5.8316e-05          
  1.3                   5.9524e-05            -1.3e-12              -2.9522e-09           -5.9514e-05          
  1.35                  6.078e-05             -2.84e-12             -4.758e-09            -6.077e-05           
END_DB

BEGIN_DB
 ICCAP_VAR vg         0.696          
 ICCAP_VAR vb         -1.2           
 ICCAP_VAR vs         0              

 #vd                    id                    ig                    ib                    is                   
  0                     2.977e-07             7.338e-11             -2.33e-11             -1.62e-07            
  0.05                  0.00011896            6.256e-11             -2.358e-11            -0.00011862          
  0.1                   0.00020686            5.416e-11             -2.446e-11            -0.00020656          
  0.15                  0.00026818            4.82e-11              -2.432e-11            -0.0002678           
  0.2                   0.0003089             4.398e-11             -2.394e-11            -0.00030866          
  0.25                  0.00033586            4.126e-11             -2.43e-11             -0.00033548          
  0.3                   0.00035432            3.93e-11              -2.386e-11            -0.00035392          
  0.35                  0.00036796            3.822e-11             -2.414e-11            -0.00036762          
  0.4                   0.00037912            3.732e-11             -2.414e-11            -0.00037882          
  0.45                  0.00038884            3.682e-11             -2.342e-11            -0.00038846          
  0.5                   0.00039768            3.62e-11              -2.428e-11            -0.0003975           
  0.55                  0.00040604            3.584e-11             -2.35e-11             -0.00040572          
  0.6                   0.00041398            3.566e-11             -2.3e-11              -0.00041364          
  0.65                  0.00042158            3.524e-11             -2.394e-11            -0.0004213           
  0.7                   0.0004292             3.514e-11             -2.318e-11            -0.00042882          
  0.75                  0.00043656            3.478e-11             -2.468e-11            -0.00043616          
  0.8                   0.00044378            3.448e-11             -2.604e-11            -0.00044346          
  0.85                  0.00045102            3.42e-11              -2.73e-11             -0.0004506           
  0.9                   0.00045784            3.404e-11             -3.694e-11            -0.0004574           
  0.95                  0.00046476            3.382e-11             -5.666e-11            -0.00046442          
  1                     0.00047152            3.346e-11             -1.0186e-10           -0.00047122          
  1.05                  0.00047826            3.312e-11             -2.0452e-10           -0.00047804          
  1.1                   0.000485              3.268e-11             -4.207e-10            -0.00048468          
  1.15                  0.00049168            3.214e-11             -8.5884e-10           -0.00049134          
  1.2                   0.0004983             3.16e-11              -1.7046e-09           -0.00049794          
  1.25                  0.00050484            3.08e-11              -3.2552e-09           -0.00050454          
  1.3                   0.00051136            3.012e-11             -5.9822e-09           -0.0005109           
  1.35                  0.00051802            2.908e-11             -1.05482e-08          -0.0005177           
END_DB

BEGIN_DB
 ICCAP_VAR vg         0.914          
 ICCAP_VAR vb         -1.2           
 ICCAP_VAR vs         0              

 #vd                    id                    ig                    ib                    is                   
  0                     6.529e-07             2.5858e-10            -1.87e-11             -2.7928e-07          
  0.05                  0.00025192            2.2918e-10            -1.988e-11            -0.00025158          
  0.1                   0.00046884            2.0446e-10            -2.022e-11            -0.0004686           
  0.15                  0.00064922            1.8448e-10            -1.91e-11             -0.00064904          
  0.2                   0.00079392            1.6834e-10            -2.006e-11            -0.00079358          
  0.25                  0.00090586            1.5548e-10            -1.924e-11            -0.00090542          
  0.3                   0.00099026            1.4598e-10            -1.938e-11            -0.00098996          
  0.35                  0.00105288            1.3882e-10            -2.026e-11            -0.00105262          
  0.4                   0.00109972            1.3384e-10            -1.896e-11            -0.00109928          
  0.45                  0.00113526            1.301e-10             -2.042e-11            -0.00113482          
  0.5                   0.0011638             1.2708e-10            -1.886e-11            -0.00116314          
  0.55                  0.0011872             1.2496e-10            -2.04e-11             -0.0011866           
  0.6                   0.0012078             1.2326e-10            -1.958e-11            -0.0012072           
  0.65                  0.0012262             1.2196e-10            -2.094e-11            -0.0012258           
  0.7                   0.0012438             1.2074e-10            -2.064e-11            -0.001243            
  0.75                  0.0012598             1.1974e-10            -1.998e-11            -0.001259            
  0.8                   0.0012752             1.1886e-10            -2.252e-11            -0.0012744           
  0.85                  0.00129               1.182e-10             -2.452e-11            -0.0012892           
  0.9                   0.0013044             1.1726e-10            -3.22e-11             -0.0013038           
  0.95                  0.0013184             1.1644e-10            -4.968e-11            -0.0013178           
  1                     0.0013322             1.1578e-10            -8.736e-11            -0.0013318           
  1.05                  0.0013454             1.1484e-10            -1.7638e-10           -0.001345            
  1.1                   0.001359              1.1432e-10            -3.6176e-10           -0.0013582           
  1.15                  0.0013718             1.136e-10             -7.4308e-10           -0.0013712           
  1.2                   0.0013846             1.1306e-10            -1.4976e-09           -0.001384            
  1.25                  0.001397              1.1226e-10            -2.934e-09            -0.0013962           
  1.3                   0.0014094             1.1174e-10            -5.5538e-09           -0.0014088           
  1.35                  0.0014216             1.1044e-10            -1.01546e-08          -0.001421            
END_DB

BEGIN_DB
 ICCAP_VAR vg         1.132          
 ICCAP_VAR vb         -1.2           
 ICCAP_VAR vs         0              

 #vd                    id                    ig                    ib                    is                   
  0                     6.214e-07             6.8766e-10            -1.686e-11            -9.318e-08           
  0.05                  0.00036876            6.2274e-10            -1.612e-11            -0.00036846          
  0.1                   0.00070546            5.6704e-10            -1.754e-11            -0.00070508          
  0.15                  0.00100514            5.1908e-10            -1.816e-11            -0.00100486          
  0.2                   0.0012652             4.7734e-10            -1.844e-11            -0.0012648           
  0.25                  0.001485              4.425e-10             -1.648e-11            -0.0014846           
  0.3                   0.0016674             4.1336e-10            -1.854e-11            -0.0016668           
  0.35                  0.0018146             3.9028e-10            -1.816e-11            -0.001814            
  0.4                   0.0019316             3.7106e-10            -1.792e-11            -0.0019312           
  0.45                  0.002024              3.5646e-10            -1.876e-11            -0.0020232           
  0.5                   0.0020962             3.4482e-10            -1.794e-11            -0.0020958           
  0.55                  0.0021536             3.3562e-10            -1.84e-11             -0.0021528           
  0.6                   0.0022                3.2874e-10            -1.818e-11            -0.0021992           
  0.65                  0.002238              3.2332e-10            -1.664e-11            -0.0022374           
  0.7                   0.0022704             3.1886e-10            -1.876e-11            -0.0022702           
  0.75                  0.0022992             3.15e-10              -1.848e-11            -0.0022984           
  0.8                   0.002325              3.121e-10             -1.866e-11            -0.0023244           
  0.85                  0.0023484             3.0964e-10            -2.226e-11            -0.002348            
  0.9                   0.002371              3.072e-10             -2.704e-11            -0.0023702           
  0.95                  0.0023922             3.0544e-10            -4.058e-11            -0.0023916           
  1                     0.0024122             3.0332e-10            -7.202e-11            -0.0024116           
  1.05                  0.0024314             3.0146e-10            -1.3832e-10           -0.0024308           
  1.1                   0.00245               2.9984e-10            -2.8206e-10           -0.0024494           
  1.15                  0.0024682             2.9832e-10            -5.757e-10            -0.0024678           
  1.2                   0.002486              2.968e-10             -1.1528e-09           -0.002485            
  1.25                  0.0025034             2.9492e-10            -2.2514e-09           -0.0025026           
  1.3                   0.00252               2.938e-10             -4.28e-09             -0.0025194           
  1.35                  0.0025366             2.9202e-10            -7.8964e-09           -0.0025362           
END_DB

BEGIN_DB
 ICCAP_VAR vg         1.35           
 ICCAP_VAR vb         -1.2           
 ICCAP_VAR vs         0              

 #vd                    id                    ig                    ib                    is                   
  0                     2.9368e-07            1.5412e-09            -1.736e-11            -4.3752e-07          
  0.05                  0.00046174            1.4176e-09            -1.7e-11              -0.00046142          
  0.1                   0.00089584            1.3076e-09            -1.794e-11            -0.00089548          
  0.15                  0.001296              1.2106e-09            -1.75e-11             -0.0012954           
  0.2                   0.001657              1.1244e-09            -1.754e-11            -0.0016562           
  0.25                  0.0019768             1.0486e-09            -1.652e-11            -0.0019762           
  0.3                   0.002255              9.8316e-10            -1.684e-11            -0.0022544           
  0.35                  0.002493              9.2666e-10            -1.72e-11             -0.0024924           
  0.4                   0.002694              8.787e-10             -1.622e-11            -0.0026934           
  0.45                  0.0028608             8.3804e-10            -1.79e-11             -0.0028606           
  0.5                   0.0029986             8.0472e-10            -1.76e-11             -0.0029982           
  0.55                  0.003111              7.7698e-10            -1.656e-11            -0.0031104           
  0.6                   0.003202              7.546e-10             -1.77e-11             -0.0032014           
  0.65                  0.0032768             7.3568e-10            -1.684e-11            -0.0032764           
  0.7                   0.003338              7.213e-10             -1.708e-11            -0.0033374           
  0.75                  0.003389              7.094e-10             -1.874e-11            -0.0033886           
  0.8                   0.0034326             6.9972e-10            -1.804e-11            -0.0034318           
  0.85                  0.0034704             6.9208e-10            -2.038e-11            -0.00347             
  0.9                   0.0035042             6.851e-10             -2.524e-11            -0.0035038           
  0.95                  0.0035348             6.7896e-10            -3.324e-11            -0.0035342           
  1                     0.0035628             6.7362e-10            -5.682e-11            -0.003562            
  1.05                  0.003589              6.6916e-10            -1.0606e-10           -0.0035884           
  1.1                   0.0036138             6.6488e-10            -2.0886e-10           -0.0036132           
  1.15                  0.0036366             6.61e-10              -4.2136e-10           -0.0036364           
  1.2                   0.003659              6.5744e-10            -8.3786e-10           -0.0036588           
  1.25                  0.0036808             6.5436e-10            -1.6292e-09           -0.0036798           
  1.3                   0.0037008             6.5054e-10            -3.096e-09            -0.0036998           
  1.35                  0.0037206             6.4728e-10            -5.7194e-09           -0.0037194           
END_DB

