! VERSION = 6.00
BEGIN_HEADER
 ICCAP_INPUTS
  vd         V  D GROUND SMU1 0.1 LIN        1    0          1.35       28   0.05      
  vg         V  G GROUND SMU2 0.001 LIST       2 3 0.202 0.402 0.602
  vb         V  B GROUND SMU4 0.1 CON        0
  vs         V  S GROUND SMU3 0.1 CON        0
 ICCAP_OUTPUTS
  id         I  D GROUND SMU1 B
  ig         I  G GROUND SMU2 B
  ib         I  B GROUND SMU4 B
  is         I  S GROUND SMU3 B
 ICCAP_VALUES
  MASTER_SETUP_TYPE "~dc_idvd~"
  LINVT_VALUE ""
  LISTVT_VALUE "|idvg|100.0n|-200.0m|1.000m|3|200.0m|200.0m|"
  TYPE "1"
  TEMP " 70.0000 "
  IS_TNOM " 0.00000 "
  MAIN.W "300.0n"
  MAIN.L "130.0n"
  MAIN.AD "102.0f"
  MAIN.AS "102.0f"
  MAIN.PD "1.280u"
  MAIN.PS "1.280u"
  MAIN.NF "1.000"
  MAIN.M "1"
  MAIN.NRD "0.000"
  MAIN.NRS "0.000"
  MAIN.LDRIFT1 "1E-06"
  MAIN.LDRIFT2 "1E-06"
  MAIN.SA "0.000"
  MAIN.SB "0.000"
  MAIN.SD "0.000"
  MAIN.SCA "0.000"
  MAIN.SCB "0.000"
  MAIN.SCC "0.000"
  MAIN.SC "0.000"
  MODULE "S544"
  PIN_D "18"
  PIN_G "3"
  PIN_S "4"
  PIN_B "17"
  PIN_E ""
  PIN_6 ""
  XY_ID ""
  FUNC "LW Scale"
  STI "SA ref"
  WPE "WPE ref"
  COMMENT ""
  DIS_MEAS ""
  TypeTCI "10"
END_HEADER

BEGIN_DB
 ICCAP_VAR vg         0.202          
 ICCAP_VAR vb         0              
 ICCAP_VAR vs         0              

 #vd                    id                    ig                    ib                    is                   
  0                     2.4e-12               -1.6e-13              1.3e-12               -1e-12               
  0.05                  1.00716e-09           -1.6e-13              1.9e-12               -1.0071e-09          
  0.1                   1.2868e-09            -1.6e-13              8e-13                 -1.2862e-09          
  0.15                  1.4144e-09            -2e-13                7.4e-13               -1.4134e-09          
  0.2                   1.5102e-09            -1e-13                1.2e-13               -1.5094e-09          
  0.25                  1.5992e-09            -2.2e-13              1.06e-12              -1.598e-09           
  0.3                   1.687e-09             -2e-13                1.32e-12              -1.686e-09           
  0.35                  1.7738e-09            -1.6e-13              8.6e-13               -1.7726e-09          
  0.4                   1.8602e-09            -1e-13                1.26e-12              -1.8584e-09          
  0.45                  1.9464e-09            -1.6e-13              1.6e-13               -1.945e-09           
  0.5                   2.0336e-09            -2.2e-13              9.6e-13               -2.0322e-09          
  0.55                  2.1228e-09            -8e-14                1.32e-12              -2.1212e-09          
  0.6                   2.2128e-09            -1.6e-13              2.28e-12              -2.2064e-09          
  0.65                  2.3044e-09            -1.2e-13              1.16e-12              -2.3024e-09          
  0.7                   2.4002e-09            -2.4e-13              6.2e-13               -2.3982e-09          
  0.75                  2.4984e-09            -1.8e-13              1.1e-12               -2.497e-09           
  0.8                   2.603e-09             -1.4e-13              5.8e-13               -2.601e-09           
  0.85                  2.7082e-09            -3e-13                1.78e-12              -2.706e-09           
  0.9                   2.8168e-09            -2.6e-13              1.74e-12              -2.8142e-09          
  0.95                  2.9302e-09            -2.6e-13              3e-13                 -2.928e-09           
  1                     3.047e-09             -2.2e-13              -2.2e-13              -3.0444e-09          
  1.05                  3.1676e-09            -2.8e-13              1.12e-12              -3.1652e-09          
  1.1                   3.2922e-09            -4e-13                4.2e-13               -3.2886e-09          
  1.15                  3.4158e-09            -5e-13                1.48e-12              -3.418e-09           
  1.2                   3.5508e-09            -4.4e-13              -5.8e-13              -3.549e-09           
  1.25                  3.6974e-09            -5.2e-13              -1.44e-12             -3.6942e-09          
  1.3                   3.8414e-09            -6.6e-13              -1.2e-12              -3.8378e-09          
  1.35                  3.992e-09             -6.8e-13              -4.8e-13              -3.9866e-09          
END_DB

BEGIN_DB
 ICCAP_VAR vg         0.402          
 ICCAP_VAR vb         0              
 ICCAP_VAR vs         0              

 #vd                    id                    ig                    ib                    is                   
  0                     1.5996e-10            1.4e-13               1.4e-12               -1.5086e-10          
  0.05                  1.1408e-07            1.4e-13               2.04e-12              -1.1406e-07          
  0.1                   1.5122e-07            1.6e-13               1.2e-12               -1.5284e-07          
  0.15                  1.7048e-07            0                     1.22e-12              -1.705e-07           
  0.2                   1.817e-07             1.2e-13               4.2e-13               -1.8332e-07          
  0.25                  1.945e-07             6e-14                 9.6e-13               -1.9448e-07          
  0.3                   2.0532e-07            -6e-14                8.8e-13               -2.0536e-07          
  0.35                  2.159e-07             2e-14                 2.6e-13               -2.159e-07           
  0.4                   2.2632e-07            2e-14                 2.4e-13               -2.2644e-07          
  0.45                  2.3682e-07            6e-14                 1.98e-12              -2.363e-07           
  0.5                   2.43e-07              -2e-14                4.6e-13               -2.43e-07            
  0.55                  2.5512e-07            6e-14                 -5.2e-13              -2.5368e-07          
  0.6                   2.6314e-07            2e-14                 8e-13                 -2.6324e-07          
  0.65                  2.7352e-07            1e-13                 8e-13                 -2.735e-07           
  0.7                   2.8378e-07            1.6e-13               -3e-13                -2.8386e-07          
  0.75                  2.9444e-07            0                     -2.2e-13              -2.944e-07           
  0.8                   3.0496e-07            -2e-14                1.92e-12              -3.0512e-07          
  0.85                  3.16e-07              -4e-14                6.4e-13               -3.1604e-07          
  0.9                   3.2756e-07            -2e-14                3.2e-13               -3.272e-07           
  0.95                  3.3854e-07            2e-14                 -2e-13                -3.3854e-07          
  1                     3.5e-07               -8e-14                7.8e-13               -3.5016e-07          
  1.05                  3.62e-07              -6e-14                -1.8e-12              -3.62e-07            
  1.1                   3.7412e-07            -8e-14                -4.16e-12             -3.7412e-07          
  1.15                  3.865e-07             -2.2e-13              -8.24e-12             -3.865e-07           
  1.2                   3.9922e-07            -3e-13                -1.442e-11            -3.992e-07           
  1.25                  4.1226e-07            -2.8e-13              -2.558e-11            -4.1212e-07          
  1.3                   4.2524e-07            -3.4e-13              -4.394e-11            -4.2536e-07          
  1.35                  4.3904e-07            -3.4e-13              -6.78e-11             -4.3878e-07          
END_DB

BEGIN_DB
 ICCAP_VAR vg         0.602          
 ICCAP_VAR vb         0              
 ICCAP_VAR vs         0              

 #vd                    id                    ig                    ib                    is                   
  0                     1.8042e-09            9.2e-13               1.46e-12              -1.6572e-09          
  0.05                  2.1724e-06            5.8e-13               4.2e-13               -2.168e-06           
  0.1                   3.3874e-06            6e-13                 1.04e-12              -3.4196e-06          
  0.15                  4.1062e-06            5.8e-13               5e-13                 -4.0898e-06          
  0.2                   4.4986e-06            4.2e-13               2e-13                 -4.4752e-06          
  0.25                  4.7392e-06            3.8e-13               7.8e-13               -4.7448e-06          
  0.3                   5.0184e-06            4.4e-13               6.4e-13               -4.9818e-06          
  0.35                  5.1518e-06            3.6e-13               1.4e-13               -5.1868e-06          
  0.4                   5.3712e-06            3.4e-13               6.8e-13               -5.357e-06           
  0.45                  5.5276e-06            3.6e-13               -3.4e-13              -5.5648e-06          
  0.5                   5.7466e-06            4.2e-13               8.2e-13               -5.7414e-06          
  0.55                  5.8484e-06            2.8e-13               8.2e-13               -5.8648e-06          
  0.6                   6.057e-06             3.4e-13               -2e-13                -6.0766e-06          
  0.65                  6.1922e-06            4e-13                 1.12e-12              -6.1944e-06          
  0.7                   6.4212e-06            4.4e-13               2.6e-13               -6.3906e-06          
  0.75                  6.5474e-06            3.4e-13               -3.6e-13              -6.5072e-06          
  0.8                   6.6096e-06            2.8e-13               6.2e-13               -6.7018e-06          
  0.85                  6.8734e-06            2.2e-13               4.6e-13               -6.8414e-06          
  0.9                   7.0334e-06            2.6e-13               -8.2e-13              -6.9922e-06          
  0.95                  7.126e-06             4e-13                 -3.8e-13              -7.1882e-06          
  1                     7.3108e-06            3.6e-13               -2.58e-12             -7.2248e-06          
  1.05                  7.498e-06             2.4e-13               -7.24e-12             -7.5332e-06          
  1.1                   7.6116e-06            2.6e-13               -1.518e-11            -7.6006e-06          
  1.15                  7.8254e-06            3e-13                 -3.534e-11            -7.8404e-06          
  1.2                   7.9054e-06            1.8e-13               -7.03e-11             -7.9228e-06          
  1.25                  7.9372e-06            3e-13                 -1.355e-10            -8.1376e-06          
  1.3                   8.2468e-06            3.2e-13               -2.4396e-10           -8.3092e-06          
  1.35                  8.4562e-06            2.8e-13               -4.2088e-10           -8.447e-06           
END_DB

