! VERSION = 6.00
BEGIN_HEADER
 ICCAP_INPUTS
  vd         V  D GROUND SMU1 0.1 LIN        1    0          1.35       28   0.05      
  vg         V  G GROUND SMU2 0.001 LIST       2 3 0.262 0.462 0.662
  vb         V  B GROUND SMU4 0.1 CON        -1.2
  vs         V  S GROUND SMU3 0.1 CON        0
 ICCAP_OUTPUTS
  id         I  D GROUND SMU1 B
  ig         I  G GROUND SMU2 B
  ib         I  B GROUND SMU4 B
  is         I  S GROUND SMU3 B
 ICCAP_VALUES
  MASTER_SETUP_TYPE "~dc_idvd~"
  LINVT_VALUE ""
  LISTVT_VALUE "|idvg|100.0n|-200.0m|1.000m|3|200.0m|200.0m|"
  TYPE "1"
  TEMP " 27.0000 "
  IS_TNOM " 1.00000 "
  MAIN.W "300.0n"
  MAIN.L "180.0n"
  MAIN.AD "102.0f"
  MAIN.AS "102.0f"
  MAIN.PD "1.280u"
  MAIN.PS "1.280u"
  MAIN.NF "1.000"
  MAIN.M "1"
  MAIN.NRD "0.000"
  MAIN.NRS "0.000"
  MAIN.LDRIFT1 "1E-06"
  MAIN.LDRIFT2 "1E-06"
  MAIN.SA "0.000"
  MAIN.SB "0.000"
  MAIN.SD "0.000"
  MAIN.SCA "0.000"
  MAIN.SCB "0.000"
  MAIN.SCC "0.000"
  MAIN.SC "0.000"
  MODULE "S544"
  PIN_D "12"
  PIN_G "9"
  PIN_S "10"
  PIN_B "11"
  PIN_E ""
  PIN_6 ""
  XY_ID ""
  FUNC "LW Scale"
  STI "SA ref"
  WPE "WPE ref"
  COMMENT ""
  DIS_MEAS ""
  TypeTCI "10"
END_HEADER

BEGIN_DB
 ICCAP_VAR vg         0.262          
 ICCAP_VAR vb         -1.2           
 ICCAP_VAR vs         0              

 #vd                    id                    ig                    ib                    is                   
  0                     1.02e-12              6e-14                 -6.04e-12             -4e-13               
  0.05                  2.2778e-10            -1.4e-13              -5.48e-12             -2.274e-10           
  0.1                   2.8116e-10            -1.6e-13              -6.02e-12             -2.8082e-10          
  0.15                  3.0754e-10            -1.8e-13              -5.98e-12             -3.0694e-10          
  0.2                   3.2964e-10            -1e-13                -5.32e-12             -3.292e-10           
  0.25                  3.5162e-10            -8e-14                -4.18e-12             -3.509e-10           
  0.3                   3.7368e-10            -6e-14                -5.56e-12             -3.7288e-10          
  0.35                  3.9622e-10            -1.2e-13              -4.36e-12             -3.9532e-10          
  0.4                   4.1872e-10            -1.4e-13              -4.52e-12             -4.183e-10           
  0.45                  4.4216e-10            6e-14                 -4.3e-12              -4.4176e-10          
  0.5                   4.6596e-10            -6e-14                -3.04e-12             -4.6516e-10          
  0.55                  4.9028e-10            -1.8e-13              -2.06e-12             -4.8938e-10          
  0.6                   5.1458e-10            -1.6e-13              -3.2e-12              -5.1396e-10          
  0.65                  5.3986e-10            -2e-13                -3.12e-12             -5.3884e-10          
  0.7                   5.6556e-10            -1.6e-13              -2.78e-12             -5.6442e-10          
  0.75                  5.915e-10             -3.4e-13              -2.5e-12              -5.906e-10           
  0.8                   6.1792e-10            -4.4e-13              -3.04e-12             -6.1678e-10          
  0.85                  6.4468e-10            -5.4e-13              -1.32e-12             -6.4358e-10          
  0.9                   6.721e-10             -5.8e-13              -2.9e-12              -6.708e-10           
  0.95                  7.0038e-10            -9.8e-13              -1.7e-12              -6.989e-10           
  1                     7.2906e-10            -1.16e-12             -3.12e-12             -7.2734e-10          
  1.05                  7.58e-10              -1.52e-12             -1.9e-12              -7.561e-10           
  1.1                   7.879e-10             -1.8e-12              -2.26e-12             -7.855e-10           
  1.15                  8.1874e-10            -2.16e-12             -2.32e-12             -8.1556e-10          
  1.2                   8.489e-10             -2.3e-12              -1.4e-12              -8.465e-10           
  1.25                  8.806e-10             -2.62e-12             -2.6e-12              -8.7684e-10          
  1.3                   9.1192e-10            -2.94e-12             -1.74e-12             -9.083e-10           
  1.35                  9.446e-10             -3.34e-12             -2.16e-12             -9.4022e-10          
END_DB

BEGIN_DB
 ICCAP_VAR vg         0.462          
 ICCAP_VAR vb         -1.2           
 ICCAP_VAR vs         0              

 #vd                    id                    ig                    ib                    is                   
  0                     2.333e-10             2.2e-13               -3.4e-13              -2.2742e-10          
  0.05                  9.1948e-08            3.2e-13               -2.06e-12             -9.2046e-08          
  0.1                   1.1886e-07            1.4e-13               -1.52e-12             -1.1866e-07          
  0.15                  1.302e-07             1e-13                 -2.34e-12             -1.3004e-07          
  0.2                   1.3834e-07            2.8e-13               -1.26e-12             -1.3816e-07          
  0.25                  1.4564e-07            8e-14                 -6e-13                -1.455e-07           
  0.3                   1.5276e-07            8e-14                 -1.86e-12             -1.5258e-07          
  0.35                  1.5968e-07            2.4e-13               -2.08e-12             -1.5952e-07          
  0.4                   1.6656e-07            0                     -1.16e-12             -1.6638e-07          
  0.45                  1.7336e-07            1.4e-13               -9.4e-13              -1.7304e-07          
  0.5                   1.8e-07               1.6e-13               -1.12e-12             -1.799e-07           
  0.55                  1.8658e-07            8e-14                 -2.2e-12              -1.8636e-07          
  0.6                   1.9316e-07            2e-13                 -9.4e-13              -1.9312e-07          
  0.65                  1.9976e-07            4e-14                 -7.4e-13              -2.0084e-07          
  0.7                   2.0644e-07            1e-13                 -2.16e-12             -2.0626e-07          
  0.75                  2.1478e-07            2e-14                 -2.12e-12             -2.1294e-07          
  0.8                   2.196e-07             6e-14                 -1.22e-12             -2.1952e-07          
  0.85                  2.2796e-07            -4e-14                -1.08e-12             -2.2628e-07          
  0.9                   2.329e-07             -1.4e-13              -1.2e-12              -2.3288e-07          
  0.95                  2.3962e-07            -1.2e-13              -1.76e-12             -2.3942e-07          
  1                     2.4636e-07            -3e-13                -1.5e-12              -2.4616e-07          
  1.05                  2.529e-07             -2.4e-13              -6.8e-13              -2.529e-07           
  1.1                   2.598e-07             -3.6e-13              -2.22e-12             -2.596e-07           
  1.15                  2.6658e-07            -6.6e-13              -3.02e-12             -2.6628e-07          
  1.2                   2.7342e-07            -9.6e-13              -3.44e-12             -2.7332e-07          
  1.25                  2.8024e-07            -1.34e-12             -6.54e-12             -2.8004e-07          
  1.3                   2.8706e-07            -1.7e-12              -1.13e-11             -2.8694e-07          
  1.35                  2.9416e-07            -1.92e-12             -1.842e-11            -2.9398e-07          
END_DB

BEGIN_DB
 ICCAP_VAR vg         0.662          
 ICCAP_VAR vb         -1.2           
 ICCAP_VAR vs         0              

 #vd                    id                    ig                    ib                    is                   
  0                     2.7464e-09            1.5e-12               -7.2e-13              -2.61e-09            
  0.05                  1.881e-06             1.18e-12              -5.6e-13              -1.8768e-06          
  0.1                   3.0296e-06            1.06e-12              -1.38e-12             -3.026e-06           
  0.15                  3.6812e-06            1.04e-12              -1.76e-12             -3.6774e-06          
  0.2                   4.0466e-06            8.8e-13               -8.2e-13              -4.0428e-06          
  0.25                  4.2784e-06            8e-13                 -1.48e-12             -4.2756e-06          
  0.3                   4.4528e-06            7.2e-13               -1.78e-12             -4.4478e-06          
  0.35                  4.6016e-06            7.6e-13               -6.2e-13              -4.5966e-06          
  0.4                   4.7338e-06            7.6e-13               -1.1e-12              -4.7302e-06          
  0.45                  4.8606e-06            7.6e-13               -1.78e-12             -4.8578e-06          
  0.5                   4.9826e-06            7.4e-13               -1.26e-12             -4.9782e-06          
  0.55                  5.1022e-06            6.6e-13               -1.72e-12             -5.0968e-06          
  0.6                   5.2172e-06            7.2e-13               -1.76e-12             -5.2136e-06          
  0.65                  5.3288e-06            6.6e-13               -3.6e-13              -5.3254e-06          
  0.7                   5.441e-06             7e-13                 -1.18e-12             -5.4376e-06          
  0.75                  5.55e-06              7.2e-13               -1.52e-12             -5.5492e-06          
  0.8                   5.6564e-06            6.2e-13               -2.8e-13              -5.6548e-06          
  0.85                  5.7642e-06            7e-13                 -1.6e-12              -5.7602e-06          
  0.9                   5.868e-06             6e-13                 -1.82e-12             -5.864e-06           
  0.95                  5.973e-06             5.6e-13               -3.4e-13              -5.9694e-06          
  1                     6.076e-06             7.8e-13               -4.22e-12             -6.0718e-06          
  1.05                  6.1792e-06            6e-13                 -2.3e-12              -6.1768e-06          
  1.1                   6.2806e-06            6.6e-13               -1.42e-12             -6.2762e-06          
  1.15                  6.3824e-06            5e-13                 -4.54e-12             -6.378e-06           
  1.2                   6.481e-06             4e-13                 -9.36e-12             -6.4698e-06          
  1.25                  6.5772e-06            2.6e-13               -1.896e-11            -6.5776e-06          
  1.3                   6.6806e-06            6e-14                 -4.082e-11            -6.6758e-06          
  1.35                  6.7798e-06            -3e-13                -7.986e-11            -6.776e-06           
END_DB

