! VERSION = 6.00
BEGIN_HEADER
 ICCAP_INPUTS
  vd         V  D GROUND SMU1 0.1 LIN        1    0          1.35       28   0.05      
  vg         V  G GROUND SMU2 0.001 LIN        2    0.486      1.35       5    0.216     
  vb         V  B GROUND SMU4 0.1 CON        0
  vs         V  S GROUND SMU3 0.1 CON        0
 ICCAP_OUTPUTS
  id         I  D GROUND SMU1 B
  ig         I  G GROUND SMU2 B
  ib         I  B GROUND SMU4 B
  is         I  S GROUND SMU3 B
 ICCAP_VALUES
  MASTER_SETUP_TYPE "~dc_idvd~"
  LINVT_VALUE "|idvg|100.0n|100.0m|1.000m|5|1.350|"
  LISTVT_VALUE ""
  TYPE "1"
  TEMP "-40.0000 "
  IS_TNOM " 0.00000 "
  MAIN.W "150.0n"
  MAIN.L "180.0n"
  MAIN.AD "100.5f"
  MAIN.AS "100.5f"
  MAIN.PD "1.340u"
  MAIN.PS "1.340u"
  MAIN.NF "1.000"
  MAIN.M "1"
  MAIN.NRD "0.000"
  MAIN.NRS "0.000"
  MAIN.LDRIFT1 "1E-06"
  MAIN.LDRIFT2 "1E-06"
  MAIN.SA "0.000"
  MAIN.SB "0.000"
  MAIN.SD "0.000"
  MAIN.SCA "0.000"
  MAIN.SCB "0.000"
  MAIN.SCC "0.000"
  MAIN.SC "0.000"
  MODULE "S547"
  PIN_D "20"
  PIN_G "1"
  PIN_S "2"
  PIN_B "19"
  PIN_E ""
  PIN_6 ""
  XY_ID ""
  FUNC "LW Scale"
  STI "SA ref"
  WPE "WPE ref"
  COMMENT ""
  DIS_MEAS ""
  TypeTCI "10"
END_HEADER

BEGIN_DB
 ICCAP_VAR vg         0.486          
 ICCAP_VAR vb         0              
 ICCAP_VAR vs         0              

 #vd                    id                    ig                    ib                    is                   
  0                     1.3254e-09            4.2e-13               4.68e-12              -1.0325e-09          
  0.05                  4.9994e-07            3.4e-13               3.12e-12              -4.9964e-07          
  0.1                   7.1254e-07            2.2e-13               3.42e-12              -7.1236e-07          
  0.15                  7.9734e-07            2.4e-13               3.9e-12               -7.9856e-07          
  0.2                   8.4162e-07            1e-13                 3.78e-12              -8.4088e-07          
  0.25                  8.6914e-07            1.2e-13               2.36e-12              -8.6794e-07          
  0.3                   8.9438e-07            2.8e-13               4.22e-12              -8.9114e-07          
  0.35                  9.166e-07             3.2e-13               4.48e-12              -9.1806e-07          
  0.4                   9.403e-07             2.2e-13               2.9e-12               -9.3766e-07          
  0.45                  9.6154e-07            2.6e-13               2.54e-12              -9.6078e-07          
  0.5                   9.8652e-07            2.2e-13               2.96e-12              -9.829e-07           
  0.55                  1.00418e-06           2.2e-13               2.64e-12              -1.00596e-06         
  0.6                   1.02872e-06           3e-13                 2.62e-12              -1.0275e-06          
  0.65                  1.0522e-06            1.8e-13               2.04e-12              -1.05002e-06         
  0.7                   1.07088e-06           1.4e-13               2.16e-12              -1.0702e-06          
  0.75                  1.0952e-06            3.8e-13               2.5e-12               -1.0944e-06          
  0.8                   1.11692e-06           1.8e-13               1.88e-12              -1.11368e-06         
  0.85                  1.1396e-06            1.6e-13               2.88e-12              -1.1354e-06          
  0.9                   1.1622e-06            1.8e-13               2.36e-12              -1.1622e-06          
  0.95                  1.1874e-06            1.8e-13               1.18e-12              -1.1836e-06          
  1                     1.2136e-06            1.4e-13               1.9e-12               -1.2084e-06          
  1.05                  1.2354e-06            1.8e-13               2.1e-12               -1.2282e-06          
  1.1                   1.263e-06             1e-13                 8.4e-13               -1.2532e-06          
  1.15                  1.2876e-06            8e-14                 2.08e-12              -1.279e-06           
  1.2                   1.305e-06             6e-14                 -3.4e-13              -1.3036e-06          
  1.25                  1.3334e-06            8e-14                 -4.12e-12             -1.3276e-06          
  1.3                   1.354e-06             1.6e-13               -9.42e-12             -1.3512e-06          
  1.35                  1.382e-06             8e-14                 -2.244e-11            -1.375e-06           
END_DB

BEGIN_DB
 ICCAP_VAR vg         0.702          
 ICCAP_VAR vb         0              
 ICCAP_VAR vs         0              

 #vd                    id                    ig                    ib                    is                   
  0                     3.4632e-09            1.24e-12              3.3e-12               -3.9288e-09          
  0.05                  3.3176e-06            1.04e-12              6.4e-13               -3.313e-06           
  0.1                   5.7548e-06            1e-12                 1.22e-12              -5.7504e-06          
  0.15                  7.472e-06             1.02e-12              1.42e-12              -7.4744e-06          
  0.2                   8.6428e-06            1.04e-12              9e-13                 -8.639e-06           
  0.25                  9.4206e-06            8.6e-13               1.32e-12              -9.4176e-06          
  0.3                   9.9522e-06            7.8e-13               1.86e-12              -9.9496e-06          
  0.35                  1.0334e-05            7.8e-13               8e-14                 -1.03288e-05         
  0.4                   1.06272e-05           7.8e-13               1.64e-12              -1.06224e-05         
  0.45                  1.08776e-05           7.8e-13               1.52e-12              -1.08702e-05         
  0.5                   1.1099e-05            7.8e-13               8.2e-13               -1.10944e-05         
  0.55                  1.1314e-05            8.2e-13               1.32e-12              -1.13024e-05         
  0.6                   1.151e-05             8.6e-13               6.2e-13               -1.14998e-05         
  0.65                  1.17e-05              6.8e-13               1.5e-12               -1.16908e-05         
  0.7                   1.189e-05             6.8e-13               7e-13                 -1.187e-05           
  0.75                  1.2072e-05            7.6e-13               1.5e-12               -1.2054e-05          
  0.8                   1.225e-05             7.2e-13               1.52e-12              -1.2234e-05          
  0.85                  1.2424e-05            7.4e-13               -4.8e-13              -1.2412e-05          
  0.9                   1.2602e-05            6.6e-13               1.82e-12              -1.2584e-05          
  0.95                  1.2776e-05            7.4e-13               1.18e-12              -1.2754e-05          
  1                     1.2944e-05            6.6e-13               1.32e-12              -1.2932e-05          
  1.05                  1.3114e-05            7.4e-13               1.3e-12               -1.3098e-05          
  1.1                   1.3284e-05            7.4e-13               6e-14                 -1.3268e-05          
  1.15                  1.3444e-05            6.2e-13               -1.8e-12              -1.3422e-05          
  1.2                   1.36e-05              6.2e-13               -3.26e-12             -1.3588e-05          
  1.25                  1.3768e-05            5.4e-13               -1.228e-11            -1.3746e-05          
  1.3                   1.3926e-05            4.8e-13               -2.964e-11            -1.391e-05           
  1.35                  1.4086e-05            7.8e-13               -6.358e-11            -1.4066e-05          
END_DB

BEGIN_DB
 ICCAP_VAR vg         0.918          
 ICCAP_VAR vb         0              
 ICCAP_VAR vs         0              

 #vd                    id                    ig                    ib                    is                   
  0                     1.1774e-08            4.3e-12               3.2e-13               -1.1354e-08          
  0.05                  7.1822e-06            3.8e-12               6.2e-13               -7.178e-06           
  0.1                   1.3278e-05            3.42e-12              1.02e-12              -1.3254e-05          
  0.15                  1.824e-05             3.04e-12              2e-13                 -1.8224e-05          
  0.2                   2.2134e-05            2.88e-12              8.6e-13               -2.2118e-05          
  0.25                  2.5096e-05            2.82e-12              4.2e-13               -2.5078e-05          
  0.3                   2.7304e-05            2.76e-12              1.5e-12               -2.7288e-05          
  0.35                  2.8938e-05            2.44e-12              1.56e-12              -2.8922e-05          
  0.4                   3.016e-05             2.34e-12              7.6e-13               -3.0144e-05          
  0.45                  3.1094e-05            2.42e-12              -2.6e-13              -3.1074e-05          
  0.5                   3.184e-05             2.38e-12              1.26e-12              -3.1822e-05          
  0.55                  3.2462e-05            2.5e-12               -3.4e-13              -3.2446e-05          
  0.6                   3.3006e-05            2.36e-12              1.6e-13               -3.2988e-05          
  0.65                  3.3496e-05            2.5e-12               2.12e-12              -3.3478e-05          
  0.7                   3.3946e-05            2.28e-12              4.4e-13               -3.3928e-05          
  0.75                  3.437e-05             2.22e-12              9e-13                 -3.4352e-05          
  0.8                   3.4776e-05            2.32e-12              1.32e-12              -3.4758e-05          
  0.85                  3.5162e-05            2.34e-12              4.4e-13               -3.514e-05           
  0.9                   3.5536e-05            2.2e-12               7e-13                 -3.552e-05           
  0.95                  3.59e-05              2.3e-12               4.08e-12              -3.588e-05           
  1                     3.6254e-05            2.24e-12              -3.2e-13              -3.624e-05           
  1.05                  3.66e-05              2.06e-12              4.4e-13               -3.6586e-05          
  1.1                   3.6938e-05            2.22e-12              6.2e-13               -3.6922e-05          
  1.15                  3.7272e-05            2.36e-12              -2.22e-12             -3.7254e-05          
  1.2                   3.7594e-05            2.16e-12              -7.72e-12             -3.758e-05           
  1.25                  3.7914e-05            2.06e-12              -1.624e-11            -3.7872e-05          
  1.3                   3.8202e-05            2.24e-12              -3.884e-11            -3.8186e-05          
  1.35                  3.8514e-05            2.18e-12              -8.154e-11            -3.8504e-05          
END_DB

BEGIN_DB
 ICCAP_VAR vg         1.134          
 ICCAP_VAR vb         0              
 ICCAP_VAR vs         0              

 #vd                    id                    ig                    ib                    is                   
  0                     1.7518e-08            1.172e-11             2.44e-12              -1.72e-08            
  0.05                  1.0656e-05            1.07e-11              -1e-13                -1.0638e-05          
  0.1                   2.0234e-05            9.78e-12              4.8e-13               -2.0216e-05          
  0.15                  2.856e-05             8.98e-12              7e-13                 -2.8546e-05          
  0.2                   3.5578e-05            8.28e-12              1.6e-13               -3.5572e-05          
  0.25                  4.1348e-05            7.76e-12              5.2e-13               -4.1348e-05          
  0.3                   4.5992e-05            7.26e-12              6.2e-13               -4.5974e-05          
  0.35                  4.963e-05             7e-12                 -8e-14                -4.9612e-05          
  0.4                   5.2446e-05            6.56e-12              9.8e-13               -5.2442e-05          
  0.45                  5.4658e-05            6.54e-12              6.2e-13               -5.4632e-05          
  0.5                   5.6362e-05            6.36e-12              -4e-14                -5.633e-05           
  0.55                  5.772e-05             6.18e-12              1.52e-12              -5.7704e-05          
  0.6                   5.8838e-05            6.2e-12               3e-13                 -5.8822e-05          
  0.65                  5.9766e-05            6.12e-12              -2e-13                -5.9756e-05          
  0.7                   6.0578e-05            5.92e-12              1.48e-12              -6.0556e-05          
  0.75                  6.1292e-05            5.82e-12              2.2e-13               -6.1296e-05          
  0.8                   6.196e-05             5.88e-12              -4.2e-13              -6.194e-05           
  0.85                  6.2562e-05            5.98e-12              1.64e-12              -6.2552e-05          
  0.9                   6.3136e-05            5.72e-12              -8.2e-13              -6.3122e-05          
  0.95                  6.367e-05             5.72e-12              5.4e-13               -6.3662e-05          
  1                     6.4192e-05            5.7e-12               6.6e-13               -6.4174e-05          
  1.05                  6.4688e-05            5.7e-12               -1.34e-12             -6.4672e-05          
  1.1                   6.5154e-05            5.66e-12              -1.82e-12             -6.5148e-05          
  1.15                  6.5636e-05            5.6e-12               -2.22e-12             -6.5616e-05          
  1.2                   6.6094e-05            5.56e-12              -8.84e-12             -6.6068e-05          
  1.25                  6.6524e-05            5.54e-12              -1.88e-11             -6.651e-05           
  1.3                   6.696e-05             5.58e-12              -3.968e-11            -6.6938e-05          
  1.35                  6.7378e-05            5.48e-12              -8.356e-11            -6.7352e-05          
END_DB

BEGIN_DB
 ICCAP_VAR vg         1.35           
 ICCAP_VAR vb         0              
 ICCAP_VAR vs         0              

 #vd                    id                    ig                    ib                    is                   
  0                     2.0924e-08            2.746e-11             1.04e-12              -2.032e-08           
  0.05                  1.3354e-05            2.53e-11              1e-12                 -1.3336e-05          
  0.1                   2.5714e-05            2.342e-11             1e-12                 -2.5696e-05          
  0.15                  3.6844e-05            2.164e-11             -5.6e-13              -3.6814e-05          
  0.2                   4.66e-05              2.012e-11             3.6e-13               -4.6606e-05          
  0.25                  5.504e-05             1.88e-11              8.8e-13               -5.5022e-05          
  0.3                   6.211e-05             1.776e-11             -5.8e-13              -6.2098e-05          
  0.35                  6.806e-05             1.678e-11             4e-13                 -6.8e-05             
  0.4                   7.2842e-05            1.608e-11             1.14e-12              -7.2828e-05          
  0.45                  7.6732e-05            1.55e-11              5.6e-13               -7.672e-05           
  0.5                   7.9904e-05            1.476e-11             4.8e-13               -7.9892e-05          
  0.55                  8.2406e-05            1.436e-11             1.14e-12              -8.2392e-05          
  0.6                   8.4426e-05            1.408e-11             -2e-14                -8.4406e-05          
  0.65                  8.6064e-05            1.396e-11             4.6e-13               -8.6054e-05          
  0.7                   8.7434e-05            1.366e-11             5.6e-13               -8.7422e-05          
  0.75                  8.8542e-05            1.35e-11              2.4e-13               -8.8502e-05          
  0.8                   8.9606e-05            1.326e-11             4e-14                 -8.9594e-05          
  0.85                  9.0476e-05            1.32e-11              4e-14                 -9.049e-05           
  0.9                   9.1318e-05            1.304e-11             -3e-13                -9.1296e-05          
  0.95                  9.203e-05             1.296e-11             4.8e-13               -9.2048e-05          
  1                     9.2752e-05            1.292e-11             -3.6e-13              -9.2736e-05          
  1.05                  9.3324e-05            1.264e-11             0                     -9.3396e-05          
  1.1                   9.4024e-05            1.266e-11             -7.2e-13              -9.4006e-05          
  1.15                  9.461e-05             1.272e-11             6.8e-13               -9.4594e-05          
  1.2                   9.5176e-05            1.26e-11              -8.04e-12             -9.516e-05           
  1.25                  9.5722e-05            1.248e-11             -1.744e-11            -9.5702e-05          
  1.3                   9.6242e-05            1.258e-11             -3.676e-11            -9.6182e-05          
  1.35                  9.6764e-05            1.248e-11             -7.438e-11            -9.6746e-05          
END_DB

