! VERSION = 6.00
BEGIN_HEADER
 ICCAP_INPUTS
  vd         V  D GROUND SMU1 0.1 LIN        1    0          1.35       28   0.05      
  vg         V  G GROUND SMU2 0.001 LIN        2    0.554      1.35       5    0.199     
  vb         V  B GROUND SMU4 0.1 CON        -1.2
  vs         V  S GROUND SMU3 0.1 CON        0
 ICCAP_OUTPUTS
  id         I  D GROUND SMU1 B
  ig         I  G GROUND SMU2 B
  ib         I  B GROUND SMU4 B
  is         I  S GROUND SMU3 B
 ICCAP_VALUES
  MASTER_SETUP_TYPE "~dc_idvd~"
  LINVT_VALUE "|idvg|100.0n|100.0m|1.000m|5|1.350|"
  LISTVT_VALUE ""
  TYPE "1"
  TEMP " 27.0000 "
  IS_TNOM " 1.00000 "
  MAIN.W "10.00u"
  MAIN.L "120.0n"
  MAIN.AD "3.400p"
  MAIN.AS "3.400p"
  MAIN.PD "20.68u"
  MAIN.PS "20.68u"
  MAIN.NF "1.000"
  MAIN.M "1"
  MAIN.NRD "0.000"
  MAIN.NRS "0.000"
  MAIN.LDRIFT1 "1E-06"
  MAIN.LDRIFT2 "1E-06"
  MAIN.SA "0.000"
  MAIN.SB "0.000"
  MAIN.SD "0.000"
  MAIN.SCA "0.000"
  MAIN.SCB "0.000"
  MAIN.SCC "0.000"
  MAIN.SC "0.000"
  MODULE "S540"
  PIN_D "20"
  PIN_G "1"
  PIN_S "2"
  PIN_B "19"
  PIN_E ""
  PIN_6 ""
  XY_ID ""
  FUNC "Additional"
  STI "SA ref"
  WPE "WPE ref"
  COMMENT ""
  DIS_MEAS ""
  TypeTCI "10"
END_HEADER

BEGIN_DB
 ICCAP_VAR vg         0.554          
 ICCAP_VAR vb         -1.2           
 ICCAP_VAR vs         0              

 #vd                    id                    ig                    ib                    is                   
  0                     3.7414e-08            1.362e-11             -1.586e-11            -2.9492e-08          
  0.05                  1.5382e-05            1.124e-11             -1.466e-11            -1.5358e-05          
  0.1                   2.31e-05              9.78e-12              -1.274e-11            -2.3082e-05          
  0.15                  2.8172e-05            8.92e-12              -1.294e-11            -2.8162e-05          
  0.2                   3.2434e-05            8.44e-12              -1.2e-11              -3.2436e-05          
  0.25                  3.6546e-05            8.1e-12               -1.188e-11            -3.6524e-05          
  0.3                   4.0646e-05            7.98e-12              -1.156e-11            -4.0562e-05          
  0.35                  4.481e-05             7.86e-12              -1.112e-11            -4.4814e-05          
  0.4                   4.9178e-05            7.86e-12              -9.68e-12             -4.9162e-05          
  0.45                  5.3706e-05            7.82e-12              -1.05e-11             -5.3696e-05          
  0.5                   5.8454e-05            7.78e-12              -5.82e-12             -5.843e-05           
  0.55                  6.3416e-05            7.78e-12              -9.1e-12              -6.3402e-05          
  0.6                   6.8576e-05            7.72e-12              -9.3e-12              -6.859e-05           
  0.65                  7.4014e-05            7.8e-12               -7.8e-12              -7.4014e-05          
  0.7                   7.9672e-05            7.86e-12              -7.36e-12             -7.966e-05           
  0.75                  8.554e-05             7.76e-12              -8.22e-12             -8.5536e-05          
  0.8                   9.1698e-05            7.72e-12              -7.58e-12             -9.1656e-05          
  0.85                  9.8072e-05            7.7e-12               -8.22e-12             -9.8094e-05          
  0.9                   0.000104746           7.52e-12              -1.074e-11            -0.000104718         
  0.95                  0.00011167            7.1e-12               -1.53e-11             -0.000111644         
  1                     0.000119              6.88e-12              -3.342e-11            -0.00011864          
  1.05                  0.00012644            6.54e-12              -7.978e-11            -0.00012606          
  1.1                   0.00013394            6.1e-12               -1.9894e-10           -0.00013362          
  1.15                  0.00014214            5.6e-12               -4.6632e-10           -0.00014176          
  1.2                   0.00015044            4.86e-12              -1.02204e-09          -0.00015004          
  1.25                  0.00015896            3.8e-12               -2.0994e-09           -0.00015864          
  1.3                   0.00016788            2.82e-12              -4.0476e-09           -0.00016758          
  1.35                  0.00017712            1.48e-12              -7.3728e-09           -0.00017682          
END_DB

BEGIN_DB
 ICCAP_VAR vg         0.753          
 ICCAP_VAR vb         -1.2           
 ICCAP_VAR vs         0              

 #vd                    id                    ig                    ib                    is                   
  0                     3.9534e-07            5.928e-11             -4.02e-12             -1.7566e-07          
  0.05                  0.00015206            5.142e-11             -3.6e-12              -0.0001517           
  0.1                   0.00025748            4.546e-11             -3.72e-12             -0.00025704          
  0.15                  0.00033074            4.116e-11             -4.66e-12             -0.00033028          
  0.2                   0.00038416            3.82e-11              -4.28e-12             -0.00038388          
  0.25                  0.000426              3.626e-11             -4.32e-12             -0.00042572          
  0.3                   0.00046082            3.484e-11             -4.72e-12             -0.0004605           
  0.35                  0.00049224            3.398e-11             -4.1e-12              -0.00049182          
  0.4                   0.00052122            3.33e-11              -3.96e-12             -0.00052052          
  0.45                  0.00054858            3.29e-11              -4.28e-12             -0.00054818          
  0.5                   0.00057516            3.27e-11              -3.52e-12             -0.00057478          
  0.55                  0.00060174            3.244e-11             -4.86e-12             -0.00060136          
  0.6                   0.00062762            3.246e-11             -4.36e-12             -0.0006273           
  0.65                  0.00065404            3.242e-11             -2.7e-12              -0.0006535           
  0.7                   0.00068               3.224e-11             -4.2e-12              -0.00067924          
  0.75                  0.0007056             3.218e-11             -4.6e-12              -0.0007051           
  0.8                   0.0007316             3.21e-11              -4.28e-12             -0.00073148          
  0.85                  0.0007575             3.214e-11             -7.66e-12             -0.0007574           
  0.9                   0.00078392            3.208e-11             -1.508e-11            -0.00078352          
  0.95                  0.00081044            3.206e-11             -3.51e-11             -0.00080986          
  1                     0.00083708            3.198e-11             -9.072e-11            -0.00083648          
  1.05                  0.0008634             3.186e-11             -2.2774e-10           -0.00086362          
  1.1                   0.00089054            3.162e-11             -5.572e-10            -0.00089048          
  1.15                  0.00091764            3.152e-11             -1.2976e-09           -0.00091748          
  1.2                   0.00094482            3.116e-11             -2.851e-09            -0.0009444           
  1.25                  0.00097244            3.078e-11             -5.9022e-09           -0.00097184          
  1.3                   0.001                 3.022e-11             -1.1548e-08           -0.0009996           
  1.35                  0.00102724            2.964e-11             -2.1406e-08           -0.00102696          
END_DB

BEGIN_DB
 ICCAP_VAR vg         0.952          
 ICCAP_VAR vb         -1.2           
 ICCAP_VAR vs         0              

 #vd                    id                    ig                    ib                    is                   
  0                     9.6642e-07            1.7992e-10            -2.86e-12             -3.6988e-07          
  0.05                  0.00039506            1.608e-10             -2.08e-12             -0.00039478          
  0.1                   0.00071716            1.4512e-10            -2.98e-12             -0.00071708          
  0.15                  0.00096802            1.3266e-10            -3.96e-12             -0.00096758          
  0.2                   0.00116               1.2296e-10            -2.96e-12             -0.00115876          
  0.25                  0.0013056             1.1528e-10            -1.6e-12              -0.001304            
  0.3                   0.0014188             1.0966e-10            -2.5e-12              -0.0014174           
  0.35                  0.0015094             1.053e-10             -3.48e-12             -0.0015076           
  0.4                   0.0015842             1.0206e-10            -2.94e-12             -0.0015826           
  0.45                  0.0016492             9.976e-11             -2.3e-12              -0.0016474           
  0.5                   0.0017072             9.826e-11             -2.76e-12             -0.0017048           
  0.55                  0.00176               9.692e-11             -1.52e-12             -0.001758            
  0.6                   0.001809              9.604e-11             -2.34e-12             -0.0018078           
  0.65                  0.0018576             9.54e-11              -2.96e-12             -0.0018558           
  0.7                   0.0019036             9.48e-11              -2.24e-12             -0.001902            
  0.75                  0.0019482             9.436e-11             -3.48e-12             -0.001946            
  0.8                   0.0019908             9.39e-11              -6.68e-12             -0.0019892           
  0.85                  0.0020338             9.36e-11              -1.356e-11            -0.002032            
  0.9                   0.0020762             9.342e-11             -3.424e-11            -0.002074            
  0.95                  0.0021176             9.304e-11             -8.474e-11            -0.0021158           
  1                     0.0021586             9.28e-11              -2.029e-10            -0.0021572           
  1.05                  0.0021998             9.25e-11              -4.7752e-10           -0.0021976           
  1.1                   0.0022394             9.238e-11             -1.07478e-09          -0.0022378           
  1.15                  0.0022802             9.214e-11             -2.328e-09            -0.002278            
  1.2                   0.0023196             9.19e-11              -4.83e-09             -0.0023176           
  1.25                  0.002359              9.16e-11              -9.5832e-09           -0.0023582           
  1.3                   0.0024002             9.13e-11              -1.821e-08            -0.0023984           
  1.35                  0.0024396             9.09e-11              -3.3162e-08           -0.0024372           
END_DB

BEGIN_DB
 ICCAP_VAR vg         1.151          
 ICCAP_VAR vb         -1.2           
 ICCAP_VAR vs         0              

 #vd                    id                    ig                    ib                    is                   
  0                     2.9294e-07            4.3268e-10            -9.6e-13              -5.2544e-07          
  0.05                  0.00061744            3.9438e-10            -1.36e-12             -0.00061708          
  0.1                   0.0011596             3.6144e-10            -4.6e-13              -0.001158            
  0.15                  0.001612              3.341e-10             -2.88e-12             -0.0016104           
  0.2                   0.0019776             3.1098e-10            -1.64e-12             -0.0019762           
  0.25                  0.0022688             2.9206e-10            -1.46e-12             -0.002267            
  0.3                   0.002499              2.7652e-10            -3e-12                -0.0024972           
  0.35                  0.0026822             2.6398e-10            -2.04e-12             -0.0026806           
  0.4                   0.0028302             2.5416e-10            -1.36e-12             -0.0028286           
  0.45                  0.0029508             2.4642e-10            -3.26e-12             -0.0029494           
  0.5                   0.0030534             2.402e-10             -1.82e-12             -0.0030518           
  0.55                  0.0031418             2.3552e-10            -2.24e-12             -0.0031398           
  0.6                   0.0032196             2.319e-10             -3.32e-12             -0.0032184           
  0.65                  0.0032906             2.288e-10             -1.5e-12              -0.0032886           
  0.7                   0.0033556             2.263e-10             -2.44e-12             -0.0033542           
  0.75                  0.0034178             2.244e-10             -6.14e-12             -0.0034156           
  0.8                   0.0034756             2.2286e-10            -9.6e-12              -0.003474            
  0.85                  0.0035314             2.2156e-10            -2.422e-11            -0.0035296           
  0.9                   0.003585              2.2038e-10            -6.118e-11            -0.003584            
  0.95                  0.003638              2.1952e-10            -1.44e-10             -0.0036358           
  1                     0.0036892             2.1854e-10            -3.3454e-10           -0.0036878           
  1.05                  0.003739              2.1772e-10            -7.4348e-10           -0.0037366           
  1.1                   0.0037882             2.1676e-10            -1.589e-09            -0.0037864           
  1.15                  0.003837              2.1624e-10            -3.2762e-09           -0.0038354           
  1.2                   0.0038844             2.156e-10             -6.501e-09            -0.003882            
  1.25                  0.0039304             2.1472e-10            -1.2416e-08           -0.0039282           
  1.3                   0.0039764             2.1402e-10            -2.2872e-08           -0.0039744           
  1.35                  0.0040218             2.1364e-10            -4.0676e-08           -0.0040212           
END_DB

BEGIN_DB
 ICCAP_VAR vg         1.35           
 ICCAP_VAR vb         -1.2           
 ICCAP_VAR vs         0              

 #vd                    id                    ig                    ib                    is                   
  0                     1.1306e-06            8.9216e-10            -3.26e-12             -1.1168e-06          
  0.05                  0.00078812            8.2464e-10            -1.66e-12             -0.00078772          
  0.1                   0.001507              7.6574e-10            -1.48e-12             -0.0015054           
  0.15                  0.0021336             7.1468e-10            -2.66e-12             -0.0021322           
  0.2                   0.0026632             6.7042e-10            -1.96e-12             -0.0026616           
  0.25                  0.0031028             6.323e-10             -1.18e-12             -0.0031012           
  0.3                   0.0034626             5.9924e-10            -2.52e-12             -0.003461            
  0.35                  0.0037562             5.7152e-10            -1.9e-12              -0.0037546           
  0.4                   0.0039962             5.4838e-10            -1.34e-12             -0.0039946           
  0.45                  0.004193              5.2862e-10            -2.44e-12             -0.0041914           
  0.5                   0.0043572             5.125e-10             -1.5e-12              -0.0043544           
  0.55                  0.004494              4.9962e-10            -1.76e-12             -0.0044924           
  0.6                   0.004613              4.8892e-10            7.8e-13               -0.0046114           
  0.65                  0.0047166             4.8022e-10            -2e-12                -0.0047144           
  0.7                   0.0048078             4.7314e-10            -3.2e-12              -0.0048064           
  0.75                  0.0048912             4.6692e-10            -6.8e-12              -0.0048898           
  0.8                   0.0049666             4.62e-10              -1.328e-11            -0.0049656           
  0.85                  0.0050378             4.5806e-10            -3.452e-11            -0.005036            
  0.9                   0.0051046             4.545e-10             -8.344e-11            -0.005103            
  0.95                  0.0051684             4.5126e-10            -1.944e-10            -0.0051668           
  1                     0.0052292             4.487e-10             -4.408e-10            -0.0052276           
  1.05                  0.0052878             4.465e-10             -9.502e-10            -0.0052864           
  1.1                   0.0053438             4.4474e-10            -1.9732e-09           -0.0053418           
  1.15                  0.0053988             4.428e-10             -3.9434e-09           -0.005397            
  1.2                   0.0054526             4.4092e-10            -7.6088e-09           -0.005451            
  1.25                  0.0055054             4.3942e-10            -1.4174e-08           -0.0055034           
  1.3                   0.0055572             4.379e-10             -2.5556e-08           -0.0055548           
  1.35                  0.0056078             4.3664e-10            -4.4604e-08           -0.005606            
END_DB

