! VERSION = 6.00
BEGIN_HEADER
 ICCAP_INPUTS
  vd         V  D GROUND SMU1 0.1 LIN        1    0          1.35       28   0.05      
  vg         V  G GROUND SMU2 0.001 LIN        2    0.61       1.35       5    0.185     
  vb         V  B GROUND SMU4 0.1 CON        -1.2
  vs         V  S GROUND SMU3 0.1 CON        0
 ICCAP_OUTPUTS
  id         I  D GROUND SMU1 B
  ig         I  G GROUND SMU2 B
  ib         I  B GROUND SMU4 B
  is         I  S GROUND SMU3 B
 ICCAP_VALUES
  MASTER_SETUP_TYPE "~dc_idvd~"
  LINVT_VALUE "|idvg|100.0n|100.0m|1.000m|5|1.350|"
  LISTVT_VALUE ""
  TYPE "1"
  TEMP " 27.0000 "
  IS_TNOM " 1.00000 "
  MAIN.W "150.0n"
  MAIN.L "150.0n"
  MAIN.AD "100.5f"
  MAIN.AS "100.5f"
  MAIN.PD "1.340u"
  MAIN.PS "1.340u"
  MAIN.NF "1.000"
  MAIN.M "1"
  MAIN.NRD "0.000"
  MAIN.NRS "0.000"
  MAIN.LDRIFT1 "1E-06"
  MAIN.LDRIFT2 "1E-06"
  MAIN.SA "0.000"
  MAIN.SB "0.000"
  MAIN.SD "0.000"
  MAIN.SCA "0.000"
  MAIN.SCB "0.000"
  MAIN.SCC "0.000"
  MAIN.SC "0.000"
  MODULE "S546"
  PIN_D "12"
  PIN_G "9"
  PIN_S "10"
  PIN_B "11"
  PIN_E ""
  PIN_6 ""
  XY_ID ""
  FUNC "LW Scale"
  STI "SA ref"
  WPE "WPE ref"
  COMMENT ""
  DIS_MEAS ""
  TypeTCI "10"
END_HEADER

BEGIN_DB
 ICCAP_VAR vg         0.61           
 ICCAP_VAR vb         -1.2           
 ICCAP_VAR vs         0              

 #vd                    id                    ig                    ib                    is                   
  0                     8.761e-10             7.6e-13               -1.434e-11            -6.7474e-10          
  0.05                  3.631e-07             3.8e-13               -1.374e-11            -3.6272e-07          
  0.1                   5.3176e-07            4.2e-13               -1.25e-11             -5.3224e-07          
  0.15                  6.1488e-07            4.6e-13               -1.124e-11            -6.1358e-07          
  0.2                   6.6276e-07            4.6e-13               -9.78e-12             -6.6194e-07          
  0.25                  6.9912e-07            4.2e-13               -1.02e-11             -6.988e-07           
  0.3                   7.3558e-07            3.6e-13               -1.074e-11            -7.3586e-07          
  0.35                  7.6584e-07            3.8e-13               -9.72e-12             -7.6838e-07          
  0.4                   8.0374e-07            3.6e-13               -8.46e-12             -8.0376e-07          
  0.45                  8.3582e-07            3e-13                 -9.5e-12              -8.3772e-07          
  0.5                   8.6918e-07            5.2e-13               -9.06e-12             -8.6972e-07          
  0.55                  9.0486e-07            4.4e-13               -7.76e-12             -9.0616e-07          
  0.6                   9.4064e-07            3.2e-13               -7.54e-12             -9.407e-07           
  0.65                  9.7562e-07            3.6e-13               -8.34e-12             -9.7414e-07          
  0.7                   1.01424e-06           2.8e-13               -8.26e-12             -1.01578e-06         
  0.75                  1.05506e-06           1.8e-13               -7.16e-12             -1.05352e-06         
  0.8                   1.0915e-06            4e-13                 -6.44e-12             -1.09122e-06         
  0.85                  1.13382e-06           4.2e-13               -7.46e-12             -1.13056e-06         
  0.9                   1.177e-06             3e-13                 -5.52e-12             -1.1748e-06          
  0.95                  1.2224e-06            3.2e-13               -5.2e-12              -1.2182e-06          
  1                     1.2634e-06            3.2e-13               -6.34e-12             -1.2606e-06          
  1.05                  1.3126e-06            2.2e-13               -7.08e-12             -1.3048e-06          
  1.1                   1.357e-06             2.8e-13               -6.5e-12              -1.353e-06           
  1.15                  1.4058e-06            2.6e-13               -8.28e-12             -1.3998e-06          
  1.2                   1.4478e-06            1.8e-13               -1.166e-11            -1.448e-06           
  1.25                  1.5022e-06            2.6e-13               -1.77e-11             -1.4972e-06          
  1.3                   1.5528e-06            6e-14                 -2.986e-11            -1.5514e-06          
  1.35                  1.6082e-06            4e-14                 -5.13e-11             -1.603e-06           
END_DB

BEGIN_DB
 ICCAP_VAR vg         0.795          
 ICCAP_VAR vb         -1.2           
 ICCAP_VAR vs         0              

 #vd                    id                    ig                    ib                    is                   
  0                     2.8024e-09            1.62e-12              -3.58e-12             -2.6776e-09          
  0.05                  2.3294e-06            1.46e-12              -3.9e-12              -2.326e-06           
  0.1                   3.9372e-06            1.44e-12              -3.3e-12              -3.935e-06           
  0.15                  4.9854e-06            1.14e-12              -4.32e-12             -4.9922e-06          
  0.2                   5.6694e-06            9.8e-13               -3.8e-12              -5.6676e-06          
  0.25                  6.1346e-06            9.8e-13               -3.52e-12             -6.1364e-06          
  0.3                   6.4808e-06            9e-13                 -4.62e-12             -6.4862e-06          
  0.35                  6.7784e-06            1.1e-12               -4.06e-12             -6.7686e-06          
  0.4                   7.0262e-06            1.08e-12              -3.46e-12             -7.0212e-06          
  0.45                  7.2628e-06            1.06e-12              -6.24e-12             -7.2556e-06          
  0.5                   7.4914e-06            9.2e-13               -3.32e-12             -7.4852e-06          
  0.55                  7.7054e-06            9.6e-13               -3.18e-12             -7.706e-06           
  0.6                   7.9168e-06            1e-12                 -3.9e-12              -7.9214e-06          
  0.65                  8.1262e-06            8.4e-13               -3.52e-12             -8.134e-06           
  0.7                   8.3486e-06            8.8e-13               -3.7e-12              -8.3444e-06          
  0.75                  8.5554e-06            9.4e-13               -4.3e-12              -8.556e-06           
  0.8                   8.766e-06             1.02e-12              -3.04e-12             -8.7788e-06          
  0.85                  8.9956e-06            8.6e-13               -3.6e-12              -8.9824e-06          
  0.9                   9.2092e-06            9.4e-13               -4.18e-12             -9.2092e-06          
  0.95                  9.434e-06             9e-13                 -3e-12                -9.4134e-06          
  1                     9.646e-06             9.8e-13               -3.72e-12             -9.6526e-06          
  1.05                  9.874e-06             9.4e-13               -5.02e-12             -9.8662e-06          
  1.1                   1.00764e-05           8.8e-13               -5.3e-12              -1.00858e-05         
  1.15                  1.03178e-05           9.4e-13               -8.56e-12             -1.03026e-05         
  1.2                   1.05496e-05           9.8e-13               -1.758e-11            -1.05428e-05         
  1.25                  1.07688e-05           9.8e-13               -3.334e-11            -1.07726e-05         
  1.3                   1.10094e-05           8.6e-13               -6.554e-11            -1.09972e-05         
  1.35                  1.1234e-05            7.6e-13               -1.2428e-10           -1.1231e-05          
END_DB

BEGIN_DB
 ICCAP_VAR vg         0.98           
 ICCAP_VAR vb         -1.2           
 ICCAP_VAR vs         0              

 #vd                    id                    ig                    ib                    is                   
  0                     3.5484e-09            4.54e-12              -1.52e-12             -5.014e-09           
  0.05                  5.3108e-06            4.04e-12              -2.3e-12              -5.3048e-06          
  0.1                   9.6628e-06            3.82e-12              -3.04e-12             -9.6548e-06          
  0.15                  1.3078e-05            3.42e-12              -2.28e-12             -1.3062e-05          
  0.2                   1.5664e-05            3.22e-12              -2.56e-12             -1.5636e-05          
  0.25                  1.7554e-05            2.98e-12              -2.12e-12             -1.7534e-05          
  0.3                   1.8948e-05            3.02e-12              -2.06e-12             -1.893e-05           
  0.35                  1.9994e-05            2.78e-12              -1.9e-12              -1.9964e-05          
  0.4                   2.0796e-05            2.88e-12              -1.42e-12             -2.0786e-05          
  0.45                  2.1486e-05            2.58e-12              -3.38e-12             -2.148e-05           
  0.5                   2.2082e-05            2.64e-12              -2.62e-12             -2.2064e-05          
  0.55                  2.2624e-05            2.52e-12              -2.12e-12             -2.261e-05           
  0.6                   2.314e-05             2.58e-12              -2.44e-12             -2.313e-05           
  0.65                  2.3616e-05            2.46e-12              -2.44e-12             -2.3606e-05          
  0.7                   2.409e-05             2.5e-12               -1.64e-12             -2.4064e-05          
  0.75                  2.4534e-05            2.54e-12              -2.5e-12              -2.4514e-05          
  0.8                   2.498e-05             2.58e-12              -2.26e-12             -2.4972e-05          
  0.85                  2.5416e-05            2.48e-12              -2.48e-12             -2.5402e-05          
  0.9                   2.586e-05             2.58e-12              -2.9e-12              -2.5828e-05          
  0.95                  2.6262e-05            2.52e-12              -2.56e-12             -2.6252e-05          
  1                     2.67e-05              2.48e-12              -1.9e-12              -2.6664e-05          
  1.05                  2.7114e-05            2.42e-12              -4.52e-12             -2.7088e-05          
  1.1                   2.7538e-05            2.42e-12              -6.48e-12             -2.7528e-05          
  1.15                  2.794e-05             2.5e-12               -1.052e-11            -2.793e-05           
  1.2                   2.8368e-05            2.4e-12               -2.308e-11            -2.8356e-05          
  1.25                  2.8786e-05            2.3e-12               -4.468e-11            -2.8766e-05          
  1.3                   2.9194e-05            2.44e-12              -8.768e-11            -2.9184e-05          
  1.35                  2.9606e-05            2.4e-12               -1.6998e-10           -2.9582e-05          
END_DB

BEGIN_DB
 ICCAP_VAR vg         1.165          
 ICCAP_VAR vb         -1.2           
 ICCAP_VAR vs         0              

 #vd                    id                    ig                    ib                    is                   
  0                     1.2714e-08            1.022e-11             -1.68e-12             -1.2756e-08          
  0.05                  8.2184e-06            9.34e-12              -1.66e-12             -8.2156e-06          
  0.1                   1.5446e-05            8.44e-12              -1.54e-12             -1.5432e-05          
  0.15                  2.1566e-05            7.98e-12              -2.08e-12             -2.1548e-05          
  0.2                   2.659e-05             7.52e-12              -1.04e-12             -2.6572e-05          
  0.25                  3.0618e-05            6.96e-12              -2.16e-12             -3.0602e-05          
  0.3                   3.377e-05             6.62e-12              -2.42e-12             -3.3762e-05          
  0.35                  3.6232e-05            6.46e-12              -1.46e-12             -3.6214e-05          
  0.4                   3.815e-05             6.22e-12              -2.26e-12             -3.8126e-05          
  0.45                  3.967e-05             6.04e-12              -1.66e-12             -3.965e-05           
  0.5                   4.0916e-05            5.96e-12              -7.8e-13              -4.09e-05            
  0.55                  4.1978e-05            5.8e-12               -2.2e-12              -4.1956e-05          
  0.6                   4.2874e-05            5.8e-12               -1.94e-12             -4.2868e-05          
  0.65                  4.3706e-05            5.8e-12               -1.4e-12              -4.3692e-05          
  0.7                   4.4448e-05            5.72e-12              -2.76e-12             -4.4432e-05          
  0.75                  4.5166e-05            5.68e-12              -1.94e-12             -4.5148e-05          
  0.8                   4.5834e-05            5.78e-12              -1.02e-12             -4.5828e-05          
  0.85                  4.6488e-05            5.58e-12              -2.12e-12             -4.6468e-05          
  0.9                   4.71e-05              5.66e-12              -2.3e-12              -4.7076e-05          
  0.95                  4.771e-05             5.56e-12              -1.28e-12             -4.7686e-05          
  1                     4.8304e-05            5.48e-12              -3.38e-12             -4.8288e-05          
  1.05                  4.8896e-05            5.36e-12              -4.34e-12             -4.8878e-05          
  1.1                   4.9482e-05            5.46e-12              -5.88e-12             -4.9456e-05          
  1.15                  5.006e-05             5.58e-12              -1.338e-11            -5.0032e-05          
  1.2                   5.0628e-05            5.54e-12              -2.628e-11            -5.06e-05            
  1.25                  5.117e-05             5.4e-12               -5.136e-11            -5.1162e-05          
  1.3                   5.1744e-05            5.38e-12              -1.01e-10             -5.174e-05           
  1.35                  5.2302e-05            5.32e-12              -1.8996e-10           -5.2288e-05          
END_DB

BEGIN_DB
 ICCAP_VAR vg         1.35           
 ICCAP_VAR vb         -1.2           
 ICCAP_VAR vs         0              

 #vd                    id                    ig                    ib                    is                   
  0                     1.668e-08             2.028e-11             -1.18e-12             -1.6108e-08          
  0.05                  1.069e-05             1.872e-11             -1.64e-12             -1.0672e-05          
  0.1                   2.0434e-05            1.752e-11             -1.44e-12             -2.0414e-05          
  0.15                  2.904e-05             1.638e-11             -8.6e-13              -2.9022e-05          
  0.2                   3.6438e-05            1.536e-11             -1.52e-12             -3.6428e-05          
  0.25                  4.2678e-05            1.444e-11             -1.96e-12             -4.2662e-05          
  0.3                   4.7824e-05            1.384e-11             -7.6e-13              -4.781e-05           
  0.35                  5.203e-05             1.336e-11             -1.7e-12              -5.2014e-05          
  0.4                   5.5422e-05            1.272e-11             -2.44e-12             -5.5406e-05          
  0.45                  5.7948e-05            1.22e-11              -1.3e-12              -5.7962e-05          
  0.5                   6.0384e-05            1.208e-11             -3.06e-12             -6.0354e-05          
  0.55                  6.2174e-05            1.172e-11             -2.48e-12             -6.217e-05           
  0.6                   6.3718e-05            1.166e-11             -1.08e-12             -6.3692e-05          
  0.65                  6.5006e-05            1.15e-11              -1.82e-12             -6.5e-05             
  0.7                   6.6164e-05            1.146e-11             -1.52e-12             -6.6164e-05          
  0.75                  6.7212e-05            1.13e-11              -9.6e-13              -6.7184e-05          
  0.8                   6.8154e-05            1.13e-11              -2.3e-12              -6.814e-05           
  0.85                  6.9048e-05            1.106e-11             -2.08e-12             -6.905e-05           
  0.9                   6.9884e-05            1.098e-11             -1.14e-12             -6.9886e-05          
  0.95                  7.0744e-05            1.104e-11             -2.38e-12             -7.0674e-05          
  1                     7.1462e-05            1.092e-11             -3.48e-12             -7.144e-05           
  1.05                  7.2196e-05            1.086e-11             -3.18e-12             -7.2186e-05          
  1.1                   7.2934e-05            1.1e-11               -7.12e-12             -7.2906e-05          
  1.15                  7.3648e-05            1.09e-11              -1.434e-11            -7.3636e-05          
  1.2                   7.4334e-05            1.078e-11             -2.756e-11            -7.4336e-05          
  1.25                  7.5016e-05            1.082e-11             -5.542e-11            -7.502e-05           
  1.3                   7.5716e-05            1.078e-11             -1.047e-10            -7.5702e-05          
  1.35                  7.6392e-05            1.064e-11             -1.9334e-10           -7.6364e-05          
END_DB

