! VERSION = 6.00
BEGIN_HEADER
 ICCAP_INPUTS
  vd         V  D GROUND SMU1 0.1 LIN        1    0          1.35       28   0.05      
  vg         V  G GROUND SMU2 0.001 LIN        2    0.486      1.35       5    0.216     
  vb         V  B GROUND SMU4 0.1 CON        0
  vs         V  S GROUND SMU3 0.1 CON        0
 ICCAP_OUTPUTS
  id         I  D GROUND SMU1 B
  ig         I  G GROUND SMU2 B
  ib         I  B GROUND SMU4 B
  is         I  S GROUND SMU3 B
 ICCAP_VALUES
  MASTER_SETUP_TYPE "~dc_idvd~"
  LINVT_VALUE "|idvg|100.0n|100.0m|1.000m|5|1.350|"
  LISTVT_VALUE ""
  TYPE "1"
  TEMP " 27.0000 "
  IS_TNOM " 1.00000 "
  MAIN.W "10.00u"
  MAIN.L "120.0n"
  MAIN.AD "3.400p"
  MAIN.AS "3.400p"
  MAIN.PD "20.68u"
  MAIN.PS "20.68u"
  MAIN.NF "1.000"
  MAIN.M "1"
  MAIN.NRD "0.000"
  MAIN.NRS "0.000"
  MAIN.LDRIFT1 "1E-06"
  MAIN.LDRIFT2 "1E-06"
  MAIN.SA "0.000"
  MAIN.SB "0.000"
  MAIN.SD "0.000"
  MAIN.SCA "0.000"
  MAIN.SCB "0.000"
  MAIN.SCC "0.000"
  MAIN.SC "0.000"
  MODULE "S540"
  PIN_D "20"
  PIN_G "1"
  PIN_S "2"
  PIN_B "19"
  PIN_E ""
  PIN_6 ""
  XY_ID ""
  FUNC "Additional"
  STI "SA ref"
  WPE "WPE ref"
  COMMENT ""
  DIS_MEAS ""
  TypeTCI "10"
END_HEADER

BEGIN_DB
 ICCAP_VAR vg         0.486          
 ICCAP_VAR vb         0              
 ICCAP_VAR vs         0              

 #vd                    id                    ig                    ib                    is                   
  0                     6.2118e-08            9.1e-12               8.6e-12               -4.6914e-08          
  0.05                  2.3706e-05            7.44e-12              6.4e-12               -2.3686e-05          
  0.1                   3.405e-05             6.28e-12              7.14e-12              -3.403e-05           
  0.15                  3.9456e-05            5.86e-12              5.72e-12              -3.9416e-05          
  0.2                   4.321e-05             5.38e-12              4.94e-12              -4.3198e-05          
  0.25                  4.6338e-05            5.22e-12              6.34e-12              -4.6352e-05          
  0.3                   4.9314e-05            4.98e-12              4.48e-12              -4.9284e-05          
  0.35                  5.212e-05             4.96e-12              4.82e-12              -5.212e-05           
  0.4                   5.4926e-05            4.9e-12               6.44e-12              -5.4894e-05          
  0.45                  5.7742e-05            4.94e-12              4.72e-12              -5.773e-05           
  0.5                   6.0582e-05            4.94e-12              4.24e-12              -6.0528e-05          
  0.55                  6.3462e-05            4.88e-12              5.44e-12              -6.3386e-05          
  0.6                   6.6368e-05            4.96e-12              4.04e-12              -6.6342e-05          
  0.65                  6.9368e-05            4.88e-12              3.58e-12              -6.9352e-05          
  0.7                   7.2382e-05            4.7e-12               4.7e-12               -7.2412e-05          
  0.75                  7.549e-05             4.66e-12              4.6e-12               -7.5506e-05          
  0.8                   7.8714e-05            4.6e-12               3.46e-12              -7.8644e-05          
  0.85                  8.1922e-05            4.4e-12               3.44e-12              -8.1956e-05          
  0.9                   8.5274e-05            4.08e-12              1.14e-12              -8.5226e-05          
  0.95                  8.8714e-05            3.84e-12              -5.6e-12              -8.8664e-05          
  1                     9.219e-05             3.3e-12               -2.226e-11            -9.2176e-05          
  1.05                  9.5794e-05            2.8e-12               -6.904e-11            -9.577e-05           
  1.1                   9.9468e-05            2.14e-12              -1.7852e-10           -9.9464e-05          
  1.15                  0.00010322            1.16e-12              -4.1864e-10           -0.000103208         
  1.2                   0.000107038           2.8e-13               -9.0294e-10           -0.00010705          
  1.25                  0.000111072           -1.12e-12             -1.8052e-09           -0.0001108           
  1.3                   0.00011524            -2.36e-12             -3.3826e-09           -0.0001149           
  1.35                  0.00011958            -4.08e-12             -5.9844e-09           -0.00011906          
END_DB

BEGIN_DB
 ICCAP_VAR vg         0.702          
 ICCAP_VAR vb         0              
 ICCAP_VAR vs         0              

 #vd                    id                    ig                    ib                    is                   
  0                     5.6174e-07            4.848e-11             3.06e-12              -2.2124e-07          
  0.05                  0.00020734            4.174e-11             2.8e-12               -0.00020688          
  0.1                   0.00034944            3.654e-11             2.44e-12              -0.00034916          
  0.15                  0.00044308            3.286e-11             2.26e-12              -0.0004428           
  0.2                   0.00050514            3.038e-11             2.9e-12               -0.00050474          
  0.25                  0.000548              2.858e-11             1.9e-12               -0.00054762          
  0.3                   0.00058006            2.732e-11             2.1e-12               -0.00057946          
  0.35                  0.00060588            2.66e-11              2.52e-12              -0.0006055           
  0.4                   0.00062792            2.604e-11             1.2e-12               -0.0006276           
  0.45                  0.00064854            2.562e-11             2.1e-12               -0.0006482           
  0.5                   0.00066754            2.55e-11              2.5e-12               -0.00066726          
  0.55                  0.00068546            2.524e-11             5e-13                 -0.00068532          
  0.6                   0.00070342            2.514e-11             2e-12                 -0.00070286          
  0.65                  0.00072026            2.502e-11             1.42e-12              -0.00072038          
  0.7                   0.00073736            2.498e-11             4.6e-13               -0.00073696          
  0.75                  0.000754              2.482e-11             2.26e-12              -0.00075392          
  0.8                   0.00077118            2.478e-11             3.8e-13               -0.00077066          
  0.85                  0.00078776            2.458e-11             -2.6e-12              -0.00078692          
  0.9                   0.00080446            2.456e-11             -9.38e-12             -0.00080398          
  0.95                  0.00082126            2.438e-11             -3.164e-11            -0.00082096          
  1                     0.00083758            2.418e-11             -8.92e-11             -0.00083726          
  1.05                  0.00085452            2.396e-11             -2.324e-10            -0.00085374          
  1.1                   0.00087116            2.362e-11             -5.7682e-10           -0.0008714           
  1.15                  0.00088854            2.33e-11              -1.3394e-09           -0.00088834          
  1.2                   0.00090534            2.302e-11             -2.934e-09            -0.00090482          
  1.25                  0.00092256            2.228e-11             -6.036e-09            -0.00092182          
  1.3                   0.00093958            2.174e-11             -1.172e-08            -0.000939            
  1.35                  0.00095662            2.102e-11             -2.1522e-08           -0.00095676          
END_DB

BEGIN_DB
 ICCAP_VAR vg         0.918          
 ICCAP_VAR vb         0              
 ICCAP_VAR vs         0              

 #vd                    id                    ig                    ib                    is                   
  0                     7.446e-07             1.633e-10             2.26e-12              4.818e-08            
  0.05                  0.00047952            1.4544e-10            9.8e-13               -0.00047916          
  0.1                   0.00087162            1.3086e-10            6.6e-13               -0.00087102          
  0.15                  0.0011752             1.1914e-10            1.3e-12               -0.0011734           
  0.2                   0.0014012             1.0972e-10            2.18e-12              -0.0013992           
  0.25                  0.001567              1.0266e-10            7.6e-13               -0.0015652           
  0.3                   0.001689              9.7e-11               5e-13                 -0.0016872           
  0.35                  0.0017804             9.306e-11             2.26e-12              -0.001779            
  0.4                   0.0018516             9e-11                 6.6e-13               -0.0018496           
  0.45                  0.0019082             8.782e-11             1.46e-12              -0.0019066           
  0.5                   0.0019562             8.62e-11              1.8e-12               -0.0019542           
  0.55                  0.0019986             8.494e-11             4.8e-13               -0.001997            
  0.6                   0.0020368             8.4e-11               1.06e-12              -0.0020348           
  0.65                  0.0020718             8.33e-11              9e-13                 -0.0020694           
  0.7                   0.002105              8.26e-11              2.2e-13               -0.002104            
  0.75                  0.0021378             8.218e-11             0                     -0.002136            
  0.8                   0.0021686             8.162e-11             -3.14e-12             -0.0021672           
  0.85                  0.0021988             8.14e-11              -1.268e-11            -0.0021968           
  0.9                   0.002228              8.098e-11             -3.246e-11            -0.0022264           
  0.95                  0.0022568             8.07e-11              -8.716e-11            -0.0022548           
  1                     0.0022842             8.042e-11             -2.1652e-10           -0.0022832           
  1.05                  0.0023136             8.01e-11              -5.0566e-10           -0.002311            
  1.1                   0.0023408             7.972e-11             -1.141e-09            -0.002339            
  1.15                  0.002368              7.95e-11              -2.4624e-09           -0.002367            
  1.2                   0.002396              7.92e-11              -5.0942e-09           -0.0023954           
  1.25                  0.0024238             7.882e-11             -1.00684e-08          -0.0024218           
  1.3                   0.0024516             7.84e-11              -1.9062e-08           -0.0024498           
  1.35                  0.0024784             7.792e-11             -3.4552e-08           -0.0024764           
END_DB

BEGIN_DB
 ICCAP_VAR vg         1.134          
 ICCAP_VAR vb         0              
 ICCAP_VAR vs         0              

 #vd                    id                    ig                    ib                    is                   
  0                     1.0934e-06            4.2146e-10            1.74e-12              1.1376e-07           
  0.05                  0.00070736            3.8386e-10            6.6e-13               -0.00070692          
  0.1                   0.0013304             3.5148e-10            7.8e-13               -0.0013286           
  0.15                  0.0018508             3.2404e-10            1.5e-12               -0.0018488           
  0.2                   0.0022706             3.0114e-10            9.8e-13               -0.0022688           
  0.25                  0.002601              2.8186e-10            6e-14                 -0.0025992           
  0.3                   0.0028584             2.6626e-10            1.84e-12              -0.002857            
  0.35                  0.0030588             2.5362e-10            9.2e-13               -0.0030566           
  0.4                   0.0032146             2.4354e-10            -2.2e-13              -0.003213            
  0.45                  0.003338              2.3552e-10            1.64e-12              -0.0033362           
  0.5                   0.0034364             2.2908e-10            -1e-13                -0.0034354           
  0.55                  0.0035182             2.241e-10             3e-13                 -0.0035164           
  0.6                   0.0035874             2.2016e-10            6.8e-13               -0.0035854           
  0.65                  0.003648              2.1714e-10            2e-13                 -0.0036456           
  0.7                   0.0037016             2.1458e-10            -5.8e-13              -0.0036992           
  0.75                  0.0037506             2.1256e-10            -2.46e-12             -0.0037488           
  0.8                   0.003797              2.1092e-10            -8.28e-12             -0.0037954           
  0.85                  0.0038402             2.094e-10             -2.41e-11             -0.0038382           
  0.9                   0.003881              2.082e-10             -6.252e-11            -0.00388             
  0.95                  0.0039202             2.0706e-10            -1.5248e-10           -0.0039192           
  1                     0.0039586             2.059e-10             -3.5306e-10           -0.0039572           
  1.05                  0.0039962             2.0512e-10            -7.8836e-10           -0.0039938           
  1.1                   0.0040318             2.0444e-10            -1.6838e-09           -0.0040306           
  1.15                  0.0040674             2.0362e-10            -3.457e-09            -0.0040646           
  1.2                   0.0041014             2.0274e-10            -6.8388e-09           -0.0040998           
  1.25                  0.0041364             2.0214e-10            -1.3028e-08           -0.0041346           
  1.3                   0.00417               2.0142e-10            -2.3926e-08           -0.0041678           
  1.35                  0.0042026             2.0078e-10            -4.242e-08            -0.004201            
END_DB

BEGIN_DB
 ICCAP_VAR vg         1.35           
 ICCAP_VAR vb         0              
 ICCAP_VAR vs         0              

 #vd                    id                    ig                    ib                    is                   
  0                     1.2302e-06            9.1768e-10            1.22e-12              -1.208e-06           
  0.05                  0.00087522            8.4812e-10            -1.8e-13              -0.00087482          
  0.1                   0.001676              7.8804e-10            -7e-13                -0.001674            
  0.15                  0.0023758             7.3522e-10            6.4e-13               -0.0023744           
  0.2                   0.002969              6.8884e-10            -1.4e-13              -0.0029674           
  0.25                  0.0034612             6.485e-10             -7.2e-13              -0.0034594           
  0.3                   0.0038624             6.1396e-10            3.6e-13               -0.0038612           
  0.35                  0.0041872             5.8442e-10            5.2e-13               -0.0041864           
  0.4                   0.0044504             5.5944e-10            8e-14                 -0.0044486           
  0.45                  0.0046612             5.3824e-10            9e-13                 -0.00466             
  0.5                   0.0048332             5.2112e-10            3.6e-13               -0.0048318           
  0.55                  0.0049744             5.0654e-10            0                     -0.0049726           
  0.6                   0.005091              4.9514e-10            6.6e-13               -0.0050896           
  0.65                  0.0051892             4.8534e-10            -2.2e-13              -0.005188            
  0.7                   0.0052744             4.7748e-10            -1.04e-12             -0.0052726           
  0.75                  0.0053474             4.7062e-10            -4e-12                -0.0053456           
  0.8                   0.0054142             4.6522e-10            -1.23e-11             -0.0054122           
  0.85                  0.005474              4.6078e-10            -3.348e-11            -0.0054728           
  0.9                   0.0055298             4.5694e-10            -8.376e-11            -0.0055278           
  0.95                  0.0055814             4.5364e-10            -2.024e-10            -0.0055802           
  1                     0.0056298             4.5074e-10            -4.5786e-10           -0.0056282           
  1.05                  0.005676              4.4808e-10            -9.922e-10            -0.0056742           
  1.1                   0.005722              4.457e-10             -2.0582e-09           -0.0057198           
  1.15                  0.005765              4.4388e-10            -4.1132e-09           -0.0057622           
  1.2                   0.0058052             4.419e-10             -7.9224e-09           -0.0058038           
  1.25                  0.005846              4.399e-10             -1.472e-08            -0.005845            
  1.3                   0.0058858             4.3834e-10            -2.6478e-08           -0.0058834           
  1.35                  0.005924              4.3684e-10            -4.6128e-08           -0.0059222           
END_DB

