! VERSION = 6.00
BEGIN_HEADER
 ICCAP_INPUTS
  vd         V  D GROUND SMU1 0.1 LIN        1    0          1.35       28   0.05      
  vg         V  G GROUND SMU2 0.001 LIN        2    0.298      1.35       5    0.263     
  vb         V  B GROUND SMU4 0.1 CON        0
  vs         V  S GROUND SMU3 0.1 CON        0
 ICCAP_OUTPUTS
  id         I  D GROUND SMU1 B
  ig         I  G GROUND SMU2 B
  ib         I  B GROUND SMU4 B
  is         I  S GROUND SMU3 B
 ICCAP_VALUES
  MASTER_SETUP_TYPE "~dc_idvd~"
  LINVT_VALUE "|idvg|100.0n|100.0m|1.000m|5|1.350|"
  LISTVT_VALUE ""
  TYPE "1"
  TEMP " 27.0000 "
  IS_TNOM " 1.00000 "
  MAIN.W "2.000u"
  MAIN.L "2.000u"
  MAIN.AD "680.0f"
  MAIN.AS "680.0f"
  MAIN.PD "4.680u"
  MAIN.PS "4.680u"
  MAIN.NF "1.000"
  MAIN.M "1"
  MAIN.NRD "0.000"
  MAIN.NRS "0.000"
  MAIN.LDRIFT1 "1E-06"
  MAIN.LDRIFT2 "1E-06"
  MAIN.SA "0.000"
  MAIN.SB "0.000"
  MAIN.SD "0.000"
  MAIN.SCA "0.000"
  MAIN.SCB "0.000"
  MAIN.SCC "0.000"
  MAIN.SC "0.000"
  MODULE "S542"
  PIN_D "12"
  PIN_G "9"
  PIN_S "10"
  PIN_B "11"
  PIN_E ""
  PIN_6 ""
  XY_ID ""
  FUNC "LW Scale"
  STI "SA ref"
  WPE "WPE ref"
  COMMENT ""
  DIS_MEAS ""
  TypeTCI "10"
END_HEADER

BEGIN_DB
 ICCAP_VAR vg         0.298          
 ICCAP_VAR vb         0              
 ICCAP_VAR vs         0              

 #vd                    id                    ig                    ib                    is                   
  0                     1.5028e-09            5.66e-12              8.24e-12              -1.0854e-09          
  0.05                  5.9862e-07            4.6e-12               6.84e-12              -5.985e-07           
  0.1                   8.052e-07             4.22e-12              7.38e-12              -8.054e-07           
  0.15                  8.8472e-07            4.04e-12              6.14e-12              -8.8476e-07          
  0.2                   9.308e-07             3.96e-12              6.24e-12              -9.3076e-07          
  0.25                  9.6756e-07            3.92e-12              5.36e-12              -9.6752e-07          
  0.3                   1.00058e-06           3.84e-12              6.14e-12              -1.00076e-06         
  0.35                  1.0319e-06            3.68e-12              5.5e-12               -1.03184e-06         
  0.4                   1.06156e-06           3.52e-12              5e-12                 -1.0616e-06          
  0.45                  1.08986e-06           3.5e-12               4.84e-12              -1.08972e-06         
  0.5                   1.117e-06             3.44e-12              5.4e-12               -1.11608e-06         
  0.55                  1.14294e-06           3.36e-12              4.94e-12              -1.1429e-06          
  0.6                   1.1698e-06            3.26e-12              4.36e-12              -1.16798e-06         
  0.65                  1.1942e-06            3.16e-12              5.94e-12              -1.1894e-06          
  0.7                   1.2176e-06            3.14e-12              4.18e-12              -1.2134e-06          
  0.75                  1.2398e-06            3.1e-12               4.18e-12              -1.236e-06           
  0.8                   1.2618e-06            3e-12                 4.1e-12               -1.258e-06           
  0.85                  1.283e-06             2.82e-12              3.9e-12               -1.2792e-06          
  0.9                   1.3034e-06            2.72e-12              3.5e-12               -1.2994e-06          
  0.95                  1.3232e-06            2.6e-12               4.6e-12               -1.3198e-06          
  1                     1.3428e-06            2.28e-12              2.62e-12              -1.3392e-06          
  1.05                  1.362e-06             2.14e-12              1.9e-12               -1.3582e-06          
  1.1                   1.38e-06              1.88e-12              8.4e-13               -1.3758e-06          
  1.15                  1.397e-06             1.5e-12               -5.08e-12             -1.3932e-06          
  1.2                   1.4142e-06            1.18e-12              -1.244e-11            -1.41e-06            
  1.25                  1.4302e-06            8.4e-13               -2.568e-11            -1.4266e-06          
  1.3                   1.4466e-06            5.4e-13               -5.028e-11            -1.4424e-06          
  1.35                  1.4618e-06            -1.2e-13              -8.566e-11            -1.4578e-06          
END_DB

BEGIN_DB
 ICCAP_VAR vg         0.561          
 ICCAP_VAR vb         0              
 ICCAP_VAR vs         0              

 #vd                    id                    ig                    ib                    is                   
  0                     2.9432e-09            7.208e-11             3.26e-12              -5.0234e-09          
  0.05                  5.6304e-06            6.03e-11              1.86e-12              -5.626e-06           
  0.1                   9.9434e-06            5.212e-11             2.54e-12              -9.9388e-06          
  0.15                  1.29e-05              4.668e-11             1.58e-12              -1.2882e-05          
  0.2                   1.4622e-05            4.36e-11              2.84e-12              -1.4606e-05          
  0.25                  1.5536e-05            4.212e-11             2.1e-12               -1.5518e-05          
  0.3                   1.6046e-05            4.126e-11             2.3e-12               -1.6028e-05          
  0.35                  1.6392e-05            4.058e-11             2.38e-12              -1.6372e-05          
  0.4                   1.6664e-05            4.018e-11             1.5e-12               -1.665e-05           
  0.45                  1.6904e-05            3.994e-11             1.88e-12              -1.6888e-05          
  0.5                   1.7128e-05            3.946e-11             2.6e-12               -1.7108e-05          
  0.55                  1.7332e-05            3.916e-11             1.18e-12              -1.7316e-05          
  0.6                   1.753e-05             3.882e-11             1.56e-12              -1.7512e-05          
  0.65                  1.772e-05             3.854e-11             2.22e-12              -1.7702e-05          
  0.7                   1.7904e-05            3.822e-11             -1.44e-12             -1.7886e-05          
  0.75                  1.808e-05             3.786e-11             2.24e-12              -1.8062e-05          
  0.8                   1.8248e-05            3.764e-11             2.86e-12              -1.8234e-05          
  0.85                  1.8416e-05            3.736e-11             9.2e-13               -1.8398e-05          
  0.9                   1.8578e-05            3.71e-11              1.9e-12               -1.8558e-05          
  0.95                  1.8732e-05            3.692e-11             2.76e-12              -1.8714e-05          
  1                     1.8886e-05            3.654e-11             1.54e-12              -1.8868e-05          
  1.05                  1.9036e-05            3.634e-11             1.9e-12               -1.9016e-05          
  1.1                   1.9182e-05            3.612e-11             1.14e-12              -1.9164e-05          
  1.15                  1.932e-05             3.576e-11             -1.48e-12             -1.9302e-05          
  1.2                   1.946e-05             3.54e-11              -5.72e-12             -1.944e-05           
  1.25                  1.9594e-05            3.518e-11             -1.756e-11            -1.958e-05           
  1.3                   1.9726e-05            3.464e-11             -4.566e-11            -1.9712e-05          
  1.35                  1.9858e-05            3.418e-11             -9.83e-11             -1.9838e-05          
END_DB

BEGIN_DB
 ICCAP_VAR vg         0.824          
 ICCAP_VAR vb         0              
 ICCAP_VAR vs         0              

 #vd                    id                    ig                    ib                    is                   
  0                     1.593e-08             3.9482e-10            2.74e-12              -1.6248e-08          
  0.05                  1.0926e-05            3.4534e-10            1.02e-12              -1.0908e-05          
  0.1                   2.0756e-05            3.0438e-10            1.32e-12              -2.074e-05           
  0.15                  2.9434e-05            2.714e-10             1.88e-12              -2.9412e-05          
  0.2                   3.6866e-05            2.4518e-10            1.62e-12              -3.685e-05           
  0.25                  4.2998e-05            2.2476e-10            1.7e-12               -4.298e-05           
  0.3                   4.7742e-05            2.1008e-10            1.8e-12               -4.7724e-05          
  0.35                  5.1124e-05            1.9978e-10            1.4e-12               -5.1108e-05          
  0.4                   5.3334e-05            1.933e-10             1.38e-12              -5.3316e-05          
  0.45                  5.4716e-05            1.894e-10             1.52e-12              -5.4686e-05          
  0.5                   5.5612e-05            1.8682e-10            8.6e-13               -5.5594e-05          
  0.55                  5.6258e-05            1.8502e-10            1.4e-12               -5.6248e-05          
  0.6                   5.6782e-05            1.8372e-10            1.56e-12              -5.6766e-05          
  0.65                  5.7232e-05            1.8264e-10            9.8e-13               -5.7214e-05          
  0.7                   5.7638e-05            1.8132e-10            1.32e-12              -5.7622e-05          
  0.75                  5.802e-05             1.8044e-10            1.86e-12              -5.8e-05             
  0.8                   5.8376e-05            1.7952e-10            1.34e-12              -5.836e-05           
  0.85                  5.8724e-05            1.785e-10             1.28e-12              -5.8702e-05          
  0.9                   5.9056e-05            1.7748e-10            1.38e-12              -5.9038e-05          
  0.95                  5.9378e-05            1.768e-10             7.2e-13               -5.9362e-05          
  1                     5.969e-05             1.7606e-10            1.8e-12               -5.967e-05           
  1.05                  5.999e-05             1.7516e-10            1.32e-12              -5.9976e-05          
  1.1                   6.0284e-05            1.7424e-10            8e-14                 -6.0268e-05          
  1.15                  6.0572e-05            1.7346e-10            9.8e-13               -6.0556e-05          
  1.2                   6.0856e-05            1.7288e-10            2.4e-13               -6.084e-05           
  1.25                  6.1128e-05            1.7208e-10            -2e-13                -6.1114e-05          
  1.3                   6.1396e-05            1.7148e-10            -9.4e-13              -6.1378e-05          
  1.35                  6.1654e-05            1.7068e-10            -8.54e-12             -6.1638e-05          
END_DB

BEGIN_DB
 ICCAP_VAR vg         1.087          
 ICCAP_VAR vb         0              
 ICCAP_VAR vs         0              

 #vd                    id                    ig                    ib                    is                   
  0                     2.1578e-08            1.4352e-09            1.66e-12              -2.2088e-08          
  0.05                  1.5144e-05            1.2914e-09            1.78e-12              -1.5126e-05          
  0.1                   2.9436e-05            1.1658e-09            4.8e-13               -2.942e-05           
  0.15                  4.2826e-05            1.0566e-09            3e-13                 -4.281e-05           
  0.2                   5.5248e-05            9.6218e-10            1.3e-12               -5.523e-05           
  0.25                  6.6646e-05            8.8226e-10            1.14e-12              -6.6634e-05          
  0.3                   7.6962e-05            8.1518e-10            1.28e-12              -7.6948e-05          
  0.35                  8.6112e-05            7.5918e-10            1.06e-12              -8.6102e-05          
  0.4                   9.404e-05             7.132e-10             3e-13                 -9.403e-05           
  0.45                  0.00010066            6.7722e-10            4.8e-13               -0.000100646         
  0.5                   0.000105934           6.4938e-10            7.4e-13               -0.000105936         
  0.55                  0.000109924           6.2934e-10            2.2e-13               -0.000109908         
  0.6                   0.00011274            6.153e-10             4.4e-13               -0.000112738         
  0.65                  0.00011482            6.059e-10             1.2e-12               -0.00011467          
  0.7                   0.00011614            5.9954e-10            -3.8e-13              -0.000116008         
  0.75                  0.00011714            5.949e-10             -1e-13                -0.000117008         
  0.8                   0.00011794            5.9132e-10            8.2e-13               -0.00011754          
  0.85                  0.0001186             5.882e-10             1.08e-12              -0.00011822          
  0.9                   0.0001192             5.8544e-10            4.6e-13               -0.0001188           
  0.95                  0.00011976            5.8284e-10            1.7e-12               -0.00011938          
  1                     0.00012026            5.8052e-10            1.08e-12              -0.00011988          
  1.05                  0.00012076            5.7812e-10            5.2e-13               -0.00012038          
  1.1                   0.00012124            5.7608e-10            1.52e-12              -0.00012086          
  1.15                  0.00012168            5.7418e-10            7.2e-13               -0.0001213           
  1.2                   0.00012212            5.722e-10             6e-14                 -0.00012176          
  1.25                  0.00012256            5.7024e-10            3e-13                 -0.00012218          
  1.3                   0.00012298            5.6844e-10            4.6e-13               -0.0001226           
  1.35                  0.00012338            5.6664e-10            -2.6e-13              -0.000123            
END_DB

BEGIN_DB
 ICCAP_VAR vg         1.35           
 ICCAP_VAR vb         0              
 ICCAP_VAR vs         0              

 #vd                    id                    ig                    ib                    is                   
  0                     2.4986e-08            4.0226e-09            -2.1e-12              -2.8232e-08          
  0.05                  1.8138e-05            3.6872e-09            -2.02e-12             -1.8124e-05          
  0.1                   3.5668e-05            3.386e-09             -1.48e-12             -3.5656e-05          
  0.15                  5.2546e-05            3.1156e-09            3e-13                 -5.2532e-05          
  0.2                   6.8704e-05            2.8748e-09            1.6e-13               -6.869e-05           
  0.25                  8.4104e-05            2.66e-09              -5e-13                -8.4088e-05          
  0.3                   9.8684e-05            2.4702e-09            3.2e-13               -9.867e-05           
  0.35                  0.00011238            2.3032e-09            -2e-13                -0.000112362         
  0.4                   0.00012528            2.1568e-09            3.4e-13               -0.0001249           
  0.45                  0.000137              2.0302e-09            1e-13                 -0.00013662          
  0.5                   0.0001477             1.9216e-09            -2e-14                -0.00014732          
  0.55                  0.00015728            1.8286e-09            1.22e-12              -0.0001569           
  0.6                   0.00016564            1.7518e-09            -2e-14                -0.00016528          
  0.65                  0.00017278            1.6884e-09            7.2e-13               -0.0001724           
  0.7                   0.00017862            1.6386e-09            1.08e-12              -0.00017822          
  0.75                  0.00018318            1.6006e-09            -4e-14                -0.00018284          
  0.8                   0.00018668            1.572e-09             -2.4e-13              -0.00018632          
  0.85                  0.00018918            1.5522e-09            7.2e-13               -0.00018882          
  0.9                   0.00019104            1.5378e-09            7e-13                 -0.00019066          
  0.95                  0.00019238            1.527e-09             -4e-13                -0.00019202          
  1                     0.00019348            1.5186e-09            1.26e-12              -0.0001931           
  1.05                  0.00019436            1.5118e-09            -8e-14                -0.00019398          
  1.1                   0.00019512            1.506e-09             -6e-13                -0.00019476          
  1.15                  0.00019582            1.501e-09             3.4e-13               -0.00019548          
  1.2                   0.00019652            1.4956e-09            0                     -0.00019616          
  1.25                  0.00019714            1.491e-09             -5e-13                -0.00019676          
  1.3                   0.00019774            1.4864e-09            8.8e-13               -0.00019736          
  1.35                  0.0001983             1.4822e-09            -6e-13                -0.00019794          
END_DB

