! VERSION = 6.00
BEGIN_HEADER
 ICCAP_INPUTS
  vd         V  D GROUND SMU1 0.1 LIN        1    0          1.35       28   0.05      
  vg         V  G GROUND SMU2 0.001 LIN        2    0.59       1.35       5    0.19      
  vb         V  B GROUND SMU4 0.1 CON        -1.2
  vs         V  S GROUND SMU3 0.1 CON        0
 ICCAP_OUTPUTS
  id         I  D GROUND SMU1 B
  ig         I  G GROUND SMU2 B
  ib         I  B GROUND SMU4 B
  is         I  S GROUND SMU3 B
 ICCAP_VALUES
  MASTER_SETUP_TYPE "~dc_idvd~"
  LINVT_VALUE "|idvg|100.0n|100.0m|1.000m|5|1.350|"
  LISTVT_VALUE ""
  TYPE "1"
  TEMP " 70.0000 "
  IS_TNOM " 0.00000 "
  MAIN.W "150.0n"
  MAIN.L "130.0n"
  MAIN.AD "100.5f"
  MAIN.AS "100.5f"
  MAIN.PD "1.340u"
  MAIN.PS "1.340u"
  MAIN.NF "1.000"
  MAIN.M "1"
  MAIN.NRD "0.000"
  MAIN.NRS "0.000"
  MAIN.LDRIFT1 "1E-06"
  MAIN.LDRIFT2 "1E-06"
  MAIN.SA "0.000"
  MAIN.SB "0.000"
  MAIN.SD "0.000"
  MAIN.SCA "0.000"
  MAIN.SCB "0.000"
  MAIN.SCC "0.000"
  MAIN.SC "0.000"
  MODULE "S546"
  PIN_D "16"
  PIN_G "5"
  PIN_S "6"
  PIN_B "15"
  PIN_E ""
  PIN_6 ""
  XY_ID ""
  FUNC "Small"
  STI "SA ref"
  WPE "WPE ref"
  COMMENT ""
  DIS_MEAS ""
  TypeTCI "10"
END_HEADER

BEGIN_DB
 ICCAP_VAR vg         0.59           
 ICCAP_VAR vb         -1.2           
 ICCAP_VAR vs         0              

 #vd                    id                    ig                    ib                    is                   
  0                     8.7856e-10            1.46e-12              -2.416e-11            -6.527e-10           
  0.05                  3.8064e-07            1.24e-12              -2.302e-11            -3.8076e-07          
  0.1                   5.4318e-07            1.26e-12              -2.108e-11            -5.4308e-07          
  0.15                  6.2142e-07            1.26e-12              -2.11e-11             -6.2174e-07          
  0.2                   6.728e-07             1.12e-12              -1.958e-11            -6.7318e-07          
  0.25                  7.159e-07             1.06e-12              -1.826e-11            -7.1644e-07          
  0.3                   7.5718e-07            1.1e-12               -1.802e-11            -7.5712e-07          
  0.35                  7.975e-07             1.14e-12              -1.772e-11            -7.9718e-07          
  0.4                   8.3772e-07            1.12e-12              -1.658e-11            -8.375e-07           
  0.45                  8.7804e-07            1.08e-12              -1.534e-11            -8.776e-07           
  0.5                   9.1866e-07            1.12e-12              -1.532e-11            -9.2052e-07          
  0.55                  9.6324e-07            1.2e-12               -1.634e-11            -9.6306e-07          
  0.6                   1.00742e-06           1.1e-12               -1.402e-11            -1.00786e-06         
  0.65                  1.05298e-06           1.1e-12               -1.346e-11            -1.0532e-06          
  0.7                   1.10052e-06           1.12e-12              -1.382e-11            -1.1e-06             
  0.75                  1.1508e-06            9.8e-13               -1.186e-11            -1.1466e-06          
  0.8                   1.2012e-06            1.1e-12               -1.292e-11            -1.1982e-06          
  0.85                  1.2544e-06            1e-12                 -1.222e-11            -1.2508e-06          
  0.9                   1.3062e-06            1.02e-12              -1.136e-11            -1.3058e-06          
  0.95                  1.367e-06             1.04e-12              -1.212e-11            -1.3632e-06          
  1                     1.4262e-06            1.04e-12              -1.174e-11            -1.423e-06           
  1.05                  1.4868e-06            1.08e-12              -1.302e-11            -1.485e-06           
  1.1                   1.5522e-06            1.04e-12              -1.63e-11             -1.5492e-06          
  1.15                  1.6202e-06            9.4e-13               -1.932e-11            -1.6166e-06          
  1.2                   1.6904e-06            1.1e-12               -3.128e-11            -1.6864e-06          
  1.25                  1.763e-06             1.04e-12              -4.982e-11            -1.7594e-06          
  1.3                   1.8392e-06            9.2e-13               -7.91e-11             -1.836e-06           
  1.35                  1.9186e-06            8.6e-13               -1.2958e-10           -1.916e-06           
END_DB

BEGIN_DB
 ICCAP_VAR vg         0.78           
 ICCAP_VAR vb         -1.2           
 ICCAP_VAR vs         0              

 #vd                    id                    ig                    ib                    is                   
  0                     2.9078e-09            4.66e-12              -7.12e-12             -3.0846e-09          
  0.05                  2.8784e-06            4.38e-12              -6.84e-12             -2.873e-06           
  0.1                   4.8738e-06            4.1e-12               -6.74e-12             -4.867e-06           
  0.15                  6.1874e-06            3.94e-12              -7.28e-12             -6.1798e-06          
  0.2                   7.0348e-06            3.96e-12              -6.32e-12             -7.0292e-06          
  0.25                  7.6092e-06            3.8e-12               -6.5e-12              -7.6062e-06          
  0.3                   8.0274e-06            3.78e-12              -6.96e-12             -8.0268e-06          
  0.35                  8.368e-06             3.7e-12               -6.56e-12             -8.367e-06           
  0.4                   8.6698e-06            3.6e-12               -6.62e-12             -8.6578e-06          
  0.45                  8.9394e-06            3.6e-12               -7.4e-12              -8.9424e-06          
  0.5                   9.1968e-06            3.7e-12               -5.68e-12             -9.2064e-06          
  0.55                  9.4626e-06            3.74e-12              -6.7e-12              -9.4606e-06          
  0.6                   9.707e-06             3.66e-12              -6.52e-12             -9.7166e-06          
  0.65                  9.979e-06             3.58e-12              -5.76e-12             -9.975e-06           
  0.7                   1.0229e-05            3.56e-12              -5.92e-12             -1.02312e-05         
  0.75                  1.0489e-05            3.6e-12               -6.9e-12              -1.04892e-05         
  0.8                   1.07542e-05           3.62e-12              -5.32e-12             -1.07456e-05         
  0.85                  1.1015e-05            3.56e-12              -6.82e-12             -1.10144e-05         
  0.9                   1.127e-05             3.6e-12               -6.34e-12             -1.1259e-05          
  0.95                  1.1556e-05            3.6e-12               -7.22e-12             -1.15504e-05         
  1                     1.1826e-05            3.64e-12              -7.14e-12             -1.1818e-05          
  1.05                  1.2108e-05            3.52e-12              -1.09e-11             -1.2104e-05          
  1.1                   1.2396e-05            3.54e-12              -1.606e-11            -1.2386e-05          
  1.15                  1.2684e-05            3.5e-12               -2.852e-11            -1.2678e-05          
  1.2                   1.2966e-05            3.52e-12              -5.392e-11            -1.2966e-05          
  1.25                  1.327e-05             3.62e-12              -1.0152e-10           -1.3262e-05          
  1.3                   1.3574e-05            3.52e-12              -1.8734e-10           -1.3572e-05          
  1.35                  1.388e-05             3.58e-12              -3.302e-10            -1.387e-05           
END_DB

BEGIN_DB
 ICCAP_VAR vg         0.97           
 ICCAP_VAR vb         -1.2           
 ICCAP_VAR vs         0              

 #vd                    id                    ig                    ib                    is                   
  0                     9.22e-09              1.136e-11             -3.08e-12             -2.7812e-09          
  0.05                  6.5014e-06            1.086e-11             -3.92e-12             -6.4954e-06          
  0.1                   1.1884e-05            1.036e-11             -5.46e-12             -1.1876e-05          
  0.15                  1.6132e-05            9.96e-12              -3.4e-12              -1.6126e-05          
  0.2                   1.9356e-05            9.58e-12              -5.46e-12             -1.9344e-05          
  0.25                  2.1736e-05            9.28e-12              -5.54e-12             -2.1732e-05          
  0.3                   2.3492e-05            8.98e-12              -3.56e-12             -2.348e-05           
  0.35                  2.4786e-05            9.06e-12              -5.06e-12             -2.478e-05           
  0.4                   2.579e-05             8.86e-12              -4.68e-12             -2.5796e-05          
  0.45                  2.6614e-05            8.96e-12              -3.64e-12             -2.6612e-05          
  0.5                   2.7328e-05            8.8e-12               -4.96e-12             -2.7316e-05          
  0.55                  2.796e-05             8.78e-12              -4.52e-12             -2.7942e-05          
  0.6                   2.8536e-05            8.72e-12              -4.1e-12              -2.8528e-05          
  0.65                  2.908e-05             8.74e-12              -5.86e-12             -2.908e-05           
  0.7                   2.961e-05             8.66e-12              -3.86e-12             -2.962e-05           
  0.75                  3.0128e-05            8.64e-12              -3.16e-12             -3.0134e-05          
  0.8                   3.0646e-05            8.62e-12              -5.28e-12             -3.064e-05           
  0.85                  3.1156e-05            8.52e-12              -4.62e-12             -3.1158e-05          
  0.9                   3.1668e-05            8.48e-12              -4.58e-12             -3.1646e-05          
  0.95                  3.2172e-05            8.66e-12              -6.34e-12             -3.2174e-05          
  1                     3.2652e-05            8.54e-12              -6.74e-12             -3.265e-05           
  1.05                  3.3152e-05            8.5e-12               -1.146e-11            -3.3158e-05          
  1.1                   3.3644e-05            8.44e-12              -2.114e-11            -3.3642e-05          
  1.15                  3.4162e-05            8.44e-12              -3.796e-11            -3.4156e-05          
  1.2                   3.4652e-05            8.36e-12              -7.386e-11            -3.4644e-05          
  1.25                  3.5146e-05            8.46e-12              -1.4078e-10           -3.5146e-05          
  1.3                   3.5674e-05            8.48e-12              -2.5796e-10           -3.565e-05           
  1.35                  3.6166e-05            8.46e-12              -4.6306e-10           -3.617e-05           
END_DB

BEGIN_DB
 ICCAP_VAR vg         1.16           
 ICCAP_VAR vb         -1.2           
 ICCAP_VAR vs         0              

 #vd                    id                    ig                    ib                    is                   
  0                     1.4078e-08            2.286e-11             -2.24e-12             -1.3184e-08          
  0.05                  9.8766e-06            2.188e-11             -2.84e-12             -9.8786e-06          
  0.1                   1.8638e-05            2.102e-11             -4.08e-12             -1.8626e-05          
  0.15                  2.6082e-05            2.008e-11             -2.9e-12              -2.608e-05           
  0.2                   3.2252e-05            1.936e-11             -3.16e-12             -3.2228e-05          
  0.25                  3.7168e-05            1.89e-11              -3.52e-12             -3.717e-05           
  0.3                   4.1044e-05            1.834e-11             -3.04e-12             -4.1038e-05          
  0.35                  4.4056e-05            1.79e-11              -4.1e-12              -4.4036e-05          
  0.4                   4.638e-05             1.76e-11              -3.82e-12             -4.637e-05           
  0.45                  4.8224e-05            1.728e-11             -2.96e-12             -4.8208e-05          
  0.5                   4.9704e-05            1.722e-11             -4.44e-12             -4.9696e-05          
  0.55                  5.0944e-05            1.714e-11             -4.06e-12             -5.0914e-05          
  0.6                   5.2004e-05            1.688e-11             -3.3e-12              -5.1964e-05          
  0.65                  5.293e-05             1.688e-11             -4.46e-12             -5.2912e-05          
  0.7                   5.3814e-05            1.674e-11             -3.12e-12             -5.3802e-05          
  0.75                  5.4626e-05            1.674e-11             -3.06e-12             -5.462e-05           
  0.8                   5.539e-05             1.668e-11             -3.68e-12             -5.539e-05           
  0.85                  5.6126e-05            1.672e-11             -3.3e-12              -5.6144e-05          
  0.9                   5.688e-05             1.658e-11             -4.68e-12             -5.6872e-05          
  0.95                  5.7582e-05            1.65e-11              -6.08e-12             -5.7554e-05          
  1                     5.8278e-05            1.652e-11             -7.78e-12             -5.8254e-05          
  1.05                  5.897e-05             1.638e-11             -1.404e-11            -5.8954e-05          
  1.1                   5.9638e-05            1.644e-11             -2.406e-11            -5.963e-05           
  1.15                  6.0332e-05            1.634e-11             -4.57e-11             -6.032e-05           
  1.2                   6.0998e-05            1.64e-11              -9.01e-11             -6.0978e-05          
  1.25                  6.1646e-05            1.626e-11             -1.6758e-10           -6.1654e-05          
  1.3                   6.2328e-05            1.62e-11              -3.0422e-10           -6.2318e-05          
  1.35                  6.2984e-05            1.62e-11              -5.4104e-10           -6.3006e-05          
END_DB

BEGIN_DB
 ICCAP_VAR vg         1.35           
 ICCAP_VAR vb         -1.2           
 ICCAP_VAR vs         0              

 #vd                    id                    ig                    ib                    is                   
  0                     1.7758e-08            4.026e-11             -1.6e-12              -1.699e-08           
  0.05                  1.2714e-05            3.852e-11             -2.76e-12             -1.2704e-05          
  0.1                   2.435e-05             3.694e-11             -2.36e-12             -2.4348e-05          
  0.15                  3.47e-05              3.558e-11             -3.8e-12              -3.4682e-05          
  0.2                   4.3602e-05            3.428e-11             -3.06e-12             -4.3606e-05          
  0.25                  5.111e-05             3.326e-11             -2.28e-12             -5.1118e-05          
  0.3                   5.7364e-05            3.238e-11             -2.62e-12             -5.7356e-05          
  0.35                  6.2432e-05            3.148e-11             -2.82e-12             -6.2408e-05          
  0.4                   6.6544e-05            3.068e-11             -2.22e-12             -6.652e-05           
  0.45                  6.9828e-05            3.028e-11             -3.98e-12             -6.9762e-05          
  0.5                   7.2456e-05            2.98e-11              -3.02e-12             -7.2488e-05          
  0.55                  7.4604e-05            2.95e-11              -2.64e-12             -7.4602e-05          
  0.6                   7.6458e-05            2.924e-11             -3.92e-12             -7.6426e-05          
  0.65                  7.7942e-05            2.902e-11             -3.12e-12             -7.7944e-05          
  0.7                   7.9252e-05            2.876e-11             -2.58e-12             -7.926e-05           
  0.75                  8.05e-05              2.862e-11             -3.02e-12             -8.0516e-05          
  0.8                   8.1644e-05            2.862e-11             -2.92e-12             -8.1632e-05          
  0.85                  8.2716e-05            2.852e-11             -3.08e-12             -8.2646e-05          
  0.9                   8.3606e-05            2.824e-11             -4.2e-12              -8.3636e-05          
  0.95                  8.4582e-05            2.806e-11             -4.82e-12             -8.4552e-05          
  1                     8.546e-05             2.8e-11               -9.4e-12              -8.546e-05           
  1.05                  8.6336e-05            2.806e-11             -1.552e-11            -8.6322e-05          
  1.1                   8.7228e-05            2.804e-11             -2.782e-11            -8.7176e-05          
  1.15                  8.8014e-05            2.782e-11             -5.38e-11             -8.7994e-05          
  1.2                   8.8832e-05            2.774e-11             -1.008e-10            -8.8822e-05          
  1.25                  8.967e-05             2.772e-11             -1.8468e-10           -8.9618e-05          
  1.3                   9.046e-05             2.77e-11              -3.3294e-10           -9.045e-05           
  1.35                  9.1286e-05            2.756e-11             -5.7982e-10           -9.1248e-05          
END_DB

