! VERSION = 6.00
BEGIN_HEADER
 ICCAP_INPUTS
  vg         V  G GROUND SMU2 0.001 LIN        1    -0.5       1.35       38   0.05      
  vb         V  B GROUND SMU4 0.1 LIN        2    0          -1.2       5    -0.3      
  vd         V  D GROUND SMU1 0.1 LIST       3 3 0.05 0.6 1.2
  vs         V  S GROUND SMU3 0.1 CON        0
 ICCAP_OUTPUTS
  id         I  D GROUND SMU1 B
  ig         I  G GROUND SMU2 B
  ib         I  B GROUND SMU4 B
  is         I  S GROUND SMU3 B
 ICCAP_VALUES
  MASTER_SETUP_TYPE "~dc_idvg~"
  LINVT_VALUE ""
  LISTVT_VALUE ""
  TYPE "1"
  TEMP " 70.0000 "
  IS_TNOM " 0.00000 "
  MAIN.W "150.0n"
  MAIN.L "180.0n"
  MAIN.AD "100.5f"
  MAIN.AS "100.5f"
  MAIN.PD "1.340u"
  MAIN.PS "1.340u"
  MAIN.NF "1.000"
  MAIN.M "1"
  MAIN.NRD "0.000"
  MAIN.NRS "0.000"
  MAIN.LDRIFT1 "1E-06"
  MAIN.LDRIFT2 "1E-06"
  MAIN.SA "0.000"
  MAIN.SB "0.000"
  MAIN.SD "0.000"
  MAIN.SCA "0.000"
  MAIN.SCB "0.000"
  MAIN.SCC "0.000"
  MAIN.SC "0.000"
  MODULE "S547"
  PIN_D "20"
  PIN_G "1"
  PIN_S "2"
  PIN_B "19"
  PIN_E ""
  PIN_6 ""
  XY_ID ""
  FUNC "LW Scale"
  STI "SA ref"
  WPE "WPE ref"
  COMMENT ""
  DIS_MEAS ""
  TypeTCI "10"
END_HEADER

BEGIN_DB
 ICCAP_VAR vb         0              
 ICCAP_VAR vd         0.05           
 ICCAP_VAR vs         0              

 #vg                    id                    ig                    ib                    is                   
  -0.5                  -1e-13                -1.649e-09            1.6504e-09            1.6e-13              
  -0.45                 -2e-13                -3.071e-10            3.1058e-10            4e-14                
  -0.4                  -1e-13                -5.756e-11            6.188e-11             -4e-14               
  -0.35                 -1.4e-13              -1.076e-11            1.6e-11               6e-14                
  -0.3                  -1.2e-13              -1.96e-12             7.02e-12              -1.4e-13             
  -0.25                 2e-14                 -2.2e-13              4.22e-12              8e-14                
  -0.2                  0                     1.6e-13               3.72e-12              -1.6e-13             
  -0.15                 3.2e-13               3.6e-13               3.6e-12               -2.6e-13             
  -0.1                  1.22e-12              3.4e-13               3.84e-12              -1.3e-12             
  -0.05                 4.92e-12              3.8e-13               3.7e-12               -4.82e-12            
  0                     1.854e-11             2.8e-13               3.8e-12               -1.848e-11           
  0.05                  7.166e-11             3.8e-13               3.3e-12               -7.158e-11           
  0.1                   2.7696e-10            4.8e-13               2.58e-12              -2.7684e-10          
  0.15                  1.07372e-09           4.8e-13               3.12e-12              -1.07372e-09         
  0.2                   4.1108e-09            4e-13                 3.72e-12              -4.1092e-09          
  0.25                  1.5208e-08            3e-13                 3.46e-12              -1.5198e-08          
  0.3                   5.1434e-08            4.6e-13               2.32e-12              -5.1466e-08          
  0.35                  1.4726e-07            5.6e-13               3.36e-12              -1.4722e-07          
  0.4                   3.3812e-07            5.8e-13               4.28e-12              -3.3808e-07          
  0.45                  6.3804e-07            7.4e-13               2.46e-12              -6.3806e-07          
  0.5                   1.03038e-06           9.4e-13               2.16e-12              -1.03784e-06         
  0.55                  1.5036e-06            7.8e-13               3e-12                 -1.4998e-06          
  0.6                   2.0422e-06            1.22e-12              4.04e-12              -2.039e-06           
  0.65                  2.632e-06             1.42e-12              1.86e-12              -2.629e-06           
  0.7                   3.2528e-06            1.98e-12              2.5e-12               -3.2494e-06          
  0.75                  3.8906e-06            2.36e-12              2.56e-12              -3.8874e-06          
  0.8                   4.5324e-06            3.02e-12              2.86e-12              -4.5292e-06          
  0.85                  5.1704e-06            3.92e-12              2.48e-12              -5.168e-06           
  0.9                   5.795e-06             4.88e-12              2.08e-12              -5.792e-06           
  0.95                  6.405e-06             6.02e-12              2.24e-12              -6.4e-06             
  1                     6.9924e-06            7.58e-12              3e-12                 -6.99e-06            
  1.05                  7.5582e-06            9.3e-12               2.44e-12              -7.5544e-06          
  1.1                   8.0968e-06            1.142e-11             1.44e-12              -8.0938e-06          
  1.15                  8.6102e-06            1.416e-11             1.92e-12              -8.6082e-06          
  1.2                   9.0982e-06            1.712e-11             2.7e-12               -9.0966e-06          
  1.25                  9.5628e-06            2.066e-11             2.62e-12              -9.5592e-06          
  1.3                   9.9996e-06            2.47e-11              2.18e-12              -9.9858e-06          
  1.35                  1.0412e-05            2.936e-11             2.3e-12               -1.0405e-05          
END_DB

BEGIN_DB
 ICCAP_VAR vb         -0.3           
 ICCAP_VAR vd         0.05           
 ICCAP_VAR vs         0              

 #vg                    id                    ig                    ib                    is                   
  -0.5                  -4e-14                -5.8e-13              -5.08e-12             1.2e-13              
  -0.45                 -1.2e-13              -1e-13                -5.04e-12             6e-14                
  -0.4                  8e-14                 -8e-14                -4.04e-12             1.4e-13              
  -0.35                 -2e-14                0                     -4.1e-12              8e-14                
  -0.3                  0                     6e-14                 -2.66e-12             8e-14                
  -0.25                 4e-14                 1.6e-13               -1.82e-12             0                    
  -0.2                  2e-14                 2e-13                 -2.66e-12             6e-14                
  -0.15                 1.4e-13               4.2e-13               -3.02e-12             2e-14                
  -0.1                  2.6e-13               3e-13                 -2.02e-12             -2e-13               
  -0.05                 9.8e-13               3.2e-13               -1.86e-12             -9.4e-13             
  0                     3.96e-12              3.6e-13               -9e-13                -3.88e-12            
  0.05                  1.594e-11             4.8e-13               -1.92e-12             -1.578e-11           
  0.1                   6.41e-11              3.6e-13               -2.66e-12             -6.39e-11            
  0.15                  2.5916e-10            4e-13                 -1.4e-12              -2.5984e-10          
  0.2                   1.04758e-09           5.6e-13               -2.34e-12             -1.04742e-09         
  0.25                  4.1656e-09            3.8e-13               -9e-13                -4.1648e-09          
  0.3                   1.5858e-08            3.4e-13               -1.1e-12              -1.5842e-08          
  0.35                  5.4712e-08            5.6e-13               -2.2e-12              -5.4702e-08          
  0.4                   1.568e-07             5.6e-13               -1.1e-12              -1.5678e-07          
  0.45                  3.5826e-07            6.8e-13               -6.6e-13              -3.5822e-07          
  0.5                   6.6984e-07            7.8e-13               -3e-13                -6.6984e-07          
  0.55                  1.07724e-06           9.6e-13               -2.22e-12             -1.07742e-06         
  0.6                   1.5624e-06            1.08e-12              -7.4e-13              -1.5586e-06          
  0.65                  2.1086e-06            1.56e-12              -4e-14                -2.1058e-06          
  0.7                   2.7006e-06            1.8e-12               -1.36e-12             -2.6842e-06          
  0.75                  3.3006e-06            2.38e-12              -1.14e-12             -3.2974e-06          
  0.8                   3.9308e-06            3.06e-12              -9.6e-13              -3.9276e-06          
  0.85                  4.5632e-06            3.78e-12              8e-14                 -4.56e-06            
  0.9                   5.1878e-06            4.66e-12              -5e-13                -5.185e-06           
  0.95                  5.7978e-06            5.94e-12              -1.58e-12             -5.7946e-06          
  1                     6.3894e-06            7.4e-12               -8.4e-13              -6.3868e-06          
  1.05                  6.9606e-06            9.24e-12              0                     -6.9568e-06          
  1.1                   7.5058e-06            1.142e-11             -1e-13                -7.5028e-06          
  1.15                  8.028e-06             1.38e-11              -1.14e-12             -8.0242e-06          
  1.2                   8.5242e-06            1.684e-11             -8.8e-13              -8.5206e-06          
  1.25                  8.9942e-06            2.044e-11             -8.6e-13              -8.9912e-06          
  1.3                   9.4394e-06            2.452e-11             4e-13                 -9.4316e-06          
  1.35                  9.8532e-06            2.916e-11             -9.6e-13              -9.8552e-06          
END_DB

BEGIN_DB
 ICCAP_VAR vb         -0.6           
 ICCAP_VAR vd         0.05           
 ICCAP_VAR vs         0              

 #vg                    id                    ig                    ib                    is                   
  -0.5                  -2e-14                -5.4e-13              -8.14e-12             1.8e-13              
  -0.45                 -6e-14                -1e-13                -6.88e-12             0                    
  -0.4                  -6e-14                -2e-14                -6.06e-12             6e-14                
  -0.35                 6e-14                 0                     -5.6e-12              8e-14                
  -0.3                  -4e-14                6e-14                 -5.36e-12             4e-14                
  -0.25                 0                     1.8e-13               -4.54e-12             1e-13                
  -0.2                  2e-14                 2.6e-13               -4.98e-12             -8e-14               
  -0.15                 4e-14                 3e-13                 -4.78e-12             8e-14                
  -0.1                  1.2e-13               3e-13                 -3.96e-12             2e-14                
  -0.05                 2.8e-13               4e-13                 -4.88e-12             -8e-14               
  0                     1.1e-12               4.8e-13               -4.48e-12             -1e-12               
  0.05                  4.56e-12              3.6e-13               -4.08e-12             -4.6e-12             
  0.1                   1.932e-11             4.4e-13               -3.86e-12             -1.922e-11           
  0.15                  8.076e-11             4.8e-13               -2.34e-12             -8.068e-11           
  0.2                   3.3562e-10            4.2e-13               -3.72e-12             -3.3542e-10          
  0.25                  1.387e-09             3e-13                 -4.12e-12             -1.3864e-09          
  0.3                   5.6e-09               5e-13                 -3.38e-12             -5.6e-09             
  0.35                  2.1422e-08            4.2e-13               -2.92e-12             -2.1406e-08          
  0.4                   7.22e-08              6.8e-13               -1.72e-12             -7.2192e-08          
  0.45                  1.9778e-07            6.8e-13               -3.46e-12             -1.9778e-07          
  0.5                   4.2982e-07            8.8e-13               -2.8e-12              -4.298e-07           
  0.55                  7.6994e-07            9e-13                 -2.4e-12              -7.6816e-07          
  0.6                   1.2016e-06            1e-12                 -2.94e-12             -1.198e-06           
  0.65                  1.6878e-06            1.34e-12              -2.28e-12             -1.6846e-06          
  0.7                   2.2444e-06            1.82e-12              -2.08e-12             -2.2412e-06          
  0.75                  2.8408e-06            2.32e-12              -1.66e-12             -2.8374e-06          
  0.8                   3.4574e-06            2.78e-12              -3.06e-12             -3.454e-06           
  0.85                  4.083e-06             3.62e-12              -2.8e-12              -4.0798e-06          
  0.9                   4.7054e-06            4.66e-12              -2.74e-12             -4.702e-06           
  0.95                  5.3168e-06            5.86e-12              -1.76e-12             -5.314e-06           
  1                     5.9122e-06            7.3e-12               -2.56e-12             -5.9084e-06          
  1.05                  6.4856e-06            9.06e-12              -2.18e-12             -6.482e-06           
  1.1                   7.036e-06             1.114e-11             -3.26e-12             -7.0334e-06          
  1.15                  7.5636e-06            1.376e-11             -1.68e-12             -7.5604e-06          
  1.2                   8.067e-06             1.674e-11             -1.96e-12             -8.0638e-06          
  1.25                  8.543e-06             2.012e-11             -2.06e-12             -8.5376e-06          
  1.3                   8.9868e-06            2.426e-11             -2.98e-12             -8.9874e-06          
  1.35                  9.423e-06             2.89e-11              -1.88e-12             -9.4188e-06          
END_DB

BEGIN_DB
 ICCAP_VAR vb         -0.9           
 ICCAP_VAR vd         0.05           
 ICCAP_VAR vs         0              

 #vg                    id                    ig                    ib                    is                   
  -0.5                  0                     -6e-13                -9.46e-12             1.8e-13              
  -0.45                 2e-14                 -2.4e-13              -9.78e-12             1.4e-13              
  -0.4                  -6e-14                2e-14                 -6.64e-12             4e-14                
  -0.35                 -4e-14                4e-14                 -6.74e-12             1.2e-13              
  -0.3                  4e-14                 1.4e-13               -7.62e-12             1.2e-13              
  -0.25                 -6e-14                2.2e-13               -6.72e-12             0                    
  -0.2                  4e-14                 2.8e-13               -6.52e-12             8e-14                
  -0.15                 -4e-14                2.8e-13               -5.26e-12             -4e-14               
  -0.1                  1e-13                 2.6e-13               -6.02e-12             6e-14                
  -0.05                 1e-13                 4e-13                 -6.62e-12             -2e-14               
  0                     3e-13                 3.8e-13               -6e-12                -2e-13               
  0.05                  1.72e-12              3.4e-13               -5.34e-12             -1.62e-12            
  0.1                   7.26e-12              4.2e-13               -5.12e-12             -7.1e-12             
  0.15                  3.088e-11             4.6e-13               -4.9e-12              -3.064e-11           
  0.2                   1.312e-10             5.2e-13               -4.68e-12             -1.3104e-10          
  0.25                  5.5592e-10            5.4e-13               -5.52e-12             -5.5558e-10          
  0.3                   2.3196e-09            3.2e-13               -5.64e-12             -2.3194e-09          
  0.35                  9.3802e-09            4.8e-13               -4.02e-12             -9.3812e-09          
  0.4                   3.4956e-08            5.8e-13               -3.6e-12              -3.495e-08           
  0.45                  1.10656e-07           5.8e-13               -3.84e-12             -1.10632e-07         
  0.5                   2.7764e-07            7.8e-13               -4.84e-12             -2.7764e-07          
  0.55                  5.5598e-07            8.8e-13               -3.36e-12             -5.56e-07            
  0.6                   9.367e-07             1.12e-12              -4.06e-12             -9.3666e-07          
  0.65                  1.3996e-06            1.24e-12              -4.76e-12             -1.396e-06           
  0.7                   1.926e-06             1.78e-12              -3.76e-12             -1.9226e-06          
  0.75                  2.5014e-06            2.26e-12              -2.44e-12             -2.498e-06           
  0.8                   3.0988e-06            2.8e-12               -3.18e-12             -3.082e-06           
  0.85                  3.703e-06             3.64e-12              -4.3e-12              -3.6998e-06          
  0.9                   4.3226e-06            4.62e-12              -3.76e-12             -4.3192e-06          
  0.95                  4.9354e-06            5.72e-12              -3.04e-12             -4.9318e-06          
  1                     5.5328e-06            7.24e-12              -3.06e-12             -5.5296e-06          
  1.05                  6.1112e-06            8.98e-12              -3.98e-12             -6.1082e-06          
  1.1                   6.666e-06             1.108e-11             -4.36e-12             -6.6626e-06          
  1.15                  7.1892e-06            1.356e-11             -2.16e-12             -7.1872e-06          
  1.2                   7.7048e-06            1.656e-11             -3.12e-12             -7.7012e-06          
  1.25                  8.184e-06             2.01e-11              -2.88e-12             -8.1782e-06          
  1.3                   8.6394e-06            2.408e-11             -3.82e-12             -8.6376e-06          
  1.35                  9.071e-06             2.878e-11             -3.38e-12             -9.072e-06           
END_DB

BEGIN_DB
 ICCAP_VAR vb         -1.2           
 ICCAP_VAR vd         0.05           
 ICCAP_VAR vs         0              

 #vg                    id                    ig                    ib                    is                   
  -0.5                  -6e-14                -5.2e-13              -1.04e-11             1.8e-13              
  -0.45                 -2e-14                -1.4e-13              -9.72e-12             1e-13                
  -0.4                  0                     -6e-14                -9.26e-12             1.2e-13              
  -0.35                 -1.4e-13              1e-13                 -8.64e-12             8e-14                
  -0.3                  6e-14                 1e-13                 -7.2e-12              2e-14                
