! VERSION = 6.00
BEGIN_HEADER
 ICCAP_INPUTS
  vd         V  D GROUND SMU1 0.1 LIN        1    0          1.35       28   0.05      
  vg         V  G GROUND SMU2 0.001 LIST       2 3 -0.014 0.186 0.386
  vb         V  B GROUND SMU4 0.1 CON        0
  vs         V  S GROUND SMU3 0.1 CON        0
 ICCAP_OUTPUTS
  id         I  D GROUND SMU1 B
  ig         I  G GROUND SMU2 B
  ib         I  B GROUND SMU4 B
  is         I  S GROUND SMU3 B
 ICCAP_VALUES
  MASTER_SETUP_TYPE "~dc_idvd~"
  LINVT_VALUE ""
  LISTVT_VALUE "|idvg|100.0n|-200.0m|1.000m|3|200.0m|200.0m|"
  TYPE "1"
  TEMP " 27.0000 "
  IS_TNOM " 1.00000 "
  MAIN.W "10.00u"
  MAIN.L "2.000u"
  MAIN.AD "3.400p"
  MAIN.AS "3.400p"
  MAIN.PD "20.68u"
  MAIN.PS "20.68u"
  MAIN.NF "1.000"
  MAIN.M "1"
  MAIN.NRD "0.000"
  MAIN.NRS "0.000"
  MAIN.LDRIFT1 "1E-06"
  MAIN.LDRIFT2 "1E-06"
  MAIN.SA "0.000"
  MAIN.SB "0.000"
  MAIN.SD "0.000"
  MAIN.SCA "0.000"
  MAIN.SCB "0.000"
  MAIN.SCC "0.000"
  MAIN.SC "0.000"
  MODULE "S541"
  PIN_D "16"
  PIN_G "5"
  PIN_S "6"
  PIN_B "15"
  PIN_E ""
  PIN_6 ""
  XY_ID ""
  FUNC "L Scale"
  STI "SA ref"
  WPE "WPE ref"
  COMMENT ""
  DIS_MEAS ""
  TypeTCI "10"
END_HEADER

BEGIN_DB
 ICCAP_VAR vg         -0.014         
 ICCAP_VAR vb         0              
 ICCAP_VAR vs         0              

 #vd                    id                    ig                    ib                    is                   
  0                     3.14e-12              -2.4e-13              9e-13                 -1.74e-12            
  0.05                  7.9114e-10            -2e-13                6.2e-13               -7.907e-10           
  0.1                   9.4466e-10            -2e-13                6e-14                 -9.4424e-10          
  0.15                  9.978e-10             -2.4e-13              6.4e-13               -9.9676e-10          
  0.2                   1.0336e-09            -1.8e-13              1.12e-12              -1.03206e-09         
  0.25                  1.0646e-09            -4.4e-13              8.4e-13               -1.06344e-09         
  0.3                   1.0938e-09            -4.6e-13              0                     -1.09166e-09         
  0.35                  1.1204e-09            -5.8e-13              -2e-13                -1.12986e-09         
  0.4                   1.157e-09             -8.6e-13              1.1e-12               -1.1546e-09          
  0.45                  1.182e-09             -1.14e-12             5e-13                 -1.1784e-09          
  0.5                   1.2046e-09            -1.38e-12             2.2e-13               -1.2008e-09          
  0.55                  1.2258e-09            -1.8e-12              -3e-13                -1.2222e-09          
  0.6                   1.2458e-09            -2.2e-12              1.42e-12              -1.2414e-09          
  0.65                  1.265e-09             -2.76e-12             -1.64e-12             -1.2602e-09          
  0.7                   1.283e-09             -3.46e-12             5e-13                 -1.2776e-09          
  0.75                  1.3004e-09            -4.24e-12             -1.4e-13              -1.2942e-09          
  0.8                   1.317e-09             -5.2e-12              3.8e-13               -1.3094e-09          
  0.85                  1.3326e-09            -6.22e-12             9.2e-13               -1.3244e-09          
  0.9                   1.3476e-09            -7.52e-12             6.4e-13               -1.3378e-09          
  0.95                  1.3618e-09            -8.88e-12             6.8e-13               -1.3504e-09          
  1                     1.3756e-09            -1.046e-11            5e-13                 -1.3628e-09          
  1.05                  1.389e-09             -1.25e-11             -7e-13                -1.3742e-09          
  1.1                   1.402e-09             -1.442e-11            6.4e-13               -1.3848e-09          
  1.15                  1.4146e-09            -1.682e-11            1.38e-12              -1.3956e-09          
  1.2                   1.4274e-09            -1.964e-11            -2.4e-13              -1.4048e-09          
  1.25                  1.4396e-09            -2.286e-11            -6.2e-13              -1.4142e-09          
  1.3                   1.452e-09             -2.66e-11             -3.2e-13              -1.4224e-09          
  1.35                  1.4638e-09            -3.052e-11            1e-13                 -1.4304e-09          
END_DB

BEGIN_DB
 ICCAP_VAR vg         0.186          
 ICCAP_VAR vb         0              
 ICCAP_VAR vs         0              

 #vd                    id                    ig                    ib                    is                   
  0                     7.2752e-10            5.72e-12              1.58e-12              -7.342e-10           
  0.05                  3.4344e-07            4.14e-12              -1.6e-13              -3.4334e-07          
  0.1                   4.2564e-07            3.68e-12              6.8e-13               -4.2556e-07          
  0.15                  4.5672e-07            3.42e-12              1.64e-12              -4.5666e-07          
  0.2                   4.7768e-07            3.34e-12              -2.4e-13              -4.7762e-07          
  0.25                  4.956e-07             3.12e-12              -2e-13                -4.9542e-07          
  0.3                   5.1168e-07            3e-12                 -1.4e-13              -5.1168e-07          
  0.35                  5.2674e-07            3.06e-12              6.4e-13               -5.2668e-07          
  0.4                   5.4054e-07            2.76e-12              4e-14                 -5.4048e-07          
  0.45                  5.534e-07             2.64e-12              0                     -5.5332e-07          
  0.5                   5.6556e-07            2.26e-12              3.6e-13               -5.6544e-07          
  0.55                  5.767e-07             2.22e-12              7.4e-13               -5.7678e-07          
  0.6                   5.8738e-07            1.94e-12              4e-13                 -5.8734e-07          
  0.65                  5.9746e-07            1.66e-12              -2.6e-13              -5.973e-07           
  0.7                   6.066e-07             1.22e-12              -3.6e-13              -6.0678e-07          
  0.75                  6.1566e-07            6.8e-13               8e-13                 -6.1538e-07          
  0.8                   6.2366e-07            2.2e-13               2e-13                 -6.2352e-07          
  0.85                  6.3126e-07            -4e-13                -1.6e-13              -6.311e-07           
  0.9                   6.386e-07             -9.4e-13              8e-13                 -6.3862e-07          
  0.95                  6.456e-07             -2.04e-12             4e-14                 -6.4562e-07          
  1                     6.5218e-07            -2.96e-12             -1.28e-12             -6.5182e-07          
  1.05                  6.58e-07              -3.96e-12             -2.82e-12             -6.5826e-07          
  1.1                   6.6386e-07            -5.32e-12             -5.4e-12              -6.6366e-07          
  1.15                  6.6916e-07            -6.7e-12              -9.9e-12              -6.6944e-07          
  1.2                   6.7428e-07            -8.32e-12             -1.922e-11            -6.7432e-07          
  1.25                  6.7884e-07            -1.024e-11            -3.36e-11             -6.7882e-07          
  1.3                   6.8344e-07            -1.254e-11            -5.448e-11            -6.8346e-07          
  1.35                  6.8766e-07            -1.48e-11             -8.462e-11            -6.8744e-07          
END_DB

BEGIN_DB
 ICCAP_VAR vg         0.386          
 ICCAP_VAR vb         0              
 ICCAP_VAR vs         0              

 #vd                    id                    ig                    ib                    is                   
  0                     1.9644e-08            7.824e-11             1.36e-12              -1.9052e-08          
  0.05                  1.1816e-05            6.248e-11             1.16e-12              -1.1796e-05          
  0.1                   1.7978e-05            5.446e-11             6e-13                 -1.7968e-05          
  0.15                  2.0612e-05            5.086e-11             -3.2e-13              -2.0594e-05          
  0.2                   2.185e-05             4.928e-11             3e-13                 -2.1832e-05          
  0.25                  2.263e-05             4.818e-11             1.8e-13               -2.2612e-05          
  0.3                   2.326e-05             4.73e-11              -1.04e-12             -2.3242e-05          
  0.35                  2.3826e-05            4.666e-11             1.42e-12              -2.3806e-05          
  0.4                   2.4344e-05            4.606e-11             5.8e-13               -2.4326e-05          
  0.45                  2.4828e-05            4.54e-11              -3.8e-13              -2.4808e-05          
  0.5                   2.5288e-05            4.484e-11             1.1e-12               -2.527e-05           
  0.55                  2.5724e-05            4.428e-11             -1.38e-12             -2.5708e-05          
  0.6                   2.614e-05             4.38e-11              6e-13                 -2.6124e-05          
  0.65                  2.6546e-05            4.316e-11             1.46e-12              -2.6526e-05          
  0.7                   2.693e-05             4.262e-11             6e-14                 -2.6916e-05          
  0.75                  2.7302e-05            4.198e-11             -1.04e-12             -2.7282e-05          
  0.8                   2.766e-05             4.138e-11             6.8e-13               -2.7642e-05          
  0.85                  2.8004e-05            4.064e-11             1.6e-13               -2.799e-05           
  0.9                   2.8344e-05            4.002e-11             -4e-13                -2.8322e-05          
  0.95                  2.8662e-05            3.934e-11             5.4e-13               -2.8646e-05          
  1                     2.8974e-05            3.858e-11             -2.48e-12             -2.8956e-05          
  1.05                  2.928e-05             3.742e-11             -6.44e-12             -2.9262e-05          
  1.1                   2.9574e-05            3.658e-11             -1.484e-11            -2.9556e-05          
  1.15                  2.9858e-05            3.53e-11              -4.044e-11            -2.9842e-05          
  1.2                   3.0132e-05            3.42e-11              -9.202e-11            -3.0114e-05          
  1.25                  3.04e-05              3.274e-11             -1.9588e-10           -3.0384e-05          
  1.3                   3.0662e-05            3.132e-11             -3.906e-10            -3.0644e-05          
  1.35                  3.0916e-05            2.96e-11              -7.2236e-10           -3.0894e-05          
END_DB

