! VERSION = 6.00
BEGIN_HEADER
 ICCAP_INPUTS
  vd         V  D GROUND SMU1 0.1 LIN        1    0          1.35       28   0.05      
  vg         V  G GROUND SMU2 0.001 LIN        2    0.374      1.35       5    0.244     
  vb         V  B GROUND SMU4 0.1 CON        -1.2
  vs         V  S GROUND SMU3 0.1 CON        0
 ICCAP_OUTPUTS
  id         I  D GROUND SMU1 B
  ig         I  G GROUND SMU2 B
  ib         I  B GROUND SMU4 B
  is         I  S GROUND SMU3 B
 ICCAP_VALUES
  MASTER_SETUP_TYPE "~dc_idvd~"
  LINVT_VALUE "|idvg|100.0n|100.0m|1.000m|5|1.350|"
  LISTVT_VALUE ""
  TYPE "1"
  TEMP " 27.0000 "
  IS_TNOM " 1.00000 "
  MAIN.W "180.0n"
  MAIN.L "10.00u"
  MAIN.AD "102.6f"
  MAIN.AS "102.6f"
  MAIN.PD "1.340u"
  MAIN.PS "1.340u"
  MAIN.NF "1.000"
  MAIN.M "1"
  MAIN.NRD "0.000"
  MAIN.NRS "0.000"
  MAIN.LDRIFT1 "1E-06"
  MAIN.LDRIFT2 "1E-06"
  MAIN.SA "0.000"
  MAIN.SB "0.000"
  MAIN.SD "0.000"
  MAIN.SCA "0.000"
  MAIN.SCB "0.000"
  MAIN.SCC "0.000"
  MAIN.SC "0.000"
  MODULE "S546"
  PIN_D "20"
  PIN_G "1"
  PIN_S "2"
  PIN_B "19"
  PIN_E ""
  PIN_6 ""
  XY_ID ""
  FUNC "W Scale"
  STI "SA ref"
  WPE "WPE ref"
  COMMENT ""
  DIS_MEAS ""
  TypeTCI "10"
END_HEADER

BEGIN_DB
 ICCAP_VAR vg         0.374          
 ICCAP_VAR vb         -1.2           
 ICCAP_VAR vs         0              

 #vd                    id                    ig                    ib                    is                   
  0                     2.732e-11             5.74e-12              -1.346e-11            -2.782e-11           
  0.05                  1.0404e-08            4.96e-12              -1.25e-11             -1.0318e-08          
  0.1                   1.3844e-08            4.66e-12              -1.116e-11            -1.383e-08           
  0.15                  1.5472e-08            4.52e-12              -1.106e-11            -1.5322e-08          
  0.2                   1.6718e-08            4.54e-12              -1.102e-11            -1.6626e-08          
  0.25                  1.7882e-08            4.44e-12              -9.86e-12             -1.786e-08           
  0.3                   1.871e-08             4.36e-12              -8.82e-12             -1.8726e-08          
  0.35                  1.9914e-08            4.22e-12              -9e-12                -1.9872e-08          
  0.4                   2.1e-08               4.14e-12              -9.5e-12              -2.0986e-08          
  0.45                  2.1966e-08            4.02e-12              -9.08e-12             -2.1948e-08          
  0.5                   2.2896e-08            3.96e-12              -7.5e-12              -2.2866e-08          
  0.55                  2.3786e-08            3.88e-12              -7.6e-12              -2.3614e-08          
  0.6                   2.4478e-08            3.78e-12              -8.12e-12             -2.4454e-08          
  0.65                  2.5446e-08            3.76e-12              -8.48e-12             -2.5292e-08          
  0.7                   2.615e-08             3.7e-12               -6.84e-12             -2.5982e-08          
  0.75                  2.6748e-08            3.6e-12               -6.22e-12             -2.669e-08           
  0.8                   2.7676e-08            3.48e-12              -6.84e-12             -2.7656e-08          
  0.85                  2.8338e-08            3.54e-12              -7.06e-12             -2.831e-08           
  0.9                   2.8914e-08            3.48e-12              -7.02e-12             -2.888e-08           
  0.95                  2.9508e-08            3.4e-12               -5.5e-12              -2.9548e-08          
  1                     3.0122e-08            3.48e-12              -6.2e-12              -3.0042e-08          
  1.05                  3.064e-08             3.28e-12              -6.54e-12             -3.064e-08           
  1.1                   3.114e-08             3.32e-12              -6.24e-12             -3.1118e-08          
  1.15                  3.1568e-08            3.16e-12              -5.46e-12             -3.1596e-08          
  1.2                   3.2016e-08            3.26e-12              -5.6e-12              -3.199e-08           
  1.25                  3.243e-08             3.08e-12              -6.68e-12             -3.2398e-08          
  1.3                   3.2806e-08            2.92e-12              -7.28e-12             -3.2782e-08          
  1.35                  3.3158e-08            3.02e-12              -8.22e-12             -3.3168e-08          
END_DB

BEGIN_DB
 ICCAP_VAR vg         0.618          
 ICCAP_VAR vb         -1.2           
 ICCAP_VAR vs         0              

 #vd                    id                    ig                    ib                    is                   
  0                     1.1882e-10            5.226e-11             -2.78e-12             -1.727e-10           
  0.05                  8.9718e-08            4.404e-11             -4.58e-12             -8.9766e-08          
  0.1                   1.5988e-07            3.796e-11             -3.52e-12             -1.598e-07           
  0.15                  2.0836e-07            3.406e-11             -4.3e-12              -2.0824e-07          
  0.2                   2.356e-07             3.202e-11             -3.64e-12             -2.3552e-07          
  0.25                  2.4886e-07            3.082e-11             -2.8e-12              -2.488e-07           
  0.3                   2.565e-07             3.028e-11             -3.64e-12             -2.5638e-07          
  0.35                  2.6212e-07            2.984e-11             -4.34e-12             -2.6208e-07          
  0.4                   2.67e-07              2.946e-11             -3.64e-12             -2.6692e-07          
  0.45                  2.7142e-07            2.916e-11             -2.86e-12             -2.713e-07           
  0.5                   2.7546e-07            2.884e-11             -3.18e-12             -2.7472e-07          
  0.55                  2.7912e-07            2.852e-11             -4.1e-12              -2.792e-07           
  0.6                   2.8278e-07            2.83e-11              -3.86e-12             -2.822e-07           
  0.65                  2.8586e-07            2.8e-11               -2.42e-12             -2.8616e-07          
  0.7                   2.8902e-07            2.79e-11              -3.82e-12             -2.8908e-07          
  0.75                  2.921e-07             2.764e-11             -3.98e-12             -2.9256e-07          
  0.8                   2.9554e-07            2.73e-11              -2.98e-12             -2.9546e-07          
  0.85                  2.9832e-07            2.718e-11             -2.22e-12             -2.9828e-07          
  0.9                   3.0098e-07            2.692e-11             -3.54e-12             -3.0086e-07          
  0.95                  3.0346e-07            2.68e-11              -3.72e-12             -3.0328e-07          
  1                     3.059e-07             2.662e-11             -3.02e-12             -3.0548e-07          
  1.05                  3.0816e-07            2.646e-11             -2.88e-12             -3.0778e-07          
  1.1                   3.1024e-07            2.626e-11             -3.86e-12             -3.0998e-07          
  1.15                  3.1238e-07            2.606e-11             -4.06e-12             -3.1212e-07          
  1.2                   3.1418e-07            2.602e-11             -2.9e-12              -3.1422e-07          
  1.25                  3.1616e-07            2.588e-11             -2.74e-12             -3.1606e-07          
  1.3                   3.1778e-07            2.576e-11             -3.28e-12             -3.1786e-07          
  1.35                  3.1946e-07            2.556e-11             -5.22e-12             -3.1936e-07          
END_DB

BEGIN_DB
 ICCAP_VAR vg         0.862          
 ICCAP_VAR vb         -1.2           
 ICCAP_VAR vs         0              

 #vd                    id                    ig                    ib                    is                   
  0                     1.2688e-10            2.4308e-10            -2.26e-12             -3.7834e-10          
  0.05                  1.6286e-07            2.1262e-10            -2.2e-12              -1.6296e-07          
  0.1                   3.1026e-07            1.8752e-10            -2.3e-12              -3.1034e-07          
  0.15                  4.4124e-07            1.6672e-10            -3.32e-12             -4.4134e-07          
  0.2                   5.547e-07             1.5016e-10            -2.56e-12             -5.5482e-07          
  0.25                  6.4932e-07            1.3726e-10            -1.98e-12             -6.4938e-07          
  0.3                   7.232e-07             1.2758e-10            -2.48e-12             -7.2328e-07          
  0.35                  7.7544e-07            1.2106e-10            -2.88e-12             -7.7554e-07          
  0.4                   8.0784e-07            1.172e-10             -2.22e-12             -8.0784e-07          
  0.45                  8.2606e-07            1.1508e-10            -1.88e-12             -8.2656e-07          
  0.5                   8.3826e-07            1.1376e-10            -2.58e-12             -8.383e-07           
  0.55                  8.4624e-07            1.1262e-10            -2.82e-12             -8.4716e-07          
  0.6                   8.5456e-07            1.117e-10             -1.52e-12             -8.5468e-07          
  0.65                  8.6132e-07            1.1094e-10            -2.62e-12             -8.6102e-07          
  0.7                   8.6748e-07            1.1022e-10            -2.7e-12              -8.6754e-07          
  0.75                  8.7318e-07            1.0954e-10            -2.76e-12             -8.7326e-07          
  0.8                   8.7848e-07            1.0914e-10            -1.76e-12             -8.7854e-07          
  0.85                  8.8352e-07            1.0836e-10            -2.76e-12             -8.8366e-07          
  0.9                   8.8846e-07            1.0784e-10            -2.42e-12             -8.8844e-07          
  0.95                  8.9282e-07            1.075e-10             -2.86e-12             -8.931e-07           
  1                     8.9736e-07            1.0694e-10            -1.32e-12             -8.9742e-07          
  1.05                  9.0158e-07            1.066e-10             -1.96e-12             -9.0168e-07          
  1.1                   9.0542e-07            1.0604e-10            -2.68e-12             -9.0564e-07          
  1.15                  9.093e-07             1.0564e-10            -1.92e-12             -9.0928e-07          
  1.2                   9.1248e-07            1.0524e-10            -6.8e-13              -9.1282e-07          
  1.25                  9.1616e-07            1.05e-10              -1.96e-12             -9.1648e-07          
  1.3                   9.1954e-07            1.0456e-10            -2.22e-12             -9.1976e-07          
  1.35                  9.2284e-07            1.0414e-10            -2.5e-12              -9.229e-07           
END_DB

BEGIN_DB
 ICCAP_VAR vg         1.106          
 ICCAP_VAR vb         -1.2           
 ICCAP_VAR vs         0              

 #vd                    id                    ig                    ib                    is                   
  0                     -6.616e-11            7.8656e-10            -1.74e-12             -7.2998e-10          
  0.05                  2.2082e-07            7.0722e-10            -1.24e-12             -2.2142e-07          
  0.1                   4.2984e-07            6.3796e-10            -1.6e-12              -4.304e-07           
  0.15                  6.2598e-07            5.7804e-10            -2.12e-12             -6.265e-07           
  0.2                   8.0836e-07            5.2596e-10            -1.24e-12             -8.0882e-07          
  0.25                  9.7642e-07            4.8182e-10            -1.12e-12             -9.7682e-07          
  0.3                   1.12932e-06           4.4418e-10            -2.34e-12             -1.12988e-06         
  0.35                  1.2674e-06            4.127e-10             -1.54e-12             -1.264e-06           
  0.4                   1.3868e-06            3.8664e-10            -1.34e-12             -1.3832e-06          
  0.45                  1.487e-06             3.6616e-10            -2.18e-12             -1.4836e-06          
  0.5                   1.5672e-06            3.5052e-10            -1.9e-12              -1.5638e-06          
  0.55                  1.6262e-06            3.3922e-10            -1.98e-12             -1.6228e-06          
  0.6                   1.666e-06             3.3134e-10            -2.92e-12             -1.6624e-06          
  0.65                  1.691e-06             3.2764e-10            -1.56e-12             -1.6874e-06          
  0.7                   1.7072e-06            3.2464e-10            -8.4e-13              -1.7038e-06          
  0.75                  1.7192e-06            3.2256e-10            -2.38e-12             -1.7158e-06          
  0.8                   1.7292e-06            3.206e-10             -1.66e-12             -1.7256e-06          
  0.85                  1.7378e-06            3.192e-10             -1.6e-12              -1.7342e-06          
  0.9                   1.7456e-06            3.178e-10             -2.2e-12              -1.742e-06           
  0.95                  1.7528e-06            3.1646e-10            -1.02e-12             -1.7492e-06          
  1                     1.7588e-06            3.1542e-10            -8.6e-13              -1.756e-06           
  1.05                  1.766e-06             3.1258e-10            -2.36e-12             -1.7622e-06          
  1.1                   1.772e-06             3.1322e-10            -1.72e-12             -1.7678e-06          
  1.15                  1.7772e-06            3.1242e-10            -1.3e-12              -1.7744e-06          
  1.2                   1.7828e-06            3.114e-10             -1.84e-12             -1.7798e-06          
  1.25                  1.7886e-06            3.104e-10             -1.26e-12             -1.7852e-06          
  1.3                   1.7932e-06            3.0974e-10            -1.42e-12             -1.7896e-06          
  1.35                  1.7982e-06            3.0882e-10            -1.94e-12             -1.795e-06           
END_DB

BEGIN_DB
 ICCAP_VAR vg         1.35           
 ICCAP_VAR vb         -1.2           
 ICCAP_VAR vs         0              

 #vd                    id                    ig                    ib                    is                   
  0                     -6.1734e-10           2.034e-09             -1.04e-12             -1.41e-09            
  0.05                  2.6326e-07            1.8628e-09            -2.38e-12             -2.6498e-07          
  0.1                   5.1842e-07            1.7086e-09            -1.14e-12             -5.2004e-07          
  0.15                  7.6392e-07            1.5708e-09            -2.2e-12              -7.6546e-07          
  0.2                   9.9904e-07            1.4478e-09            -1.58e-12             -1.0005e-06          
  0.25                  1.225e-06             1.3386e-09            -6.4e-13              -1.2224e-06          
  0.3                   1.4376e-06            1.2416e-09            -2.4e-12              -1.435e-06           
  0.35                  1.6378e-06            1.1566e-09            -2.16e-12             -1.635e-06           
  0.4                   1.8248e-06            1.0818e-09            -8.4e-13              -1.8222e-06          
  0.45                  1.9978e-06            1.017e-09             -1.92e-12             -1.9948e-06          
  0.5                   2.1562e-06            9.604e-10             -1.9e-12              -2.1532e-06          
  0.55                  2.2988e-06            9.1246e-10            -1.08e-12             -2.2958e-06          
  0.6                   2.4244e-06            8.7268e-10            -2.14e-12             -2.4214e-06          
  0.65                  2.5318e-06            8.4012e-10            -1.6e-12              -2.5288e-06          
  0.7                   2.6196e-06            8.1394e-10            -1.06e-12             -2.6166e-06          
  0.75                  2.687e-06             7.952e-10             -1.56e-12             -2.684e-06           
  0.8                   2.7348e-06            7.8214e-10            -1.4e-12              -2.7318e-06          
  0.85                  2.767e-06             7.7318e-10            -8e-13                -2.764e-06           
  0.9                   2.7886e-06            7.675e-10             -1.6e-12              -2.7854e-06          
  0.95                  2.8042e-06            7.6334e-10            -2.2e-12              -2.8012e-06          
  1                     2.8168e-06            7.5896e-10            -1.44e-12             -2.8138e-06          
  1.05                  2.827e-06             7.5734e-10            -2.26e-12             -2.8242e-06          
  1.1                   2.8364e-06            7.5492e-10            -1.84e-12             -2.8334e-06          
  1.15                  2.845e-06             7.5278e-10            -7.4e-13              -2.842e-06           
  1.2                   2.8526e-06            7.5012e-10            -1.7e-12              -2.8498e-06          
  1.25                  2.8604e-06            7.4856e-10            -1.04e-12             -2.8574e-06          
  1.3                   2.8676e-06            7.4768e-10            -7.2e-13              -2.8644e-06          
  1.35                  2.8744e-06            7.45e-10              -1.9e-12              -2.8712e-06          
END_DB

