! VERSION = 6.00
BEGIN_HEADER
 ICCAP_INPUTS
  vd         V  D GROUND SMU1 0.1 LIN        1    0          1.35       28   0.05      
  vg         V  G GROUND SMU2 0.001 LIN        2    0.438      1.35       5    0.228     
  vb         V  B GROUND SMU4 0.1 CON        0
  vs         V  S GROUND SMU3 0.1 CON        0
 ICCAP_OUTPUTS
  id         I  D GROUND SMU1 B
  ig         I  G GROUND SMU2 B
  ib         I  B GROUND SMU4 B
  is         I  S GROUND SMU3 B
 ICCAP_VALUES
  MASTER_SETUP_TYPE "~dc_idvd~"
  LINVT_VALUE "|idvg|100.0n|100.0m|1.000m|5|1.350|"
  LISTVT_VALUE ""
  TYPE "1"
  TEMP " 27.0000 "
  IS_TNOM " 1.00000 "
  MAIN.W "150.0n"
  MAIN.L "180.0n"
  MAIN.AD "100.5f"
  MAIN.AS "100.5f"
  MAIN.PD "1.340u"
  MAIN.PS "1.340u"
  MAIN.NF "1.000"
  MAIN.M "1"
  MAIN.NRD "0.000"
  MAIN.NRS "0.000"
  MAIN.LDRIFT1 "1E-06"
  MAIN.LDRIFT2 "1E-06"
  MAIN.SA "0.000"
  MAIN.SB "0.000"
  MAIN.SD "0.000"
  MAIN.SCA "0.000"
  MAIN.SCB "0.000"
  MAIN.SCC "0.000"
  MAIN.SC "0.000"
  MODULE "S547"
  PIN_D "20"
  PIN_G "1"
  PIN_S "2"
  PIN_B "19"
  PIN_E ""
  PIN_6 ""
  XY_ID ""
  FUNC "LW Scale"
  STI "SA ref"
  WPE "WPE ref"
  COMMENT ""
  DIS_MEAS ""
  TypeTCI "10"
END_HEADER

BEGIN_DB
 ICCAP_VAR vg         0.438          
 ICCAP_VAR vb         0              
 ICCAP_VAR vs         0              

 #vd                    id                    ig                    ib                    is                   
  0                     1.1048e-09            3.6e-13               8.1e-12               -8.9774e-10          
  0.05                  4.094e-07             2.4e-13               7.9e-12               -4.0928e-07          
  0.1                   5.8138e-07            3e-13                 5.88e-12              -5.812e-07           
  0.15                  6.4948e-07            3e-13                 6.18e-12              -6.494e-07           
  0.2                   6.8192e-07            1.6e-13               6.7e-12               -6.8198e-07          
  0.25                  7.0366e-07            1e-13                 5.36e-12              -7.042e-07           
  0.3                   7.229e-07             1.8e-13               5.3e-12               -7.2302e-07          
  0.35                  7.4096e-07            2e-13                 5.52e-12              -7.4074e-07          
  0.4                   7.5754e-07            2.4e-13               5.98e-12              -7.5774e-07          
  0.45                  7.7472e-07            1.8e-13               7.84e-12              -7.747e-07           
  0.5                   7.9134e-07            1.8e-13               3.8e-12               -7.9168e-07          
  0.55                  8.0804e-07            1.6e-13               4.14e-12              -8.0822e-07          
  0.6                   8.245e-07             2e-13                 6e-12                 -8.2466e-07          
  0.65                  8.413e-07             1.6e-13               4.28e-12              -8.4134e-07          
  0.7                   8.5806e-07            1.4e-13               3.92e-12              -8.5796e-07          
  0.75                  8.7474e-07            2.6e-13               4.48e-12              -8.7464e-07          
  0.8                   8.9166e-07            1.8e-13               5.34e-12              -8.913e-07           
  0.85                  9.0812e-07            2.2e-13               4.62e-12              -9.0806e-07          
  0.9                   9.2536e-07            1.4e-13               3.48e-12              -9.2506e-07          
  0.95                  9.4224e-07            1.6e-13               3.6e-12               -9.4128e-07          
  1                     9.5946e-07            1.4e-13               4.9e-12               -9.5922e-07          
  1.05                  9.7688e-07            2e-13                 3.14e-12              -9.7688e-07          
  1.1                   9.9424e-07            8e-14                 1.84e-12              -9.9422e-07          
  1.15                  1.03352e-06           1.2e-13               5.6e-13               -1.03372e-06         
  1.2                   1.05172e-06           1.6e-13               -3.44e-12             -1.05186e-06         
  1.25                  1.07034e-06           1.2e-13               -1.174e-11            -1.06994e-06         
  1.3                   1.0881e-06            4e-14                 -2.406e-11            -1.0881e-06          
  1.35                  1.10504e-06           1e-13                 -4.466e-11            -1.10646e-06         
END_DB

BEGIN_DB
 ICCAP_VAR vg         0.666          
 ICCAP_VAR vb         0              
 ICCAP_VAR vs         0              

 #vd                    id                    ig                    ib                    is                   
  0                     3.4224e-09            1.22e-12              3.3e-12               -3.4128e-09          
  0.05                  2.8122e-06            1.1e-12               3.04e-12              -2.808e-06           
  0.1                   4.8766e-06            1e-12                 2.36e-12              -4.873e-06           
  0.15                  6.3196e-06            8.6e-13               2.66e-12              -6.3164e-06          
  0.2                   7.2884e-06            8.8e-13               2.24e-12              -7.2854e-06          
  0.25                  7.9308e-06            7.8e-13               2e-12                 -7.9264e-06          
  0.3                   8.361e-06             7.4e-13               2.9e-12               -8.3576e-06          
  0.35                  8.6688e-06            7.8e-13               1.96e-12              -8.6652e-06          
  0.4                   8.9084e-06            8.2e-13               1.42e-12              -8.9054e-06          
  0.45                  9.1096e-06            7.8e-13               3e-12                 -9.107e-06           
  0.5                   9.291e-06             7.6e-13               2.2e-12               -9.2882e-06          
  0.55                  9.4586e-06            6.2e-13               2.36e-12              -9.4556e-06          
  0.6                   9.6196e-06            6.2e-13               2.94e-12              -9.6158e-06          
  0.65                  9.7746e-06            7.6e-13               1.74e-12              -9.7704e-06          
  0.7                   9.9238e-06            6.2e-13               3.98e-12              -9.92e-06            
  0.75                  1.0071e-05            6.2e-13               3.04e-12              -1.00664e-05         
  0.8                   1.02144e-05           6.6e-13               1.52e-12              -1.02102e-05         
  0.85                  1.03556e-05           7.6e-13               1.48e-12              -1.0352e-05          
  0.9                   1.04944e-05           6.8e-13               3.38e-12              -1.04916e-05         
  0.95                  1.06332e-05           6.8e-13               1.56e-12              -1.06942e-05         
  1                     1.08744e-05           7.6e-13               8.4e-13               -1.08678e-05         
  1.05                  1.10106e-05           6.8e-13               1.28e-12              -1.1007e-05          
  1.1                   1.1152e-05            6e-13                 -8e-13                -1.11422e-05         
  1.15                  1.1288e-05            7.2e-13               -3.68e-12             -1.1276e-05          
  1.2                   1.142e-05             7e-13                 -1.212e-11            -1.141e-05           
  1.25                  1.1554e-05            6.6e-13               -2.862e-11            -1.15392e-05         
  1.3                   1.1682e-05            6.2e-13               -6.156e-11            -1.1669e-05          
  1.35                  1.1814e-05            6.4e-13               -1.2288e-10           -1.1796e-05          
END_DB

BEGIN_DB
 ICCAP_VAR vg         0.894          
 ICCAP_VAR vb         0              
 ICCAP_VAR vs         0              

 #vd                    id                    ig                    ib                    is                   
  0                     1.0186e-08            4.28e-12              2.04e-12              -9.92e-09            
  0.05                  6.1384e-06            3.86e-12              2.2e-12               -6.1368e-06          
  0.1                   1.13564e-05           3.36e-12              1.48e-12              -1.13628e-05         
  0.15                  1.566e-05             3.14e-12              2.68e-12              -1.5664e-05          
  0.2                   1.909e-05             2.94e-12              1.06e-12              -1.9064e-05          
  0.25                  2.1712e-05            2.82e-12              1.62e-12              -2.1684e-05          
  0.3                   2.3684e-05            2.64e-12              2.48e-12              -2.3664e-05          
  0.35                  2.515e-05             2.62e-12              6.4e-13               -2.5136e-05          
  0.4                   2.6246e-05            2.5e-12               1.66e-12              -2.623e-05           
  0.45                  2.7088e-05            2.52e-12              2.18e-12              -2.7068e-05          
  0.5                   2.7754e-05            2.44e-12              6.8e-13               -2.7736e-05          
  0.55                  2.8302e-05            2.26e-12              1.36e-12              -2.829e-05           
  0.6                   2.879e-05             2.32e-12              1.92e-12              -2.8768e-05          
  0.65                  2.9222e-05            2.3e-12               1.02e-12              -2.9204e-05          
  0.7                   2.961e-05             2.4e-12               1.96e-12              -2.9588e-05          
  0.75                  2.9994e-05            2.28e-12              1.5e-12               -2.9966e-05          
  0.8                   3.035e-05             2.24e-12              6.8e-13               -3.033e-05           
  0.85                  3.069e-05             2.22e-12              1.64e-12              -3.0646e-05          
  0.9                   3.0998e-05            2.34e-12              1.04e-12              -3.099e-05           
  0.95                  3.1338e-05            2.3e-12               8e-13                 -3.1314e-05          
  1                     3.1646e-05            2.3e-12               1.3e-12               -3.1626e-05          
  1.05                  3.1956e-05            2.16e-12              6e-14                 -3.1942e-05          
  1.1                   3.225e-05             2.24e-12              -1.74e-12             -3.223e-05           
  1.15                  3.254e-05             2.06e-12              -5.28e-12             -3.2516e-05          
  1.2                   3.283e-05             2.18e-12              -1.338e-11            -3.2802e-05          
  1.25                  3.3112e-05            2.18e-12              -3.176e-11            -3.3094e-05          
  1.3                   3.3392e-05            2.06e-12              -6.68e-11             -3.3366e-05          
  1.35                  3.3656e-05            2.14e-12              -1.3422e-10           -3.3648e-05          
END_DB

BEGIN_DB
 ICCAP_VAR vg         1.122          
 ICCAP_VAR vb         0              
 ICCAP_VAR vs         0              

 #vd                    id                    ig                    ib                    is                   
  0                     1.503e-08             1.224e-11             1.46e-12              -1.4836e-08          
  0.05                  9.1324e-06            1.106e-11             7.4e-13               -9.1288e-06          
  0.1                   1.7412e-05            1.012e-11             9.6e-13               -1.7394e-05          
  0.15                  2.47e-05              9.46e-12              1.38e-12              -2.4684e-05          
  0.2                   3.0946e-05            8.64e-12              1.3e-12               -3.093e-05           
  0.25                  3.6168e-05            8.18e-12              6.2e-13               -3.6162e-05          
  0.3                   4.0436e-05            7.74e-12              1.34e-12              -4.0448e-05          
  0.35                  4.3876e-05            7.38e-12              9.6e-13               -4.3856e-05          
  0.4                   4.654e-05             7e-12                 1.04e-12              -4.6498e-05          
  0.45                  4.8596e-05            6.7e-12               1.28e-12              -4.8472e-05          
  0.5                   5.0094e-05            6.6e-12               8.6e-13               -5.0076e-05          
  0.55                  5.1424e-05            6.5e-12               3.2e-13               -5.1374e-05          
  0.6                   5.2444e-05            6.4e-12               1.42e-12              -5.2446e-05          
  0.65                  5.3322e-05            6.2e-12               1.42e-12              -5.3308e-05          
  0.7                   5.4082e-05            6.14e-12              7e-13                 -5.4064e-05          
  0.75                  5.475e-05             6.1e-12               1.86e-12              -5.4738e-05          
  0.8                   5.5372e-05            6.12e-12              9.8e-13               -5.5342e-05          
  0.85                  5.593e-05             6.04e-12              8.2e-13               -5.5906e-05          
  0.9                   5.6436e-05            6e-12                 1.8e-12               -5.6418e-05          
  0.95                  5.6942e-05            5.96e-12              6e-13                 -5.6908e-05          
  1                     5.7408e-05            5.96e-12              5.8e-13               -5.7388e-05          
  1.05                  5.7864e-05            5.96e-12              8.2e-13               -5.784e-05           
  1.1                   5.8298e-05            5.92e-12              -1.96e-12             -5.8288e-05          
  1.15                  5.8734e-05            5.74e-12              -5.56e-12             -5.8708e-05          
  1.2                   5.913e-05             5.82e-12              -1.282e-11            -5.9116e-05          
  1.25                  5.9548e-05            5.82e-12              -2.912e-11            -5.9524e-05          
  1.3                   5.9934e-05            5.72e-12              -6.042e-11            -5.9926e-05          
  1.35                  6.0326e-05            5.72e-12              -1.1736e-10           -6.0294e-05          
END_DB

BEGIN_DB
 ICCAP_VAR vg         1.35           
 ICCAP_VAR vb         0              
 ICCAP_VAR vs         0              

 #vd                    id                    ig                    ib                    is                   
  0                     1.9054e-08            2.962e-11             1.94e-12              -1.809e-08           
  0.05                  1.1492e-05            2.726e-11             3.4e-13               -1.1446e-05          
  0.1                   2.2214e-05            2.514e-11             1.2e-12               -2.2196e-05          
  0.15                  3.1998e-05            2.34e-11              7.4e-13               -3.198e-05           
  0.2                   4.0732e-05            2.18e-11              6e-14                 -4.0714e-05          
  0.25                  4.8376e-05            2.046e-11             1.48e-12              -4.8364e-05          
  0.3                   5.4952e-05            1.924e-11             6.8e-13               -5.4938e-05          
  0.35                  6.0504e-05            1.816e-11             6.8e-13               -6.0482e-05          
  0.4                   6.5118e-05            1.72e-11              1.1e-12               -6.5106e-05          
  0.45                  6.89e-05              1.656e-11             6e-14                 -6.8874e-05          
  0.5                   7.1968e-05            1.604e-11             -1.6e-13              -7.1954e-05          
  0.55                  7.4452e-05            1.562e-11             1.76e-12              -7.4438e-05          
  0.6                   7.646e-05             1.524e-11             1.8e-13               -7.6446e-05          
  0.65                  7.8108e-05            1.488e-11             -4.6e-13              -7.8074e-05          
  0.7                   7.9456e-05            1.47e-11              1.5e-12               -7.9442e-05          
  0.75                  8.06e-05              1.438e-11             1.06e-12              -8.0588e-05          
  0.8                   8.159e-05             1.432e-11             7.8e-13               -8.1572e-05          
  0.85                  8.2462e-05            1.408e-11             1.54e-12              -8.245e-05           
  0.9                   8.3246e-05            1.406e-11             5.4e-13               -8.3232e-05          
  0.95                  8.3956e-05            1.392e-11             8e-14                 -8.3942e-05          
  1                     8.4618e-05            1.38e-11              3.4e-13               -8.46e-05            
  1.05                  8.5232e-05            1.366e-11             -1.16e-12             -8.522e-05           
  1.1                   8.5818e-05            1.366e-11             -2e-12                -8.5802e-05          
  1.15                  8.6374e-05            1.342e-11             -4.18e-12             -8.636e-05           
  1.2                   8.6908e-05            1.356e-11             -1.168e-11            -8.689e-05           
  1.25                  8.7408e-05            1.332e-11             -2.498e-11            -8.7392e-05          
  1.3                   8.7914e-05            1.322e-11             -4.986e-11            -8.7904e-05          
  1.35                  8.8402e-05            1.326e-11             -9.718e-11            -8.8382e-05          
END_DB

