! VERSION = 6.00
BEGIN_HEADER
 ICCAP_INPUTS
  vd         V  D GROUND SMU1 0.1 LIN        1    0          1.35       28   0.05      
  vg         V  G GROUND SMU2 0.001 LIN        2    0.558      1.35       5    0.198     
  vb         V  B GROUND SMU4 0.1 CON        -1.2
  vs         V  S GROUND SMU3 0.1 CON        0
 ICCAP_OUTPUTS
  id         I  D GROUND SMU1 B
  ig         I  G GROUND SMU2 B
  ib         I  B GROUND SMU4 B
  is         I  S GROUND SMU3 B
 ICCAP_VALUES
  MASTER_SETUP_TYPE "~dc_idvd~"
  LINVT_VALUE "|idvg|100.0n|100.0m|1.000m|5|1.350|"
  LISTVT_VALUE ""
  TYPE "1"
  TEMP " 125.000 "
  IS_TNOM " 0.00000 "
  MAIN.W "150.0n"
  MAIN.L "130.0n"
  MAIN.AD "100.5f"
  MAIN.AS "100.5f"
  MAIN.PD "1.340u"
  MAIN.PS "1.340u"
  MAIN.NF "1.000"
  MAIN.M "1"
  MAIN.NRD "0.000"
  MAIN.NRS "0.000"
  MAIN.LDRIFT1 "1E-06"
  MAIN.LDRIFT2 "1E-06"
  MAIN.SA "0.000"
  MAIN.SB "0.000"
  MAIN.SD "0.000"
  MAIN.SCA "0.000"
  MAIN.SCB "0.000"
  MAIN.SCC "0.000"
  MAIN.SC "0.000"
  MODULE "S546"
  PIN_D "16"
  PIN_G "5"
  PIN_S "6"
  PIN_B "15"
  PIN_E ""
  PIN_6 ""
  XY_ID ""
  FUNC "Small"
  STI "SA ref"
  WPE "WPE ref"
  COMMENT ""
  DIS_MEAS ""
  TypeTCI "10"
END_HEADER

BEGIN_DB
 ICCAP_VAR vg         0.558          
 ICCAP_VAR vb         -1.2           
 ICCAP_VAR vs         0              

 #vd                    id                    ig                    ib                    is                   
  0                     7.18e-10              1.48e-12              -4.254e-11            -5.4536e-10          
  0.05                  3.4444e-07            1.36e-12              -3.838e-11            -3.4446e-07          
  0.1                   4.9748e-07            1.28e-12              -3.736e-11            -4.9744e-07          
  0.15                  5.7186e-07            1.22e-12              -3.58e-11             -5.719e-07           
  0.2                   6.186e-07             1.16e-12              -3.358e-11            -6.1856e-07          
  0.25                  6.5604e-07            1.24e-12              -3.226e-11            -6.5616e-07          
  0.3                   6.9052e-07            1.1e-12               -3.138e-11            -6.9064e-07          
  0.35                  7.243e-07             1.08e-12              -2.98e-11             -7.2428e-07          
  0.4                   7.5788e-07            1.18e-12              -2.804e-11            -7.5796e-07          
  0.45                  7.9182e-07            1.3e-12               -2.784e-11            -7.9186e-07          
  0.5                   8.2642e-07            1.2e-12               -2.714e-11            -8.2644e-07          
  0.55                  8.615e-07             1.14e-12              -2.646e-11            -8.6162e-07          
  0.6                   8.9764e-07            1.14e-12              -2.458e-11            -8.9744e-07          
  0.65                  9.3468e-07            1.02e-12              -2.514e-11            -9.3486e-07          
  0.7                   9.729e-07             1.04e-12              -2.454e-11            -9.7286e-07          
  0.75                  1.01218e-06           1.06e-12              -2.23e-11             -1.01204e-06         
  0.8                   1.05234e-06           1.1e-12               -2.248e-11            -1.05252e-06         
  0.85                  1.09442e-06           1.12e-12              -2.308e-11            -1.09464e-06         
  0.9                   1.13776e-06           1.04e-12              -2.216e-11            -1.13772e-06         
  0.95                  1.1842e-06            9.6e-13               -2.028e-11            -1.1808e-06          
  1                     1.231e-06             9.8e-13               -2.262e-11            -1.2276e-06          
  1.05                  1.2798e-06            1.06e-12              -2.604e-11            -1.2766e-06          
  1.1                   1.3302e-06            9.6e-13               -2.996e-11            -1.3266e-06          
  1.15                  1.3828e-06            1.02e-12              -4.132e-11            -1.3792e-06          
  1.2                   1.4374e-06            1.04e-12              -5.864e-11            -1.4344e-06          
  1.25                  1.4944e-06            9.2e-13               -8.56e-11             -1.491e-06           
  1.3                   1.554e-06             9.2e-13               -1.3318e-10           -1.5504e-06          
  1.35                  1.6154e-06            8.4e-13               -2.012e-10            -1.6116e-06          
END_DB

BEGIN_DB
 ICCAP_VAR vg         0.756          
 ICCAP_VAR vb         -1.2           
 ICCAP_VAR vs         0              

 #vd                    id                    ig                    ib                    is                   
  0                     2.7148e-09            4.58e-12              -1.178e-11            -2.5182e-09          
  0.05                  2.5086e-06            4.24e-12              -1.352e-11            -2.5044e-06          
  0.1                   4.2678e-06            4.1e-12               -1.286e-11            -4.2654e-06          
  0.15                  5.4404e-06            3.94e-12              -1.246e-11            -5.4368e-06          
  0.2                   6.2034e-06            3.84e-12              -1.322e-11            -6.199e-06           
  0.25                  6.714e-06             3.72e-12              -1.234e-11            -6.71e-06            
  0.3                   7.0852e-06            3.76e-12              -1.252e-11            -7.0834e-06          
  0.35                  7.3838e-06            3.74e-12              -1.268e-11            -7.381e-06           
  0.4                   7.6438e-06            3.68e-12              -1.2e-11              -7.6422e-06          
  0.45                  7.8836e-06            3.7e-12               -1.198e-11            -7.8764e-06          
  0.5                   8.1072e-06            3.6e-12               -1.204e-11            -8.1038e-06          
  0.55                  8.3296e-06            3.7e-12               -1.132e-11            -8.3258e-06          
  0.6                   8.5462e-06            3.56e-12              -1.134e-11            -8.546e-06           
  0.65                  8.7646e-06            3.58e-12              -1.216e-11            -8.7618e-06          
  0.7                   8.9814e-06            3.54e-12              -1.12e-11             -8.9772e-06          
  0.75                  9.197e-06             3.7e-12               -1.194e-11            -9.1924e-06          
  0.8                   9.4136e-06            3.5e-12               -1.15e-11             -9.4112e-06          
  0.85                  9.6382e-06            3.46e-12              -1.17e-11             -9.6318e-06          
  0.9                   9.86e-06              3.7e-12               -1.242e-11            -9.8568e-06          
  0.95                  1.00856e-05           3.6e-12               -1.396e-11            -1.00834e-05         
  1                     1.03152e-05           3.66e-12              -1.554e-11            -1.03126e-05         
  1.05                  1.05494e-05           3.62e-12              -2.26e-11             -1.05468e-05         
  1.1                   1.0788e-05            3.52e-12              -3.524e-11            -1.07842e-05         
  1.15                  1.103e-05             3.4e-12               -5.87e-11             -1.1027e-05          
  1.2                   1.1278e-05            3.52e-12              -1.0242e-10           -1.12708e-05         
  1.25                  1.1526e-05            3.56e-12              -1.7884e-10           -1.1521e-05          
  1.3                   1.1782e-05            3.46e-12              -3.0484e-10           -1.1776e-05          
  1.35                  1.2044e-05            3.58e-12              -5.0958e-10           -1.2036e-05          
END_DB

BEGIN_DB
 ICCAP_VAR vg         0.954          
 ICCAP_VAR vb         -1.2           
 ICCAP_VAR vs         0              

 #vd                    id                    ig                    ib                    is                   
  0                     3.095e-09             1.18e-11              -8.62e-12             -4.6292e-09          
  0.05                  5.7132e-06            1.116e-11             -7.9e-12              -5.71e-06            
  0.1                   1.04838e-05           1.062e-11             -9.44e-12             -1.0479e-05          
  0.15                  1.4306e-05            1.022e-11             -7.92e-12             -1.4296e-05          
  0.2                   1.7246e-05            9.84e-12              -8.58e-12             -1.7238e-05          
  0.25                  1.945e-05             9.52e-12              -7.58e-12             -1.9446e-05          
  0.3                   2.1082e-05            9.28e-12              -8.32e-12             -2.1076e-05          
  0.35                  2.2298e-05            9.18e-12              -9.08e-12             -2.2296e-05          
  0.4                   2.3238e-05            9.2e-12               -8.24e-12             -2.323e-05           
  0.45                  2.3996e-05            9.02e-12              -9.48e-12             -2.3986e-05          
  0.5                   2.4638e-05            9.04e-12              -9.4e-12              -2.4626e-05          
  0.55                  2.5204e-05            8.86e-12              -8.32e-12             -2.5198e-05          
  0.6                   2.5728e-05            8.9e-12               -8.68e-12             -2.572e-05           
  0.65                  2.622e-05             9e-12                 -8.2e-12              -2.6214e-05          
  0.7                   2.6698e-05            8.96e-12              -8.18e-12             -2.6684e-05          
  0.75                  2.7156e-05            8.86e-12              -8.8e-12              -2.715e-05           
  0.8                   2.7608e-05            8.74e-12              -7.8e-12              -2.76e-05            
  0.85                  2.8056e-05            8.68e-12              -9.42e-12             -2.8048e-05          
  0.9                   2.8498e-05            8.7e-12               -1.03e-11             -2.849e-05           
  0.95                  2.8936e-05            8.74e-12              -1.01e-11             -2.8932e-05          
  1                     2.9378e-05            8.64e-12              -1.526e-11            -2.9372e-05          
  1.05                  2.9818e-05            8.72e-12              -2.356e-11            -2.9808e-05          
  1.1                   3.0256e-05            8.56e-12              -3.934e-11            -3.0244e-05          
  1.15                  3.0696e-05            8.66e-12              -7.248e-11            -3.0686e-05          
  1.2                   3.114e-05             8.56e-12              -1.2966e-10           -3.1134e-05          
  1.25                  3.1586e-05            8.64e-12              -2.3006e-10           -3.158e-05           
  1.3                   3.2032e-05            8.64e-12              -4.0592e-10           -3.2026e-05          
  1.35                  3.249e-05             8.64e-12              -6.897e-10            -3.2484e-05          
END_DB

BEGIN_DB
 ICCAP_VAR vg         1.152          
 ICCAP_VAR vb         -1.2           
 ICCAP_VAR vs         0              

 #vd                    id                    ig                    ib                    is                   
  0                     1.149e-08             2.42e-11              -5.8e-12              -1.134e-08           
  0.05                  8.7372e-06            2.292e-11             -7.1e-12              -8.7324e-06          
  0.1                   1.6534e-05            2.194e-11             -5.82e-12             -1.6526e-05          
  0.15                  2.3272e-05            2.104e-11             -7.1e-12              -2.3262e-05          
  0.2                   2.8916e-05            2.022e-11             -7.62e-12             -2.8908e-05          
  0.25                  3.3524e-05            1.976e-11             -5.76e-12             -3.351e-05           
  0.3                   3.7202e-05            1.91e-11              -7.62e-12             -3.719e-05           
  0.35                  4.009e-05             1.87e-11              -7.36e-12             -4.0084e-05          
  0.4                   4.2354e-05            1.828e-11             -6e-12                -4.235e-05           
  0.45                  4.4134e-05            1.808e-11             -6.88e-12             -4.4132e-05          
  0.5                   4.557e-05             1.792e-11             -7.62e-12             -4.5564e-05          
  0.55                  4.6752e-05            1.768e-11             -6.24e-12             -4.675e-05           
  0.6                   4.7766e-05            1.764e-11             -7.2e-12              -4.7664e-05          
  0.65                  4.8654e-05            1.744e-11             -6.28e-12             -4.8656e-05          
  0.7                   4.9472e-05            1.736e-11             -6.98e-12             -4.9466e-05          
  0.75                  5.0214e-05            1.736e-11             -8.18e-12             -5.0224e-05          
  0.8                   5.0936e-05            1.72e-11              -7.02e-12             -5.0938e-05          
  0.85                  5.1628e-05            1.724e-11             -7.86e-12             -5.1624e-05          
  0.9                   5.2294e-05            1.718e-11             -9.14e-12             -5.2294e-05          
  0.95                  5.2944e-05            1.71e-11              -9.54e-12             -5.293e-05           
  1                     5.359e-05             1.716e-11             -1.572e-11            -5.3576e-05          
  1.05                  5.4208e-05            1.7e-11               -2.594e-11            -5.421e-05           
  1.1                   5.4832e-05            1.71e-11              -4.32e-11             -5.4824e-05          
  1.15                  5.5442e-05            1.696e-11             -8.008e-11            -5.544e-05           
  1.2                   5.6068e-05            1.682e-11             -1.4442e-10           -5.6058e-05          
  1.25                  5.6666e-05            1.694e-11             -2.5726e-10           -5.6652e-05          
  1.3                   5.728e-05             1.688e-11             -4.5094e-10           -5.7278e-05          
  1.35                  5.789e-05             1.686e-11             -7.6696e-10           -5.7884e-05          
END_DB

BEGIN_DB
 ICCAP_VAR vg         1.35           
 ICCAP_VAR vb         -1.2           
 ICCAP_VAR vs         0              

 #vd                    id                    ig                    ib                    is                   
  0                     1.5258e-08            4.336e-11             -4.9e-12              -1.454e-08           
  0.05                  1.129e-05             4.138e-11             -6e-12                -1.1284e-05          
  0.1                   2.171e-05             3.952e-11             -6.38e-12             -2.1674e-05          
  0.15                  3.1068e-05            3.798e-11             -5.68e-12             -3.1064e-05          
  0.2                   3.927e-05             3.668e-11             -6.38e-12             -3.9258e-05          
  0.25                  4.6294e-05            3.546e-11             -5.62e-12             -4.6284e-05          
  0.3                   5.2216e-05            3.426e-11             -6.14e-12             -5.2212e-05          
  0.35                  5.7098e-05            3.33e-11              -6.54e-12             -5.7098e-05          
  0.4                   6.1096e-05            3.262e-11             -6.2e-12              -6.1088e-05          
  0.45                  6.4348e-05            3.198e-11             -6.92e-12             -6.4338e-05          
  0.5                   6.6978e-05            3.14e-11              -6.46e-12             -6.6972e-05          
  0.55                  6.9146e-05            3.114e-11             -5.7e-12              -6.913e-05           
  0.6                   7.0924e-05            3.074e-11             -6.08e-12             -7.0832e-05          
  0.65                  7.2458e-05            3.03e-11              -6.82e-12             -7.2446e-05          
  0.7                   7.3662e-05            3.012e-11             -5.94e-12             -7.3662e-05          
  0.75                  7.4936e-05            3.002e-11             -6.74e-12             -7.494e-05           
  0.8                   7.5918e-05            2.972e-11             -6.6e-12              -7.5998e-05          
  0.85                  7.697e-05             2.978e-11             -6.32e-12             -7.6992e-05          
  0.9                   7.7908e-05            2.964e-11             -8.06e-12             -7.7916e-05          
  0.95                  7.8782e-05            2.966e-11             -1.084e-11            -7.879e-05           
  1                     7.9638e-05            2.932e-11             -1.532e-11            -7.9542e-05          
  1.05                  8.0468e-05            2.928e-11             -2.66e-11             -8.046e-05           
  1.1                   8.1278e-05            2.92e-11              -4.672e-11            -8.1258e-05          
  1.15                  8.205e-05             2.924e-11             -8.46e-11             -8.2042e-05          
  1.2                   8.282e-05             2.922e-11             -1.5252e-10           -8.2806e-05          
  1.25                  8.3548e-05            2.912e-11             -2.6928e-10           -8.3576e-05          
  1.3                   8.4328e-05            2.882e-11             -4.648e-10            -8.42e-05            
  1.35                  8.5084e-05            2.884e-11             -7.9084e-10           -8.5066e-05          
END_DB

