! VERSION = 6.00
BEGIN_HEADER
 ICCAP_INPUTS
  vd         V  D GROUND SMU1 0.1 LIN        1    0          1.35       28   0.05      
  vg         V  G GROUND SMU2 0.001 LIN        2    0.266      1.35       5    0.271     
  vb         V  B GROUND SMU4 0.1 CON        0
  vs         V  S GROUND SMU3 0.1 CON        0
 ICCAP_OUTPUTS
  id         I  D GROUND SMU1 B
  ig         I  G GROUND SMU2 B
  ib         I  B GROUND SMU4 B
  is         I  S GROUND SMU3 B
 ICCAP_VALUES
  MASTER_SETUP_TYPE "~dc_idvd~"
  LINVT_VALUE "|idvg|100.0n|100.0m|1.000m|5|1.350|"
  LISTVT_VALUE ""
  TYPE "1"
  TEMP " 27.0000 "
  IS_TNOM " 1.00000 "
  MAIN.W "180.0n"
  MAIN.L "10.00u"
  MAIN.AD "102.6f"
  MAIN.AS "102.6f"
  MAIN.PD "1.340u"
  MAIN.PS "1.340u"
  MAIN.NF "1.000"
  MAIN.M "1"
  MAIN.NRD "0.000"
  MAIN.NRS "0.000"
  MAIN.LDRIFT1 "1E-06"
  MAIN.LDRIFT2 "1E-06"
  MAIN.SA "0.000"
  MAIN.SB "0.000"
  MAIN.SD "0.000"
  MAIN.SCA "0.000"
  MAIN.SCB "0.000"
  MAIN.SCC "0.000"
  MAIN.SC "0.000"
  MODULE "S546"
  PIN_D "20"
  PIN_G "1"
  PIN_S "2"
  PIN_B "19"
  PIN_E ""
  PIN_6 ""
  XY_ID ""
  FUNC "W Scale"
  STI "SA ref"
  WPE "WPE ref"
  COMMENT ""
  DIS_MEAS ""
  TypeTCI "10"
END_HEADER

BEGIN_DB
 ICCAP_VAR vg         0.266          
 ICCAP_VAR vb         0              
 ICCAP_VAR vs         0              

 #vd                    id                    ig                    ib                    is                   
  0                     3.208e-11             2.14e-12              7.52e-12              -2.73e-11            
  0.05                  1.0882e-08            1.8e-12               7.84e-12              -1.1028e-08          
  0.1                   1.421e-08             1.72e-12              6.5e-12               -1.4236e-08          
  0.15                  1.5558e-08            1.58e-12              6.2e-12               -1.5564e-08          
  0.2                   1.6608e-08            1.68e-12              6.36e-12              -1.6554e-08          
  0.25                  1.7406e-08            1.66e-12              6.7e-12               -1.7474e-08          
  0.3                   1.83e-08              1.56e-12              5.94e-12              -1.8354e-08          
  0.35                  1.9128e-08            1.58e-12              5.3e-12               -1.9112e-08          
  0.4                   1.9996e-08            1.5e-12               4.94e-12              -1.9968e-08          
  0.45                  2.088e-08             1.5e-12               5.8e-12               -2.1038e-08          
  0.5                   2.1576e-08            1.4e-12               5.12e-12              -2.156e-08           
  0.55                  2.2358e-08            1.42e-12              4.16e-12              -2.2552e-08          
  0.6                   2.3122e-08            1.36e-12              3.92e-12              -2.3102e-08          
  0.65                  2.3866e-08            1.4e-12               4.78e-12              -2.4028e-08          
  0.7                   2.4592e-08            1.42e-12              6.04e-12              -2.4692e-08          
  0.75                  2.5438e-08            1.42e-12              4.64e-12              -2.5278e-08          
  0.8                   2.598e-08             1.36e-12              3.72e-12              -2.6078e-08          
  0.85                  2.6632e-08            1.3e-12               4.18e-12              -2.6712e-08          
  0.9                   2.7322e-08            1.4e-12               4.86e-12              -2.7282e-08          
  0.95                  2.788e-08             1.34e-12              3.86e-12              -2.7992e-08          
  1                     2.8534e-08            1.32e-12              3.52e-12              -2.855e-08           
  1.05                  2.9098e-08            1.18e-12              3.04e-12              -2.9066e-08          
  1.1                   2.9616e-08            1.24e-12              4.14e-12              -2.9578e-08          
  1.15                  3.0144e-08            1.16e-12              3.54e-12              -3.0114e-08          
  1.2                   3.0662e-08            1.12e-12              2.62e-12              -3.064e-08           
  1.25                  3.116e-08             1.06e-12              1.72e-12              -3.1128e-08          
  1.3                   3.1666e-08            1.1e-12               9e-13                 -3.1622e-08          
  1.35                  3.2108e-08            1.04e-12              1.14e-12              -3.2088e-08          
END_DB

BEGIN_DB
 ICCAP_VAR vg         0.537          
 ICCAP_VAR vb         0              
 ICCAP_VAR vs         0              

 #vd                    id                    ig                    ib                    is                   
  0                     1.607e-10             3.068e-11             4.14e-12              -1.9944e-10          
  0.05                  1.083e-07             2.54e-11              2.74e-12              -1.0822e-07          
  0.1                   1.9386e-07            2.17e-11              3.06e-12              -1.9376e-07          
  0.15                  2.5354e-07            1.932e-11             2.22e-12              -2.5344e-07          
  0.2                   2.8692e-07            1.79e-11              2.06e-12              -2.8682e-07          
  0.25                  3.017e-07             1.74e-11              2.46e-12              -3.0156e-07          
  0.3                   3.108e-07             1.706e-11             2.92e-12              -3.1068e-07          
  0.35                  3.167e-07             1.69e-11              2.46e-12              -3.1622e-07          
  0.4                   3.216e-07             1.666e-11             1.9e-12               -3.2088e-07          
  0.45                  3.2548e-07            1.654e-11             3.16e-12              -3.2582e-07          
  0.5                   3.3014e-07            1.636e-11             3.46e-12              -3.2974e-07          
  0.55                  3.3418e-07            1.628e-11             1.34e-12              -3.3442e-07          
  0.6                   3.3764e-07            1.604e-11             2.42e-12              -3.3822e-07          
  0.65                  3.419e-07             1.598e-11             2.12e-12              -3.4186e-07          
  0.7                   3.4536e-07            1.592e-11             2.54e-12              -3.452e-07           
  0.75                  3.4808e-07            1.572e-11             2.04e-12              -3.481e-07           
  0.8                   3.521e-07             1.566e-11             1.4e-12               -3.5144e-07          
  0.85                  3.5504e-07            1.544e-11             2.08e-12              -3.5448e-07          
  0.9                   3.5834e-07            1.546e-11             2.36e-12              -3.5812e-07          
  0.95                  3.6126e-07            1.528e-11             1.26e-12              -3.6064e-07          
  1                     3.6406e-07            1.516e-11             1.32e-12              -3.6346e-07          
  1.05                  3.6652e-07            1.508e-11             2.3e-12               -3.6672e-07          
  1.1                   3.6916e-07            1.494e-11             2.2e-12               -3.6888e-07          
  1.15                  3.7176e-07            1.494e-11             1.64e-12              -3.7194e-07          
  1.2                   3.744e-07             1.486e-11             8e-13                 -3.7444e-07          
  1.25                  3.7678e-07            1.484e-11             1.92e-12              -3.7646e-07          
  1.3                   3.7904e-07            1.466e-11             4.4e-13               -3.7884e-07          
  1.35                  3.812e-07             1.458e-11             -2.18e-12             -3.8116e-07          
END_DB

BEGIN_DB
 ICCAP_VAR vg         0.808          
 ICCAP_VAR vb         0              
 ICCAP_VAR vs         0              

 #vd                    id                    ig                    ib                    is                   
  0                     2.0948e-10            1.8526e-10            5.22e-12              -3.9982e-10          
  0.05                  1.9422e-07            1.6128e-10            1.44e-12              -1.9426e-07          
  0.1                   3.7132e-07            1.4122e-10            2.26e-12              -3.7136e-07          
  0.15                  5.3032e-07            1.2498e-10            1.08e-12              -5.3036e-07          
  0.2                   6.6982e-07            1.1172e-10            1e-12                 -6.6992e-07          
  0.25                  7.8832e-07            1.0162e-10            1.48e-12              -7.884e-07           
  0.3                   8.8324e-07            9.396e-11             2.04e-12              -8.8326e-07          
  0.35                  9.5214e-07            8.876e-11             1.62e-12              -9.523e-07           
  0.4                   9.9586e-07            8.552e-11             1.22e-12              -9.9594e-07          
  0.45                  1.02052e-06           8.386e-11             1.46e-12              -1.02064e-06         
  0.5                   1.03524e-06           8.286e-11             1.78e-12              -1.03516e-06         
  0.55                  1.04452e-06           8.204e-11             7.2e-13               -1.04582e-06         
  0.6                   1.05428e-06           8.146e-11             6.4e-13               -1.0532e-06          
  0.65                  1.0618e-06            8.08e-11              1.04e-12              -1.06188e-06         
  0.7                   1.06882e-06           8.042e-11             1.48e-12              -1.06774e-06         
  0.75                  1.07472e-06           8.012e-11             1.06e-12              -1.0754e-06          
  0.8                   1.08034e-06           7.966e-11             6.2e-13               -1.08104e-06         
  0.85                  1.08728e-06           7.916e-11             1.46e-12              -1.08716e-06         
  0.9                   1.093e-06             7.884e-11             1.92e-12              -1.093e-06           
  0.95                  1.0984e-06            7.864e-11             1.16e-12              -1.0985e-06          
  1                     1.10366e-06           7.806e-11             9.8e-13               -1.10316e-06         
  1.05                  1.10808e-06           7.78e-11              1.36e-12              -1.10792e-06         
  1.1                   1.11338e-06           7.744e-11             1.26e-12              -1.11388e-06         
  1.15                  1.11782e-06           7.72e-11              7.4e-13               -1.11826e-06         
  1.2                   1.12312e-06           7.67e-11              5.6e-13               -1.12268e-06         
  1.25                  1.12756e-06           7.65e-11              1.38e-12              -1.12768e-06         
  1.3                   1.13144e-06           7.644e-11             2.44e-12              -1.13202e-06         
  1.35                  1.13604e-06           7.612e-11             9.8e-13               -1.13572e-06         
END_DB

BEGIN_DB
 ICCAP_VAR vg         1.079          
 ICCAP_VAR vb         0              
 ICCAP_VAR vs         0              

 #vd                    id                    ig                    ib                    is                   
  0                     5.54e-11              7.0802e-10            1.88e-12              -7.6804e-10          
  0.05                  2.6034e-07            6.355e-10             1.52e-12              -2.6086e-07          
  0.1                   5.0772e-07            5.7254e-10            -1.58e-12             -5.082e-07           
  0.15                  7.4118e-07            5.1764e-10            2.4e-13               -7.4172e-07          
  0.2                   9.5988e-07            4.7042e-10            2.12e-12              -9.6034e-07          
  0.25                  1.1646e-06            4.2958e-10            1.1e-12               -1.161e-06           
  0.3                   1.3516e-06            3.9386e-10            1.64e-12              -1.348e-06           
  0.35                  1.5212e-06            3.6588e-10            1.08e-12              -1.5176e-06          
  0.4                   1.672e-06             3.4162e-10            1.02e-12              -1.6684e-06          
  0.45                  1.8022e-06            3.2212e-10            1.82e-12              -1.7986e-06          
  0.5                   1.91e-06              3.068e-10             1.56e-12              -1.9064e-06          
  0.55                  1.9932e-06            2.953e-10             5.8e-13               -1.9896e-06          
  0.6                   2.0516e-06            2.8772e-10            1.3e-12               -2.0482e-06          
  0.65                  2.0892e-06            2.8278e-10            1.14e-12              -2.0856e-06          
  0.7                   2.1128e-06            2.798e-10             1.2e-13               -2.1092e-06          
  0.75                  2.1288e-06            2.779e-10             1.48e-12              -2.1246e-06          
  0.8                   2.1414e-06            2.7632e-10            1.14e-12              -2.1378e-06          
  0.85                  2.1506e-06            2.7522e-10            2e-13                 -2.1472e-06          
  0.9                   2.1602e-06            2.7376e-10            1.56e-12              -2.1578e-06          
  0.95                  2.1702e-06            2.7268e-10            1.2e-12               -2.1666e-06          
  1                     2.1786e-06            2.718e-10             2.6e-13               -2.175e-06           
  1.05                  2.1864e-06            2.7076e-10            6.2e-13               -2.1828e-06          
  1.1                   2.194e-06             2.6996e-10            1.22e-12              -2.1902e-06          
  1.15                  2.2014e-06            2.6904e-10            3e-13                 -2.197e-06           
  1.2                   2.208e-06             2.6798e-10            1.22e-12              -2.2036e-06          
  1.25                  2.2144e-06            2.6736e-10            6.4e-13               -2.2112e-06          
  1.3                   2.221e-06             2.6676e-10            2.6e-13               -2.2172e-06          
  1.35                  2.2276e-06            2.6606e-10            1.42e-12              -2.2242e-06          
END_DB

BEGIN_DB
 ICCAP_VAR vg         1.35           
 ICCAP_VAR vb         0              
 ICCAP_VAR vs         0              

 #vd                    id                    ig                    ib                    is                   
  0                     -5.3064e-10           2.043e-09             3.4e-13               -1.4838e-09          
  0.05                  3.065e-07             1.872e-09             -2.4e-13              -3.0826e-07          
  0.1                   6.0438e-07            1.7178e-09            6.2e-13               -6.0604e-07          
  0.15                  8.9208e-07            1.5794e-09            3e-13                 -8.936e-07           
  0.2                   1.1702e-06            1.4556e-09            3e-13                 -1.1678e-06          
  0.25                  1.4356e-06            1.3456e-09            1.1e-12               -1.4332e-06          
  0.3                   1.6888e-06            1.2474e-09            -2e-14                -1.6862e-06          
  0.35                  1.9292e-06            1.1608e-09            -2e-14                -1.9266e-06          
  0.4                   2.1558e-06            1.0844e-09            1.08e-12              -2.153e-06           
  0.45                  2.3674e-06            1.0178e-09            2.8e-13               -2.3648e-06          
  0.5                   2.5642e-06            9.5896e-10            6.6e-13               -2.5614e-06          
  0.55                  2.7446e-06            9.0888e-10            1.18e-12              -2.7416e-06          
  0.6                   2.9072e-06            8.6612e-10            -2e-14                -2.9042e-06          
  0.65                  3.051e-06             8.304e-10             8e-13                 -3.048e-06           
  0.7                   3.1736e-06            8.013e-10             1.42e-12              -3.1706e-06          
  0.75                  3.2734e-06            7.7856e-10            2.8e-13               -3.2702e-06          
  0.8                   3.3488e-06            7.6182e-10            6.6e-13               -3.346e-06           
  0.85                  3.4026e-06            7.5008e-10            1.34e-12              -3.3996e-06          
  0.9                   3.4386e-06            7.4246e-10            -3.8e-13              -3.4354e-06          
  0.95                  3.4626e-06            7.3728e-10            -2.2e-13              -3.4596e-06          
  1                     3.4806e-06            7.3398e-10            1.6e-12               -3.4774e-06          
  1.05                  3.4948e-06            7.307e-10             6e-13                 -3.4914e-06          
  1.1                   3.507e-06             7.2818e-10            6e-14                 -3.504e-06           
  1.15                  3.5182e-06            7.258e-10             9.2e-13               -3.5152e-06          
  1.2                   3.5284e-06            7.2372e-10            7.2e-13               -3.5256e-06          
  1.25                  3.5382e-06            7.216e-10             -3.8e-13              -3.5352e-06          
  1.3                   3.5474e-06            7.1982e-10            1.48e-12              -3.5442e-06          
  1.35                  3.5562e-06            7.182e-10             6.6e-13               -3.553e-06           
END_DB

