! VERSION = 6.00
BEGIN_HEADER
 ICCAP_INPUTS
  vd         V  D GROUND SMU1 0.1 LIN        1    0          1.35       28   0.05      
  vg         V  G GROUND SMU2 0.001 LIN        2    0.614      1.35       5    0.184     
  vb         V  B GROUND SMU4 0.1 CON        -1.2
  vs         V  S GROUND SMU3 0.1 CON        0
 ICCAP_OUTPUTS
  id         I  D GROUND SMU1 B
  ig         I  G GROUND SMU2 B
  ib         I  B GROUND SMU4 B
  is         I  S GROUND SMU3 B
 ICCAP_VALUES
  MASTER_SETUP_TYPE "~dc_idvd~"
  LINVT_VALUE "|idvg|100.0n|100.0m|1.000m|5|1.350|"
  LISTVT_VALUE ""
  TYPE "1"
  TEMP " 27.0000 "
  IS_TNOM " 1.00000 "
  MAIN.W "180.0n"
  MAIN.L "150.0n"
  MAIN.AD "102.6f"
  MAIN.AS "102.6f"
  MAIN.PD "1.340u"
  MAIN.PS "1.340u"
  MAIN.NF "1.000"
  MAIN.M "1"
  MAIN.NRD "0.000"
  MAIN.NRS "0.000"
  MAIN.LDRIFT1 "1E-06"
  MAIN.LDRIFT2 "1E-06"
  MAIN.SA "0.000"
  MAIN.SB "0.000"
  MAIN.SD "0.000"
  MAIN.SCA "0.000"
  MAIN.SCB "0.000"
  MAIN.SCC "0.000"
  MAIN.SC "0.000"
  MODULE "S545"
  PIN_D "12"
  PIN_G "9"
  PIN_S "10"
  PIN_B "11"
  PIN_E ""
  PIN_6 ""
  XY_ID ""
  FUNC "LW Scale"
  STI "SA ref"
  WPE "WPE ref"
  COMMENT ""
  DIS_MEAS ""
  TypeTCI "10"
END_HEADER

BEGIN_DB
 ICCAP_VAR vg         0.614          
 ICCAP_VAR vb         -1.2           
 ICCAP_VAR vs         0              

 #vd                    id                    ig                    ib                    is                   
  0                     8.84e-10              1.2e-12               -1.298e-11            -6.7074e-10          
  0.05                  3.2534e-07            8.8e-13               -1.21e-11             -3.2522e-07          
  0.1                   4.7102e-07            7.2e-13               -1.224e-11            -4.709e-07           
  0.15                  5.6208e-07            5.8e-13               -1.284e-11            -5.6208e-07          
  0.2                   6.36e-07              6e-13                 -1.114e-11            -6.3586e-07          
  0.25                  7.0298e-07            6e-13                 -9.92e-12             -7.0284e-07          
  0.3                   7.6672e-07            5.6e-13               -1.026e-11            -7.667e-07           
  0.35                  8.2888e-07            5.6e-13               -1.006e-11            -8.2888e-07          
  0.4                   8.9062e-07            5.8e-13               -9.78e-12             -8.9048e-07          
  0.45                  9.5216e-07            5.2e-13               -8.76e-12             -9.5212e-07          
  0.5                   1.01448e-06           5.8e-13               -8.9e-12              -1.01434e-06         
  0.55                  1.0775e-06            5e-13                 -9.58e-12             -1.07758e-06         
  0.6                   1.14196e-06           4.8e-13               -8.94e-12             -1.1421e-06          
  0.65                  1.2088e-06            4.4e-13               -6.78e-12             -1.2048e-06          
  0.7                   1.2752e-06            4.8e-13               -6.84e-12             -1.2716e-06          
  0.75                  1.343e-06             4.4e-13               -6.62e-12             -1.3394e-06          
  0.8                   1.4124e-06            4.4e-13               -7.24e-12             -1.4084e-06          
  0.85                  1.4828e-06            4e-13                 -6.9e-12              -1.4788e-06          
  0.9                   1.5548e-06            3.2e-13               -6.12e-12             -1.5508e-06          
  0.95                  1.6284e-06            3e-13                 -6.18e-12             -1.6244e-06          
  1                     1.7032e-06            3.8e-13               -7.76e-12             -1.6996e-06          
  1.05                  1.78e-06              2.4e-13               -6.52e-12             -1.7758e-06          
  1.1                   1.8578e-06            3.8e-13               -8.62e-12             -1.8544e-06          
  1.15                  1.9378e-06            3e-13                 -1.222e-11            -1.9338e-06          
  1.2                   2.0194e-06            3.2e-13               -2.03e-11             -2.0158e-06          
  1.25                  2.1024e-06            2.6e-13               -3.18e-11             -2.0988e-06          
  1.3                   2.1874e-06            2e-13                 -5.646e-11            -2.1836e-06          
  1.35                  2.274e-06             1.6e-13               -9.572e-11            -2.2702e-06          
END_DB

BEGIN_DB
 ICCAP_VAR vg         0.798          
 ICCAP_VAR vb         -1.2           
 ICCAP_VAR vs         0              

 #vd                    id                    ig                    ib                    is                   
  0                     2.8728e-09            4.88e-12              -2.46e-12             -2.9248e-09          
  0.05                  2.4712e-06            3.96e-12              -4.26e-12             -2.467e-06           
  0.1                   4.1752e-06            3.62e-12              -3.92e-12             -4.1714e-06          
  0.15                  5.3054e-06            3.06e-12              -3.76e-12             -5.3016e-06          
  0.2                   6.0672e-06            2.82e-12              -4.34e-12             -6.0632e-06          
  0.25                  6.6166e-06            2.54e-12              -3.78e-12             -6.6124e-06          
  0.3                   7.0446e-06            2.44e-12              -3.58e-12             -7.041e-06           
  0.35                  7.4016e-06            2.28e-12              -4.18e-12             -7.3982e-06          
  0.4                   7.7172e-06            2.24e-12              -3.72e-12             -7.7144e-06          
  0.45                  8.0072e-06            2.2e-12               -3e-12                -8.003e-06           
  0.5                   8.282e-06             2.12e-12              -4.04e-12             -8.2776e-06          
  0.55                  8.5468e-06            2.18e-12              -3.72e-12             -8.5432e-06          
  0.6                   8.8064e-06            2.1e-12               -3.26e-12             -8.8018e-06          
  0.65                  9.0628e-06            2.02e-12              -4.56e-12             -9.0592e-06          
  0.7                   9.318e-06             2.04e-12              -3.52e-12             -9.3148e-06          
  0.75                  9.5736e-06            1.98e-12              -2.98e-12             -9.5702e-06          
  0.8                   9.8284e-06            1.92e-12              -4.04e-12             -9.8246e-06          
  0.85                  1.00834e-05           2.1e-12               -3.54e-12             -1.008e-05           
  0.9                   1.03416e-05           1.98e-12              -2.84e-12             -1.0337e-05          
  0.95                  1.05986e-05           1.9e-12               -3.92e-12             -1.05952e-05         
  1                     1.08582e-05           1.8e-12               -4.28e-12             -1.08542e-05         
  1.05                  1.11188e-05           1.7e-12               -4.52e-12             -1.11146e-05         
  1.1                   1.1388e-05            1.82e-12              -6.5e-12              -1.13764e-05         
  1.15                  1.165e-05             1.68e-12              -1.228e-11            -1.16398e-05         
  1.2                   1.1918e-05            1.66e-12              -2.388e-11            -1.1898e-05          
  1.25                  1.2182e-05            1.7e-12               -5.086e-11            -1.2164e-05          
  1.3                   1.2452e-05            1.52e-12              -9.956e-11            -1.2434e-05          
  1.35                  1.2722e-05            1.54e-12              -1.8566e-10           -1.2706e-05          
END_DB

BEGIN_DB
 ICCAP_VAR vg         0.982          
 ICCAP_VAR vb         -1.2           
 ICCAP_VAR vs         0              

 #vd                    id                    ig                    ib                    is                   
  0                     3.5312e-09            1.294e-11             -2.32e-12             -5.1158e-09          
  0.05                  5.4774e-06            1.148e-11             -1.86e-12             -5.473e-06           
  0.1                   9.9972e-06            1.028e-11             -3.78e-12             -9.9936e-06          
  0.15                  1.3586e-05            9.3e-12               -2.42e-12             -1.3566e-05          
  0.2                   1.6328e-05            8.48e-12              -3.04e-12             -1.631e-05           
  0.25                  1.8402e-05            7.96e-12              -2e-12                -1.8386e-05          
  0.3                   1.9976e-05            7.46e-12              -3.14e-12             -1.996e-05           
  0.35                  2.1192e-05            6.88e-12              -2.86e-12             -2.1174e-05          
  0.4                   2.2158e-05            6.76e-12              -1.6e-12              -2.214e-05           
  0.45                  2.2952e-05            6.54e-12              -2.3e-12              -2.2934e-05          
  0.5                   2.3636e-05            6.38e-12              -3.12e-12             -2.3618e-05          
  0.55                  2.425e-05             6.26e-12              -2.18e-12             -2.4232e-05          
  0.6                   2.4814e-05            6.16e-12              -2.42e-12             -2.4796e-05          
  0.65                  2.5346e-05            6e-12                 -2.52e-12             -2.5328e-05          
  0.7                   2.5852e-05            5.86e-12              -1.6e-12              -2.5832e-05          
  0.75                  2.6344e-05            5.94e-12              -2.52e-12             -2.6326e-05          
  0.8                   2.6824e-05            5.68e-12              -2.5e-12              -2.6808e-05          
  0.85                  2.7298e-05            5.66e-12              -1.98e-12             -2.728e-05           
  0.9                   2.7764e-05            5.72e-12              -2.14e-12             -2.7748e-05          
  0.95                  2.823e-05             5.66e-12              -2.4e-12              -2.8212e-05          
  1                     2.869e-05             5.5e-12               -2.24e-12             -2.8672e-05          
  1.05                  2.9146e-05            5.42e-12              -4.52e-12             -2.913e-05           
  1.1                   2.96e-05              5.32e-12              -7.52e-12             -2.9584e-05          
  1.15                  3.0054e-05            5.2e-12               -1.362e-11            -3.0036e-05          
  1.2                   3.0502e-05            5.3e-12               -2.858e-11            -3.0486e-05          
  1.25                  3.0952e-05            5.16e-12              -5.818e-11            -3.0934e-05          
  1.3                   3.1402e-05            5.02e-12              -1.1536e-10           -3.1384e-05          
  1.35                  3.1848e-05            5.04e-12              -2.2084e-10           -3.1834e-05          
END_DB

BEGIN_DB
 ICCAP_VAR vg         1.166          
 ICCAP_VAR vb         -1.2           
 ICCAP_VAR vs         0              

 #vd                    id                    ig                    ib                    is                   
  0                     1.3352e-08            2.682e-11             -1.66e-12             -1.283e-08           
  0.05                  8.3202e-06            2.452e-11             -2.68e-12             -8.3176e-06          
  0.1                   1.5704e-05            2.256e-11             -8.8e-13              -1.5684e-05          
  0.15                  2.2036e-05            2.098e-11             -2.22e-12             -2.202e-05           
  0.2                   2.732e-05             1.942e-11             -1.6e-12              -2.73e-05            
  0.25                  3.1616e-05            1.814e-11             -1.4e-12              -3.1596e-05          
  0.3                   3.5044e-05            1.712e-11             -2.16e-12             -3.5026e-05          
  0.35                  3.7764e-05            1.628e-11             -1.3e-12              -3.7744e-05          
  0.4                   3.9932e-05            1.552e-11             -1.72e-12             -3.9914e-05          
  0.45                  4.1684e-05            1.486e-11             -2.9e-12              -4.1668e-05          
  0.5                   4.3126e-05            1.454e-11             -1.6e-12              -4.3112e-05          
  0.55                  4.4342e-05            1.418e-11             -1.94e-12             -4.4324e-05          
  0.6                   4.5384e-05            1.374e-11             -2.1e-12              -4.5368e-05          
  0.65                  4.6306e-05            1.352e-11             -1.3e-12              -4.629e-05           
  0.7                   4.714e-05             1.348e-11             -2e-12                -4.6904e-05          
  0.75                  4.7914e-05            1.322e-11             -2.7e-12              -4.7896e-05          
  0.8                   4.8638e-05            1.292e-11             -1.4e-12              -4.8622e-05          
  0.85                  4.9332e-05            1.282e-11             -1.82e-12             -4.9316e-05          
  0.9                   5e-05                 1.27e-11              -2.86e-12             -4.9986e-05          
  0.95                  5.065e-05             1.25e-11              -1.56e-12             -5.0632e-05          
  1                     5.1282e-05            1.244e-11             -3.4e-12              -5.1266e-05          
  1.05                  5.1904e-05            1.232e-11             -5.38e-12             -5.1888e-05          
  1.1                   5.2516e-05            1.212e-11             -7.66e-12             -5.25e-05            
  1.15                  5.3118e-05            1.204e-11             -1.436e-11            -5.3102e-05          
  1.2                   5.3718e-05            1.184e-11             -3.116e-11            -5.3702e-05          
  1.25                  5.431e-05             1.172e-11             -6.048e-11            -5.4292e-05          
  1.3                   5.4896e-05            1.154e-11             -1.1902e-10           -5.4876e-05          
  1.35                  5.5476e-05            1.154e-11             -2.2504e-10           -5.5458e-05          
END_DB

BEGIN_DB
 ICCAP_VAR vg         1.35           
 ICCAP_VAR vb         -1.2           
 ICCAP_VAR vs         0              

 #vd                    id                    ig                    ib                    is                   
  0                     1.701e-08             4.72e-11              -3e-13                -1.6802e-08          
  0.05                  1.0758e-05            4.414e-11             -1.8e-12              -1.074e-05           
  0.1                   2.0608e-05            4.126e-11             -1.28e-12             -2.0594e-05          
  0.15                  2.9312e-05            3.87e-11              -1.28e-12             -2.939e-05           
  0.2                   3.7094e-05            3.64e-11              -2.36e-12             -3.708e-05           
  0.25                  4.3676e-05            3.426e-11             -1.34e-12             -4.3658e-05          
  0.3                   4.9216e-05            3.258e-11             -9.6e-13              -4.9212e-05          
  0.35                  5.381e-05             3.088e-11             -1.88e-12             -5.38e-05            
  0.4                   5.7582e-05            2.948e-11             -1.44e-12             -5.7566e-05          
  0.45                  6.0644e-05            2.844e-11             -8.4e-13              -6.063e-05           
  0.5                   6.3166e-05            2.758e-11             -1.96e-12             -6.3146e-05          
  0.55                  6.5246e-05            2.666e-11             -1.9e-12              -6.5232e-05          
  0.6                   6.6998e-05            2.604e-11             -1.1e-12              -6.698e-05           
  0.65                  6.8496e-05            2.558e-11             -2.44e-12             -6.8478e-05          
  0.7                   6.98e-05              2.496e-11             -1.4e-12              -6.9784e-05          
  0.75                  7.0966e-05            2.46e-11              -1.36e-12             -7.0958e-05          
  0.8                   7.2018e-05            2.422e-11             -2.2e-12              -7.2008e-05          
  0.85                  7.2986e-05            2.384e-11             -1.5e-12              -7.2972e-05          
  0.9                   7.3894e-05            2.356e-11             -1.92e-12             -7.3882e-05          
  0.95                  7.4748e-05            2.342e-11             -2.64e-12             -7.473e-05           
  1                     7.5568e-05            2.308e-11             -2.56e-12             -7.5552e-05          
  1.05                  7.635e-05             2.28e-11              -4e-12                -7.6336e-05          
  1.1                   7.7116e-05            2.264e-11             -9.3e-12              -7.7098e-05          
  1.15                  7.7858e-05            2.246e-11             -1.588e-11            -7.7842e-05          
  1.2                   7.8584e-05            2.22e-11              -3.072e-11            -7.8568e-05          
  1.25                  7.9292e-05            2.22e-11              -6.066e-11            -7.9276e-05          
  1.3                   7.999e-05             2.19e-11              -1.1468e-10           -7.9978e-05          
  1.35                  8.068e-05             2.176e-11             -2.1452e-10           -8.067e-05           
END_DB

