! VERSION = 6.00
BEGIN_HEADER
 ICCAP_INPUTS
  vd         V  D GROUND SMU1 0.1 LIN        1    0          1.35       28   0.05      
  vg         V  G GROUND SMU2 0.001 LIN        2    0.482      1.35       5    0.217     
  vb         V  B GROUND SMU4 0.1 CON        0
  vs         V  S GROUND SMU3 0.1 CON        0
 ICCAP_OUTPUTS
  id         I  D GROUND SMU1 B
  ig         I  G GROUND SMU2 B
  ib         I  B GROUND SMU4 B
  is         I  S GROUND SMU3 B
 ICCAP_VALUES
  MASTER_SETUP_TYPE "~dc_idvd~"
  LINVT_VALUE "|idvg|100.0n|100.0m|1.000m|5|1.350|"
  LISTVT_VALUE ""
  TYPE "1"
  TEMP " 27.0000 "
  IS_TNOM " 1.00000 "
  MAIN.W "180.0n"
  MAIN.L "150.0n"
  MAIN.AD "102.6f"
  MAIN.AS "102.6f"
  MAIN.PD "1.340u"
  MAIN.PS "1.340u"
  MAIN.NF "1.000"
  MAIN.M "1"
  MAIN.NRD "0.000"
  MAIN.NRS "0.000"
  MAIN.LDRIFT1 "1E-06"
  MAIN.LDRIFT2 "1E-06"
  MAIN.SA "0.000"
  MAIN.SB "0.000"
  MAIN.SD "0.000"
  MAIN.SCA "0.000"
  MAIN.SCB "0.000"
  MAIN.SCC "0.000"
  MAIN.SC "0.000"
  MODULE "S545"
  PIN_D "12"
  PIN_G "9"
  PIN_S "10"
  PIN_B "11"
  PIN_E ""
  PIN_6 ""
  XY_ID ""
  FUNC "LW Scale"
  STI "SA ref"
  WPE "WPE ref"
  COMMENT ""
  DIS_MEAS ""
  TypeTCI "10"
END_HEADER

BEGIN_DB
 ICCAP_VAR vg         0.482          
 ICCAP_VAR vb         0              
 ICCAP_VAR vs         0              

 #vd                    id                    ig                    ib                    is                   
  0                     1.0288e-09            6e-13                 7.74e-12              -7.8838e-10          
  0.05                  4.1596e-07            3e-13                 6.46e-12              -4.1586e-07          
  0.1                   5.8356e-07            2.6e-13               6.2e-12               -5.8354e-07          
  0.15                  6.7036e-07            2.2e-13               7.04e-12              -6.7038e-07          
  0.2                   7.3216e-07            2.6e-13               5.52e-12              -7.3218e-07          
  0.25                  7.8458e-07            2e-13                 5.44e-12              -7.845e-07           
  0.3                   8.3236e-07            2.6e-13               5.38e-12              -8.3236e-07          
  0.35                  8.7806e-07            1.6e-13               6.28e-12              -8.781e-07           
  0.4                   9.2282e-07            2.8e-13               5.58e-12              -9.2276e-07          
  0.45                  9.6712e-07            2.2e-13               4.88e-12              -9.671e-07           
  0.5                   1.01132e-06           2.4e-13               4.84e-12              -1.0113e-06          
  0.55                  1.05566e-06           3.2e-13               5.9e-12               -1.05568e-06         
  0.6                   1.09988e-06           2e-13                 4.22e-12              -1.09988e-06         
  0.65                  1.14424e-06           2.6e-13               4.06e-12              -1.14428e-06         
  0.7                   1.1908e-06            1.2e-13               5.44e-12              -1.1864e-06          
  0.75                  1.2348e-06            1.8e-13               4.36e-12              -1.231e-06           
  0.8                   1.2794e-06            1.6e-13               3.86e-12              -1.2754e-06          
  0.85                  1.3242e-06            1e-13                 4.42e-12              -1.3204e-06          
  0.9                   1.3692e-06            2.2e-13               3.58e-12              -1.3652e-06          
  0.95                  1.4144e-06            8e-14                 3.46e-12              -1.4106e-06          
  1                     1.4596e-06            4e-14                 3.2e-12               -1.4564e-06          
  1.05                  1.506e-06             8e-14                 2.3e-12               -1.5014e-06          
  1.1                   1.5514e-06            4e-14                 5.4e-13               -1.5474e-06          
  1.15                  1.5974e-06            0                     -2.98e-12             -1.5936e-06          
  1.2                   1.644e-06             1.4e-13               -1.244e-11            -1.6382e-06          
  1.25                  1.6884e-06            1.6e-13               -2.782e-11            -1.6848e-06          
  1.3                   1.7354e-06            -1.2e-13              -5.394e-11            -1.7316e-06          
  1.35                  1.7828e-06            -8e-14                -9.71e-11             -1.7788e-06          
END_DB

BEGIN_DB
 ICCAP_VAR vg         0.699          
 ICCAP_VAR vb         0              
 ICCAP_VAR vs         0              

 #vd                    id                    ig                    ib                    is                   
  0                     3.4658e-09            2.8e-12               6.68e-12              -3.4458e-09          
  0.05                  3.242e-06             2.28e-12              1.92e-12              -3.2378e-06          
  0.1                   5.5402e-06            1.84e-12              1.82e-12              -5.5362e-06          
  0.15                  7.0808e-06            1.72e-12              2.7e-12               -7.0772e-06          
  0.2                   8.0904e-06            1.52e-12              1.72e-12              -8.0868e-06          
  0.25                  8.767e-06             1.42e-12              1.98e-12              -8.7632e-06          
  0.3                   9.2466e-06            1.36e-12              2.28e-12              -9.243e-06           
  0.35                  9.6138e-06            1.36e-12              1.86e-12              -9.6104e-06          
  0.4                   9.9192e-06            1.3e-12               2.34e-12              -9.9148e-06          
  0.45                  1.0185e-05            1.26e-12              2.42e-12              -1.0182e-05          
  0.5                   1.04292e-05           1.3e-12               1.78e-12              -1.04256e-05         
  0.55                  1.06604e-05           1.2e-12               1.12e-12              -1.06558e-05         
  0.6                   1.0882e-05            1.18e-12              3.06e-12              -1.08782e-05         
  0.65                  1.1104e-05            1.22e-12              1.7e-12               -1.10932e-05         
  0.7                   1.1316e-05            9.8e-13               1.2e-12               -1.13046e-05         
  0.75                  1.1524e-05            1.04e-12              1.6e-12               -1.1513e-05          
  0.8                   1.1728e-05            1.06e-12              1.68e-12              -1.1712e-05          
  0.85                  1.1932e-05            1.1e-12               2.6e-12               -1.1916e-05          
  0.9                   1.2134e-05            9.8e-13               1.12e-12              -1.2116e-05          
  0.95                  1.2332e-05            1.02e-12              4e-13                 -1.2316e-05          
  1                     1.2532e-05            1e-12                 1.96e-12              -1.2514e-05          
  1.05                  1.2728e-05            8.6e-13               -1.52e-12             -1.2712e-05          
  1.1                   1.2924e-05            1e-12                 -3.48e-12             -1.2908e-05          
  1.15                  1.312e-05             9e-13                 -1.036e-11            -1.3102e-05          
  1.2                   1.3314e-05            8e-13                 -2.792e-11            -1.3296e-05          
  1.25                  1.3506e-05            7.8e-13               -6.226e-11            -1.349e-05           
  1.3                   1.3698e-05            9.2e-13               -1.2452e-10           -1.3676e-05          
  1.35                  1.3884e-05            7e-13                 -2.3754e-10           -1.3868e-05          
END_DB

BEGIN_DB
 ICCAP_VAR vg         0.916          
 ICCAP_VAR vb         0              
 ICCAP_VAR vs         0              

 #vd                    id                    ig                    ib                    is                   
  0                     1.0374e-08            1.006e-11             2.86e-12              -9.738e-09           
  0.05                  6.9574e-06            8.78e-12              1.7e-12               -6.953e-06           
  0.1                   1.2814e-05            7.8e-12               1.66e-12              -1.2796e-05          
  0.15                  1.7548e-05            6.94e-12              2.64e-12              -1.753e-05           
  0.2                   2.124e-05             6.24e-12              1.8e-12               -2.1224e-05          
  0.25                  2.4046e-05            5.76e-12              1.3e-12               -2.4028e-05          
  0.3                   2.6146e-05            5.52e-12              1.8e-12               -2.613e-05           
  0.35                  2.7712e-05            5.1e-12               9.2e-13               -2.7694e-05          
  0.4                   2.889e-05             4.92e-12              1.28e-12              -2.8874e-05          
  0.45                  2.9806e-05            4.68e-12              2.56e-12              -2.979e-05           
  0.5                   3.055e-05             4.62e-12              5.4e-13               -3.0532e-05          
  0.55                  3.1178e-05            4.58e-12              8.6e-13               -3.1162e-05          
  0.6                   3.173e-05             4.52e-12              2.46e-12              -3.1712e-05          
  0.65                  3.2232e-05            4.4e-12               1.14e-12              -3.2216e-05          
  0.7                   3.2702e-05            4.28e-12              1.6e-12               -3.2684e-05          
  0.75                  3.3144e-05            4.28e-12              2.36e-12              -3.3128e-05          
  0.8                   3.3572e-05            4.26e-12              8.2e-13               -3.3554e-05          
  0.85                  3.3982e-05            4.18e-12              1.38e-12              -3.3964e-05          
  0.9                   3.4382e-05            4.14e-12              1.58e-12              -3.4364e-05          
  0.95                  3.4772e-05            4.04e-12              7.2e-13               -3.4756e-05          
  1                     3.5156e-05            3.92e-12              4.6e-13               -3.514e-05           
  1.05                  3.5532e-05            3.96e-12              -8.2e-13              -3.5518e-05          
  1.1                   3.5904e-05            3.76e-12              -6.2e-12              -3.5886e-05          
  1.15                  3.6268e-05            3.66e-12              -1.448e-11            -3.6252e-05          
  1.2                   3.6626e-05            3.82e-12              -3.29e-11             -3.661e-05           
  1.25                  3.698e-05             3.84e-12              -7.2e-11              -3.6964e-05          
  1.3                   3.733e-05             3.64e-12              -1.4364e-10           -3.7312e-05          
  1.35                  3.767e-05             3.62e-12              -2.769e-10            -3.7656e-05          
END_DB

BEGIN_DB
 ICCAP_VAR vg         1.133          
 ICCAP_VAR vb         0              
 ICCAP_VAR vs         0              

 #vd                    id                    ig                    ib                    is                   
  0                     1.4916e-08            2.478e-11             1.44e-12              -1.4704e-08          
  0.05                  1.0334e-05            2.268e-11             1.74e-12              -1.0316e-05          
  0.1                   1.9588e-05            2.08e-11              1.16e-12              -1.9572e-05          
  0.15                  2.765e-05             1.906e-11             4.6e-13               -2.7632e-05          
  0.2                   3.4478e-05            1.768e-11             1.32e-12              -3.446e-05           
  0.25                  4.0112e-05            1.64e-11              3.8e-13               -4.0094e-05          
  0.3                   4.4656e-05            1.524e-11             1.2e-13               -4.4638e-05          
  0.35                  4.8258e-05            1.452e-11             1.4e-12               -4.8242e-05          
  0.4                   5.1092e-05            1.388e-11             7.4e-13               -5.1076e-05          
  0.45                  5.3322e-05            1.324e-11             2.4e-13               -5.3306e-05          
  0.5                   5.5098e-05            1.282e-11             1.22e-12              -5.5084e-05          
  0.55                  5.6534e-05            1.25e-11              8e-13                 -5.6516e-05          
  0.6                   5.7712e-05            1.212e-11             8.4e-13               -5.7696e-05          
  0.65                  5.8706e-05            1.18e-11              1.22e-12              -5.869e-05           
  0.7                   5.9562e-05            1.16e-11              1.38e-12              -5.9546e-05          
  0.75                  6.0328e-05            1.156e-11             4.2e-13               -6.0312e-05          
  0.8                   6.1022e-05            1.136e-11             1.24e-12              -6.1006e-05          
  0.85                  6.1664e-05            1.126e-11             7.6e-13               -6.165e-05           
  0.9                   6.2274e-05            1.108e-11             2.4e-13               -6.2256e-05          
  0.95                  6.2852e-05            1.09e-11              9.4e-13               -6.2834e-05          
  1                     6.3404e-05            1.082e-11             -6.8e-13              -6.339e-05           
  1.05                  6.3942e-05            1.062e-11             -5.6e-13              -6.3928e-05          
  1.1                   6.4462e-05            1.058e-11             -7.06e-12             -6.4444e-05          
  1.15                  6.4964e-05            1.046e-11             -1.678e-11            -6.4946e-05          
  1.2                   6.5454e-05            1.042e-11             -3.55e-11             -6.5442e-05          
  1.25                  6.5936e-05            1.026e-11             -7.2e-11              -6.5922e-05          
  1.3                   6.6408e-05            1.01e-11              -1.4374e-10           -6.6392e-05          
  1.35                  6.6872e-05            1.014e-11             -2.7156e-10           -6.6856e-05          
END_DB

BEGIN_DB
 ICCAP_VAR vg         1.35           
 ICCAP_VAR vb         0              
 ICCAP_VAR vs         0              

 #vd                    id                    ig                    ib                    is                   
  0                     1.9766e-08            4.848e-11             1.68e-12              -1.9386e-08          
  0.05                  1.3062e-05            4.516e-11             -1.2e-13              -1.3044e-05          
  0.1                   2.513e-05             4.218e-11             7.2e-13               -2.511e-05           
  0.15                  3.6012e-05            3.964e-11             1.28e-12              -3.6e-05             
  0.2                   4.5622e-05            3.706e-11             -1e-13                -4.5608e-05          
  0.25                  5.394e-05             3.492e-11             2.4e-13               -5.3926e-05          
  0.3                   6.1024e-05            3.298e-11             1.08e-12              -6.1022e-05          
  0.35                  6.6972e-05            3.144e-11             2.8e-13               -6.6948e-05          
  0.4                   7.1866e-05            3.002e-11             4.4e-13               -7.185e-05           
  0.45                  7.5854e-05            2.872e-11             9.2e-13               -7.5828e-05          
  0.5                   7.9086e-05            2.776e-11             5.8e-13               -7.907e-05           
  0.55                  8.1708e-05            2.676e-11             8.6e-13               -8.1692e-05          
  0.6                   8.3852e-05            2.596e-11             1.02e-12              -8.3834e-05          
  0.65                  8.5628e-05            2.558e-11             6e-14                 -8.5612e-05          
  0.7                   8.7122e-05            2.502e-11             8.2e-13               -8.711e-05           
  0.75                  8.84e-05              2.448e-11             1.12e-12              -8.8384e-05          
  0.8                   8.9512e-05            2.41e-11              6.8e-13               -8.9498e-05          
  0.85                  9.0504e-05            2.37e-11              1.2e-12               -9.0486e-05          
  0.9                   9.1398e-05            2.352e-11             5e-13                 -9.1382e-05          
  0.95                  9.222e-05             2.326e-11             -5.6e-13              -9.2202e-05          
  1                     9.2982e-05            2.29e-11              -4.8e-13              -9.2964e-05          
  1.05                  9.3698e-05            2.268e-11             -2.96e-12             -9.3682e-05          
  1.1                   9.4376e-05            2.234e-11             -7.86e-12             -9.436e-05           
  1.15                  9.5028e-05            2.224e-11             -1.618e-11            -9.5014e-05          
  1.2                   9.5652e-05            2.2e-11               -3.444e-11            -9.5638e-05          
  1.25                  9.6256e-05            2.182e-11             -6.85e-11             -9.6238e-05          
  1.3                   9.6838e-05            2.156e-11             -1.323e-10            -9.682e-05           
  1.35                  9.7406e-05            2.134e-11             -2.4668e-10           -9.739e-05           
END_DB

