! VERSION = 6.00
BEGIN_HEADER
 ICCAP_INPUTS
  vd         V  D GROUND SMU1 0.1 LIN        1    0          1.35       28   0.05      
  vg         V  G GROUND SMU2 0.001 LIST       2 3 0.081 0.281 0.481
  vb         V  B GROUND SMU4 0.1 CON        -1.2
  vs         V  S GROUND SMU3 0.1 CON        0
 ICCAP_OUTPUTS
  id         I  D GROUND SMU1 B
  ig         I  G GROUND SMU2 B
  ib         I  B GROUND SMU4 B
  is         I  S GROUND SMU3 B
 ICCAP_VALUES
  MASTER_SETUP_TYPE "~dc_idvd~"
  LINVT_VALUE ""
  LISTVT_VALUE "|idvg|100.0n|-200.0m|1.000m|3|200.0m|200.0m|"
  TYPE "1"
  TEMP " 27.0000 "
  IS_TNOM " 1.00000 "
  MAIN.W "600.0n"
  MAIN.L "10.00u"
  MAIN.AD "204.0f"
  MAIN.AS "204.0f"
  MAIN.PD "1.880u"
  MAIN.PS "1.880u"
  MAIN.NF "1.000"
  MAIN.M "1"
  MAIN.NRD "0.000"
  MAIN.NRS "0.000"
  MAIN.LDRIFT1 "1E-06"
  MAIN.LDRIFT2 "1E-06"
  MAIN.SA "0.000"
  MAIN.SB "0.000"
  MAIN.SD "0.000"
  MAIN.SCA "0.000"
  MAIN.SCB "0.000"
  MAIN.SCC "0.000"
  MAIN.SC "0.000"
  MODULE "S544"
  PIN_D "20"
  PIN_G "1"
  PIN_S "2"
  PIN_B "19"
  PIN_E ""
  PIN_6 ""
  XY_ID ""
  FUNC "W Scale"
  STI "SA ref"
  WPE "WPE ref"
  COMMENT ""
  DIS_MEAS ""
  TypeTCI "10"
END_HEADER

BEGIN_DB
 ICCAP_VAR vg         0.081          
 ICCAP_VAR vb         -1.2           
 ICCAP_VAR vs         0              

 #vd                    id                    ig                    ib                    is                   
  0                     -1.4e-13              -3.6e-13              -6.1e-12              0                    
  0.05                  6.9e-12               -6e-14                -6.16e-12             -6.54e-12            
  0.1                   8.32e-12              -1.2e-13              -5.04e-12             -7.78e-12            
  0.15                  8.7e-12               -4e-14                -4.02e-12             -8.22e-12            
  0.2                   9.12e-12              -1e-13                -4.58e-12             -8.46e-12            
  0.25                  9.38e-12              -1.4e-13              -4.98e-12             -8.6e-12             
  0.3                   9.52e-12              -1e-13                -3.96e-12             -8.78e-12            
  0.35                  9.82e-12              -1.8e-13              -2.94e-12             -8.96e-12            
  0.4                   1.006e-11             -6e-14                -3.6e-12              -9.12e-12            
  0.45                  1.01e-11              -1e-13                -3.06e-12             -9.26e-12            
  0.5                   1.028e-11             -1.4e-13              -3.48e-12             -9.42e-12            
  0.55                  1.054e-11             -1e-13                -3.16e-12             -9.46e-12            
  0.6                   1.06e-11              -1.4e-13              -2.04e-12             -9.7e-12             
  0.65                  1.092e-11             -1.2e-13              -2.56e-12             -9.66e-12            
  0.7                   1.104e-11             -2.2e-13              -2.08e-12             -9.88e-12            
  0.75                  1.118e-11             -1.6e-13              -3.08e-12             -9.92e-12            
  0.8                   1.126e-11             -3.2e-13              -2.36e-12             -9.98e-12            
  0.85                  1.148e-11             -4.2e-13              -1.46e-12             -1.008e-11           
  0.9                   1.156e-11             -3.8e-13              -1.62e-12             -1.01e-11            
  0.95                  1.17e-11              -4.4e-13              -1.68e-12             -1.02e-11            
  1                     1.186e-11             -6.2e-13              1.8e-13               -1.026e-11           
  1.05                  1.206e-11             -7e-13                -1.86e-12             -1.036e-11           
  1.1                   1.228e-11             -8.4e-13              -8e-13                -1.028e-11           
  1.15                  1.244e-11             -9e-13                -1.6e-12              -1.028e-11           
  1.2                   1.268e-11             -1.14e-12             -2.1e-12              -1.04e-11            
  1.25                  1.288e-11             -1.42e-12             -2.38e-12             -1.04e-11            
  1.3                   1.326e-11             -1.6e-12              -1.8e-12              -1.044e-11           
  1.35                  1.358e-11             -1.78e-12             -6.8e-13              -1.04e-11            
END_DB

BEGIN_DB
 ICCAP_VAR vg         0.281          
 ICCAP_VAR vb         -1.2           
 ICCAP_VAR vs         0              

 #vd                    id                    ig                    ib                    is                   
  0                     9e-12                 5.12e-12              -1.46e-12             -1.454e-11           
  0.05                  4.4088e-09            3.64e-12              -1.62e-12             -4.4078e-09          
  0.1                   5.461e-09             3.14e-12              -1.28e-12             -5.4596e-09          
  0.15                  5.8084e-09            3.02e-12              -1.72e-12             -5.808e-09           
  0.2                   6.0224e-09            2.9e-12               -1.44e-12             -6.0178e-09          
  0.25                  6.1956e-09            2.74e-12              -2.2e-12              -6.1958e-09          
  0.3                   6.3544e-09            2.6e-12               -1.66e-12             -6.3516e-09          
  0.35                  6.4994e-09            2.56e-12              -1.78e-12             -6.495e-09           
  0.4                   6.6266e-09            2.64e-12              -1.06e-12             -6.6286e-09          
  0.45                  6.7454e-09            2.46e-12              -1.66e-12             -6.7464e-09          
  0.5                   6.857e-09             2.38e-12              -1.98e-12             -6.8558e-09          
  0.55                  6.9578e-09            2.3e-12               -2.06e-12             -6.955e-09           
  0.6                   7.0514e-09            2.32e-12              -1.08e-12             -7.048e-09           
  0.65                  7.1344e-09            2.2e-12               -2.6e-13              -7.1338e-09          
  0.7                   7.2156e-09            2.08e-12              -1.46e-12             -7.2156e-09          
  0.75                  7.2854e-09            2.12e-12              -1.88e-12             -7.2864e-09          
  0.8                   7.3514e-09            1.94e-12              -2.06e-12             -7.3566e-09          
  0.85                  7.4138e-09            1.96e-12              -5.4e-13              -7.417e-09           
  0.9                   7.469e-09             1.88e-12              -1.22e-12             -7.4642e-09          
  0.95                  7.5208e-09            1.78e-12              -3.12e-12             -7.5154e-09          
  1                     7.5602e-09            1.72e-12              -1.56e-12             -7.5646e-09          
  1.05                  7.6076e-09            1.58e-12              -2.04e-12             -7.598e-09           
  1.1                   7.6406e-09            1.5e-12               -3.4e-13              -7.6374e-09          
  1.15                  7.6718e-09            1.24e-12              -1.46e-12             -7.6692e-09          
  1.2                   7.698e-09             1.32e-12              -1.86e-12             -7.6964e-09          
  1.25                  7.729e-09             1.14e-12              -2.48e-12             -7.7258e-09          
  1.3                   7.7568e-09            8.8e-13               -2.5e-12              -7.7472e-09          
  1.35                  7.772e-09             7.2e-13               -1.4e-12              -7.768e-09           
END_DB

BEGIN_DB
 ICCAP_VAR vg         0.481          
 ICCAP_VAR vb         -1.2           
 ICCAP_VAR vs         0              

 #vd                    id                    ig                    ib                    is                   
  0                     2.2146e-10            6.1e-11               -7.8e-13              -2.8118e-10          
  0.05                  1.3084e-07            4.984e-11             -1.38e-12             -1.3076e-07          
  0.1                   2.0498e-07            4.364e-11             -1.58e-12             -2.0488e-07          
  0.15                  2.4008e-07            4.068e-11             -1.2e-12              -2.4002e-07          
  0.2                   2.5616e-07            3.93e-11              -8.2e-13              -2.5608e-07          
  0.25                  2.6534e-07            3.858e-11             -1.76e-12             -2.6524e-07          
  0.3                   2.722e-07             3.792e-11             -1.52e-12             -2.721e-07           
  0.35                  2.781e-07             3.756e-11             -1.44e-12             -2.7802e-07          
  0.4                   2.8348e-07            3.706e-11             2e-14                 -2.8342e-07          
  0.45                  2.8848e-07            3.664e-11             -1.34e-12             -2.8846e-07          
  0.5                   2.9322e-07            3.622e-11             -1.78e-12             -2.9314e-07          
  0.55                  2.9768e-07            3.592e-11             -5.2e-13              -2.9762e-07          
  0.6                   3.0186e-07            3.566e-11             -4.2e-13              -3.0182e-07          
  0.65                  3.0584e-07            3.514e-11             -1.68e-12             -3.058e-07           
  0.7                   3.096e-07             3.488e-11             -1.26e-12             -3.095e-07           
  0.75                  3.1312e-07            3.454e-11             -7e-13                -3.1304e-07          
  0.8                   3.1646e-07            3.424e-11             -1.2e-13              -3.1636e-07          
  0.85                  3.1956e-07            3.41e-11              -1.5e-12              -3.1948e-07          
  0.9                   3.2256e-07            3.382e-11             -2.48e-12             -3.2246e-07          
  0.95                  3.2542e-07            3.346e-11             7.2e-13               -3.2534e-07          
  1                     3.2806e-07            3.322e-11             -1.38e-12             -3.2802e-07          
  1.05                  3.306e-07             3.298e-11             -1.68e-12             -3.305e-07           
  1.1                   3.3288e-07            3.27e-11              -1.42e-12             -3.3284e-07          
  1.15                  3.3504e-07            3.252e-11             -1.6e-12              -3.3498e-07          
  1.2                   3.3714e-07            3.24e-11              -1.44e-12             -3.3708e-07          
  1.25                  3.39e-07              3.202e-11             -3.4e-12              -3.389e-07           
  1.3                   3.4074e-07            3.186e-11             -5.86e-12             -3.4068e-07          
  1.35                  3.4238e-07            3.16e-11              -7.92e-12             -3.4232e-07          
END_DB

