! VERSION = 6.00
BEGIN_HEADER
 ICCAP_INPUTS
  vg         V  G GROUND SMU2 0.001 LIN        1    -0.5       1.35       38   0.05      
  vb         V  B GROUND SMU4 0.1 LIN        2    0          -1.2       5    -0.3      
  vd         V  D GROUND SMU1 0.1 LIST       3 3 0.05 0.6 1.2
  vs         V  S GROUND SMU3 0.1 CON        0
 ICCAP_OUTPUTS
  id         I  D GROUND SMU1 B
  ig         I  G GROUND SMU2 B
  ib         I  B GROUND SMU4 B
  is         I  S GROUND SMU3 B
 ICCAP_VALUES
  MASTER_SETUP_TYPE "~dc_idvg~"
  LINVT_VALUE ""
  LISTVT_VALUE ""
  TYPE "1"
  TEMP "-40.0000 "
  IS_TNOM " 0.00000 "
  MAIN.W "150.0n"
  MAIN.L "180.0n"
  MAIN.AD "100.5f"
  MAIN.AS "100.5f"
  MAIN.PD "1.340u"
  MAIN.PS "1.340u"
  MAIN.NF "1.000"
  MAIN.M "1"
  MAIN.NRD "0.000"
  MAIN.NRS "0.000"
  MAIN.LDRIFT1 "1E-06"
  MAIN.LDRIFT2 "1E-06"
  MAIN.SA "0.000"
  MAIN.SB "0.000"
  MAIN.SD "0.000"
  MAIN.SCA "0.000"
  MAIN.SCB "0.000"
  MAIN.SCC "0.000"
  MAIN.SC "0.000"
  MODULE "S547"
  PIN_D "20"
  PIN_G "1"
  PIN_S "2"
  PIN_B "19"
  PIN_E ""
  PIN_6 ""
  XY_ID ""
  FUNC "LW Scale"
  STI "SA ref"
  WPE "WPE ref"
  COMMENT ""
  DIS_MEAS ""
  TypeTCI "10"
END_HEADER

BEGIN_DB
 ICCAP_VAR vb         0              
 ICCAP_VAR vd         0.05           
 ICCAP_VAR vs         0              

 #vg                    id                    ig                    ib                    is                   
  -0.5                  -1.6e-13              -8.4e-13              1.42e-12              1.4e-13              
  -0.45                 4e-14                 -2.2e-13              1.3e-12               4e-14                
  -0.4                  2e-14                 -2e-14                3e-13                 1e-13                
  -0.35                 -1.4e-13              0                     2.6e-13               1.6e-13              
  -0.3                  -1.2e-13              6e-14                 7.6e-13               8e-14                
  -0.25                 0                     2e-14                 1.18e-12              -6e-14               
  -0.2                  0                     1.4e-13               8.2e-13               2e-14                
  -0.15                 -4e-14                2.8e-13               3.6e-13               2e-14                
  -0.1                  1.4e-13               2e-13                 1.2e-13               1e-13                
  -0.05                 -4e-14                3.2e-13               5.2e-13               1e-13                
  0                     -6e-14                3.2e-13               7.8e-13               -2e-14               
  0.05                  1.4e-13               2.8e-13               1.54e-12              -4e-14               
  0.1                   7.8e-13               4.4e-13               4.6e-13               -8.4e-13             
  0.15                  5.96e-12              4.6e-13               2e-14                 -5.92e-12            
  0.2                   4.522e-11             4.4e-13               2e-13                 -4.534e-11           
  0.25                  3.4604e-10            3.6e-13               1e-13                 -3.4346e-10          
  0.3                   2.5484e-09            3e-13                 1.2e-12               -2.5456e-09          
  0.35                  1.663e-08             3.6e-13               1.02e-12              -1.66e-08            
  0.4                   8.1066e-08            4.8e-13               6e-14                 -8.11e-08            
  0.45                  2.6792e-07            6.6e-13               1.7e-12               -2.6728e-07          
  0.5                   6.1346e-07            6.6e-13               1.14e-12              -6.121e-07           
  0.55                  1.10806e-06           6.4e-13               4e-14                 -1.1085e-06          
  0.6                   1.738e-06             8.6e-13               1.14e-12              -1.732e-06           
  0.65                  2.4672e-06            1e-12                 8.6e-13               -2.464e-06           
  0.7                   3.28e-06              1.42e-12              7.04e-12              -3.2774e-06          
  0.75                  4.1528e-06            1.84e-12              9e-13                 -4.1492e-06          
  0.8                   5.056e-06             2.32e-12              7.4e-13               -5.0508e-06          
  0.85                  5.9642e-06            3.04e-12              1.12e-12              -5.9606e-06          
  0.9                   6.8628e-06            3.9e-12               7.6e-13               -6.8582e-06          
  0.95                  7.7378e-06            4.9e-12               3.8e-13               -7.7344e-06          
  1                     8.5794e-06            6.02e-12              6e-14                 -8.5754e-06          
  1.05                  9.3934e-06            7.76e-12              1.1e-12               -9.391e-06           
  1.1                   1.01552e-05           9.66e-12              4.8e-13               -1.01496e-05         
  1.15                  1.08782e-05           1.184e-11             -4.4e-13              -1.08708e-05         
  1.2                   1.1562e-05            1.456e-11             7e-13                 -1.154e-05           
  1.25                  1.22e-05              1.778e-11             1.34e-12              -1.218e-05           
  1.3                   1.2798e-05            2.144e-11             2.2e-13               -1.2782e-05          
  1.35                  1.3354e-05            2.582e-11             -1.8e-13              -1.3336e-05          
END_DB

BEGIN_DB
 ICCAP_VAR vb         -0.3           
 ICCAP_VAR vd         0.05           
 ICCAP_VAR vs         0              

 #vg                    id                    ig                    ib                    is                   
  -0.5                  6e-14                 -2.8e-13              -1.8e-12              4e-14                
  -0.45                 2e-14                 -1.8e-13              -2.06e-12             0                    
  -0.4                  2e-14                 -1.2e-13              -2.56e-12             6e-14                
  -0.35                 8e-14                 2e-14                 -2.28e-12             1.2e-13              
  -0.3                  2e-14                 1.4e-13               -1.66e-12             -6e-14               
  -0.25                 0                     2.8e-13               -1.8e-13              1.4e-13              
  -0.2                  1.8e-13               1.2e-13               -1.78e-12             1.6e-13              
  -0.15                 4e-14                 2.4e-13               -2.22e-12             1e-13                
  -0.1                  2e-14                 3.4e-13               -1.54e-12             4e-14                
  -0.05                 4e-14                 3.2e-13               -6e-13                6e-14                
  0                     2e-14                 3.8e-13               -7.4e-13              6e-14                
  0.05                  2e-14                 4e-13                 -5.6e-13              6e-14                
  0.1                   1.8e-13               5.2e-13               -9.8e-13              -1.8e-13             
  0.15                  8.4e-13               4.2e-13               -2.08e-12             -8.8e-13             
  0.2                   6.88e-12              5e-13                 -4.6e-13              -6.64e-12            
  0.25                  5.486e-11             3.6e-13               -2.4e-13              -5.51e-11            
  0.3                   4.3388e-10            3.4e-13               1e-13                 -4.3472e-10          
  0.35                  3.3006e-09            3.2e-13               -1.08e-12             -3.3004e-09          
  0.4                   2.1358e-08            3.2e-13               -9e-13                -2.1324e-08          
  0.45                  1.01554e-07           4.6e-13               -5e-13                -1.01516e-07         
  0.5                   3.1644e-07            6.6e-13               -3e-13                -3.1736e-07          
  0.55                  6.9556e-07            7e-13                 -1.4e-12              -6.9598e-07          
  0.6                   1.2274e-06            8.6e-13               2.4e-13               -1.2234e-06          
  0.65                  1.8794e-06            1.04e-12              2.2e-13               -1.8756e-06          
  0.7                   2.63e-06              1.34e-12              -8.4e-13              -2.6258e-06          
  0.75                  3.4584e-06            1.7e-12               -1.62e-12             -3.4546e-06          
  0.8                   4.332e-06             2.4e-12               2.2e-13               -4.3284e-06          
  0.85                  5.2258e-06            3.06e-12              -2.8e-13              -5.2222e-06          
  0.9                   6.1182e-06            3.76e-12              -7e-13                -6.116e-06           
  0.95                  6.998e-06             4.76e-12              -1.28e-12             -6.9942e-06          
  1                     7.8506e-06            6.12e-12              -9e-13                -7.8472e-06          
  1.05                  8.6688e-06            7.68e-12              5.6e-13               -8.6646e-06          
  1.1                   9.4448e-06            9.38e-12              -1.1e-12              -9.4408e-06          
  1.15                  1.01794e-05           1.174e-11             -1.58e-12             -1.01704e-05         
  1.2                   1.08718e-05           1.446e-11             -6.2e-13              -1.0857e-05          
  1.25                  1.1522e-05            1.748e-11             4.4e-13               -1.1502e-05          
  1.3                   1.2128e-05            2.124e-11             2.6e-13               -1.2112e-05          
  1.35                  1.2694e-05            2.552e-11             -8.2e-13              -1.268e-05           
END_DB

BEGIN_DB
 ICCAP_VAR vb         -0.6           
 ICCAP_VAR vd         0.05           
 ICCAP_VAR vs         0              

 #vg                    id                    ig                    ib                    is                   
  -0.5                  1.2e-13               -4.2e-13              -2.32e-12             1e-13                
  -0.45                 4e-14                 -3.8e-13              -6.2e-13              2e-14                
  -0.4                  8e-14                 -8e-14                -2.24e-12             1.8e-13              
  -0.35                 4e-14                 1.2e-13               -3.08e-12             1e-13                
  -0.3                  4e-14                 1.6e-13               -2.42e-12             2e-14                
  -0.25                 4e-14                 2.4e-13               -2.06e-12             1e-13                
  -0.2                  1.4e-13               3e-13                 -1.5e-12              1.8e-13              
  -0.15                 4e-14                 3.2e-13               -7.6e-13              8e-14                
  -0.1                  6e-14                 2.8e-13               -2.04e-12             2e-14                
  -0.05                 8e-14                 2.8e-13               -2.04e-12             1.6e-13              
  0                     2e-14                 4.8e-13               -1.28e-12             0                    
  0.05                  -2e-14                3.6e-13               -4.2e-13              2.2e-13              
  0.1                   1e-13                 4.2e-13               -1.26e-12             0                    
  0.15                  1.4e-13               3.4e-13               -2.14e-12             -2e-13               
  0.2                   1.54e-12              3.2e-13               -1.42e-12             -1.44e-12            
  0.25                  1.19e-11              3.6e-13               -1.06e-12             -1.182e-11           
  0.3                   9.77e-11              4e-13                 -1.4e-13              -9.726e-11           
  0.35                  7.8752e-10            4.4e-13               -1.32e-12             -7.9186e-10          
  0.4                   5.9696e-09            2.8e-13               -1.12e-12             -5.9262e-09          
  0.45                  3.6722e-08            4.2e-13               -8e-13                -3.664e-08           
  0.5                   1.5442e-07            4.4e-13               -1e-12                -1.541e-07           
  0.55                  4.2778e-07            5.4e-13               -3.8e-13              -4.2804e-07          
  0.6                   8.6182e-07            7.8e-13               -7.8e-13              -8.6384e-07          
  0.65                  1.4452e-06            1.12e-12              -1e-13                -1.4408e-06          
  0.7                   2.135e-06             1.44e-12              -2.8e-13              -2.1316e-06          
  0.75                  2.9172e-06            1.68e-12              -6e-13                -2.9134e-06          
  0.8                   3.7628e-06            2.26e-12              -1.7e-12              -3.759e-06           
  0.85                  4.6428e-06            2.98e-12              -2.12e-12             -4.6392e-06          
  0.9                   5.5304e-06            3.82e-12              -2e-13                -5.5264e-06          
  0.95                  6.4044e-06            4.88e-12              -8.8e-13              -6.4016e-06          
  1                     7.2626e-06            5.98e-12              -1.46e-12             -7.2586e-06          
  1.05                  8.0856e-06            7.54e-12              -8e-13                -8.0806e-06          
  1.1                   8.869e-06             9.48e-12              -1.22e-12             -8.8656e-06          
  1.15                  9.609e-06             1.18e-11              -6.6e-13              -9.6048e-06          
  1.2                   1.03156e-05           1.428e-11             -9.4e-13              -1.03128e-05         
  1.25                  1.09644e-05           1.744e-11             -7.8e-13              -1.09668e-05         
  1.3                   1.1594e-05            2.102e-11             -1.46e-12             -1.1578e-05          
  1.35                  1.2168e-05            2.538e-11             -6e-13                -1.2152e-05          
END_DB

BEGIN_DB
 ICCAP_VAR vb         -0.9           
 ICCAP_VAR vd         0.05           
 ICCAP_VAR vs         0              

 #vg                    id                    ig                    ib                    is                   
  -0.5                  4e-14                 -6e-13                -2.44e-12             1.8e-13              
  -0.45                 2e-14                 -2.2e-13              -3e-12                1.2e-13              
  -0.4                  1e-13                 -4e-14                -3.04e-12             1.4e-13              
  -0.35                 2e-14                 1e-13                 -3.26e-12             1.2e-13              
  -0.3                  1.2e-13               1.6e-13               -2.68e-12             1.2e-13              
  -0.25                 4e-14                 1.4e-13               -2.06e-12             2e-13                
  -0.2                  6e-14                 1.2e-13               -1.78e-12             2e-14                
  -0.15                 6e-14                 2.6e-13               -3.36e-12             1.2e-13              
  -0.1                  -8e-14                3.8e-13               -3e-12                6e-14                
  -0.05                 1e-13                 2.6e-13               -2.2e-12              8e-14                
  0                     0                     3.2e-13               -1.04e-12             0                    
  0.05                  8e-14                 1.6e-13               -7.2e-13              -6e-14               
  0.1                   8e-14                 3.6e-13               -1.98e-12             -8e-14               
  0.15                  1.2e-13               1.8e-13               -2.14e-12             -1.6e-13             
  0.2                   5.2e-13               3.2e-13               -1.58e-12             -5e-13               
  0.25                  3.32e-12              3.8e-13               -1.44e-12             -3.34e-12            
  0.3                   2.84e-11              3.4e-13               -1.18e-12             -2.826e-11           
  0.35                  2.3798e-10            4.2e-13               -1.62e-12             -2.3832e-10          
  0.4                   1.926e-09             4e-13                 -1.52e-12             -1.9358e-09          
  0.45                  1.371e-08             4.4e-13               -1.2e-12              -1.3804e-08          
  0.5                   7.4452e-08            5.4e-13               -1.6e-12              -7.3848e-08          
  0.55                  2.601e-07             6.2e-13               -1.76e-12             -2.6006e-07          
  0.6                   6.1388e-07            8.6e-13               -1.88e-12             -6.1326e-07          
  0.65                  1.12278e-06           1.04e-12              -1.72e-12             -1.12292e-06         
  0.7                   1.7618e-06            1.24e-12              -1.78e-12             -1.7582e-06          
  0.75                  2.5e-06               1.72e-12              -1.74e-12             -2.4964e-06          
  0.8                   3.3152e-06            2.06e-12              -4.6e-13              -3.311e-06           
  0.85                  4.1784e-06            2.86e-12              -1.98e-12             -4.1748e-06          
  0.9                   5.0592e-06            3.7e-12               -1.3e-12              -5.0558e-06          
  0.95                  5.9372e-06            4.6e-12               1.2e-13               -5.9316e-06          
  1                     6.7956e-06            5.9e-12               -5.6e-13              -6.7918e-06          
  1.05                  7.6228e-06            7.5e-12               -7.8e-13              -7.6192e-06          
  1.1                   8.4122e-06            9.38e-12              -1.62e-12             -8.4082e-06          
  1.15                  9.161e-06             1.164e-11             -1.76e-12             -9.1592e-06          
  1.2                   9.8738e-06            1.432e-11             -1.54e-12             -9.8694e-06          
  1.25                  1.05414e-05           1.732e-11             -4.4e-13              -1.05306e-05         
  1.3                   1.11656e-05           2.094e-11             -2.2e-12              -1.11624e-05         
  1.35                  1.1756e-05            2.52e-11              -9e-13                -1.1742e-05          
END_DB

BEGIN_DB
 ICCAP_VAR vb         -1.2           
 ICCAP_VAR vd         0.05           
 ICCAP_VAR vs         0              

 #vg                    id                    ig                    ib                    is                   
  -0.5                  4e-14                 -4.4e-13              -1.9e-12              6e-14                
  -0.45                 0                     -6e-14                -2.34e-12             2e-13                
  -0.4                  4e-14                 0                     -4.04e-12             1e-13                
  -0.35                 1e-13                 -6e-14                -3.24e-12             2e-14                
  -0.3                  6e-14                 2e-13                 -3.42e-12             -8e-14               
