! VERSION = 6.00
BEGIN_HEADER
 ICCAP_INPUTS
  vg         V  G GROUND SMU2 0.001 LIN        1    -0.5       1.35       38   0.05      
  vb         V  B GROUND SMU4 0.1 LIN        2    0          -1.2       5    -0.3      
  vd         V  D GROUND SMU1 0.1 LIST       3 3 0.05 0.6 1.2
  vs         V  S GROUND SMU3 0.1 CON        0
 ICCAP_OUTPUTS
  id         I  D GROUND SMU1 B
  ig         I  G GROUND SMU2 B
  ib         I  B GROUND SMU4 B
  is         I  S GROUND SMU3 B
 ICCAP_VALUES
  MASTER_SETUP_TYPE "~dc_idvg~"
  LINVT_VALUE ""
  LISTVT_VALUE ""
  TYPE "1"
  TEMP "-40.0000 "
  IS_TNOM " 0.00000 "
  MAIN.W "150.0n"
  MAIN.L "130.0n"
  MAIN.AD "100.5f"
  MAIN.AS "100.5f"
  MAIN.PD "1.340u"
  MAIN.PS "1.340u"
  MAIN.NF "1.000"
  MAIN.M "1"
  MAIN.NRD "0.000"
  MAIN.NRS "0.000"
  MAIN.LDRIFT1 "1E-06"
  MAIN.LDRIFT2 "1E-06"
  MAIN.SA "0.000"
  MAIN.SB "0.000"
  MAIN.SD "0.000"
  MAIN.SCA "0.000"
  MAIN.SCB "0.000"
  MAIN.SCC "0.000"
  MAIN.SC "0.000"
  MODULE "S546"
  PIN_D "16"
  PIN_G "5"
  PIN_S "6"
  PIN_B "15"
  PIN_E ""
  PIN_6 ""
  XY_ID ""
  FUNC "Small"
  STI "SA ref"
  WPE "WPE ref"
  COMMENT ""
  DIS_MEAS ""
  TypeTCI "10"
END_HEADER

BEGIN_DB
 ICCAP_VAR vb         0              
 ICCAP_VAR vd         0.05           
 ICCAP_VAR vs         0              

 #vg                    id                    ig                    ib                    is                   
  -0.5                  0                     -6.2e-13              2.28e-12              8e-14                
  -0.45                 -2e-14                1e-13                 -3.6e-13              1.2e-13              
  -0.4                  2e-14                 -8e-14                9.2e-13               4e-14                
  -0.35                 0                     -2e-13                1.54e-12              -4e-14               
  -0.3                  2e-14                 1e-13                 5.4e-13               1.2e-13              
  -0.25                 -1.2e-13              2e-13                 3.44e-12              4e-14                
  -0.2                  4e-14                 2.2e-13               -1e-13                1e-13                
  -0.15                 -2e-14                1.2e-13               3e-13                 8e-14                
  -0.1                  -2e-14                -1.6e-13              -1.4e-13              4e-14                
  -0.05                 -2e-14                6e-14                 7.2e-13               1.2e-13              
  0                     0                     3e-13                 9.4e-13               -8e-14               
  0.05                  2e-14                 -2e-14                -6.6e-13              1.6e-13              
  0.1                   1.4e-13               3.8e-13               6e-14                 -1.8e-13             
  0.15                  1.36e-12              3.2e-13               6.6e-13               -1.6e-12             
  0.2                   1.064e-11             1.4e-13               1.36e-12              -1.046e-11           
  0.25                  7.542e-11             3.8e-13               3.8e-13               -7.506e-11           
  0.3                   5.2266e-10            6.6e-13               -4e-13                -5.2174e-10          
  0.35                  3.5216e-09            3.2e-13               -2.6e-13              -3.51e-09            
  0.4                   2.1104e-08            3.6e-13               -1e-13                -2.0738e-08          
  0.45                  9.223e-08             5.8e-13               1.36e-12              -9.3372e-08          
  0.5                   3.3142e-07            7e-13                 0                     -3.2684e-07          
  0.55                  8.2676e-07            6.6e-13               4.6e-13               -8.274e-07           
  0.6                   1.6334e-06            1.04e-12              2.18e-12              -1.6278e-06          
  0.65                  2.7002e-06            2.04e-12              -1.4e-13              -2.6942e-06          
  0.7                   3.9306e-06            2.48e-12              -6.2e-13              -3.9294e-06          
  0.75                  5.2938e-06            3.48e-12              2.8e-13               -5.29e-06            
  0.8                   6.6774e-06            4.78e-12              1.48e-12              -6.681e-06           
  0.85                  8.0822e-06            6.02e-12              3.2e-13               -8.0784e-06          
  0.9                   9.45e-06              7.64e-12              -6.4e-13              -9.4456e-06          
  0.95                  1.07736e-05           9.1e-12               6.4e-13               -1.07684e-05         
  1                     1.2048e-05            1.108e-11             1.28e-12              -1.2028e-05          
  1.05                  1.325e-05             1.326e-11             1e-13                 -1.3234e-05          
  1.1                   1.439e-05             1.6e-11               6e-14                 -1.4372e-05          
  1.15                  1.547e-05             1.906e-11             3.2e-13               -1.545e-05           
  1.2                   1.6488e-05            2.176e-11             9.6e-13               -1.6468e-05          
  1.25                  1.7428e-05            2.6e-11               3e-13                 -1.742e-05           
  1.3                   1.832e-05             3.01e-11              -3.2e-13              -1.8298e-05          
  1.35                  1.9144e-05            3.426e-11             2.2e-13               -1.9138e-05          
END_DB

BEGIN_DB
 ICCAP_VAR vb         -0.3           
 ICCAP_VAR vd         0.05           
 ICCAP_VAR vs         0              

 #vg                    id                    ig                    ib                    is                   
  -0.5                  1.2e-13               -6.4e-13              -2.02e-12             1e-13                
  -0.45                 0                     -6.4e-13              -2.64e-12             2e-14                
  -0.4                  6e-14                 1e-13                 -2.16e-12             6e-14                
  -0.35                 8e-14                 2.2e-13               1.6e-13               0                    
  -0.3                  6e-14                 2.8e-13               -1.56e-12             4e-14                
  -0.25                 -2e-14                3.4e-13               -8.8e-13              -2e-14               
  -0.2                  1.2e-13               6e-14                 -2.02e-12             8e-14                
  -0.15                 -4e-14                2.4e-13               -1.34e-12             -1.2e-13             
  -0.1                  0                     4e-13                 -1.22e-12             1e-13                
  -0.05                 2e-14                 6e-14                 -1.02e-12             2.6e-13              
  0                     0                     2.8e-13               -5.6e-13              2e-14                
  0.05                  0                     -2.4e-13              -2e-12                2.4e-13              
  0.1                   8e-14                 4.2e-13               -1.44e-12             -4e-14               
  0.15                  2.4e-13               6.4e-13               -6.2e-13              -4e-14               
  0.2                   1.38e-12              3.2e-13               -2e-14                -1.3e-12             
  0.25                  1.064e-11             2.4e-13               -1.08e-12             -1.056e-11           
  0.3                   7.946e-11             4e-14                 -1.54e-12             -7.82e-11            
  0.35                  5.7276e-10            3.2e-13               -6.8e-13              -5.732e-10           
  0.4                   3.899e-09             3.6e-13               -7e-13                -3.9564e-09          
  0.45                  2.3666e-08            6.8e-13               -4.8e-13              -2.2538e-08          
  0.5                   1.02668e-07           8.2e-13               -2.8e-13              -1.02856e-07         
  0.55                  3.5858e-07            1.32e-12              -9.8e-13              -3.6214e-07          
  0.6                   8.9706e-07            1.78e-12              -1e-12                -8.9428e-07          
  0.65                  1.7422e-06            2.02e-12              -7.02e-12             -1.7368e-06          
  0.7                   2.837e-06             2.54e-12              -1.3e-12              -2.8328e-06          
  0.75                  4.0952e-06            3.68e-12              -8.4e-13              -4.0912e-06          
  0.8                   5.4352e-06            4.44e-12              4e-13                 -5.4304e-06          
  0.85                  6.8144e-06            5.88e-12              -1.12e-12             -6.8138e-06          
  0.9                   8.187e-06             7.28e-12              -1.76e-12             -8.186e-06           
  0.95                  9.5242e-06            8.68e-12              -6.4e-13              -9.523e-06           
  1                     1.08116e-05           1.1e-11               3.4e-13               -1.0807e-05          
  1.05                  1.2046e-05            1.294e-11             -3.2e-13              -1.203e-05           
  1.1                   1.3212e-05            1.584e-11             -8.2e-13              -1.3196e-05          
  1.15                  1.4318e-05            1.858e-11             -3.8e-13              -1.4296e-05          
  1.2                   1.5358e-05            2.202e-11             -8.8e-13              -1.5336e-05          
  1.25                  1.6338e-05            2.56e-11              -7.2e-13              -1.6322e-05          
  1.3                   1.7254e-05            2.976e-11             -4.8e-13              -1.7232e-05          
  1.35                  1.811e-05             3.418e-11             -1.68e-12             -1.8096e-05          
END_DB

BEGIN_DB
 ICCAP_VAR vb         -0.6           
 ICCAP_VAR vd         0.05           
 ICCAP_VAR vs         0              

 #vg                    id                    ig                    ib                    is                   
  -0.5                  1e-13                 -4e-13                -1.82e-12             1.2e-13              
  -0.45                 1.4e-13               -5.6e-13              -2.54e-12             6e-14                
  -0.4                  6e-14                 -4e-13                -2.44e-12             1e-13                
  -0.35                 1.2e-13               1.2e-13               -3.1e-12              0                    
  -0.3                  6e-14                 2e-13                 -2.58e-12             1.4e-13              
  -0.25                 0                     1.4e-13               -1.76e-12             -2e-13               
  -0.2                  1.2e-13               2.2e-13               -1.38e-12             1.2e-13              
  -0.15                 -4e-14                -2.8e-13              -2.2e-12              1.4e-13              
  -0.1                  -2e-14                3.2e-13               -7.94e-12             0                    
  -0.05                 4e-14                 4.2e-13               -2.38e-12             2.2e-13              
  0                     -4e-14                2e-13                 -8.2e-13              0                    
  0.05                  2e-14                 -2e-13                -1e-12                1.2e-13              
  0.1                   0                     -4e-14                -1.58e-12             4e-14                
  0.15                  0                     2e-14                 -1.24e-12             1e-13                
  0.2                   3.2e-13               5.8e-13               -2.28e-12             -8e-14               
  0.25                  2.16e-12              2.4e-13               -1.9e-12              -1.9e-12             
  0.3                   1.622e-11             2.2e-13               -1.34e-12             -1.606e-11           
  0.35                  1.2396e-10            1.6e-13               -8.6e-13              -1.2336e-10          
  0.4                   9.1332e-10            2.8e-13               -1.6e-12              -9.1428e-10          
  0.45                  6.3496e-09            6e-14                 -1.78e-12             -6.2902e-09          
  0.5                   3.3312e-08            4.2e-13               -1.96e-12             -3.1746e-08          
  0.55                  1.4642e-07            3.2e-13               -9e-13                -1.4608e-07          
  0.6                   4.6734e-07            1.52e-12              -1.42e-12             -4.6822e-07          
  0.65                  1.09294e-06           1.7e-12               -1.84e-12             -1.0937e-06          
  0.7                   2.0196e-06            2.52e-12              -1.4e-13              -2.0176e-06          
  0.75                  3.1694e-06            3.28e-12              -7e-13                -3.1658e-06          
  0.8                   4.447e-06             4.06e-12              -2e-12                -4.4436e-06          
  0.85                  5.7946e-06            5.72e-12              -1.32e-12             -5.7912e-06          
  0.9                   7.1598e-06            7.26e-12              -3.4e-13              -7.1562e-06          
  0.95                  8.505e-06             8.96e-12              -8.8e-13              -8.5004e-06          
  1                     9.8082e-06            1.092e-11             -1.96e-12             -9.8054e-06          
  1.05                  1.10548e-05           1.308e-11             -1.74e-12             -1.1051e-05          
  1.1                   1.2248e-05            1.534e-11             3.6e-13               -1.2228e-05          
  1.15                  1.3376e-05            1.836e-11             1e-13                 -1.3356e-05          
  1.2                   1.4436e-05            2.168e-11             -2.16e-12             -1.4422e-05          
  1.25                  1.5432e-05            2.574e-11             -1e-12                -1.5424e-05          
  1.3                   1.637e-05             2.964e-11             -9.6e-13              -1.636e-05           
  1.35                  1.7242e-05            3.432e-11             -1.38e-12             -1.7238e-05          
END_DB

BEGIN_DB
 ICCAP_VAR vb         -0.9           
 ICCAP_VAR vd         0.05           
 ICCAP_VAR vs         0              

 #vg                    id                    ig                    ib                    is                   
  -0.5                  1.4e-13               0                     -3.08e-12             1.2e-13              
  -0.45                 0                     -1.8e-13              -3.42e-12             4e-14                
  -0.4                  4e-14                 2.6e-13               -2.28e-12             4e-14                
  -0.35                 2e-14                 -2e-14                -1.48e-12             2e-14                
  -0.3                  4e-14                 6e-14                 -2.38e-12             1.4e-13              
  -0.25                 4e-14                 -2e-14                -3.22e-12             1.6e-13              
  -0.2                  0                     2.4e-13               -2.84e-12             0                    
  -0.15                 0                     3.4e-13               -1.46e-12             6e-14                
  -0.1                  4e-14                 2.8e-13               -1e-12                6e-14                
  -0.05                 6e-14                 2.8e-13               -2.32e-12             2e-13                
  0                     8e-14                 1.6e-13               -2.88e-12             1e-13                
  0.05                  -2e-14                4e-14                 -2.4e-12              8e-14                
  0.1                   -2e-14                5.4e-13               -1.58e-12             4e-14                
  0.15                  -8e-14                3.2e-13               -1.6e-12              -2e-14               
  0.2                   0                     3.6e-13               -2.02e-12             -2e-14               
  0.25                  5.2e-13               1.8e-13               -2.02e-12             -6.2e-13             
  0.3                   4.36e-12              3.6e-13               -2.64e-12             -4.5e-12             
  0.35                  3.504e-11             4.4e-13               -2.12e-12             -3.51e-11            
  0.4                   2.664e-10             8.4e-13               -7.8e-13              -2.6844e-10          
  0.45                  1.99e-09              8e-13                 -1.4e-12              -1.9876e-09          
  0.5                   1.2374e-08            1.08e-12              -1.88e-12             -1.2214e-08          
  0.55                  6.1698e-08            1.06e-12              -1.34e-12             -6.1796e-08          
  0.6                   2.469e-07             1.12e-12              -1.68e-12             -2.4676e-07          
  0.65                  6.866e-07             2.1e-12               -1.94e-12             -6.8848e-07          
  0.7                   1.449e-06             2.14e-12              -1.8e-13              -1.4446e-06          
  0.75                  2.479e-06             3.22e-12              -1.44e-12             -2.475e-06           
  0.8                   3.6852e-06            4.62e-12              -3.82e-12             -3.6778e-06          
  0.85                  4.9882e-06            5.6e-12               -1.6e-12              -4.9844e-06          
  0.9                   6.336e-06             7.1e-12               -8.8e-13              -6.3336e-06          
  0.95                  7.686e-06             8.68e-12              -1e-12                -7.6824e-06          
  1                     9.0004e-06            1.096e-11             -1.56e-12             -8.9966e-06          
  1.05                  1.026e-05             1.266e-11             -1.4e-12              -1.02566e-05         
  1.1                   1.1462e-05            1.542e-11             -1.82e-12             -1.14592e-05         
  1.15                  1.261e-05             1.814e-11             -5.6e-13              -1.2596e-05          
  1.2                   1.3694e-05            2.154e-11             -9.8e-13              -1.3674e-05          
  1.25                  1.4712e-05            2.55e-11              -1.68e-12             -1.47e-05            
  1.3                   1.5668e-05            2.92e-11              -2.28e-12             -1.567e-05           
  1.35                  1.6576e-05            3.412e-11             -2.8e-13              -1.6554e-05          
END_DB

BEGIN_DB
 ICCAP_VAR vb         -1.2           
 ICCAP_VAR vd         0.05           
 ICCAP_VAR vs         0              

 #vg                    id                    ig                    ib                    is                   
  -0.5                  1.6e-13               4e-14                 -3.4e-12              1e-13                
  -0.45                 -4e-14                -2e-13                -3.06e-12             -6e-14               
  -0.4                  4e-14                 -2e-13                -2.74e-12             1.2e-13              
  -0.35                 0                     1.2e-13               -2.36e-12             6e-14                
  -0.3                  -6e-14                3.8e-13               -3e-12                -1.2e-13             
