! VERSION = 6.00
BEGIN_HEADER
 ICCAP_INPUTS
  vd         V  D GROUND SMU1 0.1 LIN        1    0          1.35       28   0.05      
  vg         V  G GROUND SMU2 0.001 LIN        2    0.27       1.35       5    0.27      
  vb         V  B GROUND SMU4 0.1 CON        0
  vs         V  S GROUND SMU3 0.1 CON        0
 ICCAP_OUTPUTS
  id         I  D GROUND SMU1 B
  ig         I  G GROUND SMU2 B
  ib         I  B GROUND SMU4 B
  is         I  S GROUND SMU3 B
 ICCAP_VALUES
  MASTER_SETUP_TYPE "~dc_idvd~"
  LINVT_VALUE "|idvg|100.0n|100.0m|1.000m|5|1.350|"
  LISTVT_VALUE ""
  TYPE "1"
  TEMP " 27.0000 "
  IS_TNOM " 1.00000 "
  MAIN.W "600.0n"
  MAIN.L "10.00u"
  MAIN.AD "204.0f"
  MAIN.AS "204.0f"
  MAIN.PD "1.880u"
  MAIN.PS "1.880u"
  MAIN.NF "1.000"
  MAIN.M "1"
  MAIN.NRD "0.000"
  MAIN.NRS "0.000"
  MAIN.LDRIFT1 "1E-06"
  MAIN.LDRIFT2 "1E-06"
  MAIN.SA "0.000"
  MAIN.SB "0.000"
  MAIN.SD "0.000"
  MAIN.SCA "0.000"
  MAIN.SCB "0.000"
  MAIN.SCC "0.000"
  MAIN.SC "0.000"
  MODULE "S544"
  PIN_D "20"
  PIN_G "1"
  PIN_S "2"
  PIN_B "19"
  PIN_E ""
  PIN_6 ""
  XY_ID ""
  FUNC "W Scale"
  STI "SA ref"
  WPE "WPE ref"
  COMMENT ""
  DIS_MEAS ""
  TypeTCI "10"
END_HEADER

BEGIN_DB
 ICCAP_VAR vg         0.27           
 ICCAP_VAR vb         0              
 ICCAP_VAR vs         0              

 #vd                    id                    ig                    ib                    is                   
  0                     1.171e-10             7.76e-12              7.3e-12               -9.884e-11           
  0.05                  4.321e-08             5.74e-12              7.3e-12               -4.3196e-08          
  0.1                   5.9386e-08            5.1e-12               6.98e-12              -5.9378e-08          
  0.15                  6.472e-08             4.78e-12              5.54e-12              -6.4728e-08          
  0.2                   6.71e-08              4.64e-12              6.28e-12              -6.711e-08           
  0.25                  6.8768e-08            4.66e-12              6.46e-12              -6.874e-08           
  0.3                   7.0188e-08            4.62e-12              6.02e-12              -7.017e-08           
  0.35                  7.1508e-08            4.54e-12              5.68e-12              -7.1504e-08          
  0.4                   7.2736e-08            4.42e-12              4.82e-12              -7.2726e-08          
  0.45                  7.389e-08             4.46e-12              5.62e-12              -7.3876e-08          
  0.5                   7.5002e-08            4.3e-12               5.82e-12              -7.5012e-08          
  0.55                  7.6116e-08            4.22e-12              5.08e-12              -7.609e-08           
  0.6                   7.7132e-08            4.14e-12              4.64e-12              -7.715e-08           
  0.65                  7.8146e-08            4.12e-12              4.16e-12              -7.813e-08           
  0.7                   7.916e-08             4e-12                 4.96e-12              -7.9138e-08          
  0.75                  8.0072e-08            3.98e-12              4.74e-12              -8.0054e-08          
  0.8                   8.0978e-08            3.9e-12               3.76e-12              -8.0994e-08          
  0.85                  8.191e-08             3.82e-12              4.14e-12              -8.1882e-08          
  0.9                   8.2736e-08            3.86e-12              4.68e-12              -8.2738e-08          
  0.95                  8.3582e-08            3.6e-12               4.62e-12              -8.3574e-08          
  1                     8.4418e-08            3.42e-12              4.12e-12              -8.4388e-08          
  1.05                  8.518e-08             3.4e-12               2.86e-12              -8.5178e-08          
  1.1                   8.5944e-08            3.32e-12              2.26e-12              -8.5934e-08          
  1.15                  8.6692e-08            3.22e-12              3.52e-12              -8.6682e-08          
  1.2                   8.7372e-08            2.98e-12              2.32e-12              -8.7364e-08          
  1.25                  8.803e-08             2.94e-12              1.18e-12              -8.8016e-08          
  1.3                   8.8674e-08            2.66e-12              -1.5e-12              -8.8656e-08          
  1.35                  8.9292e-08            2.52e-12              -2.98e-12             -8.9252e-08          
END_DB

BEGIN_DB
 ICCAP_VAR vg         0.54           
 ICCAP_VAR vb         0              
 ICCAP_VAR vs         0              

 #vd                    id                    ig                    ib                    is                   
  0                     5.2044e-10            1.141e-10             4.04e-12              -6.4218e-10          
  0.05                  3.4924e-07            9.502e-11             1.56e-12              -3.4924e-07          
  0.1                   6.2424e-07            8.13e-11              2.56e-12              -6.242e-07           
  0.15                  8.1768e-07            7.226e-11             2.92e-12              -8.1772e-07          
  0.2                   9.335e-07             6.72e-11              2.06e-12              -9.3352e-07          
  0.25                  9.945e-07             6.464e-11             2.28e-12              -9.9462e-07          
  0.3                   1.02702e-06           6.32e-11              2.58e-12              -1.02702e-06         
  0.35                  1.04744e-06           6.234e-11             3.18e-12              -1.04746e-06         
  0.4                   1.06298e-06           6.178e-11             1.04e-12              -1.063e-06           
  0.45                  1.07634e-06           6.114e-11             1.8e-12               -1.07642e-06         
  0.5                   1.08856e-06           6.07e-11              2.68e-12              -1.0886e-06          
  0.55                  1.09986e-06           6.018e-11             2.52e-12              -1.09992e-06         
  0.6                   1.11056e-06           5.978e-11             1.8e-12               -1.11058e-06         
  0.65                  1.1207e-06            5.94e-11              2.02e-12              -1.12082e-06         
  0.7                   1.13058e-06           5.89e-11              2.88e-12              -1.13068e-06         
  0.75                  1.13998e-06           5.86e-11              2.66e-12              -1.14002e-06         
  0.8                   1.1504e-06            5.816e-11             2.6e-12               -1.14894e-06         
  0.85                  1.159e-06             5.79e-11              1.5e-12               -1.15764e-06         
  0.9                   1.1674e-06            5.754e-11             1.46e-12              -1.16718e-06         
  0.95                  1.1766e-06            5.72e-11              2.28e-12              -1.1728e-06          
  1                     1.1844e-06            5.678e-11             2.64e-12              -1.1806e-06          
  1.05                  1.192e-06             5.652e-11             1.94e-12              -1.1882e-06          
  1.1                   1.1994e-06            5.61e-11              1.74e-12              -1.1954e-06          
  1.15                  1.2064e-06            5.58e-11              2.1e-12               -1.2024e-06          
  1.2                   1.2132e-06            5.56e-11              7.6e-13               -1.2094e-06          
  1.25                  1.2198e-06            5.526e-11             3.2e-13               -1.2158e-06          
  1.3                   1.226e-06             5.494e-11             -1.1e-12              -1.2222e-06          
  1.35                  1.2322e-06            5.474e-11             -6.3e-12              -1.2284e-06          
END_DB

BEGIN_DB
 ICCAP_VAR vg         0.81           
 ICCAP_VAR vb         0              
 ICCAP_VAR vs         0              

 #vd                    id                    ig                    ib                    is                   
  0                     7.1992e-10            6.7034e-10            2.42e-12              -1.3098e-09          
  0.05                  6.4532e-07            5.8458e-10            1.54e-12              -6.4582e-07          
  0.1                   1.233e-06             5.1374e-10            1.76e-12              -1.2298e-06          
  0.15                  1.7572e-06            4.5604e-10            9.8e-13               -1.7538e-06          
  0.2                   2.2158e-06            4.0954e-10            2.3e-12               -2.2122e-06          
  0.25                  2.604e-06             3.73e-10              1.06e-12              -2.6006e-06          
  0.3                   2.9146e-06            3.4582e-10            1.78e-12              -2.911e-06           
  0.35                  3.1396e-06            3.2716e-10            2.28e-12              -3.1364e-06          
  0.4                   3.2826e-06            3.1574e-10            1.78e-12              -3.279e-06           
  0.45                  3.365e-06             3.0946e-10            9.4e-13               -3.3614e-06          
  0.5                   3.4146e-06            3.0558e-10            2.22e-12              -3.411e-06           
  0.55                  3.4488e-06            3.03e-10              1.14e-12              -3.4454e-06          
  0.6                   3.4762e-06            3.0096e-10            8.2e-13               -3.4726e-06          
  0.65                  3.5e-06               2.9912e-10            2.6e-12               -3.4964e-06          
  0.7                   3.5216e-06            2.9758e-10            9.8e-13               -3.5182e-06          
  0.75                  3.5418e-06            2.9614e-10            1.06e-12              -3.5382e-06          
  0.8                   3.5606e-06            2.9472e-10            2.06e-12              -3.5572e-06          
  0.85                  3.5788e-06            2.933e-10             1.8e-12               -3.5752e-06          
  0.9                   3.5962e-06            2.9218e-10            6.4e-13               -3.5926e-06          
  0.95                  3.6126e-06            2.9088e-10            1.76e-12              -3.6092e-06          
  1                     3.6286e-06            2.898e-10             1.4e-12               -3.625e-06           
  1.05                  3.6438e-06            2.8866e-10            5.4e-13               -3.6404e-06          
  1.1                   3.6586e-06            2.8764e-10            2.04e-12              -3.6552e-06          
  1.15                  3.673e-06             2.8652e-10            2.12e-12              -3.6696e-06          
  1.2                   3.6868e-06            2.8548e-10            1.1e-12               -3.6834e-06          
  1.25                  3.7002e-06            2.8452e-10            2.44e-12              -3.6966e-06          
  1.3                   3.713e-06             2.8366e-10            9.6e-13               -3.7096e-06          
  1.35                  3.7254e-06            2.828e-10             1.4e-13               -3.7218e-06          
END_DB

BEGIN_DB
 ICCAP_VAR vg         1.08           
 ICCAP_VAR vb         0              
 ICCAP_VAR vs         0              

 #vd                    id                    ig                    ib                    is                   
  0                     1.4592e-10            2.5336e-09            1.94e-12              -2.4142e-09          
  0.05                  8.8084e-07            2.2768e-09            1.22e-12              -8.8312e-07          
  0.1                   1.7178e-06            2.0522e-09            6.8e-13               -1.716e-06           
  0.15                  2.504e-06             1.8572e-09            1.34e-12              -2.502e-06           
  0.2                   3.2378e-06            1.6896e-09            1.72e-12              -3.2356e-06          
  0.25                  3.9176e-06            1.5456e-09            8e-13                 -3.9154e-06          
  0.3                   4.5408e-06            1.4238e-09            1.96e-12              -4.5382e-06          
  0.35                  5.1036e-06            1.3212e-09            1.12e-12              -5.1008e-06          
  0.4                   5.6032e-06            1.2362e-09            1.6e-13               -5.6004e-06          
  0.45                  6.0334e-06            1.1674e-09            1.04e-12              -6.0306e-06          
  0.5                   6.3894e-06            1.1136e-09            1.04e-12              -6.3868e-06          
  0.55                  6.6636e-06            1.0736e-09            1.26e-12              -6.6608e-06          
  0.6                   6.8542e-06            1.0468e-09            1.38e-12              -6.851e-06           
  0.65                  6.9742e-06            1.0306e-09            1.64e-12              -6.9712e-06          
  0.7                   7.0492e-06            1.0204e-09            -4e-14                -7.0466e-06          
  0.75                  7.1e-06               1.0136e-09            1.04e-12              -7.0972e-06          
  0.8                   7.1392e-06            1.0084e-09            1.18e-12              -7.136e-06           
  0.85                  7.1718e-06            1.004e-09             4.6e-13               -7.1692e-06          
  0.9                   7.2014e-06            1.0002e-09            1e-12                 -7.1986e-06          
  0.95                  7.2288e-06            9.956e-10             1.92e-12              -7.2262e-06          
  1                     7.2542e-06            9.9258e-10            5.2e-13               -7.2516e-06          
  1.05                  7.2788e-06            9.8936e-10            1.16e-12              -7.276e-06           
  1.1                   7.3018e-06            9.8646e-10            1.28e-12              -7.2992e-06          
  1.15                  7.3244e-06            9.8358e-10            1.8e-13               -7.3216e-06          
  1.2                   7.3456e-06            9.8072e-10            9.2e-13               -7.343e-06           
  1.25                  7.3664e-06            9.7782e-10            1.8e-12               -7.3636e-06          
  1.3                   7.386e-06             9.7556e-10            6.8e-13               -7.3832e-06          
  1.35                  7.405e-06             9.7334e-10            1.44e-12              -7.402e-06           
END_DB

BEGIN_DB
 ICCAP_VAR vg         1.35           
 ICCAP_VAR vb         0              
 ICCAP_VAR vs         0              

 #vd                    id                    ig                    ib                    is                   
  0                     -1.821e-09            7.2874e-09            -4.76e-12             -4.7004e-09          
  0.05                  1.04934e-06           6.6756e-09            -3.78e-12             -1.05596e-06         
  0.1                   2.0698e-06            6.1256e-09            -1.68e-12             -2.072e-06           
  0.15                  3.0518e-06            5.6336e-09            -1.64e-12             -3.0536e-06          
  0.2                   3.9946e-06            5.1936e-09            -1.74e-12             -3.9962e-06          
  0.25                  4.8968e-06            4.8024e-09            -1e-13                -4.8978e-06          
  0.3                   5.7552e-06            4.4556e-09            -1.1e-12              -5.7558e-06          
  0.35                  6.5678e-06            4.149e-09             -7.6e-13              -6.5682e-06          
  0.4                   7.332e-06             3.88e-09              3.4e-13               -7.3324e-06          
  0.45                  8.0444e-06            3.6446e-09            -3.4e-13              -8.0444e-06          
  0.5                   8.7038e-06            3.4408e-09            -8e-13                -8.7034e-06          
  0.55                  9.3062e-06            3.2648e-09            5e-13                 -9.3056e-06          
  0.6                   9.8482e-06            3.1146e-09            -4e-13                -9.8472e-06          
  0.65                  1.0325e-05            2.9894e-09            -2.8e-13              -1.0325e-05          
  0.7                   1.07322e-05           2.8868e-09            4.4e-13               -1.07312e-05         
  0.75                  1.10624e-05           2.8068e-09            4e-14                 -1.10618e-05         
  0.8                   1.132e-05             2.7486e-09            1.6e-13               -1.13114e-05         
  0.85                  1.1494e-05            2.709e-09             2.2e-13               -1.14846e-05         
  0.9                   1.1606e-05            2.6834e-09            -7.4e-13              -1.15976e-05         
  0.95                  1.1682e-05            2.6666e-09            5e-13                 -1.16728e-05         
  1                     1.1736e-05            2.6546e-09            1.28e-12              -1.1722e-05          
  1.05                  1.178e-05             2.645e-09             -2e-13                -1.1766e-05          
  1.1                   1.1818e-05            2.6366e-09            -1e-13                -1.1804e-05          
  1.15                  1.1852e-05            2.6292e-09            5.4e-13               -1.1838e-05          
  1.2                   1.1884e-05            2.6224e-09            1.6e-13               -1.187e-05           
  1.25                  1.1914e-05            2.6162e-09            -1.6e-13              -1.19e-05            
  1.3                   1.1942e-05            2.61e-09              6.8e-13               -1.1928e-05          
  1.35                  1.1968e-05            2.6042e-09            -5e-13                -1.1954e-05          
END_DB

