! VERSION = 6.00
BEGIN_HEADER
 ICCAP_INPUTS
  vg         V  G GROUND SMU2 0.001 LIN        1    -0.5       1.35       38   0.05      
  vb         V  B GROUND SMU4 0.1 LIN        2    0          -1.2       5    -0.3      
  vd         V  D GROUND SMU1 0.1 LIST       3 3 0.05 0.6 1.2
  vs         V  S GROUND SMU3 0.1 CON        0
 ICCAP_OUTPUTS
  id         I  D GROUND SMU1 B
  ig         I  G GROUND SMU2 B
  ib         I  B GROUND SMU4 B
  is         I  S GROUND SMU3 B
 ICCAP_VALUES
  MASTER_SETUP_TYPE "~dc_idvg~"
  LINVT_VALUE ""
  LISTVT_VALUE ""
  TYPE "1"
  TEMP " 27.0000 "
  IS_TNOM " 1.00000 "
  MAIN.W "10.00u"
  MAIN.L "130.0n"
  MAIN.AD "3.400p"
  MAIN.AS "3.400p"
  MAIN.PD "20.68u"
  MAIN.PS "20.68u"
  MAIN.NF "1.000"
  MAIN.M "1"
  MAIN.NRD "0.000"
  MAIN.NRS "0.000"
  MAIN.LDRIFT1 "1E-06"
  MAIN.LDRIFT2 "1E-06"
  MAIN.SA "0.000"
  MAIN.SB "0.000"
  MAIN.SD "0.000"
  MAIN.SCA "0.000"
  MAIN.SCB "0.000"
  MAIN.SCC "0.000"
  MAIN.SC "0.000"
  MODULE "S540"
  PIN_D "18"
  PIN_G "3"
  PIN_S "4"
  PIN_B "17"
  PIN_E ""
  PIN_6 ""
  XY_ID ""
  FUNC "Short"
  STI "SA ref"
  WPE "WPE ref"
  COMMENT ""
  DIS_MEAS ""
  TypeTCI "10"
END_HEADER

BEGIN_DB
 ICCAP_VAR vb         0              
 ICCAP_VAR vd         0.05           
 ICCAP_VAR vs         0              

 #vg                    id                    ig                    ib                    is                   
  -0.5                  2e-12                 -5.37e-11             5.128e-11             2.5e-12              
  -0.45                 1.48e-12              -1.12e-11             9.98e-12              1.66e-12             
  -0.4                  1.14e-12              -3.6e-12              3.56e-12              1.18e-12             
  -0.35                 6.8e-13               -1.76e-12             2.48e-12              6.4e-13              
  -0.3                  5.4e-13               -1.08e-12             1.12e-12              5.4e-13              
  -0.25                 3.8e-13               -6e-13                1.28e-12              2.2e-13              
  -0.2                  4.2e-13               -2.2e-13              2.74e-12              -1e-13               
  -0.15                 1.24e-12              -1.2e-13              2.22e-12              -9.8e-13             
  -0.1                  5.22e-12              -8e-14                2.12e-12              -5.06e-12            
  -0.05                 2.21e-11              1.8e-13               8.2e-13               -2.206e-11           
  0                     9.542e-11             3.2e-13               1.26e-12              -9.534e-11           
  0.05                  4.1476e-10            1.8e-13               1.9e-12               -4.1504e-10          
  0.1                   1.811e-09             2.8e-13               1.28e-12              -1.8086e-09          
  0.15                  7.9092e-09            4.8e-13               1.42e-12              -7.9046e-09          
  0.2                   3.419e-08             5.6e-13               5.4e-13               -3.4158e-08          
  0.25                  1.4526e-07            1e-12                 2.1e-12               -1.4518e-07          
  0.3                   5.8674e-07            1.3e-12               2.44e-12              -5.867e-07           
  0.35                  2.1488e-06            2.22e-12              1.54e-12              -2.1422e-06          
  0.4                   6.7362e-06            3.56e-12              1.56e-12              -6.7422e-06          
  0.45                  1.7548e-05            5.84e-12              9.8e-13               -1.7502e-05          
  0.5                   3.8074e-05            9.26e-12              1.78e-12              -3.8062e-05          
  0.55                  7.0126e-05            1.442e-11             1.18e-12              -7.008e-05           
  0.6                   0.000112996           2.188e-11             1e-12                 -0.00011296          
  0.65                  0.00016436            3.186e-11             1.62e-12              -0.00016396          
  0.7                   0.00022074            4.548e-11             1.62e-12              -0.00022032          
  0.75                  0.0002797             6.306e-11             1.18e-12              -0.00027934          
  0.8                   0.00033898            8.588e-11             7.6e-13               -0.00033858          
  0.85                  0.0003972             1.1442e-10            2.28e-12              -0.00039684          
  0.9                   0.00045338            1.4968e-10            1.38e-12              -0.000453            
  0.95                  0.00050704            1.9256e-10            2e-14                 -0.00050658          
  1                     0.00055766            2.4388e-10            2.18e-12              -0.00055732          
  1.05                  0.00060528            3.0528e-10            1.42e-12              -0.00060492          
  1.1                   0.00064982            3.7724e-10            1.14e-12              -0.00064946          
  1.15                  0.00069146            4.6248e-10            1.66e-12              -0.0006911           
  1.2                   0.00073008            5.6184e-10            2e-13                 -0.00072974          
  1.25                  0.0007658             6.7734e-10            1.34e-12              -0.00076544          
  1.3                   0.00079902            8.1052e-10            -1.4e-13              -0.00079852          
  1.35                  0.00082956            9.6366e-10            5.8e-13               -0.00082908          
END_DB

BEGIN_DB
 ICCAP_VAR vb         -0.3           
 ICCAP_VAR vd         0.05           
 ICCAP_VAR vs         0              

 #vg                    id                    ig                    ib                    is                   
  -0.5                  2.1e-12               -4.7e-12              -3.14e-12             2.42e-12             
  -0.45                 1.42e-12              -3.34e-12             -4.18e-12             1.8e-12              
  -0.4                  1.08e-12              -2.34e-12             -3.26e-12             1.24e-12             
  -0.35                 8.2e-13               -1.48e-12             -2.64e-12             9.2e-13              
  -0.3                  4.4e-13               -8.4e-13              -1.14e-12             4.4e-13              
  -0.25                 4.4e-13               -5e-13                -1.82e-12             4e-13                
  -0.2                  2.2e-13               -3.2e-13              -2.06e-12             3.4e-13              
  -0.15                 1e-13                 0                     -2.34e-12             4e-14                
  -0.1                  9.6e-13               1e-13                 -1.62e-12             -6.4e-13             
  -0.05                 3.98e-12              1.4e-13               -7.8e-13              -3.82e-12            
  0                     1.78e-11              3.2e-13               -1.62e-12             -1.77e-11            
  0.05                  8.198e-11             1.8e-13               -1.58e-12             -8.21e-11            
  0.1                   3.786e-10             4.4e-13               -2.3e-12              -3.7838e-10          
  0.15                  1.7478e-09            3.6e-13               -1.44e-12             -1.7454e-09          
  0.2                   7.9834e-09            6e-13                 -9e-13                -7.978e-09           
  0.25                  3.6012e-08            7.6e-13               -3.2e-13              -3.5992e-08          
  0.3                   1.5792e-07            1.3e-12               -1.1e-12              -1.5784e-07          
  0.35                  6.5066e-07            1.96e-12              -5.2e-13              -6.4976e-07          
  0.4                   2.3984e-06            3.22e-12              -8.8e-13              -2.3924e-06          
  0.45                  7.4734e-06            5.4e-12               -1.26e-12             -7.4762e-06          
  0.5                   1.9142e-05            8.44e-12              -6.4e-13              -1.9108e-05          
  0.55                  4.0772e-05            1.316e-11             2e-14                 -4.0742e-05          
  0.6                   7.4024e-05            2.014e-11             -9.6e-13              -7.3984e-05          
  0.65                  0.00011794            2.974e-11             -1.78e-12             -0.00011754          
  0.7                   0.0001696             4.278e-11             -2.2e-13              -0.00016924          
  0.75                  0.00022624            5.974e-11             -1e-13                -0.00022586          
  0.8                   0.000285              8.194e-11             -2.6e-13              -0.0002846           
  0.85                  0.0003439             1.0996e-10            -1.26e-12             -0.00034346          
  0.9                   0.0004014             1.4476e-10            -9.4e-13              -0.00040094          
  0.95                  0.00045674            1.8708e-10            -2.2e-13              -0.00045634          
  1                     0.00050948            2.3794e-10            -9.4e-13              -0.0005091           
  1.05                  0.00055926            2.9868e-10            -1.1e-12              -0.00055882          
  1.1                   0.00060566            3.7034e-10            -5.5e-12              -0.00060532          
  1.15                  0.00064924            4.5462e-10            -7.2e-13              -0.00064882          
  1.2                   0.00068968            5.5352e-10            -1.4e-13              -0.0006893           
  1.25                  0.0007272             6.6798e-10            -8e-13                -0.00072674          
  1.3                   0.00076192            8.0038e-10            -1.12e-12             -0.00076152          
  1.35                  0.00079406            9.529e-10             -1.3e-12              -0.00079362          
END_DB

BEGIN_DB
 ICCAP_VAR vb         -0.6           
 ICCAP_VAR vd         0.05           
 ICCAP_VAR vs         0              

 #vg                    id                    ig                    ib                    is                   
  -0.5                  2.16e-12              -4.8e-12              -4.52e-12             2.6e-12              
  -0.45                 1.4e-12               -3.16e-12             -4.24e-12             1.64e-12             
  -0.4                  1.16e-12              -2.24e-12             -2.96e-12             1.16e-12             
  -0.35                 1.02e-12              -1.44e-12             -3.78e-12             8.8e-13              
  -0.3                  4.4e-13               -8.8e-13              -3.7e-12              4.8e-13              
  -0.25                 4.6e-13               -6e-13                -3.82e-12             4e-13                
  -0.2                  1.4e-13               -2e-13                -3.72e-12             2.6e-13              
  -0.15                 3e-13                 -4e-14                -2.04e-12             1.8e-13              
  -0.1                  2e-13                 1.6e-13               -2.66e-12             -4e-14               
  -0.05                 1.2e-12               1.6e-13               -2.5e-12              -1.02e-12            
  0                     5.28e-12              1.8e-13               -3.16e-12             -5.2e-12             
  0.05                  2.512e-11             2.8e-13               -2.38e-12             -2.502e-11           
  0.1                   1.198e-10             4.2e-13               -1.2e-12              -1.2e-10             
  0.15                  5.7258e-10            5.4e-13               -2.26e-12             -5.7272e-10          
  0.2                   2.71e-09              4.8e-13               -2.6e-12              -2.7086e-09          
  0.25                  1.2672e-08            7e-13                 -1.94e-12             -1.2654e-08          
  0.3                   5.7976e-08            1.3e-12               -1.2e-12              -5.7972e-08          
  0.35                  2.5528e-07            1.74e-12              -2.64e-12             -2.5522e-07          
  0.4                   1.03084e-06           3.18e-12              -1.64e-12             -1.03136e-06         
  0.45                  3.6284e-06            4.94e-12              -1.24e-12             -3.6264e-06          
  0.5                   1.05572e-05           7.74e-12              -2.2e-12              -1.054e-05           
  0.55                  2.5306e-05            1.218e-11             -1.96e-12             -2.5256e-05          
  0.6                   5.082e-05             1.874e-11             -2.1e-12              -5.0794e-05          
  0.65                  8.7728e-05            2.806e-11             -4e-13                -8.771e-05           
  0.7                   0.0001344             4.048e-11             -1.76e-12             -0.00013406          
  0.75                  0.0001879             5.734e-11             -1.72e-12             -0.00018752          
  0.8                   0.0002452             7.898e-11             -1.3e-12              -0.00024486          
  0.85                  0.00030392            1.0654e-10            -8.8e-13              -0.00030346          
  0.9                   0.00036204            1.4082e-10            -1.9e-12              -0.00036162          
  0.95                  0.00041848            1.8282e-10            -1.48e-12             -0.00041812          
  1                     0.00047252            2.333e-10             -1.56e-12             -0.00047218          
  1.05                  0.00052382            2.9336e-10            -1.28e-12             -0.0005235           
  1.1                   0.0005719             3.6482e-10            -1.7e-12              -0.0005715           
  1.15                  0.00061688            4.4856e-10            -1.08e-12             -0.00061654          
  1.2                   0.00065882            5.466e-10             -1.92e-12             -0.00065846          
  1.25                  0.00069766            6.6046e-10            -1.78e-12             -0.0006973           
  1.3                   0.0007336             7.9222e-10            -1.7e-12              -0.00073328          
  1.35                  0.000767              9.4358e-10            -1.26e-12             -0.00076662          
END_DB

BEGIN_DB
 ICCAP_VAR vb         -0.9           
 ICCAP_VAR vd         0.05           
 ICCAP_VAR vs         0              

 #vg                    id                    ig                    ib                    is                   
  -0.5                  2.1e-12               -4.64e-12             -5.26e-12             2.44e-12             
  -0.45                 1.5e-12               -3.16e-12             -4.78e-12             1.8e-12              
  -0.4                  1.06e-12              -2.26e-12             -3.6e-12              1.16e-12             
  -0.35                 8.4e-13               -1.46e-12             -4.84e-12             8e-13                
  -0.3                  3.6e-13               -7.2e-13              -5.06e-12             3.6e-13              
  -0.25                 3.8e-13               -6.2e-13              -3.94e-12             3.6e-13              
  -0.2                  2.2e-13               -2.4e-13              -3.04e-12             2.6e-13              
  -0.15                 2.6e-13               2e-14                 -3.02e-12             2e-13                
  -0.1                  1.2e-13               0                     -4.22e-12             8e-14                
  -0.05                 6.2e-13               1.4e-13               -3.42e-12             -3.6e-13             
  0                     2.3e-12               2.2e-13               -3.38e-12             -2.2e-12             
  0.05                  1.106e-11             2.8e-13               -3.02e-12             -1.102e-11           
  0.1                   5.428e-11             4e-13                 -2.06e-12             -5.414e-11           
  0.15                  2.6492e-10            3.6e-13               -3.02e-12             -2.6498e-10          
  0.2                   1.285e-09             4.4e-13               -2.96e-12             -1.2772e-09          
  0.25                  6.134e-09             8.2e-13               -2.88e-12             -6.1336e-09          
  0.3                   2.884e-08             1.2e-12               -2e-12                -2.8824e-08          
  0.35                  1.3174e-07            1.76e-12              -3.42e-12             -1.3162e-07          
  0.4                   5.6114e-07            3.02e-12              -2.78e-12             -5.6126e-07          
  0.45                  2.1354e-06            4.68e-12              -2.8e-12              -2.1294e-06          
  0.5                   6.7886e-06            7.52e-12              -3.38e-12             -6.7692e-06          
  0.55                  1.7634e-05            1.164e-11             -2.38e-12             -1.7608e-05          
  0.6                   3.8082e-05            1.786e-11             -1.58e-12             -3.8042e-05          
  0.65                  6.988e-05             2.69e-11              -1.88e-12             -6.9852e-05          
  0.7                   0.000112136           3.9e-11               -2.54e-12             -0.000112102         
  0.75                  0.00016278            5.538e-11             -2.56e-12             -0.00016238          
  0.8                   0.00021832            7.676e-11             -2.46e-12             -0.00021794          
  0.85                  0.0002765             1.039e-10             -1.92e-12             -0.00027608          
  0.9                   0.00033468            1.378e-10             -1.12e-12             -0.00033432          
  0.95                  0.00039172            1.795e-10             -2.48e-12             -0.00039128          
  1                     0.00044668            2.2972e-10            -2.46e-12             -0.00044626          
  1.05                  0.00049884            2.8958e-10            -8.8e-13              -0.00049842          
  1.1                   0.00054786            3.604e-10             -2.12e-12             -0.00054746          
  1.15                  0.00059392            4.4392e-10            -2.52e-12             -0.00059342          
  1.2                   0.00063684            5.4144e-10            -2.32e-12             -0.00063646          
  1.25                  0.00067674            6.5478e-10            -1.94e-12             -0.00067634          
  1.3                   0.00071364            7.8622e-10            -3.24e-12             -0.0007133           
  1.35                  0.00074786            9.3736e-10            -2.58e-12             -0.00074748          
END_DB

BEGIN_DB
 ICCAP_VAR vb         -1.2           
 ICCAP_VAR vd         0.05           
 ICCAP_VAR vs         0              

 #vg                    id                    ig                    ib                    is                   
  -0.5                  1.98e-12              -4.64e-12             -6.36e-12             2.5e-12              
  -0.45                 1.46e-12              -3.1e-12              -5.66e-12             1.64e-12             
  -0.4                  1.14e-12              -2.16e-12             -4.78e-12             1.18e-12             
  -0.35                 7.4e-13               -1.36e-12             -4.34e-12             6.8e-13              
  -0.3                  6.8e-13               -8.6e-13              -4.24e-12             5.8e-13              
