! VERSION = 6.00
BEGIN_HEADER
 ICCAP_INPUTS
  vg         V  G GROUND SMU2 0.001 LIN        1    -0.5       1.35       38   0.05      
  vb         V  B GROUND SMU4 0.1 LIN        2    0          -1.2       5    -0.3      
  vd         V  D GROUND SMU1 0.1 LIST       3 3 0.05 0.6 1.2
  vs         V  S GROUND SMU3 0.1 CON        0
 ICCAP_OUTPUTS
  id         I  D GROUND SMU1 B
  ig         I  G GROUND SMU2 B
  ib         I  B GROUND SMU4 B
  is         I  S GROUND SMU3 B
 ICCAP_VALUES
  MASTER_SETUP_TYPE "~dc_idvg~"
  LINVT_VALUE ""
  LISTVT_VALUE ""
  TYPE "1"
  TEMP " 27.0000 "
  IS_TNOM " 1.00000 "
  MAIN.W "150.0n"
  MAIN.L "120.0n"
  MAIN.AD "100.5f"
  MAIN.AS "100.5f"
  MAIN.PD "1.340u"
  MAIN.PS "1.340u"
  MAIN.NF "1.000"
  MAIN.M "1"
  MAIN.NRD "0.000"
  MAIN.NRS "0.000"
  MAIN.LDRIFT1 "1E-06"
  MAIN.LDRIFT2 "1E-06"
  MAIN.SA "0.000"
  MAIN.SB "0.000"
  MAIN.SD "0.000"
  MAIN.SCA "0.000"
  MAIN.SCB "0.000"
  MAIN.SCC "0.000"
  MAIN.SC "0.000"
  MODULE "S546"
  PIN_D "18"
  PIN_G "3"
  PIN_S "4"
  PIN_B "17"
  PIN_E ""
  PIN_6 ""
  XY_ID ""
  FUNC "Additional"
  STI "SA ref"
  WPE "WPE ref"
  COMMENT ""
  DIS_MEAS ""
  TypeTCI "10"
END_HEADER

BEGIN_DB
 ICCAP_VAR vb         0              
 ICCAP_VAR vd         0.05           
 ICCAP_VAR vs         0              

 #vg                    id                    ig                    ib                    is                   
  -0.5                  2e-14                 -4.474e-11            4.784e-11             1.6e-13              
  -0.45                 -2e-14                -6.78e-12             8.34e-12              2e-13                
  -0.4                  4e-14                 -1.18e-12             2.06e-12              6e-14                
  -0.35                 -6e-14                -1.8e-13              2.1e-12               6e-14                
  -0.3                  1.6e-13               -6e-14                1.78e-12              1e-13                
  -0.25                 0                     8e-14                 2.78e-12              8e-14                
  -0.2                  4e-14                 2e-13                 1.68e-12              1.2e-13              
  -0.15                 -8e-14                2e-13                 1.12e-12              -2e-14               
  -0.1                  0                     1.8e-13               1.12e-12              0                    
  -0.05                 3e-13                 1.4e-13               1.64e-12              -6e-14               
  0                     8.6e-13               2.4e-13               2.54e-12              -8.2e-13             
  0.05                  3.58e-12              3e-13                 1.28e-12              -3.68e-12            
  0.1                   1.506e-11             3.6e-13               1.56e-12              -1.508e-11           
  0.15                  6.26e-11              3e-13                 8e-13                 -6.242e-11           
  0.2                   2.5712e-10            3.4e-13               1.5e-12               -2.5718e-10          
  0.25                  1.04736e-09           3.4e-13               2.16e-12              -1.04716e-09         
  0.3                   3.9934e-09            3.6e-13               1.48e-12              -3.6494e-09          
  0.35                  1.3846e-08            3.6e-13               9e-13                 -1.4004e-08          
  0.4                   4.6474e-08            4.4e-13               1.18e-12              -4.645e-08           
  0.45                  1.3108e-07            5.2e-13               2e-12                 -1.3106e-07          
  0.5                   3.1116e-07            6.4e-13               1.34e-12              -3.1106e-07          
  0.55                  6.3582e-07            6.2e-13               3.4e-13               -6.3192e-07          
  0.6                   1.13208e-06           9e-13                 1.44e-12              -1.13216e-06         
  0.65                  1.8248e-06            8e-13                 9.2e-13               -1.8308e-06          
  0.7                   2.687e-06             1.16e-12              1.74e-12              -2.6854e-06          
  0.75                  3.668e-06             1.36e-12              1.3e-12               -3.6632e-06          
  0.8                   4.7346e-06            1.76e-12              1.4e-12               -4.7326e-06          
  0.85                  5.8588e-06            2.14e-12              1.56e-12              -5.8556e-06          
  0.9                   7.0082e-06            2.66e-12              2.8e-13               -7.0038e-06          
  0.95                  8.1612e-06            3.3e-12               7.6e-13               -8.1578e-06          
  1                     9.3006e-06            4.18e-12              1.84e-12              -9.2964e-06          
  1.05                  1.04138e-05           4.94e-12              1.94e-12              -1.04086e-05         
  1.1                   1.14902e-05           6.16e-12              2e-13                 -1.14848e-05         
  1.15                  1.2534e-05            7.22e-12              5.2e-13               -1.2526e-05          
  1.2                   1.3542e-05            8.64e-12              1.78e-12              -1.3524e-05          
  1.25                  1.4494e-05            1.04e-11              1.32e-12              -1.4476e-05          
  1.3                   1.542e-05             1.238e-11             5.4e-13               -1.5406e-05          
  1.35                  1.6282e-05            1.452e-11             1.04e-12              -1.6262e-05          
END_DB

BEGIN_DB
 ICCAP_VAR vb         -0.3           
 ICCAP_VAR vd         0.05           
 ICCAP_VAR vs         0              

 #vg                    id                    ig                    ib                    is                   
  -0.5                  1.6e-13               -4.2e-13              -2.44e-12             2e-13                
  -0.45                 1e-13                 -1.6e-13              -2.48e-12             1.6e-13              
  -0.4                  -2e-14                0                     -2.26e-12             8e-14                
  -0.35                 6e-14                 -2e-14                -2.24e-12             0                    
  -0.3                  4e-14                 1e-13                 -2.16e-12             2.2e-13              
  -0.25                 -2e-14                1.2e-13               -6.4e-13              4e-14                
  -0.2                  1.8e-13               2.2e-13               -1.02e-12             4e-14                
  -0.15                 8e-14                 2.2e-13               -6.2e-13              2e-14                
  -0.1                  -2e-14                1.8e-13               -1.84e-12             2e-14                
  -0.05                 1.2e-13               3.2e-13               -1.88e-12             4e-14                
  0                     8e-14                 2.4e-13               -1.18e-12             -2e-14               
  0.05                  6.8e-13               4e-13                 -8.2e-13              -4.8e-13             
  0.1                   2.76e-12              2.4e-13               -7.8e-13              -2.76e-12            
  0.15                  1.21e-11              3.8e-13               -1.58e-12             -1.204e-11           
  0.2                   5.214e-11             3.6e-13               -1.72e-12             -5.198e-11           
  0.25                  2.2428e-10            3.4e-13               -1.46e-12             -2.2424e-10          
  0.3                   9.4578e-10            5.4e-13               -2e-13                -9.4528e-10          
  0.35                  3.8776e-09            2.6e-13               -7e-13                -3.4034e-09          
  0.4                   1.3296e-08            4.2e-13               -1.04e-12             -1.3268e-08          
  0.45                  4.5654e-08            4.6e-13               -5e-13                -4.5626e-08          
  0.5                   1.3022e-07            4.4e-13               -4.4e-13              -1.3004e-07          
  0.55                  3.1008e-07            6.8e-13               -1.04e-12             -3.0992e-07          
  0.6                   6.372e-07             6.2e-13               -8.2e-13              -6.3718e-07          
  0.65                  1.1469e-06            8.4e-13               -2e-13                -1.14716e-06         
  0.7                   1.8442e-06            1.1e-12               1.18e-12              -1.8396e-06          
  0.75                  2.702e-06             1.3e-12               -1.4e-12              -2.6994e-06          
  0.8                   3.6822e-06            1.56e-12              -5e-13                -3.6798e-06          
  0.85                  4.7468e-06            2.02e-12              5.6e-13               -4.7428e-06          
  0.9                   5.8588e-06            2.62e-12              -1.14e-12             -5.8552e-06          
  0.95                  6.995e-06             3.26e-12              -1.14e-12             -6.9914e-06          
  1                     8.1312e-06            4.08e-12              2e-14                 -8.1278e-06          
  1.05                  9.2586e-06            4.9e-12               2e-14                 -9.2452e-06          
  1.1                   1.03358e-05           6.02e-12              -8.6e-13              -1.03424e-05         
  1.15                  1.13892e-05           7.22e-12              -3e-13                -1.14018e-05         
  1.2                   1.2418e-05            8.52e-12              -4e-14                -1.2402e-05          
  1.25                  1.3392e-05            1.022e-11             8e-13                 -1.3376e-05          
  1.3                   1.4342e-05            1.214e-11             -5.4e-13              -1.4324e-05          
  1.35                  1.5228e-05            1.438e-11             -8e-13                -1.5212e-05          
END_DB

BEGIN_DB
 ICCAP_VAR vb         -0.6           
 ICCAP_VAR vd         0.05           
 ICCAP_VAR vs         0              

 #vg                    id                    ig                    ib                    is                   
  -0.5                  2e-14                 -3.6e-13              -3.86e-12             4e-14                
  -0.45                 2e-14                 -1.6e-13              -3.1e-12              2e-13                
  -0.4                  1e-13                 -1e-13                -3.86e-12             2.4e-13              
  -0.35                 -6e-14                6e-14                 -4.06e-12             1.6e-13              
  -0.3                  4e-14                 8e-14                 -4.1e-12              1.2e-13              
  -0.25                 1e-13                 2.6e-13               -2.92e-12             1.2e-13              
  -0.2                  0                     2.4e-13               -2.28e-12             8e-14                
  -0.15                 -4e-14                2.2e-13               -2.72e-12             1e-13                
  -0.1                  -1.2e-13              3.4e-13               -2.84e-12             4e-14                
  -0.05                 2.2e-13               3e-13                 -2.6e-12              1.8e-13              
  0                     -1.6e-13              3e-13                 -1.84e-12             0                    
  0.05                  1.8e-13               3.2e-13               -1.7e-12              -1.8e-13             
  0.1                   8.6e-13               4.2e-13               -2.3e-12              -7.4e-13             
  0.15                  3.38e-12              4.8e-13               -2.14e-12             -3.54e-12            
  0.2                   1.546e-11             3.4e-13               -2.62e-12             -1.518e-11           
  0.25                  6.83e-11              2.6e-13               -2.44e-12             -6.838e-11           
  0.3                   2.991e-10             5.2e-13               -9.4e-13              -2.9928e-10          
  0.35                  1.1094e-09            3.2e-13               -2.1e-12              -1.1072e-09          
  0.4                   4.6364e-09            5.2e-13               -1.88e-12             -4.635e-09           
  0.45                  1.7972e-08            3.4e-13               -1.38e-12             -1.7952e-08          
  0.5                   5.9616e-08            4.6e-13               -2.8e-13              -5.9592e-08          
  0.55                  1.6236e-07            5e-13                 -2.38e-12             -1.6228e-07          
  0.6                   3.7264e-07            9e-13                 -1.38e-12             -3.725e-07           
  0.65                  7.404e-07             7.2e-13               -1.18e-12             -7.404e-07           
  0.7                   1.2958e-06            1e-12                 -1.8e-12              -1.2912e-06          
  0.75                  2.032e-06             1.2e-12               -1.58e-12             -2.0288e-06          
  0.8                   2.921e-06             1.58e-12              -3.38e-12             -2.9186e-06          
  0.85                  3.9202e-06            2.08e-12              -1.02e-12             -3.9158e-06          
  0.9                   4.9894e-06            2.52e-12              -1.4e-12              -4.9852e-06          
  0.95                  6.0986e-06            3.26e-12              -2.14e-12             -6.0946e-06          
  1                     7.2226e-06            3.98e-12              -5.4e-13              -7.2184e-06          
  1.05                  8.3408e-06            4.78e-12              -1.34e-12             -8.337e-06           
  1.1                   9.4314e-06            5.78e-12              -1.14e-12             -9.4292e-06          
  1.15                  1.04972e-05           7.04e-12              -1.64e-12             -1.04936e-05         
  1.2                   1.1552e-05            8.34e-12              -2.2e-13              -1.1524e-05          
  1.25                  1.253e-05             1.006e-11             -6.4e-13              -1.2524e-05          
  1.3                   1.3486e-05            1.216e-11             -1.12e-12             -1.3476e-05          
  1.35                  1.4398e-05            1.428e-11             -1.96e-12             -1.4384e-05          
END_DB

BEGIN_DB
 ICCAP_VAR vb         -0.9           
 ICCAP_VAR vd         0.05           
 ICCAP_VAR vs         0              

 #vg                    id                    ig                    ib                    is                   
  -0.5                  6e-14                 -3.2e-13              -4.78e-12             2.2e-13              
  -0.45                 -4e-14                -2e-14                -4.34e-12             1.6e-13              
  -0.4                  1.2e-13               -2e-14                -4.58e-12             2e-14                
  -0.35                 6e-14                 0                     -5.12e-12             1.2e-13              
  -0.3                  2e-14                 4e-14                 -4.8e-12              1.2e-13              
  -0.25                 0                     6e-14                 -3.26e-12             1.4e-13              
  -0.2                  -1.2e-13              2e-13                 -3.14e-12             1.4e-13              
  -0.15                 -8e-14                2.6e-13               -3.24e-12             6e-14                
  -0.1                  1e-13                 3.2e-13               -3.88e-12             6e-14                
  -0.05                 -1.2e-13              3.4e-13               -3.64e-12             1.6e-13              
  0                     -1e-13                1.8e-13               -2.92e-12             0                    
  0.05                  1.4e-13               4.2e-13               -3.1e-12              0                    
  0.1                   2.2e-13               3.4e-13               -2.2e-12              -3.4e-13             
  0.15                  1.3e-12               2.4e-13               -3.14e-12             -1.4e-12             
  0.2                   6.18e-12              3.6e-13               -3.36e-12             -6e-12               
  0.25                  2.774e-11             4.6e-13               -1.74e-12             -2.798e-11           
  0.3                   1.0576e-10            3.6e-13               -1.12e-12             -1.0566e-10          
  0.35                  4.6972e-10            4.8e-13               -1.9e-12              -4.6898e-10          
  0.4                   2.0304e-09            3.4e-13               -3.1e-12              -2.029e-09           
  0.45                  8.3896e-09            5.8e-13               -2.7e-12              -8.3778e-09          
  0.5                   3.0816e-08            4.2e-13               -2.36e-12             -3.0798e-08          
  0.55                  9.386e-08             5.2e-13               -1.38e-12             -9.3816e-08          
  0.6                   2.3572e-07            7e-13                 -2.68e-12             -2.3566e-07          
  0.65                  5.0534e-07            8.4e-13               -2.2e-12              -5.0542e-07          
  0.7                   9.4586e-07            1.04e-12              -2.54e-12             -9.4574e-07          
  0.75                  1.5768e-06            1.26e-12              -2.18e-12             -1.572e-06           
  0.8                   2.377e-06             1.52e-12              -1.9e-12              -2.3738e-06          
  0.85                  3.3148e-06            1.86e-12              -1.72e-12             -3.3094e-06          
  0.9                   4.3384e-06            2.46e-12              -2.26e-12             -4.3358e-06          
  0.95                  5.4208e-06            3.14e-12              -1.62e-12             -5.417e-06           
  1                     6.5288e-06            3.74e-12              -2.76e-12             -6.525e-06           
  1.05                  7.6416e-06            4.86e-12              -1.88e-12             -7.6374e-06          
  1.1                   8.7342e-06            5.8e-12               -8.2e-13              -8.7304e-06          
  1.15                  9.8172e-06            6.9e-12               -2.4e-12              -9.8134e-06          
  1.2                   1.08542e-05           8.36e-12              -2.8e-12              -1.08578e-05         
  1.25                  1.1872e-05            1e-11                 -1.48e-12             -1.1844e-05          
  1.3                   1.2822e-05            1.206e-11             -1.08e-12             -1.2822e-05          
  1.35                  1.3756e-05            1.414e-11             -1.38e-12             -1.3738e-05          
END_DB

BEGIN_DB
 ICCAP_VAR vb         -1.2           
 ICCAP_VAR vd         0.05           
 ICCAP_VAR vs         0              

 #vg                    id                    ig                    ib                    is                   
  -0.5                  4e-14                 -2.8e-13              -5.56e-12             1.4e-13              
  -0.45                 1.6e-13               -6e-14                -5.92e-12             2.6e-13              
  -0.4                  1e-13                 6e-14                 -5.76e-12             1.4e-13              
  -0.35                 6e-14                 0                     -4.92e-12             2.2e-13              
  -0.3                  4e-14                 4e-14                 -3.72e-12             1e-13                
