! VERSION = 6.00
BEGIN_HEADER
 ICCAP_INPUTS
  vd         V  D GROUND SMU1 0.1 LIN        1    0          1.35       28   0.05      
  vg         V  G GROUND SMU2 0.001 LIN        2    0.562      1.35       5    0.197     
  vb         V  B GROUND SMU4 0.1 CON        -1.2
  vs         V  S GROUND SMU3 0.1 CON        0
 ICCAP_OUTPUTS
  id         I  D GROUND SMU1 B
  ig         I  G GROUND SMU2 B
  ib         I  B GROUND SMU4 B
  is         I  S GROUND SMU3 B
 ICCAP_VALUES
  MASTER_SETUP_TYPE "~dc_idvd~"
  LINVT_VALUE "|idvg|100.0n|100.0m|1.000m|5|1.350|"
  LISTVT_VALUE ""
  TYPE "1"
  TEMP " 27.0000 "
  IS_TNOM " 1.00000 "
  MAIN.W "300.0n"
  MAIN.L "180.0n"
  MAIN.AD "102.0f"
  MAIN.AS "102.0f"
  MAIN.PD "1.280u"
  MAIN.PS "1.280u"
  MAIN.NF "1.000"
  MAIN.M "1"
  MAIN.NRD "0.000"
  MAIN.NRS "0.000"
  MAIN.LDRIFT1 "1E-06"
  MAIN.LDRIFT2 "1E-06"
  MAIN.SA "0.000"
  MAIN.SB "0.000"
  MAIN.SD "0.000"
  MAIN.SCA "0.000"
  MAIN.SCB "0.000"
  MAIN.SCC "0.000"
  MAIN.SC "0.000"
  MODULE "S544"
  PIN_D "12"
  PIN_G "9"
  PIN_S "10"
  PIN_B "11"
  PIN_E ""
  PIN_6 ""
  XY_ID ""
  FUNC "LW Scale"
  STI "SA ref"
  WPE "WPE ref"
  COMMENT ""
  DIS_MEAS ""
  TypeTCI "10"
END_HEADER

BEGIN_DB
 ICCAP_VAR vg         0.562          
 ICCAP_VAR vb         -1.2           
 ICCAP_VAR vs         0              

 #vd                    id                    ig                    ib                    is                   
  0                     1.4606e-09            9e-13                 -1.47e-11             -1.0886e-09          
  0.05                  6.0584e-07            7e-13                 -1.426e-11            -6.0604e-07          
  0.1                   8.7308e-07            5.6e-13               -1.338e-11            -8.7252e-07          
  0.15                  9.8916e-07            3.8e-13               -1.188e-11            -9.889e-07           
  0.2                   1.05438e-06           5.2e-13               -1.21e-11             -1.05478e-06         
  0.25                  1.10368e-06           4.8e-13               -1.116e-11            -1.10404e-06         
  0.3                   1.14736e-06           5.2e-13               -2.58e-12             -1.14754e-06         
  0.35                  1.1904e-06            4e-13                 -8.22e-12             -1.1864e-06          
  0.4                   1.2302e-06            3.2e-13               -9.14e-12             -1.2264e-06          
  0.45                  1.2688e-06            4.2e-13               -8.66e-12             -1.2648e-06          
  0.5                   1.306e-06             4.2e-13               -7.62e-12             -1.3022e-06          
  0.55                  1.343e-06             3.6e-13               -8.44e-12             -1.3394e-06          
  0.6                   1.3802e-06            2.8e-13               -7.82e-12             -1.3758e-06          
  0.65                  1.416e-06             4.2e-13               -6.8e-12              -1.412e-06           
  0.7                   1.4516e-06            3.4e-13               -7.62e-12             -1.4474e-06          
  0.75                  1.487e-06             3.2e-13               -7.38e-12             -1.4832e-06          
  0.8                   1.5218e-06            4.4e-13               -6.7e-12              -1.5178e-06          
  0.85                  1.5562e-06            4.6e-13               -7.08e-12             -1.5526e-06          
  0.9                   1.5914e-06            2.4e-13               -6.96e-12             -1.5874e-06          
  0.95                  1.6258e-06            2.8e-13               -5.62e-12             -1.6214e-06          
  1                     1.6608e-06            1.6e-13               -6.42e-12             -1.656e-06           
  1.05                  1.6942e-06            1e-13                 -6.86e-12             -1.6904e-06          
  1.1                   1.7282e-06            8e-14                 -6.04e-12             -1.7244e-06          
  1.15                  1.7624e-06            -8e-14                -8.36e-12             -1.7586e-06          
  1.2                   1.797e-06             -2.4e-13              -1.212e-11            -1.7924e-06          
  1.25                  1.8306e-06            -5.6e-13              -1.802e-11            -1.8268e-06          
  1.3                   1.8646e-06            -8.6e-13              -3.028e-11            -1.8608e-06          
  1.35                  1.8986e-06            -1.18e-12             -5.262e-11            -1.8952e-06          
END_DB

BEGIN_DB
 ICCAP_VAR vg         0.759          
 ICCAP_VAR vb         -1.2           
 ICCAP_VAR vs         0              

 #vd                    id                    ig                    ib                    is                   
  0                     3.958e-09             2.96e-12              -2.28e-12             -4.1196e-09          
  0.05                  3.6916e-06            2.56e-12              -3.72e-12             -3.685e-06           
  0.1                   6.364e-06             2.18e-12              -4.08e-12             -6.3596e-06          
  0.15                  8.1938e-06            1.76e-12              -3.52e-12             -8.1894e-06          
  0.2                   9.386e-06             1.78e-12              -4.52e-12             -9.3828e-06          
  0.25                  1.0157e-05            1.74e-12              -4.3e-12              -1.01526e-05         
  0.3                   1.06774e-05           1.64e-12              -3.3e-12              -1.06766e-05         
  0.35                  1.10708e-05           1.66e-12              -3.48e-12             -1.10682e-05         
  0.4                   1.1402e-05            1.58e-12              -3.7e-12              -1.13922e-05         
  0.45                  1.1692e-05            1.36e-12              -4.66e-12             -1.1637e-05          
  0.5                   1.1958e-05            1.5e-12               -2.82e-12             -1.194e-05           
  0.55                  1.2204e-05            1.46e-12              -3.76e-12             -1.2188e-05          
  0.6                   1.245e-05             1.4e-12               -3.18e-12             -1.243e-05           
  0.65                  1.2684e-05            1.42e-12              -3.1e-12              -1.2666e-05          
  0.7                   1.2912e-05            1.5e-12               -4.16e-12             -1.2892e-05          
  0.75                  1.3134e-05            1.2e-12               -3.02e-12             -1.3116e-05          
  0.8                   1.3352e-05            1.44e-12              -3.28e-12             -1.3332e-05          
  0.85                  1.3564e-05            1.42e-12              -3.86e-12             -1.3546e-05          
  0.9                   1.3774e-05            1.4e-12               -3.1e-12              -1.3756e-05          
  0.95                  1.398e-05             1.28e-12              -3.1e-12              -1.3964e-05          
  1                     1.4186e-05            1.22e-12              -4.36e-12             -1.4166e-05          
  1.05                  1.4384e-05            1.22e-12              -3.14e-12             -1.4368e-05          
  1.1                   1.4584e-05            1.32e-12              -4.36e-12             -1.4566e-05          
  1.15                  1.478e-05             1.32e-12              -7.08e-12             -1.4764e-05          
  1.2                   1.4974e-05            1.1e-12               -1.164e-11            -1.4956e-05          
  1.25                  1.5168e-05            1.08e-12              -2.374e-11            -1.515e-05           
  1.3                   1.5356e-05            1.04e-12              -4.89e-11             -1.5342e-05          
  1.35                  1.555e-05             9e-13                 -9.682e-11            -1.5538e-05          
END_DB

BEGIN_DB
 ICCAP_VAR vg         0.956          
 ICCAP_VAR vb         -1.2           
 ICCAP_VAR vs         0              

 #vd                    id                    ig                    ib                    is                   
  0                     1.2916e-08            9.32e-12              -1.8e-12              -1.3172e-08          
  0.05                  7.953e-06             8.2e-12               -3.12e-12             -7.9492e-06          
  0.1                   1.4678e-05            7.12e-12              -3.14e-12             -1.4658e-05          
  0.15                  2.0146e-05            6.46e-12              -2.32e-12             -2.0126e-05          
  0.2                   2.442e-05             5.92e-12              -2.06e-12             -2.4402e-05          
  0.25                  2.765e-05             5.44e-12              -2.38e-12             -2.7632e-05          
  0.3                   3.0024e-05            5.06e-12              -2.62e-12             -3.0008e-05          
  0.35                  3.1758e-05            4.92e-12              -2.4e-12              -3.1742e-05          
  0.4                   3.3036e-05            4.68e-12              -3.3e-12              -3.3026e-05          
  0.45                  3.4016e-05            4.6e-12               -2.88e-12             -3.4006e-05          
  0.5                   3.4818e-05            4.46e-12              -2.82e-12             -3.4798e-05          
  0.55                  3.5502e-05            4.6e-12               -2.9e-12              -3.5488e-05          
  0.6                   3.6112e-05            4.5e-12               -1.76e-12             -3.6094e-05          
  0.65                  3.6682e-05            4.3e-12               -2.78e-12             -3.666e-05           
  0.7                   3.7212e-05            4.18e-12              -2.98e-12             -3.7196e-05          
  0.75                  3.7734e-05            4.18e-12              -1.42e-12             -3.7708e-05          
  0.8                   3.8212e-05            4.06e-12              -2.68e-12             -3.8198e-05          
  0.85                  3.8688e-05            4.2e-12               -2.38e-12             -3.8664e-05          
  0.9                   3.9146e-05            4.18e-12              -1.38e-12             -3.913e-05           
  0.95                  3.9592e-05            4.02e-12              -1.56e-12             -3.9574e-05          
  1                     4.0032e-05            4.04e-12              -3.06e-12             -4.0018e-05          
  1.05                  4.0464e-05            4.16e-12              -2.3e-12              -4.045e-05           
  1.1                   4.0884e-05            3.86e-12              -4.22e-12             -4.0866e-05          
  1.15                  4.1296e-05            3.92e-12              -6.78e-12             -4.1284e-05          
  1.2                   4.1704e-05            3.9e-12               -1.136e-11            -4.1686e-05          
  1.25                  4.2118e-05            3.92e-12              -2.442e-11            -4.2082e-05          
  1.3                   4.2494e-05            3.84e-12              -5.048e-11            -4.2482e-05          
  1.35                  4.2888e-05            3.82e-12              -9.978e-11            -4.2876e-05          
END_DB

BEGIN_DB
 ICCAP_VAR vg         1.153          
 ICCAP_VAR vb         -1.2           
 ICCAP_VAR vs         0              

 #vd                    id                    ig                    ib                    is                   
  0                     1.9462e-08            2.314e-11             -1.22e-12             -1.8566e-08          
  0.05                  1.1878e-05            2.082e-11             -2.06e-12             -1.186e-05           
  0.1                   2.2568e-05            1.868e-11             -2e-12                -2.2564e-05          
  0.15                  3.1952e-05            1.704e-11             -1.36e-12             -3.1938e-05          
  0.2                   3.993e-05             1.552e-11             -2.24e-12             -3.9914e-05          
  0.25                  4.6548e-05            1.422e-11             -2.34e-12             -4.6532e-05          
  0.3                   5.1888e-05            1.326e-11             -1.74e-12             -5.188e-05           
  0.35                  5.6116e-05            1.26e-11              -2.26e-12             -5.6102e-05          
  0.4                   5.939e-05             1.198e-11             -1.76e-12             -5.9372e-05          
  0.45                  6.1896e-05            1.14e-11              -1.62e-12             -6.1886e-05          
  0.5                   6.3848e-05            1.124e-11             -2.72e-12             -6.3824e-05          
  0.55                  6.5378e-05            1.088e-11             -1.96e-12             -6.5354e-05          
  0.6                   6.6564e-05            1.062e-11             -2.16e-12             -6.6522e-05          
  0.65                  6.7604e-05            1.042e-11             -2.68e-12             -6.7592e-05          
  0.7                   6.854e-05             1.04e-11              -2.2e-12              -6.8494e-05          
  0.75                  6.9378e-05            1.032e-11             -1.6e-12              -6.9364e-05          
  0.8                   7.0162e-05            1.022e-11             -2.36e-12             -7.0156e-05          
  0.85                  7.0918e-05            1.014e-11             -1.04e-12             -7.089e-05           
  0.9                   7.1624e-05            1.004e-11             -2e-12                -7.161e-05           
  0.95                  7.2302e-05            1.002e-11             -2.7e-12              -7.2286e-05          
  1                     7.303e-05             9.9e-12               -2.08e-12             -7.3004e-05          
  1.05                  7.3654e-05            9.74e-12              -2.52e-12             -7.364e-05           
  1.1                   7.427e-05             9.58e-12              -4.34e-12             -7.4262e-05          
  1.15                  7.4884e-05            9.66e-12              -4.74e-12             -7.486e-05           
  1.2                   7.547e-05             9.64e-12              -1.12e-11             -7.538e-05           
  1.25                  7.6046e-05            9.5e-12               -2.288e-11            -7.6026e-05          
  1.3                   7.6606e-05            9.48e-12              -4.412e-11            -7.6594e-05          
  1.35                  7.7166e-05            9.42e-12              -8.882e-11            -7.7134e-05          
END_DB

BEGIN_DB
 ICCAP_VAR vg         1.35           
 ICCAP_VAR vb         -1.2           
 ICCAP_VAR vs         0              

 #vd                    id                    ig                    ib                    is                   
  0                     2.3934e-08            4.978e-11             -1.18e-12             -2.3452e-08          
  0.05                  1.5092e-05            4.542e-11             -1.08e-12             -1.5074e-05          
  0.1                   2.9118e-05            4.156e-11             -2.02e-12             -2.91e-05            
  0.15                  4.188e-05             3.82e-11              -2.44e-12             -4.1874e-05          
  0.2                   5.3216e-05            3.51e-11              -9.8e-13              -5.3202e-05          
  0.25                  6.3118e-05            3.262e-11             -2.02e-12             -6.3094e-05          
  0.3                   7.1592e-05            3.024e-11             -2.48e-12             -7.158e-05           
  0.35                  7.8694e-05            2.84e-11              -6e-13                -7.8654e-05          
  0.4                   8.4548e-05            2.696e-11             -2.02e-12             -8.4498e-05          
  0.45                  8.9286e-05            2.572e-11             -2.1e-12              -8.9268e-05          
  0.5                   9.3084e-05            2.462e-11             -6.8e-13              -9.3058e-05          
  0.55                  9.6122e-05            2.376e-11             -1.88e-12             -9.6102e-05          
  0.6                   9.8582e-05            2.328e-11             -2.24e-12             -9.856e-05           
  0.65                  0.000100554           2.268e-11             -7.2e-13              -0.000100514         
  0.7                   0.000102152           2.224e-11             -2.34e-12             -0.000102194         
  0.75                  0.000103542           2.202e-11             -1.56e-12             -0.000103556         
  0.8                   0.000104808           2.19e-11              -3.8e-13              -0.000104794         
  0.85                  0.0001059             2.14e-11              -1.6e-12              -0.000105886         
  0.9                   0.000106904           2.128e-11             -2.02e-12             -0.000106888         
  0.95                  0.000107772           2.1e-11               -1.2e-12              -0.000107758         
  1                     0.00010869            2.078e-11             -2.6e-12              -0.000108694         
  1.05                  0.000109554           2.07e-11              -2.58e-12             -0.000109466         
  1.1                   0.000110312           2.058e-11             -2.38e-12             -0.000110336         
  1.15                  0.000111128           2.044e-11             -5.88e-12             -0.000111108         
  1.2                   0.000111876           2.026e-11             -9.18e-12             -0.000111856         
  1.25                  0.000112532           2.016e-11             -1.704e-11            -0.000112564         
  1.3                   0.000113262           1.994e-11             -3.722e-11            -0.000113228         
  1.35                  0.00011414            1.988e-11             -7.306e-11            -0.000113862         
END_DB

