! VERSION = 6.00
BEGIN_HEADER
 ICCAP_INPUTS
  vd         V  D GROUND SMU1 0.1 LIN        1    0          1.35       28   0.05      
  vg         V  G GROUND SMU2 0.001 LIST       2 3 0.075 0.275 0.475
  vb         V  B GROUND SMU4 0.1 CON        0
  vs         V  S GROUND SMU3 0.1 CON        0
 ICCAP_OUTPUTS
  id         I  D GROUND SMU1 B
  ig         I  G GROUND SMU2 B
  ib         I  B GROUND SMU4 B
  is         I  S GROUND SMU3 B
 ICCAP_VALUES
  MASTER_SETUP_TYPE "~dc_idvd~"
  LINVT_VALUE ""
  LISTVT_VALUE "|idvg|100.0n|-200.0m|1.000m|3|200.0m|200.0m|"
  TYPE "1"
  TEMP " 27.0000 "
  IS_TNOM " 1.00000 "
  MAIN.W "300.0n"
  MAIN.L "500.0n"
  MAIN.AD "102.0f"
  MAIN.AS "102.0f"
  MAIN.PD "1.280u"
  MAIN.PS "1.280u"
  MAIN.NF "1.000"
  MAIN.M "1"
  MAIN.NRD "0.000"
  MAIN.NRS "0.000"
  MAIN.LDRIFT1 "1E-06"
  MAIN.LDRIFT2 "1E-06"
  MAIN.SA "0.000"
  MAIN.SB "0.000"
  MAIN.SD "0.000"
  MAIN.SCA "0.000"
  MAIN.SCB "0.000"
  MAIN.SCC "0.000"
  MAIN.SC "0.000"
  MODULE "S545"
  PIN_D "20"
  PIN_G "1"
  PIN_S "2"
  PIN_B "19"
  PIN_E ""
  PIN_6 ""
  XY_ID ""
  FUNC "LW Scale"
  STI "SA ref"
  WPE "WPE ref"
  COMMENT ""
  DIS_MEAS ""
  TypeTCI "10"
END_HEADER

BEGIN_DB
 ICCAP_VAR vg         0.075          
 ICCAP_VAR vb         0              
 ICCAP_VAR vs         0              

 #vd                    id                    ig                    ib                    is                   
  0                     5.2e-13               -2.6e-13              9.4e-13               -2e-13               
  0.05                  1.3064e-10            -2e-13                2.6e-13               -1.3056e-10          
  0.1                   1.5362e-10            -1.8e-13              9.4e-13               -1.5316e-10          
  0.15                  1.5958e-10            -1e-13                1.52e-12              -1.589e-10           
  0.2                   1.6252e-10            -1.4e-13              1.04e-12              -1.6202e-10          
  0.25                  1.6468e-10            -1.4e-13              5e-13                 -1.6408e-10          
  0.3                   1.6684e-10            -2e-14                6.4e-13               -1.6714e-10          
  0.35                  1.698e-10             -1.2e-13              2e-13                 -1.689e-10           
  0.4                   1.7176e-10            -6e-14                1.4e-12               -1.7098e-10          
  0.45                  1.7376e-10            -1.2e-13              1.64e-12              -1.7256e-10          
  0.5                   1.7534e-10            -8e-14                4e-13                 -1.7394e-10          
  0.55                  1.765e-10             -1.2e-13              -1e-13                -1.759e-10           
  0.6                   1.7816e-10            -2e-13                3e-13                 -1.772e-10           
  0.65                  1.797e-10             -1.4e-13              1.52e-12              -1.751e-10           
  0.7                   1.8028e-10            -1.4e-13              1.16e-12              -1.7982e-10          
  0.75                  1.8206e-10            -1.6e-13              3.6e-13               -1.8076e-10          
  0.8                   1.8272e-10            -2.4e-13              3e-13                 -1.813e-10           
  0.85                  1.8346e-10            -2.4e-13              6.4e-13               -1.8254e-10          
  0.9                   1.8384e-10            -2.8e-13              7.2e-13               -1.8328e-10          
  0.95                  1.8536e-10            -3.4e-13              5.6e-13               -1.8408e-10          
  1                     1.8598e-10            -3.2e-13              1.4e-13               -1.8444e-10          
  1.05                  1.865e-10             -4.6e-13              -4e-13                -1.8518e-10          
  1.1                   1.8714e-10            -4.6e-13              5.8e-13               -1.855e-10           
  1.15                  1.8726e-10            -5.4e-13              1.8e-12               -1.8616e-10          
  1.2                   1.8812e-10            -6.2e-13              1.08e-12              -1.8578e-10          
  1.25                  1.8824e-10            -7.6e-13              5.8e-13               -1.86e-10            
  1.3                   1.8942e-10            -7.2e-13              4e-14                 -1.8718e-10          
  1.35                  1.8972e-10            -9.8e-13              5e-13                 -1.8772e-10          
END_DB

BEGIN_DB
 ICCAP_VAR vg         0.275          
 ICCAP_VAR vb         0              
 ICCAP_VAR vs         0              

 #vd                    id                    ig                    ib                    is                   
  0                     9.306e-11             1.4e-13               2.34e-12              -9.226e-11           
  0.05                  4.5058e-08            1.4e-13               6.6e-13               -4.5022e-08          
  0.1                   5.607e-08             1.8e-13               6e-13                 -5.6068e-08          
  0.15                  5.946e-08             1.6e-13               4.2e-13               -5.8792e-08          
  0.2                   6.1212e-08            2e-13                 1.48e-12              -6.1194e-08          
  0.25                  6.2592e-08            6e-14                 2.6e-13               -6.2552e-08          
  0.3                   6.3762e-08            6e-14                 -1.4e-13              -6.372e-08           
  0.35                  6.4872e-08            1.6e-13               8.4e-13               -6.4802e-08          
  0.4                   6.583e-08             8e-14                 9.6e-13               -6.586e-08           
  0.45                  6.6748e-08            1.6e-13               8e-13                 -6.6764e-08          
  0.5                   6.7658e-08            1.8e-13               3.6e-13               -6.7642e-08          
  0.55                  6.847e-08             4e-14                 -3.2e-13              -6.8444e-08          
  0.6                   6.9168e-08            1.4e-13               1.14e-12              -6.9154e-08          
  0.65                  6.9886e-08            1.2e-13               1.04e-12              -6.9858e-08          
  0.7                   7.0464e-08            4e-14                 2.2e-13               -7.0502e-08          
  0.75                  7.0934e-08            1.2e-13               -4e-14                -7.095e-08           
  0.8                   7.1376e-08            0                     -7.8e-13              -7.1318e-08          
  0.85                  7.2022e-08            8e-14                 1.62e-12              -7.1842e-08          
  0.9                   7.0846e-08            8e-14                 4.8e-13               -7.2226e-08          
  0.95                  7.2716e-08            0                     -4e-14                -7.2756e-08          
  1                     7.3154e-08            -6e-14                -2.2e-13              -7.3194e-08          
  1.05                  7.347e-08             -6e-14                5.8e-13               -7.3638e-08          
  1.1                   7.383e-08             -1.6e-13              7e-13                 -7.3832e-08          
  1.15                  7.3966e-08            -2.6e-13              -5.8e-13              -7.4058e-08          
  1.2                   7.4312e-08            -2.6e-13              -8.6e-13              -7.4228e-08          
  1.25                  7.4558e-08            -2.2e-13              -8.6e-13              -7.4392e-08          
  1.3                   7.4722e-08            -3.8e-13              -2.44e-12             -7.4498e-08          
  1.35                  7.4708e-08            -4.8e-13              -4.52e-12             -7.4814e-08          
END_DB

BEGIN_DB
 ICCAP_VAR vg         0.475          
 ICCAP_VAR vb         0              
 ICCAP_VAR vs         0              

 #vd                    id                    ig                    ib                    is                   
  0                     1.479e-09             1.58e-12              1.42e-12              -1.2796e-09          
  0.05                  1.12444e-06           1.2e-12               -2.8e-13              -1.12548e-06         
  0.1                   1.7918e-06            1.02e-12              5.2e-13               -1.7894e-06          
  0.15                  2.1374e-06            9e-13                 9.4e-13               -2.1326e-06          
  0.2                   2.3056e-06            8e-13                 -1.6e-13              -2.3034e-06          
  0.25                  2.4038e-06            8e-13                 4e-13                 -2.3998e-06          
  0.3                   2.476e-06             8.6e-13               7.8e-13               -2.4728e-06          
  0.35                  2.5356e-06            7.8e-13               1.8e-13               -2.532e-06           
  0.4                   2.5886e-06            7.8e-13               7e-13                 -2.5856e-06          
  0.45                  2.6392e-06            7.4e-13               5.6e-13               -2.6376e-06          
  0.5                   2.6886e-06            7.4e-13               3e-13                 -2.683e-06           
  0.55                  2.7334e-06            8.2e-13               9.4e-13               -2.73e-06            
  0.6                   2.779e-06             6.8e-13               4.8e-13               -2.7732e-06          
  0.65                  2.8206e-06            6.8e-13               8e-14                 -2.8176e-06          
  0.7                   2.8626e-06            7e-13                 1.6e-13               -2.8588e-06          
  0.75                  2.9052e-06            6.4e-13               6.2e-13               -2.901e-06           
  0.8                   2.9432e-06            7.4e-13               2.4e-13               -2.9394e-06          
  0.85                  2.9812e-06            7.2e-13               1.06e-12              -2.9794e-06          
  0.9                   3.0216e-06            5.6e-13               1.06e-12              -3.015e-06           
  0.95                  3.0558e-06            5.6e-13               -5.8e-13              -3.054e-06           
  1                     3.0916e-06            5.8e-13               1.6e-13               -3.0876e-06          
  1.05                  3.1278e-06            5.4e-13               7.4e-13               -3.1238e-06          
  1.1                   3.1616e-06            5.4e-13               -6.6e-13              -3.1566e-06          
  1.15                  3.1936e-06            5.2e-13               -1.66e-12             -3.1908e-06          
  1.2                   3.2246e-06            4.8e-13               -5.42e-12             -3.2212e-06          
  1.25                  3.2582e-06            4.6e-13               -1.282e-11            -3.2532e-06          
  1.3                   3.2868e-06            4.6e-13               -2.766e-11            -3.283e-06           
  1.35                  3.315e-06             3.6e-13               -5.348e-11            -3.3144e-06          
END_DB

