! VERSION = 6.00
BEGIN_HEADER
 ICCAP_INPUTS
  vd         V  D GROUND SMU1 0.1 LIN        1    0          1.35       28   0.05      
  vg         V  G GROUND SMU2 0.001 LIN        2    0.334      1.35       5    0.254     
  vb         V  B GROUND SMU4 0.1 CON        0
  vs         V  S GROUND SMU3 0.1 CON        0
 ICCAP_OUTPUTS
  id         I  D GROUND SMU1 B
  ig         I  G GROUND SMU2 B
  ib         I  B GROUND SMU4 B
  is         I  S GROUND SMU3 B
 ICCAP_VALUES
  MASTER_SETUP_TYPE "~dc_idvd~"
  LINVT_VALUE "|idvg|100.0n|100.0m|1.000m|5|1.350|"
  LISTVT_VALUE ""
  TYPE "1"
  TEMP " 27.0000 "
  IS_TNOM " 1.00000 "
  MAIN.W "600.0n"
  MAIN.L "1.200u"
  MAIN.AD "204.0f"
  MAIN.AS "204.0f"
  MAIN.PD "1.880u"
  MAIN.PS "1.880u"
  MAIN.NF "1.000"
  MAIN.M "1"
  MAIN.NRD "0.000"
  MAIN.NRS "0.000"
  MAIN.LDRIFT1 "1E-06"
  MAIN.LDRIFT2 "1E-06"
  MAIN.SA "0.000"
  MAIN.SB "0.000"
  MAIN.SD "0.000"
  MAIN.SCA "0.000"
  MAIN.SCB "0.000"
  MAIN.SCC "0.000"
  MAIN.SC "0.000"
  MODULE "S543"
  PIN_D "12"
  PIN_G "9"
  PIN_S "10"
  PIN_B "11"
  PIN_E ""
  PIN_6 ""
  XY_ID ""
  FUNC "LW Scale"
  STI "SA ref"
  WPE "WPE ref"
  COMMENT ""
  DIS_MEAS ""
  TypeTCI "10"
END_HEADER

BEGIN_DB
 ICCAP_VAR vg         0.334          
 ICCAP_VAR vb         0              
 ICCAP_VAR vs         0              

 #vd                    id                    ig                    ib                    is                   
  0                     8.0566e-10            1.64e-12              8.44e-12              -6.035e-10           
  0.05                  3.18e-07              1.2e-12               6.76e-12              -3.1782e-07          
  0.1                   4.3108e-07            8e-13                 7.08e-12              -4.3106e-07          
  0.15                  4.715e-07             1.02e-12              7.02e-12              -4.7164e-07          
  0.2                   4.9368e-07            1.02e-12              5.98e-12              -4.9354e-07          
  0.25                  5.1104e-07            8.8e-13               5.5e-12               -5.1122e-07          
  0.3                   5.2738e-07            8.8e-13               6.12e-12              -5.2732e-07          
  0.35                  5.4266e-07            9.6e-13               6.38e-12              -5.4252e-07          
  0.4                   5.5698e-07            8.2e-13               4.62e-12              -5.5686e-07          
  0.45                  5.7052e-07            8e-13                 4.22e-12              -5.7042e-07          
  0.5                   5.8352e-07            7.4e-13               5.18e-12              -5.833e-07           
  0.55                  5.9598e-07            7.2e-13               4.82e-12              -5.9596e-07          
  0.6                   6.0766e-07            7.8e-13               3.74e-12              -6.0768e-07          
  0.65                  6.1926e-07            8.6e-13               4.68e-12              -6.1902e-07          
  0.7                   6.3008e-07            8.4e-13               4.74e-12              -6.3016e-07          
  0.75                  6.4094e-07            8.4e-13               4.94e-12              -6.409e-07           
  0.8                   6.5132e-07            7.6e-13               4.2e-12               -6.5114e-07          
  0.85                  6.6108e-07            6e-13                 4.04e-12              -6.6134e-07          
  0.9                   6.7098e-07            5.8e-13               4.46e-12              -6.7088e-07          
  0.95                  6.803e-07             5.4e-13               3.62e-12              -6.8032e-07          
  1                     6.894e-07             5e-13                 2.74e-12              -6.8938e-07          
  1.05                  6.9834e-07            3.6e-13               2.68e-12              -6.9832e-07          
  1.1                   7.0704e-07            2.2e-13               2.6e-12               -7.0682e-07          
  1.15                  7.153e-07             2.2e-13               9.2e-13               -7.1536e-07          
  1.2                   7.2362e-07            1.2e-13               -3.22e-12             -7.2366e-07          
  1.25                  7.3144e-07            0                     -9.8e-12              -7.3144e-07          
  1.3                   7.3922e-07            -1.2e-13              -1.892e-11            -7.391e-07           
  1.35                  7.4676e-07            -2e-13                -3.6e-11              -7.4684e-07          
END_DB

BEGIN_DB
 ICCAP_VAR vg         0.588          
 ICCAP_VAR vb         0              
 ICCAP_VAR vs         0              

 #vd                    id                    ig                    ib                    is                   
  0                     2.7108e-09            1.598e-11             3.56e-12              -2.7504e-09          
  0.05                  2.5356e-06            1.336e-11             2.82e-12              -2.5316e-06          
  0.1                   4.4904e-06            1.162e-11             2.38e-12              -4.4864e-06          
  0.15                  5.866e-06             1.036e-11             3.54e-12              -5.8614e-06          
  0.2                   6.7224e-06            9.56e-12              2e-14                 -6.72e-06            
  0.25                  7.2126e-06            9.08e-12              1.92e-12              -7.208e-06           
  0.3                   7.4948e-06            8.92e-12              3.04e-12              -7.4908e-06          
  0.35                  7.6824e-06            8.74e-12              2.52e-12              -7.677e-06           
  0.4                   7.828e-06             8.64e-12              1.44e-12              -7.8242e-06          
  0.45                  7.9492e-06            8.62e-12              2.32e-12              -7.9458e-06          
  0.5                   8.063e-06             8.42e-12              1.94e-12              -8.0586e-06          
  0.55                  8.1676e-06            8.34e-12              1.08e-12              -8.1626e-06          
  0.6                   8.2662e-06            8.26e-12              2.42e-12              -8.2624e-06          
  0.65                  8.3612e-06            8.16e-12              1.8e-12               -8.3578e-06          
  0.7                   8.4518e-06            8e-12                 1.76e-12              -8.448e-06           
  0.75                  8.5388e-06            8.04e-12              2.82e-12              -8.5346e-06          
  0.8                   8.6222e-06            8.08e-12              1.9e-12               -8.6202e-06          
  0.85                  8.7044e-06            7.98e-12              1.78e-12              -8.6996e-06          
  0.9                   8.783e-06             7.88e-12              2.3e-12               -8.7798e-06          
  0.95                  8.8598e-06            7.7e-12               9.4e-13               -8.8554e-06          
  1                     8.9352e-06            7.7e-12               1.18e-12              -8.9312e-06          
  1.05                  9.0092e-06            7.54e-12              2.42e-12              -9.0062e-06          
  1.1                   9.0816e-06            7.6e-12               1.3e-12               -9.077e-06           
  1.15                  9.1532e-06            7.52e-12              3.4e-13               -9.147e-06           
  1.2                   9.2216e-06            7.5e-12               -3e-13                -9.2168e-06          
  1.25                  9.2904e-06            7.4e-12               -6.72e-12             -9.286e-06           
  1.3                   9.3562e-06            7.22e-12              -1.904e-11            -9.3534e-06          
  1.35                  9.4236e-06            7.14e-12              -4.268e-11            -9.4186e-06          
END_DB

BEGIN_DB
 ICCAP_VAR vg         0.842          
 ICCAP_VAR vb         0              
 ICCAP_VAR vs         0              

 #vd                    id                    ig                    ib                    is                   
  0                     3.6944e-09            8.148e-11             2.48e-12              -4.6372e-09          
  0.05                  4.8348e-06            7.124e-11             1.46e-12              -4.8306e-06          
  0.1                   9.1664e-06            6.282e-11             1.86e-12              -9.1626e-06          
  0.15                  1.2974e-05            5.592e-11             7.8e-13               -1.2958e-05          
  0.2                   1.6216e-05            5.048e-11             1.9e-12               -1.6198e-05          
  0.25                  1.8872e-05            4.646e-11             1.04e-12              -1.8854e-05          
  0.3                   2.0944e-05            4.312e-11             1.1e-12               -2.0924e-05          
  0.35                  2.2464e-05            4.094e-11             2e-12                 -2.2448e-05          
  0.4                   2.3516e-05            3.962e-11             4.18e-12              -2.3498e-05          
  0.45                  2.4222e-05            3.854e-11             1.08e-12              -2.4208e-05          
  0.5                   2.4708e-05            3.768e-11             1.22e-12              -2.469e-05           
  0.55                  2.5054e-05            3.742e-11             8.6e-13               -2.5038e-05          
  0.6                   2.5332e-05            3.712e-11             1.72e-12              -2.5318e-05          
  0.65                  2.5576e-05            3.668e-11             1.6e-12               -2.5556e-05          
  0.7                   2.5784e-05            3.642e-11             8.2e-13               -2.577e-05           
  0.75                  2.5982e-05            3.634e-11             1.74e-12              -2.5966e-05          
  0.8                   2.617e-05             3.598e-11             1.52e-12              -2.6152e-05          
  0.85                  2.6344e-05            3.568e-11             1.2e-12               -2.6328e-05          
  0.9                   2.6516e-05            3.562e-11             7e-13                 -2.65e-05            
  0.95                  2.668e-05             3.548e-11             1.12e-12              -2.6662e-05          
  1                     2.684e-05             3.518e-11             1.1e-12               -2.6824e-05          
  1.05                  2.6994e-05            3.502e-11             1.5e-12               -2.6976e-05          
  1.1                   2.7144e-05            3.49e-11              9.4e-13               -2.7128e-05          
  1.15                  2.7292e-05            3.46e-11              7.8e-13               -2.7276e-05          
  1.2                   2.7434e-05            3.442e-11             1.42e-12              -2.7418e-05          
  1.25                  2.7576e-05            3.424e-11             1.18e-12              -2.756e-05           
  1.3                   2.7714e-05            3.402e-11             -1.7e-12              -2.7696e-05          
  1.35                  2.785e-05             3.406e-11             -4.68e-12             -2.7832e-05          
END_DB

BEGIN_DB
 ICCAP_VAR vg         1.096          
 ICCAP_VAR vb         0              
 ICCAP_VAR vs         0              

 #vd                    id                    ig                    ib                    is                   
  0                     9.83e-09              2.8152e-10            1.6e-12               -1.0062e-08          
  0.05                  6.673e-06             2.532e-10             6.8e-13               -6.6686e-06          
  0.1                   1.2956e-05            2.2852e-10            3.6e-13               -1.2938e-05          
  0.15                  1.8808e-05            2.0702e-10            1.86e-12              -1.8792e-05          
  0.2                   2.4202e-05            1.8852e-10            1.26e-12              -2.4184e-05          
  0.25                  2.9122e-05            1.7288e-10            3e-13                 -2.9104e-05          
  0.3                   3.353e-05             1.597e-10             1.56e-12              -3.3514e-05          
  0.35                  3.7404e-05            1.4876e-10            6.8e-13               -3.7386e-05          
  0.4                   4.0718e-05            1.3982e-10            4.6e-13               -4.07e-05            
  0.45                  4.3462e-05            1.3284e-10            1.96e-12              -4.3444e-05          
  0.5                   4.5654e-05            1.2756e-10            2.24e-12              -4.5636e-05          
  0.55                  4.7336e-05            1.2338e-10            5.2e-13               -4.7322e-05          
  0.6                   4.858e-05             1.2042e-10            1.1e-12               -4.8564e-05          
  0.65                  4.9486e-05            1.1856e-10            3.8e-13               -4.947e-05           
  0.7                   5.0152e-05            1.1688e-10            6.8e-13               -5.0134e-05          
  0.75                  5.0658e-05            1.157e-10             1.58e-12              -5.0634e-05          
  0.8                   5.1062e-05            1.15e-10              9.6e-13               -5.1042e-05          
  0.85                  5.1412e-05            1.141e-10             5.6e-13               -5.14e-05            
  0.9                   5.1726e-05            1.1342e-10            1.16e-12              -5.171e-05           
  0.95                  5.2018e-05            1.129e-10             2.8e-13               -5.2002e-05          
  1                     5.2288e-05            1.1226e-10            3.8e-13               -5.227e-05           
  1.05                  5.2546e-05            1.1178e-10            1.4e-12               -5.253e-05           
  1.1                   5.2794e-05            1.1134e-10            1.08e-12              -5.2778e-05          
  1.15                  5.3032e-05            1.1068e-10            1.8e-13               -5.3016e-05          
  1.2                   5.3262e-05            1.1026e-10            1.3e-12               -5.3252e-05          
  1.25                  5.3484e-05            1.0978e-10            7e-13                 -5.3468e-05          
  1.3                   5.3704e-05            1.093e-10             1e-13                 -5.3688e-05          
  1.35                  5.3914e-05            1.0876e-10            1.22e-12              -5.3898e-05          
END_DB

BEGIN_DB
 ICCAP_VAR vg         1.35           
 ICCAP_VAR vb         0              
 ICCAP_VAR vs         0              

 #vd                    id                    ig                    ib                    is                   
  0                     1.1724e-08            7.65e-10              -1.8e-13              -1.2344e-08          
  0.05                  8.0148e-06            7.0046e-10            1.34e-12              -8.0116e-06          
  0.1                   1.5742e-05            6.4244e-10            1.24e-12              -1.5726e-05          
  0.15                  2.3142e-05            5.9062e-10            4.4e-13               -2.3122e-05          
  0.2                   3.0186e-05            5.444e-10             -2.2e-13              -3.017e-05           
  0.25                  3.6868e-05            5.0342e-10            8e-13                 -3.685e-05           
  0.3                   4.3144e-05            4.6726e-10            7.2e-13               -4.3134e-05          
  0.35                  4.9008e-05            4.3542e-10            -1.8e-13              -4.899e-05           
  0.4                   5.4406e-05            4.079e-10             8.2e-13               -5.4386e-05          
  0.45                  5.9324e-05            3.8392e-10            4e-13                 -5.931e-05           
  0.5                   6.374e-05             3.6326e-10            -4e-14                -6.3718e-05          
  0.55                  6.7632e-05            3.4612e-10            1.82e-12              -6.7614e-05          
  0.6                   7.0992e-05            3.3184e-10            4.8e-13               -7.0974e-05          
  0.65                  7.3808e-05            3.2032e-10            -8e-13                -7.3788e-05          
  0.7                   7.61e-05              3.111e-10             1.36e-12              -7.6088e-05          
  0.75                  7.7916e-05            3.041e-10             2e-14                 -7.7902e-05          
  0.8                   7.9318e-05            2.9874e-10            -1.6e-13              -7.9302e-05          
  0.85                  8.0386e-05            2.9464e-10            1.86e-12              -8.0372e-05          
  0.9                   8.1208e-05            2.9152e-10            -2e-14                -8.119e-05           
  0.95                  8.1852e-05            2.8918e-10            -6e-14                -8.1842e-05          
  1                     8.2386e-05            2.8708e-10            1.18e-12              -8.2372e-05          
  1.05                  8.2838e-05            2.855e-10             2.4e-13               -8.283e-05           
  1.1                   8.3254e-05            2.8418e-10            1.4e-13               -8.3244e-05          
  1.15                  8.363e-05             2.8276e-10            1.26e-12              -8.3616e-05          
  1.2                   8.3974e-05            2.814e-10             -1.6e-13              -8.396e-05           
  1.25                  8.431e-05             2.8044e-10            -4.6e-13              -8.429e-05           
  1.3                   8.4614e-05            2.7926e-10            7.4e-13               -8.461e-05           
  1.35                  8.4924e-05            2.7818e-10            2.2e-13               -8.4904e-05          
END_DB

