! VERSION = 6.00
BEGIN_HEADER
 ICCAP_INPUTS
  vd         V  D GROUND SMU1 0.1 LIN        1    0          1.35       28   0.05      
  vg         V  G GROUND SMU2 0.001 LIST       2 3 0.186 0.386 0.586
  vb         V  B GROUND SMU4 0.1 CON        0
  vs         V  S GROUND SMU3 0.1 CON        0
 ICCAP_OUTPUTS
  id         I  D GROUND SMU1 B
  ig         I  G GROUND SMU2 B
  ib         I  B GROUND SMU4 B
  is         I  S GROUND SMU3 B
 ICCAP_VALUES
  MASTER_SETUP_TYPE "~dc_idvd~"
  LINVT_VALUE ""
  LISTVT_VALUE "|idvg|100.0n|-200.0m|1.000m|3|200.0m|200.0m|"
  TYPE "1"
  TEMP "-40.0000 "
  IS_TNOM " 0.00000 "
  MAIN.W "150.0n"
  MAIN.L "180.0n"
  MAIN.AD "100.5f"
  MAIN.AS "100.5f"
  MAIN.PD "1.340u"
  MAIN.PS "1.340u"
  MAIN.NF "1.000"
  MAIN.M "1"
  MAIN.NRD "0.000"
  MAIN.NRS "0.000"
  MAIN.LDRIFT1 "1E-06"
  MAIN.LDRIFT2 "1E-06"
  MAIN.SA "0.000"
  MAIN.SB "0.000"
  MAIN.SD "0.000"
  MAIN.SCA "0.000"
  MAIN.SCB "0.000"
  MAIN.SCC "0.000"
  MAIN.SC "0.000"
  MODULE "S547"
  PIN_D "20"
  PIN_G "1"
  PIN_S "2"
  PIN_B "19"
  PIN_E ""
  PIN_6 ""
  XY_ID ""
  FUNC "LW Scale"
  STI "SA ref"
  WPE "WPE ref"
  COMMENT ""
  DIS_MEAS ""
  TypeTCI "10"
END_HEADER

BEGIN_DB
 ICCAP_VAR vg         0.186          
 ICCAP_VAR vb         0              
 ICCAP_VAR vs         0              

 #vd                    id                    ig                    ib                    is                   
  0                     4e-14                 -1.2e-13              1.86e-12              -8e-14               
  0.05                  2.582e-11             -4e-14                1.02e-12              -2.568e-11           
  0.1                   2.892e-11             -1.4e-13              2.4e-13               -2.86e-11            
  0.15                  3.026e-11             -2e-14                -8e-14                -2.986e-11           
  0.2                   3.15e-11              -8e-14                6e-14                 -3.076e-11           
  0.25                  3.262e-11             -6e-14                1.14e-12              -3.192e-11           
  0.3                   3.362e-11             -8e-14                4.6e-13               -3.284e-11           
  0.35                  3.486e-11             -8e-14                3.8e-13               -3.426e-11           
  0.4                   3.602e-11             -1.2e-13              -4.2e-13              -3.548e-11           
  0.45                  3.696e-11             -6e-14                4.8e-13               -3.648e-11           
  0.5                   3.834e-11             -2e-13                5.8e-13               -3.782e-11           
  0.55                  3.982e-11             -1e-13                5.6e-13               -3.898e-11           
  0.6                   4.104e-11             -2.6e-13              6.4e-13               -4.02e-11            
  0.65                  4.226e-11             -1.8e-13              -2.8e-13              -4.164e-11           
  0.7                   4.396e-11             4e-14                 4e-14                 -4.298e-11           
  0.75                  4.556e-11             -2e-14                9.4e-13               -4.444e-11           
  0.8                   4.688e-11             -6e-14                8e-13                 -4.6e-11             
  0.85                  4.864e-11             -4e-14                4e-14                 -4.75e-11            
  0.9                   5.03e-11              -1.4e-13              -3.4e-13              -4.928e-11           
  0.95                  5.184e-11             -6e-14                5.6e-13               -5.088e-11           
  1                     5.372e-11             -8e-14                8e-13                 -5.276e-11           
  1.05                  5.57e-11              -6e-14                5.8e-13               -5.446e-11           
  1.1                   5.742e-11             -1.4e-13              3.2e-13               -5.648e-11           
  1.15                  5.97e-11              -1.2e-13              -1.4e-13              -5.838e-11           
  1.2                   6.178e-11             -2.8e-13              -5.6e-13              -6.062e-11           
  1.25                  6.398e-11             -1.6e-13              5.4e-13               -6.276e-11           
  1.3                   6.64e-11              -2.6e-13              5.8e-13               -6.482e-11           
  1.35                  6.876e-11             -3.4e-13              -4.8e-13              -6.728e-11           
END_DB

BEGIN_DB
 ICCAP_VAR vg         0.386          
 ICCAP_VAR vb         0              
 ICCAP_VAR vs         0              

 #vd                    id                    ig                    ib                    is                   
  0                     1.6076e-10            1.2e-13               1.2e-12               -1.588e-10           
  0.05                  5.4032e-08            -2e-14                -6e-14                -5.3974e-08          
  0.1                   6.4798e-08            1.6e-13               -8e-14                -6.4558e-08          
  0.15                  6.8368e-08            1.8e-13               -4.8e-13              -6.8186e-08          
  0.2                   7.0882e-08            8e-14                 3.6e-13               -7.0896e-08          
  0.25                  7.3292e-08            1.2e-13               6e-13                 -7.3366e-08          
  0.3                   7.5798e-08            -2e-14                -3.4e-13              -7.542e-08           
  0.35                  7.8002e-08            2e-14                 -2.8e-13              -7.8344e-08          
  0.4                   8.0606e-08            0                     1.4e-13               -8.035e-08           
  0.45                  8.3308e-08            0                     -4e-14                -8.3244e-08          
  0.5                   8.5988e-08            1.8e-13               3e-13                 -8.5908e-08          
  0.55                  8.8934e-08            0                     -1.18e-12             -8.8502e-08          
  0.6                   9.1412e-08            8e-14                 5.2e-13               -9.1308e-08          
  0.65                  9.3934e-08            1.2e-13               1.18e-12              -9.4034e-08          
  0.7                   9.6956e-08            0                     -1e-13                -9.7002e-08          
  0.75                  9.991e-08             8e-14                 -5e-13                -9.962e-08           
  0.8                   1.03218e-07           1.2e-13               -6e-14                -1.03158e-07         
  0.85                  1.06324e-07           4e-14                 -4.8e-13              -1.0647e-07          
  0.9                   1.0988e-07            6e-14                 2.6e-13               -1.09598e-07         
  0.95                  1.1328e-07            1.2e-13               6e-13                 -1.13408e-07         
  1                     1.169e-07             -1e-13                1.38e-12              -1.1676e-07          
  1.05                  1.2034e-07            8e-14                 1e-13                 -1.2048e-07          
  1.1                   1.2436e-07            1e-13                 -5.8e-13              -1.2398e-07          
  1.15                  1.2766e-07            4e-14                 -1e-13                -1.278e-07           
  1.2                   1.3178e-07            0                     0                     -1.3146e-07          
  1.25                  1.3548e-07            8e-14                 -2.12e-12             -1.358e-07           
  1.3                   1.3926e-07            0                     -3.54e-12             -1.396e-07           
  1.35                  1.4372e-07            -1.6e-13              -5.68e-12             -1.4354e-07          
END_DB

BEGIN_DB
 ICCAP_VAR vg         0.586          
 ICCAP_VAR vb         0              
 ICCAP_VAR vs         0              

 #vd                    id                    ig                    ib                    is                   
  0                     2.4704e-09            6.8e-13               1.8e-13               -2.2936e-09          
  0.05                  1.5516e-06            4.6e-13               2e-13                 -1.5468e-06          
  0.1                   2.5076e-06            4.8e-13               1.18e-12              -2.4992e-06          
  0.15                  3.0586e-06            5.2e-13               -8e-14                -3.0572e-06          
  0.2                   3.3878e-06            4e-13                 -5e-13                -3.3786e-06          
  0.25                  3.5716e-06            3.4e-13               3.2e-13               -3.5704e-06          
  0.3                   3.7038e-06            5.2e-13               -2.2e-13              -3.6996e-06          
  0.35                  3.8e-06               3e-13                 -2.6e-13              -3.7972e-06          
  0.4                   3.898e-06             5.6e-13               1.8e-13               -3.8888e-06          
  0.45                  3.9828e-06            4.4e-13               -7e-13                -3.975e-06           
  0.5                   4.0666e-06            4.2e-13               1e-13                 -4.0606e-06          
  0.55                  4.1412e-06            4.6e-13               7.4e-13               -4.1396e-06          
  0.6                   4.2184e-06            3.6e-13               2.2e-13               -4.2128e-06          
  0.65                  4.3006e-06            3.4e-13               -6.4e-13              -4.2876e-06          
  0.7                   4.3728e-06            3.6e-13               1.56e-12              -4.367e-06           
  0.75                  4.4522e-06            3.8e-13               -4.4e-13              -4.4496e-06          
  0.8                   4.521e-06             3.6e-13               -3.6e-13              -4.521e-06           
  0.85                  4.5962e-06            4e-13                 9.6e-13               -4.5974e-06          
  0.9                   4.6758e-06            4.2e-13               -3.6e-13              -4.676e-06           
  0.95                  4.7574e-06            3.4e-13               -2.4e-13              -4.7556e-06          
  1                     4.8208e-06            3.6e-13               1.74e-12              -4.8174e-06          
  1.05                  4.9022e-06            3.6e-13               -2e-13                -4.8896e-06          
  1.1                   4.9756e-06            2.4e-13               -5.2e-13              -4.9666e-06          
  1.15                  5.0452e-06            3.4e-13               -2e-14                -5.0416e-06          
  1.2                   5.1208e-06            3.4e-13               -3.94e-12             -5.116e-06           
  1.25                  5.198e-06             3.6e-13               -9.86e-12             -5.1976e-06          
  1.3                   5.2636e-06            2.6e-13               -2.048e-11            -5.2648e-06          
  1.35                  5.3486e-06            3e-13                 -4.674e-11            -5.3442e-06          
END_DB

