! VERSION = 6.00
!Data measured by ggf on Tue Jan 23 15:04:55 2018 using model file NPN_MEAS_SCALE
BEGIN_HEADER
 ICCAP_INPUTS
  ve         V  E GROUND SMU_E 0.2 CON        0
  vc         V  C GROUND SMU_C 0.2 SYNC       1 0 vb
  vs         V  S GROUND SMU_S 0.015 CON        0
  vb         V  B GROUND SMU_B 0.015 LIN        1    -1         1          101  0.02      
 ICCAP_OUTPUTS
  ib         I  B GROUND SMU_B M
  ic         I  C GROUND SMU_C M
 ICCAP_VALUES
  TNOM "27"
  TEMP "27"
  TECHNO "SG13G2"
  LOT "EDJ802"
  WAFER "02"
  CHIP "(3.3)"
  MODULE "S439S"
  DEV_NAME "D04"
  DEV_GEOM_L "2.5"
  DEV_GEOM_W "0.07"
  NUM_OF_TRANS_RF "1"
  REMARKS "Nx=4; Power -30/-20dBm, Slope: 0.1dB/GHz"
  TIMEDATE "Tue Jan 23 14:27:30     2018"
  OPERATOR "ggf"
END_HEADER

BEGIN_DB
 ICCAP_VAR ve         0              
 ICCAP_VAR vs         0              

 #vb              vc              ib              ic             
  -1              -1              -0.00037598     -0.005116      
  -0.98           -0.98           -0.00030952     -0.0043898     
  -0.96           -0.96           -0.0002502      -0.0037308     
  -0.94           -0.94           -0.00019754     -0.0031316     
  -0.92           -0.92           -0.00015214     -0.0025966     
  -0.9            -0.9            -0.00011324     -0.002117      
  -0.88           -0.88           -8.1396e-005    -0.0016984     
  -0.86           -0.86           -5.614e-005     -0.001339      
  -0.84           -0.84           -3.7034e-005    -0.0010358     
  -0.82           -0.82           -2.3302e-005    -0.0007851     
  -0.8            -0.8            -1.4084e-005    -0.0005852     
  -0.78           -0.78           -8.2374e-006    -0.00042936    
  -0.76           -0.76           -4.7228e-006    -0.00031098    
  -0.74           -0.74           -2.6978e-006    -0.00022298    
  -0.72           -0.72           -1.5536e-006    -0.00015848    
  -0.7            -0.7            -9.144e-007     -0.00011182    
  -0.68           -0.68           -5.5572e-007    -7.8038e-005   
  -0.66           -0.66           -3.5234e-007    -5.3918e-005   
  -0.64           -0.64           -2.3462e-007    -3.667e-005    
  -0.62           -0.62           -1.6462e-007    -2.4604e-005   
  -0.6            -0.6            -1.2124e-007    -1.6232e-005   
  -0.58           -0.58           -9.282e-008     -1.0526e-005   
  -0.56           -0.56           -7.296e-008     -6.6926e-006   
  -0.54           -0.54           -5.839e-008     -4.1534e-006   
  -0.52           -0.52           -4.7142e-008    -2.5006e-006   
  -0.5            -0.5            -3.8218e-008    -1.4552e-006   
  -0.48           -0.48           -3.1032e-008    -8.1318e-007   
  -0.46           -0.46           -2.5168e-008    -4.3706e-007   
  -0.44           -0.44           -2.0342e-008    -2.2504e-007   
  -0.42           -0.42           -1.6344e-008    -1.1134e-007   
  -0.4            -0.4            -1.307e-008     -5.4092e-008   
  -0.38           -0.38           -1.0412e-008    -2.5082e-008   
  -0.36           -0.36           -8.2208e-009    -8.972e-009    
  -0.34           -0.34           -6.448e-009     -6.988e-009    
  -0.32           -0.32           -5.0046e-009    -2.4854e-009   
  -0.3            -0.3            -3.857e-009     -4.77e-010     
  -0.28           -0.28           -2.9412e-009    3.7632e-010    
  -0.26           -0.26           -2.2188e-009    -3.906e-010    
  -0.24           -0.24           -1.6486e-009    -1.522e-010    
  -0.22           -0.22           -1.2126e-009    -1.234e-010    
  -0.2            -0.2            -8.7802e-010    -2.02e-010     
  -0.18           -0.18           -6.232e-010     -1.184e-010    
  -0.16           -0.16           -4.3146e-010    -1.098e-010    
  -0.14           -0.14           -2.9024e-010    -1.392e-010    
  -0.12           -0.12           -1.901e-010     -1.234e-010    
  -0.1            -0.1            -1.1492e-010    -8.4e-011      
  -0.08           -0.08           -6.474e-011     -1.77e-010     
  -0.06           -0.06           -3.352e-011     -1.162e-010    
  -0.04           -0.04           -1.034e-011     -1.456e-010    
  -0.02           -0.02           5.62e-012       -7.98e-011     
  0               0               1.368e-011      -1.548e-010    
  0.02            0.02            1.58e-011       -3.64e-011     
  0.04            0.04            2.114e-011      -5.82e-011     
  0.06            0.06            2.248e-011      -7.16e-011     
  0.08            0.08            2.188e-011      -8.2e-011      
  0.1             0.1             2.232e-011      -2.42e-011     
  0.12            0.12            1.836e-011      -6.82e-011     
  0.14            0.14            2.066e-011      -4.44e-011     
  0.16            0.16            1.9e-011        -3.84e-011     
  0.18            0.18            1.658e-011      -2.74e-011     
  0.2             0.2             1.702e-011      -7.08e-011     
  0.22            0.22            1.504e-011      3.78e-011      
  0.24            0.24            1.736e-011      4.4e-012       
  0.26            0.26            1.558e-011      5.88e-011      
  0.28            0.28            1.53e-011       -7.52e-011     
  0.3             0.3             1.734e-011      1.74e-011      
  0.32            0.32            1.982e-011      -9.8e-012      
  0.34            0.34            1.496e-011      6.42e-011      
  0.36            0.36            1.704e-011      -6.6e-012      
  0.38            0.38            1.716e-011      2.318e-010     
  0.4             0.4             1.958e-011      3.71e-010      
  0.42            0.42            2.216e-011      7.898e-010     
  0.44            0.44            2.56e-011       1.6676e-009    
  0.46            0.46            3.388e-011      3.7146e-009    
  0.48            0.48            4.17e-011       9.542e-009     
  0.5             0.5             7.076e-011      2.0332e-008    
  0.52            0.52            1.166e-010      4.3328e-008    
  0.54            0.54            1.998e-010      8.794e-008     
  0.56            0.56            3.8656e-010     1.94e-007      
  0.58            0.58            7.549e-010      4.1488e-007    
  0.6             0.6             1.516e-009      8.8794e-007    
  0.62            0.62            3.086e-009      1.9114e-006    
  0.64            0.64            6.3436e-009     4.0914e-006    
  0.66            0.66            1.3114e-008     8.7476e-006    
  0.68            0.68            2.7308e-008     1.874e-005     
  0.7             0.7             5.6834e-008     3.984e-005     
  0.72            0.72            1.1862e-007     8.4648e-005    
  0.74            0.74            2.471e-007      0.000178       
  0.76            0.76            5.1054e-007     0.00036922     
  0.78            0.78            1.04504e-006    0.00075122     
  0.8             0.8             2.0774e-006     0.0014676      
  0.82            0.82            4.025e-006      0.0027182      
  0.84            0.84            8.9532e-006     0.0044782      
  0.86            0.86            2.836e-005      0.0056236      
  0.88            0.88            6.7652e-005     0.0066696      
  0.9             0.9             0.00013478      0.0080228      
  0.92            0.92            0.0002424       0.0098244      
  0.94            0.94            0.00040282      0.012072       
  0.96            0.96            0.00063448      0.014772       
  0.98            0.98            0.000949        0.017856       
  1               1               0.0013622       0.021308       
END_DB

