! VERSION = 6.00
!Data measured by ggf on Tue Jan 23 15:04:56 2018 using model file NPN_MEAS_SCALE
BEGIN_HEADER
 ICCAP_INPUTS
  ve         V  E GROUND SMU_E 0.2 CON        0
  vc         V  C GROUND SMU_C 0.2 SYNC       1 1 vb
  vs         V  S GROUND SMU_S 0.015 CON        0
  vb         V  B GROUND SMU_B 0.015 LIN        1    -1         1          101  0.02      
 ICCAP_OUTPUTS
  ib         I  B GROUND SMU_B M
  ic         I  C GROUND SMU_C M
 ICCAP_VALUES
  TNOM "27"
  TEMP "27"
  TECHNO "SG13G2"
  LOT "EDJ802"
  WAFER "02"
  CHIP "(3.3)"
  MODULE "S439S"
  DEV_NAME "D04"
  DEV_GEOM_L "2.5"
  DEV_GEOM_W "0.07"
  NUM_OF_TRANS_RF "1"
  REMARKS "Nx=4; Power -30/-20dBm, Slope: 0.1dB/GHz"
  TIMEDATE "Tue Jan 23 14:27:30     2018"
  OPERATOR "ggf"
END_HEADER

BEGIN_DB
 ICCAP_VAR ve         0              
 ICCAP_VAR vs         0              

 #vb              vc              ib              ic             
  -1              0               -1.6674e-006    -2.458e-010    
  -0.98           0.02            -1.4798e-006    -1.642e-010    
  -0.96           0.04            -1.3096e-006    -4.36e-011     
  -0.94           0.06            -1.1576e-006    -8.28e-011     
  -0.92           0.08            -1.021e-006     -9.18e-011     
  -0.9            0.1             -8.9826e-007    -9.9e-011      
  -0.88           0.12            -7.8856e-007    -1.14e-010     
  -0.86           0.14            -6.9038e-007    -4.56e-011     
  -0.84           0.16            -6.0312e-007    -1.388e-010    
  -0.82           0.18            -5.2518e-007    -9.34e-011     
  -0.8            0.2             -4.5622e-007    -1.25e-010     
  -0.78           0.22            -3.9522e-007    -2.32e-011     
  -0.76           0.24            -3.418e-007     -2.54e-011     
  -0.74           0.26            -2.9448e-007    5.14e-011      
  -0.72           0.28            -2.5242e-007    2.84e-011      
  -0.7            0.3             -2.1626e-007    -1.8e-012      
  -0.68           0.32            -1.8444e-007    4.74e-011      
  -0.66           0.34            -1.5718e-007    8.02e-011      
  -0.64           0.36            -1.3314e-007    -2.5e-011      
  -0.62           0.38            -1.1246e-007    3.46e-011      
  -0.6            0.4             -9.4614e-008    -2e-012        
  -0.58           0.42            -7.933e-008     4.54e-011      
  -0.56           0.44            -6.6152e-008    5.42e-011      
  -0.54           0.46            -5.5e-008       7.44e-011      
  -0.52           0.48            -4.5514e-008    1.522e-010     
  -0.5            0.5             -3.7456e-008    1.052e-010     
  -0.48           0.52            -3.0684e-008    1.264e-010     
  -0.46           0.54            -2.4996e-008    4.32e-011      
  -0.44           0.56            -2.028e-008     7.64e-011      
  -0.42           0.58            -1.6326e-008    1.708e-010     
  -0.4            0.6             -1.3092e-008    1.714e-010     
  -0.38           0.62            -1.042e-008     9.38e-011      
  -0.36           0.64            -8.2244e-009    8.8e-011       
  -0.34           0.66            -6.4586e-009    8.18e-011      
  -0.32           0.68            -5.0166e-009    1.01e-010      
  -0.3            0.7             -3.8614e-009    -5.8e-012      
  -0.28           0.72            -2.9466e-009    5.38e-011      
  -0.26           0.74            -2.2262e-009    -5.9e-011      
  -0.24           0.76            -1.66e-009      3.36e-011      
  -0.22           0.78            -1.2184e-009    -4.8e-012      
  -0.2            0.8             -8.8448e-010    -1.054e-010    
  -0.18           0.82            -6.2736e-010    -5.72e-011     
  -0.16           0.84            -4.3728e-010    -8.14e-011     
  -0.14           0.86            -2.9468e-010    -3.36e-011     
  -0.12           0.88            -1.9142e-010    -1.288e-010    
  -0.1            0.9             -1.1822e-010    -1.048e-010    
  -0.08           0.92            -6.912e-011     -8.32e-011     
  -0.06           0.94            -3.692e-011     2.22e-011      
  -0.04           0.96            -1.268e-011     -5.32e-011     
  -0.02           0.98            -4.2e-013       8e-012         
  0               1               8.1e-012        -1.05e-010     
  0.02            1.02            1.354e-011      1.262e-010     
  0.04            1.04            1.486e-011      -3.18e-011     
  0.06            1.06            1.492e-011      -9.22e-011     
  0.08            1.08            1.628e-011      -9.34e-011     
  0.1             1.1             1.586e-011      -7.16e-011     
  0.12            1.12            1.73e-011       -8.42e-011     
  0.14            1.14            1.662e-011      -1.044e-010    
  0.16            1.16            1.27e-011       1.06e-011      
  0.18            1.18            1.382e-011      -1.318e-010    
  0.2             1.2             1.384e-011      -3.82e-011     
  0.22            1.22            1.282e-011      -6.52e-011     
  0.24            1.24            1.218e-011      -2.48e-011     
  0.26            1.26            1.172e-011      -3.86e-011     
  0.28            1.28            1.31e-011       -4.44e-011     
  0.3             1.3             1.176e-011      4.72e-011      
  0.32            1.32            1.23e-011       6e-013         
  0.34            1.34            1.188e-011      -1.12e-011     
  0.36            1.36            1.33e-011       5.32e-011      
  0.38            1.38            1.288e-011      6.6e-011       
  0.4             1.4             1.37e-011       3.322e-010     
  0.42            1.42            1.676e-011      7.408e-010     
  0.44            1.44            1.91e-011       1.6732e-009    
  0.46            1.46            2.71e-011       3.6476e-009    
  0.48            1.48            3.404e-011      9.52e-009      
  0.5             1.5             6.042e-011      2.0372e-008    
  0.52            1.52            1.016e-010      4.334e-008     
  0.54            1.54            1.7836e-010     8.476e-008     
  0.56            1.56            3.4604e-010     1.9442e-007    
  0.58            1.58            6.812e-010      4.1566e-007    
  0.6             1.6             1.3774e-009     8.9002e-007    
  0.62            1.62            2.8138e-009     1.9168e-006    
  0.64            1.64            5.823e-009      4.1024e-006    
  0.66            1.66            1.2126e-008     8.773e-006     
  0.68            1.68            2.5422e-008     1.881e-005     
  0.7             1.7             5.333e-008      4.0032e-005    
  0.72            1.72            1.1244e-007     8.5202e-005    
  0.74            1.74            2.3644e-007     0.00017996     
  0.76            1.76            4.958e-007      0.00037608     
  0.78            1.78            1.03728e-006    0.0007756      
  0.8             1.8             2.1292e-006     0.0015492      
  0.82            1.82            4.286e-006      0.0029688      
  0.84            1.84            8.3438e-006     0.005297       
  0.86            1.86            1.7574e-005     0.0082538      
  0.88            1.88            4.6896e-005     0.0099108      
  0.9             1.9             0.000105566     0.011438       
  0.92            1.92            0.00020968      0.013522       
  0.94            1.94            0.00037582      0.016326       
  0.96            1.96            0.00062792      0.01986        
  0.98            1.98            0.00098966      0.02399        
  1               2               0.0014924       0.028652       
END_DB

