! VERSION = 6.00
!Data measured by ggf on Tue Jan 23 15:04:56 2018 using model file NPN_MEAS_SCALE
BEGIN_HEADER
 ICCAP_INPUTS
  vc         V  C GROUND SMU_C 0.1 CON        0
  vs         V  S GROUND SMU_S 0.015 CON        0
  vb         V  B GROUND SMU_B 0.015 LIN        1    0          -2         81   -0.025    
  ve         V  E GROUND SMU_E 0.2 CON        0
 ICCAP_OUTPUTS
  ic         I  C GROUND SMU_C M
  ib         I  B GROUND SMU_B M
 ICCAP_VALUES
  TNOM "27"
  TEMP "27"
  TECHNO "SG13G2"
  LOT "EDJ802"
  WAFER "02"
  CHIP "(3.3)"
  MODULE "S439S"
  DEV_NAME "D04"
  DEV_GEOM_L "2.5"
  DEV_GEOM_W "0.07"
  NUM_OF_TRANS_RF "1"
  REMARKS "Nx=4; Power -30/-20dBm, Slope: 0.1dB/GHz"
  TIMEDATE "Tue Jan 23 14:27:30     2018"
  OPERATOR "ggf"
END_HEADER

BEGIN_DB
 ICCAP_VAR vc         0              
 ICCAP_VAR vs         0              
 ICCAP_VAR ve         0              

 #vb              ic              ib             
  0               -2.4522e-010    -5.446e-011    
  -0.025          2.5872e-010     -6.922e-011    
  -0.05           3.7944e-010     -8.512e-011    
  -0.075          4.1466e-010     -1.1872e-010   
  -0.1            4.9998e-010     -1.7662e-010   
  -0.125          5.2572e-010     -2.6896e-010   
  -0.15           4.9178e-010     -4.1582e-010   
  -0.175          4.8354e-010     -6.2836e-010   
  -0.2            5.4522e-010     -9.406e-010    
  -0.225          7.6296e-010     -1.378e-009    
  -0.25           7.3672e-010     -1.9934e-009   
  -0.275          6.4766e-010     -2.8094e-009   
  -0.3            6.9784e-010     -3.928e-009    
  -0.325          6.4378e-010     -5.4156e-009   
  -0.35           6.7472e-010     -7.3696e-009   
  -0.375          6.881e-010      -9.9072e-009   
  -0.4            7.298e-010      -1.3166e-008   
  -0.425          -3.0504e-010    -1.7338e-008   
  -0.45           3.808e-011      -2.2612e-008   
  -0.475          -1.532e-010     -2.9272e-008   
  -0.5            -2.688e-011     -3.7542e-008   
  -0.525          -8.686e-011     -4.7838e-008   
  -0.55           -5.968e-011     -6.0444e-008   
  -0.575          -4.082e-011     -7.592e-008    
  -0.6            3.22e-012       -9.4694e-008   
  -0.625          -1.0494e-010    -1.1736e-007   
  -0.65           1.252e-011      -1.45e-007     
  -0.675          -1.7198e-010    -1.7746e-007   
  -0.7            -1.19e-010      -2.1658e-007   
  -0.725          -9.89e-011      -2.6276e-007   
  -0.75           -7.008e-011     -3.1744e-007   
  -0.775          -1.4836e-010    -3.8146e-007   
  -0.8            -1.1534e-010    -4.5632e-007   
  -0.825          -1.0732e-010    -5.4388e-007   
  -0.85           -1.1172e-010    -6.4562e-007   
  -0.875          -9.92e-011      -7.629e-007    
  -0.9            -9.794e-011     -8.9832e-007   
  -0.925          -2.97e-011      -1.0542e-006   
  -0.95           -1.1422e-010    -1.2322e-006   
  -0.975          -9.25e-011      -1.436e-006    
  -1              -1.1136e-010    -1.6674e-006   
  -1.025          -1.4958e-010    -1.9312e-006   
  -1.05           -9.772e-011     -2.228e-006    
  -1.075          -9.996e-011     -2.5644e-006   
  -1.1            -1.0658e-010    -2.9418e-006   
  -1.125          -1.1162e-010    -3.3672e-006   
  -1.15           -1.0546e-010    -3.8408e-006   
  -1.175          -1.2784e-010    -4.374e-006    
  -1.2            -7.508e-011     -4.9658e-006   
  -1.225          -6.68e-011      -5.6256e-006   
  -1.25           -9.526e-011     -6.3526e-006   
  -1.275          -7.144e-011     -7.165e-006    
  -1.3            -7.228e-011     -8.0588e-006   
  -1.325          -1.112e-010     -9.0496e-006   
  -1.35           -6.712e-011     -1.01374e-005  
  -1.375          -4.04e-011      -1.13384e-005  
  -1.4            -1.3006e-010    -1.264e-005    
  -1.425          -1.051e-010     -1.4086e-005   
  -1.45           5.398e-011      -1.5662e-005   
  -1.475          2.156e-011      -1.7378e-005   
  -1.5            7.07e-011       -1.9254e-005   
  -1.525          1.2616e-010     -2.1302e-005   
  -1.55           2.03e-011       -2.3522e-005   
  -1.575          2.4368e-010     -2.5936e-005   
  -1.6            2.5656e-010     -2.8552e-005   
  -1.625          3.4972e-010     -3.1378e-005   
  -1.65           4.9918e-010     -3.444e-005    
  -1.675          6.547e-010      -3.7748e-005   
  -1.7            8.1688e-010     -4.1326e-005   
  -1.725          1.11068e-009    -4.516e-005    
  -1.75           1.46e-011       -4.9302e-005   
  -1.775          2.2306e-009     -5.3738e-005   
  -1.8            2.6122e-009     -5.852e-005    
  -1.825          3.1036e-009     -6.363e-005    
  -1.85           3.8912e-009     -6.9128e-005   
  -1.875          4.9256e-009     -7.5014e-005   
  -1.9            6.042e-009      -8.1308e-005   
  -1.925          7.5608e-009     -8.8006e-005   
  -1.95           9.334e-009      -9.5166e-005   
  -1.975          1.12912e-008    -0.000102786   
  -2              1.406e-008      -0.00011094    
END_DB

