! VERSION = 6.00
!Data measured by ggf on Tue Jan 23 15:44:47 2018 using model file NPN_MEAS_SCALE
BEGIN_HEADER
 ICCAP_INPUTS
  vc         V  C GROUND SMU_C 0.2 SYNC       1 1.5 vb
  ve         V  E GROUND SMU_E 0 CON        0
  vs         V  S GROUND SMU_S 0 CON        0
  freq       F  LIST       1 74 100000000 200000000 300000000 400000000 500000000 600000000 700000000 800000000 900000000 1000000000 2000000000 3000000000 4000000000 5000000000 6000000000 7000000000 8000000000 9000000000 10000000000 11000000000 12000000000 13000000000 14000000000 15000000000 16000000000 17000000000 18000000000 19000000000 20000000000 21000000000 22000000000 23000000000 24000000000 25000000000 26000000000 27000000000 28000000000 29000000000 30000000000 31000000000 32000000000 33000000000 34000000000 35000000000 36000000000 37000000000 38000000000 39000000000 40000000000 41000000000 42000000000 43000000000 44000000000 45000000000 46000000000 47000000000 48000000000 49000000000 50000000000 51000000000 52000000000 53000000000 54000000000 55000000000 56000000000 57000000000 58000000000 59000000000 60000000000 61000000000 62000000000 63000000000 64000000000 65000000000
  vb         V  B GROUND SMU_B 0.015 LIN        2    0.74       0.87       27   0.005     
 ICCAP_OUTPUTS
  ic         I  C GROUND SMU_C M
  ib         I  B GROUND SMU_B M
  S          S  B C GROUND NWA M
  S_deemb    S B C GROUND n/a B
 ICCAP_VALUES
  TNOM "27"
  TEMP "27"
  TECHNO "SG13G2"
  LOT "EDJ802"
  WAFER "02"
  CHIP "(3.3)"
  MODULE "S439S"
  DEV_NAME "D04"
  DEV_GEOM_L "2.5"
  DEV_GEOM_W "0.07"
  NUM_OF_TRANS_RF "1"
  REMARKS "Nx=4; Power -30/-20dBm, Slope: 0.1dB/GHz"
  TIMEDATE "Tue Jan 23 14:27:30     2018"
  OPERATOR "ggf"
END_HEADER

BEGIN_DB
 ICCAP_VAR vc         2.24           
 ICCAP_VAR ve         0              
 ICCAP_VAR vs         0              
 ICCAP_VAR vb         0.74           

 #freq            ic              ib              R:S(1,1)        I:S(1,1)        R:S(1,2)        I:S(1,2)        R:S(2,1)        I:S(2,1)        R:S(2,2)        I:S(2,2)        R:S_deemb(1,1)  I:S_deemb(1,1)  R:S_deemb(1,2)  I:S_deemb(1,2)  R:S_deemb(2,1)  I:S_deemb(2,1)  R:S_deemb(2,2)  I:S_deemb(2,2) 
  1e+008          0.00018022      1.7262e-007     0.998803        -0.00390519     9.7846e-006     0.000877341     -0.732933       -0.00562106     1.00092         -0.00228339     0.998492        -0.00265178     -1.61916e-005   0.000794469     -0.726113       -0.00708746     1.00049         -0.00115704    
  2e+008          0.00018022      1.7262e-007     0.999626        -0.00952707     5.85177e-005    0.00172848      -0.712276       0.000878828     1.00068         -0.00519485     0.999033        -0.0069843      6.05329e-005    0.00155764      -0.706176       -0.00166976     1.00007         -0.00237375    
  3e+008          0.00018022      1.7262e-007     0.999563        -0.0147634      7.44711e-005    0.00265187      -0.715373       0.00570131      1.00074         -0.00790438     0.998687        -0.0112477      5.15987e-005    0.00249745      -0.709078       0.0026004       1.00015         -0.00466193    
  4e+008          0.00018022      1.7262e-007     0.999843        -0.0197222      9.48069e-005    0.00356598      -0.705814       0.0103006       1.00065         -0.0104463      0.999061        -0.0151011      2.97116e-005    0.00331376      -0.699645       0.00670833      1.0002          -0.00609657    
  5e+008          0.00018022      1.7262e-007     0.999492        -0.024831       0.000136993     0.00444451      -0.714186       0.0143898       1.00069         -0.0131087      0.998834        -0.0192529      5.44285e-005    0.00415498      -0.707872       0.00999409      1.00012         -0.00763406    
  6e+008          0.00018022      1.7262e-007     0.99932         -0.0301703      0.00016843      0.00531004      -0.713933       0.0186327       1.00051         -0.015676       0.998875        -0.0232226      0.000104502     0.0050267       -0.707645       0.0128693       0.999993        -0.00923948    
  7e+008          0.00018022      1.7262e-007     0.999201        -0.035122       0.000204151     0.00619273      -0.714156       0.0240847       1.00039         -0.0184246      0.998498        -0.0272803      0.000167861     0.00583996      -0.708158       0.0177941       0.999847        -0.010679      
  8e+008          0.00018022      1.7262e-007     0.998837        -0.0405128      0.000256708     0.00709975      -0.716557       0.0288389       1.00018         -0.0208845      0.998284        -0.0314198      0.000175275     0.00667581      -0.710424       0.0216816       0.999902        -0.0121233     
  9e+008          0.00018022      1.7262e-007     0.998564        -0.0452237      0.000314256     0.00792959      -0.710815       0.034587        1.00021         -0.0233794      0.99795         -0.0352485      0.000231661     0.00747437      -0.704934       0.0266259       0.999833        -0.0136248     
  1e+009          0.00018022      1.7262e-007     0.998151        -0.0505499      0.000384134     0.00884767      -0.717288       0.040359        0.999867        -0.025942       0.997777        -0.0391587      0.000213279     0.0082939       -0.711249       0.03136         0.999662        -0.0150826     
  2e+009          0.00018022      1.7262e-007     0.993625        -0.0997196      0.00137875      0.0176146       -0.697522       0.0808909       0.998366        -0.0515644      0.994633        -0.0777183      0.000940676     0.0165058       -0.693135       0.0638792       0.998587        -0.0297029     
  3e+009          0.00018022      1.7262e-007     0.986165        -0.150441       0.00303029      0.0262277       -0.701975       0.118425        0.995756        -0.0773365      0.989731        -0.117001       0.00209795      0.0247778       -0.699583       0.0919337       0.997067        -0.0439059     
  4e+009          0.00018022      1.7262e-007     0.975861        -0.199016       0.00530532      0.0346826       -0.695486       0.16166         0.99201         -0.101961       0.982941        -0.155176       0.00353287      0.0328332       -0.696992       0.126904        0.99516         -0.0578619     
  5e+009          0.00018022      1.7262e-007     0.962513        -0.24625        0.00820059      0.0429512       -0.676782       0.199094        0.987283        -0.127147       0.97483         -0.191838       0.00549647      0.0408428       -0.683117       0.156616        0.992955        -0.0718691     
  6e+009          0.00018022      1.7262e-007     0.946502        -0.292544       0.0116891       0.050849        -0.659383       0.23536         0.981769        -0.151896       0.964448        -0.229083       0.00780344      0.0485411       -0.671231       0.185882        0.990165        -0.0856701     
  7e+009          0.00018022      1.7262e-007     0.927737        -0.337287       0.015708        0.0585685       -0.644584       0.272693        0.97587         -0.175949       0.952441        -0.26506        0.0104971       0.0563158       -0.662857       0.216402        0.987498        -0.0994409     
  8e+009          0.00018022      1.7262e-007     0.906904        -0.380874       0.020266        0.0658215       -0.627289       0.306906        0.968364        -0.199724       0.939343        -0.299843       0.013656        0.06371         -0.652803       0.244165        0.983758        -0.112763      
  9e+009          0.00018022      1.7262e-007     0.885244        -0.422314       0.0252737       0.072666        -0.605428       0.338109        0.960249        -0.222957       0.924766        -0.333637       0.0170601       0.0709938       -0.638642       0.270551        0.979904        -0.126262      
  1e+010          0.00018022      1.7262e-007     0.860041        -0.462589       0.0306997       0.0789666       -0.579476       0.369843        0.951244        -0.245819       0.908381        -0.366555       0.0207596       0.0778971       -0.621416       0.298079        0.975506        -0.139299      
  1.1e+010        0.00018022      1.7262e-007     0.833368        -0.500312       0.0365075       0.0849865       -0.55935        0.395831        0.941889        -0.267674       0.890981        -0.399581       0.0248375       0.0846711       -0.609701       0.321109        0.97099         -0.15198       
  1.2e+010        0.00018022      1.7262e-007     0.804869        -0.535706       0.0427822       0.0905708       -0.536229       0.426757        0.931543        -0.289114       0.871792        -0.430877       0.0292493       0.091287        -0.596197       0.349566        0.966242        -0.164583      
  1.3e+010        0.00018022      1.7262e-007     0.77494         -0.569522       0.0492397       0.0955219       -0.514269       0.454799        0.92018         -0.309398       0.851634        -0.461292       0.033816        0.097613        -0.584351       0.375806        0.960999        -0.176425      
  1.4e+010        0.00018022      1.7262e-007     0.74362         -0.600014       0.0562666       0.0998359       -0.483218       0.474381        0.909188        -0.329859       0.830379        -0.488634       0.0390695       0.10359         -0.562735       0.395725        0.95565         -0.18902       
  1.5e+010        0.00018022      1.7262e-007     0.713909        -0.628082       0.0632659       0.103451        -0.446924       0.490514        0.897524        -0.349412       0.809604        -0.515153       0.0444614       0.109024        -0.535286       0.414094        0.949824        -0.200828      
  1.6e+010        0.00018022      1.7262e-007     0.68089         -0.653971       0.0702594       0.106755        -0.421605       0.50902         0.885194        -0.36766        0.786763        -0.540344       0.0497624       0.11422         -0.519073       0.433885        0.943359        -0.21209       
  1.7e+010        0.00018022      1.7262e-007     0.649215        -0.678977       0.0775652       0.109309        -0.38855        0.521412        0.872009        -0.385883       0.764459        -0.564884       0.0555841       0.119094        -0.494785       0.449986        0.937186        -0.223303      
  1.8e+010        0.00018022      1.7262e-007     0.616669        -0.700619       0.084514        0.111388        -0.361989       0.536573        0.858974        -0.403443       0.740514        -0.587377       0.0611691       0.123589        -0.476919       0.467953        0.930804        -0.234183      
  1.9e+010        0.00018022      1.7262e-007     0.581464        -0.721928       0.0916294       0.113159        -0.333922       0.552444        0.846672        -0.420664       0.715051        -0.610387       0.0669988       0.127862        -0.457784       0.487599        0.924112        -0.244384      
  2e+010          0.00018022      1.7262e-007     0.549637        -0.739145       0.0985745       0.114264        -0.306059       0.55927         0.832193        -0.434984       0.69167         -0.629182       0.0729951       0.131582        -0.437015       0.49923         0.916703        -0.254143      
  2.1e+010        0.00018022      1.7262e-007     0.515922        -0.755593       0.105328        0.114947        -0.279947       0.572517        0.816702        -0.448751       0.665786        -0.648555       0.0790353       0.135118        -0.419205       0.51833         0.90926         -0.263884      
  2.2e+010        0.00018022      1.7262e-007     0.484458        -0.770218       0.112327        0.115295        -0.247468       0.575013        0.802032        -0.464568       0.641672        -0.665622       0.0853448       0.138424        -0.393439       0.528285        0.902674        -0.274242      
  2.3e+010        0.00018022      1.7262e-007     0.451742        -0.782098       0.118752        0.114967        -0.219522       0.579519        0.791788        -0.480032       0.616185        -0.681532       0.0910819       0.140866        -0.37106        0.537966        0.896201        -0.282346      
  2.4e+010        0.00018022      1.7262e-007     0.42009         -0.795318       0.124556        0.114644        -0.192471       0.583439        0.783001        -0.486282       0.592117        -0.697284       0.096602        0.14264         -0.347142       0.547662        0.889238        -0.287512      
  2.5e+010        0.00018022      1.7262e-007     0.385652        -0.803791       0.131026        0.115493        -0.169528       0.588147        0.780091        -0.489994       0.565617        -0.709674       0.102835        0.144877        -0.325158       0.557256        0.880908        -0.296011      
  2.6e+010        0.00018022      1.7262e-007     0.35546         -0.812917       0.139359        0.113301        -0.139032       0.591452        0.759762        -0.513807       0.540527        -0.723422       0.110378        0.146489        -0.301501       0.567209        0.869214        -0.305884      
  2.7e+010        0.00018022      1.7262e-007     0.324555        -0.820066       0.144254        0.111385        -0.113731       0.592053        0.728522        -0.52746        0.514795        -0.735212       0.116269        0.14902         -0.284921       0.579366        0.862635        -0.316715      
  2.8e+010        0.00018022      1.7262e-007     0.293168        -0.825717       0.150856        0.109565        -0.087183       0.590012        0.712531        -0.547584       0.489606        -0.747288       0.122546        0.15142         -0.26529        0.58574         0.856631        -0.327151      
  2.9e+010        0.00018022      1.7262e-007     0.262294        -0.830154       0.155271        0.107311        -0.0661621      0.586876        0.701266        -0.556946       0.4637          -0.756877       0.127437        0.152163        -0.247646       0.590329        0.85213         -0.331096      
  3e+010          0.00018022      1.7262e-007     0.233665        -0.832097       0.160022        0.105914        -0.0430661      0.581393        0.693743        -0.562884       0.439365        -0.763959       0.132752        0.152822        -0.22454        0.590467        0.846057        -0.336699      
  3.1e+010        0.00018022      1.7262e-007     0.206415        -0.833623       0.16563         0.103623        -0.0185602      0.578018        0.680013        -0.570529       0.416403        -0.769437       0.138782        0.153045        -0.201485       0.59531         0.837057        -0.343868      
  3.2e+010        0.00018022      1.7262e-007     0.178577        -0.834863       0.171033        0.100822        0.004908        0.570571        0.662833        -0.581074       0.392493        -0.776872       0.145058        0.153705        -0.179543       0.597801        0.829445        -0.351934      
  3.3e+010        0.00018022      1.7262e-007     0.150931        -0.835649       0.175726        0.0978813       0.0230214       0.565856        0.649595        -0.59217        0.36886         -0.783736       0.150646        0.153929        -0.163159       0.600591        0.823257        -0.358499      
  3.4e+010        0.00018022      1.7262e-007     0.12295         -0.834332       0.180071        0.094854        0.0449134       0.560235        0.637799        -0.600671       0.343027        -0.787339       0.156145        0.15345         -0.142141       0.603792        0.816405        -0.364581      
  3.5e+010        0.00018022      1.7262e-007     0.0995339       -0.832142       0.184164        0.0918649       0.0653161       0.552903        0.624291        -0.607698       0.322131        -0.790149       0.16147         0.153127        -0.121138       0.604267        0.808497        -0.370832      
  3.6e+010        0.00018022      1.7262e-007     0.07575         -0.828386       0.18794         0.0884096       0.0826806       0.544863        0.607803        -0.615781       0.300729        -0.79196        0.166929        0.152324        -0.103586       0.604105        0.800519        -0.377446      
  3.7e+010        0.00018022      1.7262e-007     0.0545517       -0.826135       0.191127        0.0855439       0.0979786       0.535275        0.595817        -0.625356       0.280398        -0.79417        0.171056        0.151954        -0.0867296      0.600906        0.795117        -0.383476      
  3.8e+010        0.00018022      1.7262e-007     0.0317384       -0.826871       0.194844        0.0824559       0.117062        0.529766        0.583335        -0.632485       0.26029         -0.799514       0.1758          0.151254        -0.0682516      0.603409        0.78812         -0.389372      
  3.9e+010        0.00018022      1.7262e-007     0.00829313      -0.822402       0.197737        0.079295        0.133941        0.520468        0.569337        -0.638627       0.2388          -0.800412       0.180406        0.150463        -0.0494223      0.601435        0.78078         -0.394848      
  4e+010          0.00018022      1.7262e-007     -0.01515        -0.81739        0.20125         0.0755548       0.147324        0.512064        0.554486        -0.646719       0.217661        -0.801765       0.185299        0.149789        -0.0355833      0.599489        0.773877        -0.400465      
  4.1e+010        0.00018022      1.7262e-007     -0.0349161      -0.812613       0.204698        0.07256         0.162644        0.505181        0.541121        -0.653733       0.197576        -0.801984       0.189724        0.148839        -0.0192664      0.600483        0.766636        -0.408002      
  4.2e+010        0.00018022      1.7262e-007     -0.0568824      -0.808897       0.207635        0.0682021       0.179165        0.495589        0.528508        -0.659773       0.177756        -0.802575       0.194466        0.147334        -0.000374876    0.59695         0.75681         -0.411756      
  4.3e+010        0.00018022      1.7262e-007     -0.0697107      -0.807914       0.209975        0.0655114       0.189338        0.482641        0.514342        -0.665399       0.164353        -0.803081       0.197995        0.146691        0.0126472       0.590725        0.751207        -0.417192      
  4.4e+010        0.00018022      1.7262e-007     -0.0955172      -0.796969       0.212572        0.0616547       0.204791        0.475887        0.499507        -0.67068        0.139994        -0.801856       0.203173        0.14557         0.0299263       0.592066        0.743821        -0.422371      
  4.5e+010        0.00018022      1.7262e-007     -0.115781       -0.794697       0.21518         0.0576779       0.215832        0.466588        0.486635        -0.677349       0.121687        -0.801352       0.207376        0.144181        0.0440713       0.589158        0.736769        -0.427455      
  4.6e+010        0.00018022      1.7262e-007     -0.13019        -0.7879         0.217445        0.0545955       0.226726        0.456268        0.474046        -0.681069       0.10673         -0.800175       0.211283        0.142797        0.0568608       0.585275        0.729696        -0.43166       
  4.7e+010        0.00018022      1.7262e-007     -0.145159       -0.787031       0.219431        0.051263        0.238297        0.447589        0.459732        -0.684633       0.090563        -0.802277       0.215202        0.14217         0.0715308       0.582267        0.721698        -0.436865      
  4.8e+010        0.00018022      1.7262e-007     -0.167147       -0.776136       0.222109        0.0476241       0.25156         0.436688        0.446031        -0.691023       0.0703908       -0.797148       0.220285        0.140793        0.0893258       0.580475        0.713483        -0.442182      
