! VERSION = 6.00
!Data measured by ggf on Tue Jan 23 15:04:55 2018 using model file NPN_MEAS_SCALE
BEGIN_HEADER
 ICCAP_INPUTS
  vc         V  C GROUND SMU_C 0.2 SYNC       1 0 vb
  ve         V  E GROUND SMU_E 0.2 CON        0
  vs         V  S GROUND SMU_S 0 CON        0
  freq       F  LIST       1 74 100000000 200000000 300000000 400000000 500000000 600000000 700000000 800000000 900000000 1000000000 2000000000 3000000000 4000000000 5000000000 6000000000 7000000000 8000000000 9000000000 10000000000 11000000000 12000000000 13000000000 14000000000 15000000000 16000000000 17000000000 18000000000 19000000000 20000000000 21000000000 22000000000 23000000000 24000000000 25000000000 26000000000 27000000000 28000000000 29000000000 30000000000 31000000000 32000000000 33000000000 34000000000 35000000000 36000000000 37000000000 38000000000 39000000000 40000000000 41000000000 42000000000 43000000000 44000000000 45000000000 46000000000 47000000000 48000000000 49000000000 50000000000 51000000000 52000000000 53000000000 54000000000 55000000000 56000000000 57000000000 58000000000 59000000000 60000000000 61000000000 62000000000 63000000000 64000000000 65000000000
  vb         V  B GROUND SMU_B 0.015 LIN        2    0.74       0.87       27   0.005     
 ICCAP_OUTPUTS
  ic         I  C GROUND SMU_C M
  ib         I  B GROUND SMU_B M
  S          S  B C GROUND NWA M
  S_deemb    S B C GROUND n/a B
 ICCAP_VALUES
  TNOM "27"
  TEMP "27"
  TECHNO "SG13G2"
  LOT "EDJ802"
  WAFER "02"
  CHIP "(3.3)"
  MODULE "S439S"
  DEV_NAME "D04"
  DEV_GEOM_L "2.5"
  DEV_GEOM_W "0.07"
  NUM_OF_TRANS_RF "1"
  REMARKS "Nx=4; Power -30/-20dBm, Slope: 0.1dB/GHz"
  TIMEDATE "Tue Jan 23 14:27:30     2018"
  OPERATOR "ggf"
END_HEADER

BEGIN_DB
 ICCAP_VAR vc         0.74           
 ICCAP_VAR ve         0              
 ICCAP_VAR vs         0              
 ICCAP_VAR vb         0.74           

 #freq            ic              ib              R:S(1,1)        I:S(1,1)        R:S(1,2)        I:S(1,2)        R:S(2,1)        I:S(2,1)        R:S(2,2)        I:S(2,2)        R:S_deemb(1,1)  I:S_deemb(1,1)  R:S_deemb(1,2)  I:S_deemb(1,2)  R:S_deemb(2,1)  I:S_deemb(2,1)  R:S_deemb(2,2)  I:S_deemb(2,2) 
  1e+008          0.00017798      2.4698e-007     0.998389        -0.0036389      5.34076e-005    0.000965682     -0.720782       -0.00614032     1.00044         -0.00258489     0.998411        -0.00264186     -7.47937e-006   0.00084493      -0.721256       -0.00719494     1.00033         -0.00141496    
  2e+008          0.00017798      2.4698e-007     0.999135        -0.00943159     6.20362e-005    0.0018481       -0.701488       0.000398147     1.00026         -0.0053714      0.998936        -0.00699999     6.23259e-005    0.00158568      -0.701893       -0.00184286     0.999984        -0.00242553    
  3e+008          0.00017798      2.4698e-007     0.99908         -0.0149277      5.6478e-005     0.00281477      -0.704409       0.00550282      1.00028         -0.00816465     0.998668        -0.0114856      4.38246e-005    0.00255231      -0.704787       0.00272908      1.00004         -0.0047736     
  4e+008          0.00017798      2.4698e-007     0.999489        -0.0199758      0.000100773     0.00379444      -0.695222       0.0104342       1.00014         -0.010964       0.99903         -0.0154201      7.47844e-005    0.00344829      -0.695595       0.00690266      1.00006         -0.00635597    
  5e+008          0.00017798      2.4698e-007     0.99906         -0.025347       9.92214e-005    0.0047194       -0.703113       0.0146276       1.00022         -0.0136708      0.998506        -0.0189829      5.60316e-005    0.00429982      -0.703431       0.00977837      1.00004         -0.00789705    
  6e+008          0.00017798      2.4698e-007     0.999041        -0.0306597      0.000155262     0.00569125      -0.702847       0.01898         1.00002         -0.0164504      0.998881        -0.0234846      0.000117089     0.00521363      -0.703295       0.0133611       0.99978         -0.00956154    
  7e+008          0.00017798      2.4698e-007     0.998772        -0.0358858      0.000202833     0.00663075      -0.703172       0.0247038       0.999895        -0.019199       0.998456        -0.0277281      0.000146688     0.00604469      -0.703663       0.0181768       0.999773        -0.0110471     
  8e+008          0.00017798      2.4698e-007     0.998266        -0.0412333      0.000257418     0.0075812       -0.705436       0.0296422       0.999759        -0.0219012      0.99811         -0.0318394      0.000183916     0.00691468      -0.706106       0.0221671       0.99971         -0.0126414     
  9e+008          0.00017798      2.4698e-007     0.998129        -0.0461089      0.000307802     0.00851116      -0.699748       0.0354853       0.999733        -0.0245382      0.99796         -0.0356776      0.000211005     0.007756        -0.700504       0.0272229       0.999735        -0.0141455     
  1e+009          0.00017798      2.4698e-007     0.997829        -0.0515242      0.000397449     0.00945573      -0.706037       0.0413275       0.999474        -0.0272621      0.997987        -0.039753       0.000234858     0.00861235      -0.70696        0.0320251       0.999558        -0.0156724     
  2e+009          0.00017798      2.4698e-007     0.992621        -0.102112       0.00152515      0.0187521       -0.686212       0.0833832       0.997338        -0.05405        0.994436        -0.0789466      0.00101256      0.0170988       -0.688756       0.0652207       0.99824         -0.0307468     
  3e+009          0.00017798      2.4698e-007     0.984644        -0.15355        0.00334068      0.027916        -0.68936        0.121499        0.99421         -0.0803549      0.989476        -0.118763       0.00218388      0.0255653       -0.694798       0.0940003       0.996598        -0.0454128     
  4e+009          0.00017798      2.4698e-007     0.973414        -0.202692       0.00587546      0.0368531       -0.681937       0.165501        0.989973        -0.106107       0.982187        -0.157165       0.00376325      0.0339066       -0.691673       0.129552        0.994454        -0.0597823     
  5e+009          0.00017798      2.4698e-007     0.959633        -0.250376       0.00902412      0.0456077       -0.662426       0.203391        0.984828        -0.131795       0.973657        -0.194363       0.00578329      0.0421633       -0.677239       0.159815        0.99199         -0.0742176     
  6e+009          0.00017798      2.4698e-007     0.942823        -0.297646       0.0128197       0.0539107       -0.644119       0.240257        0.978758        -0.157234       0.962965        -0.2325         0.00826397      0.0501218       -0.664862       0.189855        0.989067        -0.0883986     
  7e+009          0.00017798      2.4698e-007     0.923191        -0.342543       0.0172146       0.0620554       -0.628133       0.277082        0.972295        -0.182          0.950471        -0.2679         0.011127        0.0581205       -0.65589        0.220013        0.986246        -0.102501      
  8e+009          0.00017798      2.4698e-007     0.901914        -0.385549       0.0220959       0.0695935       -0.609934       0.310706        0.964293        -0.20604        0.936938        -0.302904       0.0143629       0.0657145       -0.645316       0.247957        0.982308        -0.11612       
  9e+009          0.00017798      2.4698e-007     0.878772        -0.427532       0.0275548       0.076741        -0.587082       0.342288        0.955449        -0.229931       0.921945        -0.337492       0.0179685       0.0731505       -0.630528       0.274957        0.978143        -0.129883      
  1e+010          0.00017798      2.4698e-007     0.853146        -0.467766       0.0334146       0.0833353       -0.560404       0.37358         0.945776        -0.25308        0.905233        -0.370416       0.0218478       0.0802609       -0.612859       0.302635        0.97355         -0.143186      
  1.1e+010        0.00017798      2.4698e-007     0.825815        -0.504997       0.0395879       0.0895625       -0.539395       0.399226        0.935899        -0.275495       0.887368        -0.402779       0.0260689       0.0871692       -0.600519       0.325091        0.968752        -0.156195      
  1.2e+010        0.00017798      2.4698e-007     0.796503        -0.540383       0.0463552       0.0952877       -0.515232       0.429452        0.924847        -0.297245       0.86782         -0.434073       0.0306899       0.0939388       -0.586552       0.353478        0.963699        -0.168995      
  1.3e+010        0.00017798      2.4698e-007     0.765641        -0.574031       0.0532111       0.100381        -0.492265       0.456744        0.912975        -0.317671       0.847193        -0.464451       0.0354578       0.100402        -0.574034       0.379545        0.958215        -0.180986      
  1.4e+010        0.00017798      2.4698e-007     0.734297        -0.603696       0.0607358       0.104774        -0.460864       0.475696        0.901053        -0.338462       0.825701        -0.491552       0.0409219       0.106483        -0.552044       0.399339        0.952556        -0.193856      
  1.5e+010        0.00017798      2.4698e-007     0.703622        -0.631758       0.0681458       0.108418        -0.424646       0.491161        0.888841        -0.357801       0.80452         -0.518145       0.0464505       0.111991        -0.524309       0.417451        0.946467        -0.20572       
  1.6e+010        0.00017798      2.4698e-007     0.67047         -0.657319       0.0755727       0.111728        -0.398648       0.508881        0.875974        -0.376442       0.78132         -0.54296        0.0519959       0.117325        -0.507615       0.436964        0.939758        -0.217263      
  1.7e+010        0.00017798      2.4698e-007     0.638324        -0.681629       0.0833238       0.114287        -0.365565       0.520749        0.861921        -0.394481       0.758919        -0.567517       0.0580364       0.122266        -0.483079       0.45295         0.933237        -0.228665      
  1.8e+010        0.00017798      2.4698e-007     0.605089        -0.702878       0.0907126       0.116274        -0.338605       0.535101        0.848459        -0.412255       0.734691        -0.589502       0.063828        0.126816        -0.465055       0.470668        0.926647        -0.239686      
  1.9e+010        0.00017798      2.4698e-007     0.570412        -0.723492       0.0981652       0.118014        -0.310159       0.549803        0.835333        -0.429235       0.709061        -0.612495       0.0698337       0.131146        -0.44551        0.489919        0.919758        -0.249892      
  2e+010          0.00017798      2.4698e-007     0.537743        -0.740178       0.105513        0.118935        -0.282337       0.55591         0.82058         -0.443493       0.685193        -0.630813       0.0760706       0.134841        -0.424474       0.501265        0.911961        -0.259851      
  2.1e+010        0.00017798      2.4698e-007     0.50397         -0.756576       0.112644        0.119479        -0.255899       0.568053        0.80433         -0.456961       0.659276        -0.650096       0.0823138       0.13839         -0.406283       0.519819        0.904244        -0.269685      
  2.2e+010        0.00017798      2.4698e-007     0.47221         -0.770135       0.119915        0.119662        -0.223841       0.570096        0.788978        -0.472803       0.635094        -0.666811       0.0887902       0.141661        -0.380247       0.52938         0.89739         -0.280048      
  2.3e+010        0.00017798      2.4698e-007     0.439448        -0.781765       0.126725        0.119185        -0.195941       0.573789        0.77831         -0.488451       0.609651        -0.682431       0.0947608       0.144128        -0.357933       0.538916        0.890725        -0.288264      
  2.4e+010        0.00017798      2.4698e-007     0.407685        -0.794179       0.132726        0.118756        -0.169178       0.57657         0.770415        -0.493561       0.585305        -0.698088       0.100451        0.145925        -0.333842       0.548309        0.883451        -0.293495      
  2.5e+010        0.00017798      2.4698e-007     0.374068        -0.802741       0.139736        0.119654        -0.147232       0.581017        0.76831         -0.497655       0.558773        -0.710113       0.106833        0.148156        -0.312057       0.557358        0.874542        -0.302755      
  2.6e+010        0.00017798      2.4698e-007     0.343071        -0.811004       0.148379        0.117052        -0.115493       0.58416         0.746105        -0.521797       0.533291        -0.723462       0.114531        0.149621        -0.287921       0.567249        0.862844        -0.311869      
  2.7e+010        0.00017798      2.4698e-007     0.312392        -0.817504       0.153651        0.114683        -0.0902165      0.58364         0.712674        -0.535326       0.507871        -0.734761       0.120677        0.15204         -0.270661       0.578954        0.855911        -0.322973      
  2.8e+010        0.00017798      2.4698e-007     0.281379        -0.822534       0.160408        0.112509        -0.0641149      0.580328        0.694972        -0.555745       0.482384        -0.745856       0.127165        0.154535        -0.25127        0.584855        0.850079        -0.333045      
  2.9e+010        0.00017798      2.4698e-007     0.250977        -0.826332       0.164831        0.110071        -0.0436334      0.576911        0.684421        -0.564447       0.456659        -0.755903       0.132091        0.155133        -0.233723       0.589021        0.845282        -0.337142      
  3e+010          0.00017798      2.4698e-007     0.222427        -0.828598       0.169879        0.108354        -0.0212383      0.571211        0.677165        -0.570272       0.43284         -0.763026       0.13757         0.155609        -0.210815       0.589731        0.838712        -0.342742      
  3.1e+010        0.00017798      2.4698e-007     0.195272        -0.829446       0.17555         0.10578         0.00292688      0.566581        0.662486        -0.577985       0.409827        -0.768126       0.143805        0.155889        -0.187659       0.593797        0.82959         -0.350789      
  3.2e+010        0.00017798      2.4698e-007     0.167815        -0.830481       0.181092        0.102879        0.0256293       0.558981        0.645113        -0.587214       0.385443        -0.775122       0.150325        0.156455        -0.165817       0.595669        0.821804        -0.357842      
  3.3e+010        0.00017798      2.4698e-007     0.140513        -0.830988       0.185916        0.0997288       0.0439887       0.553752        0.631598        -0.598858       0.361844        -0.782298       0.1559          0.156715        -0.149429       0.598309        0.815468        -0.364555      
  3.4e+010        0.00017798      2.4698e-007     0.112573        -0.828736       0.190469        0.0963676       0.06504         0.547977        0.619931        -0.606484       0.336635        -0.785958       0.16148         0.1562          -0.128657       0.600862        0.808414        -0.370637      
  3.5e+010        0.00017798      2.4698e-007     0.0893381       -0.826648       0.194812        0.0931906       0.0853236       0.539672        0.605873        -0.613422       0.315543        -0.788428       0.167026        0.155845        -0.107253       0.601032        0.800182        -0.376947      
  3.6e+010        0.00017798      2.4698e-007     0.0662205       -0.822857       0.198575        0.0894345       0.101651        0.530946        0.588953        -0.62084        0.294199        -0.789228       0.172424        0.154966        -0.089965       0.600305        0.792083        -0.383159      
  3.7e+010        0.00017798      2.4698e-007     0.0443802       -0.820453       0.201891        0.0862761       0.116593        0.5222          0.576798        -0.630392       0.274407        -0.791945       0.176699        0.154357        -0.073919       0.597551        0.78635         -0.389455      
  3.8e+010        0.00017798      2.4698e-007     0.0213672       -0.820118       0.205655        0.0827351       0.135468        0.516298        0.564153        -0.637101       0.254085        -0.796905       0.181708        0.153452        -0.0548088      0.599907        0.779285        -0.395312      
  3.9e+010        0.00017798      2.4698e-007     -0.000968469    -0.815657       0.20853         0.0794523       0.151345        0.505811        0.549996        -0.643121       0.233121        -0.797509       0.186134        0.152712        -0.0366666      0.596806        0.771916        -0.400803      
  4e+010          0.00017798      2.4698e-007     -0.024713       -0.811099       0.212223        0.0755777       0.164804        0.49767         0.535284        -0.650972       0.210217        -0.798582       0.191467        0.151727        -0.0222267      0.595816        0.764658        -0.406378      
  4.1e+010        0.00017798      2.4698e-007     -0.0446668      -0.8066         0.215665        0.072301        0.18012         0.490091        0.521026        -0.658287       0.191553        -0.798584       0.196002        0.1509          -0.00603565     0.595554        0.756938        -0.413724      
  4.2e+010        0.00017798      2.4698e-007     -0.0648915      -0.801098       0.218589        0.0679051       0.195572        0.478987        0.506879        -0.662677       0.173094        -0.798589       0.200392        0.149015        0.0125716       0.591848        0.747335        -0.417537      
  4.3e+010        0.00017798      2.4698e-007     -0.0807023      -0.798183       0.220944        0.064562        0.20579         0.467121        0.493962        -0.667928       0.158435        -0.79941        0.204464        0.148635        0.0252938       0.585905        0.741534        -0.422715      
  4.4e+010        0.00017798      2.4698e-007     -0.103653       -0.790592       0.223931        0.0608162       0.219997        0.460027        0.479405        -0.673143       0.134536        -0.798115       0.2097          0.147407        0.0422257       0.586641        0.73366         -0.427893      
  4.5e+010        0.00017798      2.4698e-007     -0.123333       -0.786781       0.226434        0.0564589       0.231516        0.450694        0.466135        -0.679406       0.116074        -0.798452       0.213965        0.145501        0.0558088       0.584068        0.726755        -0.432787      
  4.6e+010        0.00017798      2.4698e-007     -0.138974       -0.780436       0.228652        0.0530849       0.242648        0.43995         0.453332        -0.683087       0.101676        -0.796627       0.217827        0.144543        0.0700149       0.579502        0.719484        -0.437391      
  4.7e+010        0.00017798      2.4698e-007     -0.155013       -0.77915        0.23052         0.0496212       0.252778        0.429603        0.438834        -0.686109       0.0869651       -0.799671       0.221804        0.143766        0.0842414       0.575565        0.711174        -0.442286      
  4.8e+010        0.00017798      2.4698e-007     -0.175166       -0.768601       0.233315        0.0454445       0.266453        0.420036        0.425111        -0.691881       0.0652825       -0.792965       0.227059        0.142053        0.101912        0.573852        0.703076        -0.447058      
