#   Hz   S  RI   R   50
! 
0.000000e+00  -9.394767e-01 0.000000e+00 
1.875000e+07  -9.394469e-01 7.431470e-03 
3.750000e+07  -9.393573e-01 1.486223e-02 
5.625000e+07  -9.392081e-01 2.229155e-02 
7.500000e+07  -9.389992e-01 2.971873e-02 
9.375000e+07  -9.387308e-01 3.714306e-02 
1.125000e+08  -9.384027e-01 4.456382e-02 
1.312500e+08  -9.380152e-01 5.198029e-02 
1.500000e+08  -9.375683e-01 5.939178e-02 
1.687500e+08  -9.370620e-01 6.679757e-02 
1.875000e+08  -9.364965e-01 7.419696e-02 
2.062500e+08  -9.358719e-01 8.158923e-02 
2.250000e+08  -9.351883e-01 8.897371e-02 
2.437500e+08  -9.344458e-01 9.634967e-02 
2.625000e+08  -9.336447e-01 1.037164e-01 
2.812500e+08  -9.327849e-01 1.110733e-01 
3.000000e+08  -9.318668e-01 1.184196e-01 
3.187500e+08  -9.308905e-01 1.257546e-01 
3.375000e+08  -9.298561e-01 1.330776e-01 
3.562500e+08  -9.287640e-01 1.403881e-01 
3.750000e+08  -9.276142e-01 1.476852e-01 
3.937500e+08  -9.264070e-01 1.549684e-01 
4.125000e+08  -9.251427e-01 1.622369e-01 
4.312500e+08  -9.238215e-01 1.694901e-01 
4.500000e+08  -9.224436e-01 1.767274e-01 
4.687500e+08  -9.210093e-01 1.839481e-01 
4.875000e+08  -9.195189e-01 1.911515e-01 
5.062500e+08  -9.179726e-01 1.983371e-01 
5.250000e+08  -9.163708e-01 2.055041e-01 
5.437500e+08  -9.147138e-01 2.126520e-01 
5.625000e+08  -9.130018e-01 2.197802e-01 
5.812500e+08  -9.112352e-01 2.268880e-01 
6.000000e+08  -9.094144e-01 2.339748e-01 
6.187500e+08  -9.075396e-01 2.410401e-01 
6.375000e+08  -9.056112e-01 2.480832e-01 
6.562500e+08  -9.036296e-01 2.551035e-01 
6.750000e+08  -9.015951e-01 2.621005e-01 
6.937500e+08  -8.995081e-01 2.690736e-01 
7.125000e+08  -8.973690e-01 2.760223e-01 
7.312500e+08  -8.951782e-01 2.829459e-01 
7.500000e+08  -8.929360e-01 2.898440e-01 
7.687500e+08  -8.906429e-01 2.967159e-01 
7.875000e+08  -8.882994e-01 3.035613e-01 
8.062500e+08  -8.859057e-01 3.103794e-01 
8.250000e+08  -8.834624e-01 3.171699e-01 
8.437500e+08  -8.809698e-01 3.239323e-01 
8.625000e+08  -8.784285e-01 3.306659e-01 
8.812500e+08  -8.758388e-01 3.373704e-01 
9.000000e+08  -8.732013e-01 3.440452e-01 
9.187500e+08  -8.705163e-01 3.506899e-01 
9.375000e+08  -8.677843e-01 3.573041e-01 
9.562500e+08  -8.650058e-01 3.638872e-01 
9.750000e+08  -8.621813e-01 3.704388e-01 
9.937500e+08  -8.593113e-01 3.769585e-01 
1.012500e+09  -8.563962e-01 3.834459e-01 
1.031250e+09  -8.534366e-01 3.899005e-01 
1.050000e+09  -8.504328e-01 3.963219e-01 
1.068750e+09  -8.473855e-01 4.027098e-01 
1.087500e+09  -8.442952e-01 4.090637e-01 
1.106250e+09  -8.411622e-01 4.153833e-01 
1.125000e+09  -8.379872e-01 4.216682e-01 
1.143750e+09  -8.347707e-01 4.279180e-01 
1.162500e+09  -8.315131e-01 4.341324e-01 
1.181250e+09  -8.282151e-01 4.403111e-01 
1.200000e+09  -8.248770e-01 4.464536e-01 
1.218750e+09  -8.214995e-01 4.525598e-01 
1.237500e+09  -8.180831e-01 4.586292e-01 
1.256250e+09  -8.146283e-01 4.646615e-01 
1.275000e+09  -8.111356e-01 4.706566e-01 
1.293750e+09  -8.076056e-01 4.766140e-01 
1.312500e+09  -8.040387e-01 4.825335e-01 
1.331250e+09  -8.004357e-01 4.884149e-01 
1.350000e+09  -7.967969e-01 4.942578e-01 
1.368750e+09  -7.931229e-01 5.000621e-01 
1.387500e+09  -7.894143e-01 5.058275e-01 
1.406250e+09  -7.856716e-01 5.115537e-01 
1.425000e+09  -7.818954e-01 5.172406e-01 
1.443750e+09  -7.780861e-01 5.228880e-01 
1.462500e+09  -7.742444e-01 5.284955e-01 
1.481250e+09  -7.703707e-01 5.340631e-01 
1.500000e+09  -7.664657e-01 5.395906e-01 
1.518750e+09  -7.625299e-01 5.450777e-01 
1.537500e+09  -7.585637e-01 5.505244e-01 
1.556250e+09  -7.545678e-01 5.559304e-01 
1.575000e+09  -7.505426e-01 5.612956e-01 
1.593750e+09  -7.464888e-01 5.666198e-01 
1.612500e+09  -7.424069e-01 5.719030e-01 
1.631250e+09  -7.382974e-01 5.771451e-01 
1.650000e+09  -7.341608e-01 5.823458e-01 
1.668750e+09  -7.299976e-01 5.875051e-01 
1.687500e+09  -7.258085e-01 5.926229e-01 
1.706250e+09  -7.215939e-01 5.976990e-01 
1.725000e+09  -7.173544e-01 6.027335e-01 
1.743750e+09  -7.130905e-01 6.077263e-01 
1.762500e+09  -7.088027e-01 6.126772e-01 
1.781250e+09  -7.044915e-01 6.175862e-01 
1.800000e+09  -7.001575e-01 6.224533e-01 
1.818750e+09  -6.958012e-01 6.272784e-01 
1.837500e+09  -6.914230e-01 6.320615e-01 
1.856250e+09  -6.870236e-01 6.368025e-01 
1.875000e+09  -6.826034e-01 6.415015e-01 
1.893750e+09  -6.781629e-01 6.461584e-01 
1.912500e+09  -6.737026e-01 6.507731e-01 
1.931250e+09  -6.692231e-01 6.553458e-01 
1.950000e+09  -6.647248e-01 6.598764e-01 
1.968750e+09  -6.602082e-01 6.643649e-01 
1.987500e+09  -6.556738e-01 6.688114e-01 
2.006250e+09  -6.511220e-01 6.732158e-01 
2.025000e+09  -6.465535e-01 6.775782e-01 
2.043750e+09  -6.419686e-01 6.818987e-01 
2.062500e+09  -6.373679e-01 6.861772e-01 
2.081250e+09  -6.327517e-01 6.904139e-01 
2.100000e+09  -6.281206e-01 6.946087e-01 
2.118750e+09  -6.234751e-01 6.987618e-01 
2.137500e+09  -6.188155e-01 7.028731e-01 
2.156250e+09  -6.141424e-01 7.069429e-01 
2.175000e+09  -6.094562e-01 7.109711e-01 
2.193750e+09  -6.047573e-01 7.149578e-01 
2.212500e+09  -6.000463e-01 7.189032e-01 
2.231250e+09  -5.953234e-01 7.228073e-01 
2.250000e+09  -5.905892e-01 7.266702e-01 
2.268750e+09  -5.858441e-01 7.304920e-01 
2.287500e+09  -5.810885e-01 7.342729e-01 
2.306250e+09  -5.763229e-01 7.380128e-01 
2.325000e+09  -5.715476e-01 7.417120e-01 
2.343750e+09  -5.667631e-01 7.453706e-01 
2.362500e+09  -5.619698e-01 7.489887e-01 
2.381250e+09  -5.571680e-01 7.525664e-01 
2.400000e+09  -5.523583e-01 7.561039e-01 
2.418750e+09  -5.475409e-01 7.596012e-01 
2.437500e+09  -5.427162e-01 7.630585e-01 
2.456250e+09  -5.378847e-01 7.664761e-01 
2.475000e+09  -5.330468e-01 7.698539e-01 
2.493750e+09  -5.282027e-01 7.731922e-01 
2.512500e+09  -5.233529e-01 7.764912e-01 
2.531250e+09  -5.184978e-01 7.797509e-01 
2.550000e+09  -5.136376e-01 7.829715e-01 
2.568750e+09  -5.087729e-01 7.861532e-01 
2.587500e+09  -5.039038e-01 7.892962e-01 
2.606250e+09  -4.990308e-01 7.924007e-01 
2.625000e+09  -4.941542e-01 7.954667e-01 
2.643750e+09  -4.892743e-01 7.984945e-01 
2.662500e+09  -4.843915e-01 8.014843e-01 
2.681250e+09  -4.795061e-01 8.044361e-01 
2.700000e+09  -4.746185e-01 8.073503e-01 
2.718750e+09  -4.697289e-01 8.102270e-01 
2.737500e+09  -4.648377e-01 8.130664e-01 
2.756250e+09  -4.599451e-01 8.158686e-01 
2.775000e+09  -4.550515e-01 8.186339e-01 
2.793750e+09  -4.501572e-01 8.213624e-01 
2.812500e+09  -4.452625e-01 8.240544e-01 
2.831250e+09  -4.403677e-01 8.267099e-01 
2.850000e+09  -4.354730e-01 8.293294e-01 
2.868750e+09  -4.305788e-01 8.319128e-01 
2.887500e+09  -4.256853e-01 8.344604e-01 
2.906250e+09  -4.207929e-01 8.369725e-01 
2.925000e+09  -4.159016e-01 8.394492e-01 
2.943750e+09  -4.110120e-01 8.418907e-01 
2.962500e+09  -4.061241e-01 8.442973e-01 
2.981250e+09  -4.012383e-01 8.466691e-01 
3.000000e+09  -3.963548e-01 8.490063e-01 
3.018750e+09  -3.914739e-01 8.513092e-01 
3.037500e+09  -3.865958e-01 8.535779e-01 
3.056250e+09  -3.817207e-01 8.558127e-01 
3.075000e+09  -3.768490e-01 8.580137e-01 
3.093750e+09  -3.719807e-01 8.601813e-01 
3.112500e+09  -3.671163e-01 8.623155e-01 
3.131250e+09  -3.622558e-01 8.644166e-01 
3.150000e+09  -3.573994e-01 8.664849e-01 
3.168750e+09  -3.525476e-01 8.685205e-01 
3.187500e+09  -3.477003e-01 8.705236e-01 
3.206250e+09  -3.428579e-01 8.724944e-01 
3.225000e+09  -3.380205e-01 8.744333e-01 
3.243750e+09  -3.331884e-01 8.763402e-01 
3.262500e+09  -3.283617e-01 8.782156e-01 
3.281250e+09  -3.235407e-01 8.800596e-01 
3.300000e+09  -3.187255e-01 8.818724e-01 
3.318750e+09  -3.139164e-01 8.836543e-01 
3.337500e+09  -3.091134e-01 8.854053e-01 
3.356250e+09  -3.043168e-01 8.871259e-01 
3.375000e+09  -2.995268e-01 8.888160e-01 
3.393750e+09  -2.947436e-01 8.904761e-01 
3.412500e+09  -2.899672e-01 8.921063e-01 
3.431250e+09  -2.851979e-01 8.937068e-01 
3.450000e+09  -2.804359e-01 8.952778e-01 
3.468750e+09  -2.756812e-01 8.968195e-01 
3.487500e+09  -2.709342e-01 8.983322e-01 
3.506250e+09  -2.661948e-01 8.998160e-01 
3.525000e+09  -2.614633e-01 9.012712e-01 
3.543750e+09  -2.567398e-01 9.026980e-01 
3.562500e+09  -2.520245e-01 9.040965e-01 
3.581250e+09  -2.473174e-01 9.054671e-01 
3.600000e+09  -2.426188e-01 9.068098e-01 
3.618750e+09  -2.379288e-01 9.081250e-01 
3.637500e+09  -2.332475e-01 9.094128e-01 
3.656250e+09  -2.285750e-01 9.106734e-01 
3.675000e+09  -2.239115e-01 9.119070e-01 
3.693750e+09  -2.192571e-01 9.131139e-01 
3.712500e+09  -2.146119e-01 9.142942e-01 
3.731250e+09  -2.099760e-01 9.154482e-01 
3.750000e+09  -2.053495e-01 9.165761e-01 
3.768750e+09  -2.007327e-01 9.176780e-01 
3.787500e+09  -1.961255e-01 9.187541e-01 
3.806250e+09  -1.915280e-01 9.198047e-01 
3.825000e+09  -1.869405e-01 9.208300e-01 
3.843750e+09  -1.823630e-01 9.218302e-01 
3.862500e+09  -1.777955e-01 9.228054e-01 
3.881250e+09  -1.732383e-01 9.237558e-01 
3.900000e+09  -1.686913e-01 9.246818e-01 
3.918750e+09  -1.641548e-01 9.255833e-01 
3.937500e+09  -1.596287e-01 9.264608e-01 
3.956250e+09  -1.551132e-01 9.273143e-01 
3.975000e+09  -1.506083e-01 9.281440e-01 
3.993750e+09  -1.461142e-01 9.289501e-01 
4.012500e+09  -1.416309e-01 9.297329e-01 
4.031250e+09  -1.371585e-01 9.304925e-01 
4.050000e+09  -1.326970e-01 9.312291e-01 
4.068750e+09  -1.282467e-01 9.319429e-01 
4.087500e+09  -1.238075e-01 9.326341e-01 
4.106250e+09  -1.193795e-01 9.333029e-01 
4.125000e+09  -1.149628e-01 9.339494e-01 
4.143750e+09  -1.105574e-01 9.345739e-01 
4.162500e+09  -1.061635e-01 9.351765e-01 
4.181250e+09  -1.017810e-01 9.357574e-01 
4.200000e+09  -9.741012e-02 9.363168e-01 
4.218750e+09  -9.305083e-02 9.368549e-01 
4.237500e+09  -8.870321e-02 9.373719e-01 
4.256250e+09  -8.436732e-02 9.378679e-01 
4.275000e+09  -8.004322e-02 9.383431e-01 
4.293750e+09  -7.573097e-02 9.387977e-01 
4.312500e+09  -7.143062e-02 9.392319e-01 
4.331250e+09  -6.714221e-02 9.396458e-01 
4.350000e+09  -6.286581e-02 9.400397e-01 
4.368750e+09  -5.860145e-02 9.404137e-01 
4.387500e+09  -5.434919e-02 9.407679e-01 
4.406250e+09  -5.010908e-02 9.411026e-01 
4.425000e+09  -4.588115e-02 9.414179e-01 
4.443750e+09  -4.166545e-02 9.417139e-01 
4.462500e+09  -3.746203e-02 9.419910e-01 
4.481250e+09  -3.327091e-02 9.422491e-01 
4.500000e+09  -2.909215e-02 9.424885e-01 
4.518750e+09  -2.492578e-02 9.427094e-01 
4.537500e+09  -2.077182e-02 9.429119e-01 
4.556250e+09  -1.663033e-02 9.430962e-01 
4.575000e+09  -1.250133e-02 9.432624e-01 
4.593750e+09  -8.384848e-03 9.434108e-01 
4.612500e+09  -4.280924e-03 9.435414e-01 
4.631250e+09  -1.895837e-04 9.436544e-01 
4.650000e+09  3.889144e-03 9.437500e-01 
4.668750e+09  7.955232e-03 9.438283e-01 
4.687500e+09  1.200865e-02 9.438896e-01 
4.706250e+09  1.604939e-02 9.439339e-01 
4.725000e+09  2.007741e-02 9.439614e-01 
4.743750e+09  2.409269e-02 9.439723e-01 
4.762500e+09  2.809521e-02 9.439667e-01 
4.781250e+09  3.208496e-02 9.439448e-01 
4.800000e+09  3.606191e-02 9.439067e-01 
4.818750e+09  4.002604e-02 9.438526e-01 
4.837500e+09  4.397734e-02 9.437826e-01 
4.856250e+09  4.791579e-02 9.436968e-01 
4.875000e+09  5.184138e-02 9.435955e-01 
4.893750e+09  5.575409e-02 9.434787e-01 
4.912500e+09  5.965391e-02 9.433467e-01 
4.931250e+09  6.354082e-02 9.431995e-01 
4.950000e+09  6.741483e-02 9.430373e-01 
4.968750e+09  7.127590e-02 9.428602e-01 
4.987500e+09  7.512404e-02 9.426684e-01 
5.006250e+09  7.895924e-02 9.424620e-01 
5.025000e+09  8.278149e-02 9.422412e-01 
5.043750e+09  8.659078e-02 9.420061e-01 
5.062500e+09  9.038710e-02 9.417568e-01 
5.081250e+09  9.417046e-02 9.414935e-01 
5.100000e+09  9.794085e-02 9.412163e-01 
5.118750e+09  1.016983e-01 9.409254e-01 
5.137500e+09  1.054427e-01 9.406208e-01 
5.156250e+09  1.091741e-01 9.403028e-01 
5.175000e+09  1.128926e-01 9.399714e-01 
5.193750e+09  1.165981e-01 9.396267e-01 
5.212500e+09  1.202906e-01 9.392690e-01 
5.231250e+09  1.239701e-01 9.388983e-01 
5.250000e+09  1.276367e-01 9.385148e-01 
5.268750e+09  1.312903e-01 9.381186e-01 
5.287500e+09  1.349309e-01 9.377098e-01 
5.306250e+09  1.385585e-01 9.372885e-01 
5.325000e+09  1.421732e-01 9.368549e-01 
5.343750e+09  1.457749e-01 9.364092e-01 
5.362500e+09  1.493636e-01 9.359513e-01 
5.381250e+09  1.529395e-01 9.354815e-01 
5.400000e+09  1.565023e-01 9.349999e-01 
5.418750e+09  1.600523e-01 9.345065e-01 
5.437500e+09  1.635893e-01 9.340016e-01 
5.456250e+09  1.671135e-01 9.334852e-01 
5.475000e+09  1.706247e-01 9.329574e-01 
5.493750e+09  1.741230e-01 9.324184e-01 
5.512500e+09  1.776085e-01 9.318683e-01 
5.531250e+09  1.810811e-01 9.313072e-01 
5.550000e+09  1.845408e-01 9.307352e-01 
5.568750e+09  1.879877e-01 9.301525e-01 
5.587500e+09  1.914218e-01 9.295591e-01 
5.606250e+09  1.948430e-01 9.289551e-01 
5.625000e+09  1.982515e-01 9.283408e-01 
5.643750e+09  2.016471e-01 9.277161e-01 
5.662500e+09  2.050300e-01 9.270812e-01 
5.681250e+09  2.084002e-01 9.264362e-01 
5.700000e+09  2.117576e-01 9.257812e-01 
5.718750e+09  2.151023e-01 9.251164e-01 
5.737500e+09  2.184343e-01 9.244418e-01 
5.756250e+09  2.217536e-01 9.237575e-01 
5.775000e+09  2.250603e-01 9.230636e-01 
5.793750e+09  2.283543e-01 9.223603e-01 
5.812500e+09  2.316356e-01 9.216477e-01 
5.831250e+09  2.349044e-01 9.209258e-01 
5.850000e+09  2.381606e-01 9.201948e-01 
5.868750e+09  2.414042e-01 9.194548e-01 
5.887500e+09  2.446353e-01 9.187058e-01 
5.906250e+09  2.478539e-01 9.179480e-01 
5.925000e+09  2.510600e-01 9.171814e-01 
5.943750e+09  2.542536e-01 9.164063e-01 
5.962500e+09  2.574347e-01 9.156225e-01 
5.981250e+09  2.606035e-01 9.148304e-01 
6.000000e+09  2.637598e-01 9.140299e-01 
6.018750e+09  2.669037e-01 9.132212e-01 
6.037500e+09  2.700353e-01 9.124043e-01 
6.056250e+09  2.731546e-01 9.115794e-01 
6.075000e+09  2.762615e-01 9.107465e-01 
6.093750e+09  2.793562e-01 9.099057e-01 
6.112500e+09  2.824386e-01 9.090572e-01 
6.131250e+09  2.855088e-01 9.082010e-01 
6.150000e+09  2.885669e-01 9.073373e-01 
6.168750e+09  2.916127e-01 9.064660e-01 
6.187500e+09  2.946464e-01 9.055873e-01 
6.206250e+09  2.976680e-01 9.047013e-01 
6.225000e+09  3.006775e-01 9.038081e-01 
6.243750e+09  3.036749e-01 9.029077e-01 
6.262500e+09  3.066603e-01 9.020003e-01 
6.281250e+09  3.096337e-01 9.010859e-01 
6.300000e+09  3.125952e-01 9.001647e-01 
6.318750e+09  3.155447e-01 8.992366e-01 
6.337500e+09  3.184822e-01 8.983019e-01 
6.356250e+09  3.214080e-01 8.973605e-01 
6.375000e+09  3.243218e-01 8.964126e-01 
6.393750e+09  3.272239e-01 8.954582e-01 
6.412500e+09  3.301141e-01 8.944974e-01 
6.431250e+09  3.329926e-01 8.935304e-01 
6.450000e+09  3.358594e-01 8.925571e-01 
6.468750e+09  3.387145e-01 8.915777e-01 
6.487500e+09  3.415580e-01 8.905922e-01 
6.506250e+09  3.443898e-01 8.896008e-01 
6.525000e+09  3.472100e-01 8.886035e-01 
6.543750e+09  3.500187e-01 8.876003e-01 
6.562500e+09  3.528158e-01 8.865914e-01 
6.581250e+09  3.556014e-01 8.855768e-01 
6.600000e+09  3.583756e-01 8.845567e-01 
6.618750e+09  3.611384e-01 8.835310e-01 
6.637500e+09  3.638898e-01 8.824999e-01 
6.656250e+09  3.666298e-01 8.814634e-01 
6.675000e+09  3.693585e-01 8.804216e-01 
6.693750e+09  3.720759e-01 8.793745e-01 
6.712500e+09  3.747820e-01 8.783223e-01 
6.731250e+09  3.774770e-01 8.772651e-01 
6.750000e+09  3.801607e-01 8.762028e-01 
6.768750e+09  3.828333e-01 8.751356e-01 
6.787500e+09  3.854948e-01 8.740635e-01 
6.806250e+09  3.881452e-01 8.729866e-01 
6.825000e+09  3.907846e-01 8.719049e-01 
6.843750e+09  3.934130e-01 8.708186e-01 
6.862500e+09  3.960304e-01 8.697277e-01 
6.881250e+09  3.986369e-01 8.686322e-01 
6.900000e+09  4.012325e-01 8.675323e-01 
6.918750e+09  4.038172e-01 8.664280e-01 
6.937500e+09  4.063912e-01 8.653193e-01 
6.956250e+09  4.089543e-01 8.642063e-01 
6.975000e+09  4.115067e-01 8.630891e-01 
6.993750e+09  4.140484e-01 8.619678e-01 
7.012500e+09  4.165794e-01 8.608423e-01 
7.031250e+09  4.190997e-01 8.597128e-01 
7.050000e+09  4.216095e-01 8.585794e-01 
7.068750e+09  4.241087e-01 8.574420e-01 
7.087500e+09  4.265974e-01 8.563008e-01 
7.106250e+09  4.290756e-01 8.551558e-01 
7.125000e+09  4.315434e-01 8.540071e-01 
7.143750e+09  4.340008e-01 8.528546e-01 
7.162500e+09  4.364477e-01 8.516986e-01 
7.181250e+09  4.388844e-01 8.505390e-01 
7.200000e+09  4.413108e-01 8.493759e-01 
7.218750e+09  4.437269e-01 8.482093e-01 
7.237500e+09  4.461328e-01 8.470393e-01 
7.256250e+09  4.485285e-01 8.458660e-01 
7.275000e+09  4.509140e-01 8.446894e-01 
7.293750e+09  4.532895e-01 8.435096e-01 
7.312500e+09  4.556549e-01 8.423265e-01 
7.331250e+09  4.580103e-01 8.411404e-01 
7.350000e+09  4.603557e-01 8.399512e-01 
7.368750e+09  4.626911e-01 8.387589e-01 
7.387500e+09  4.650166e-01 8.375636e-01 
7.406250e+09  4.673323e-01 8.363655e-01 
7.425000e+09  4.696381e-01 8.351644e-01 
7.443750e+09  4.719342e-01 8.339605e-01 
7.462500e+09  4.742204e-01 8.327539e-01 
7.481250e+09  4.764970e-01 8.315445e-01 
7.500000e+09  4.787639e-01 8.303324e-01 
7.518750e+09  4.810211e-01 8.291177e-01 
7.537500e+09  4.832688e-01 8.279004e-01 
7.556250e+09  4.855069e-01 8.266805e-01 
7.575000e+09  4.877354e-01 8.254582e-01 
7.593750e+09  4.899545e-01 8.242334e-01 
7.612500e+09  4.921641e-01 8.230061e-01 
7.631250e+09  4.943643e-01 8.217765e-01 
7.650000e+09  4.965552e-01 8.205446e-01 
7.668750e+09  4.987367e-01 8.193104e-01 
7.687500e+09  5.009089e-01 8.180740e-01 
7.706250e+09  5.030719e-01 8.168354e-01 
7.725000e+09  5.052256e-01 8.155946e-01 
7.743750e+09  5.073702e-01 8.143517e-01 
7.762500e+09  5.095057e-01 8.131067e-01 
7.781250e+09  5.116320e-01 8.118597e-01 
7.800000e+09  5.137493e-01 8.106107e-01 
7.818750e+09  5.158575e-01 8.093597e-01 
7.837500e+09  5.179568e-01 8.081069e-01 
7.856250e+09  5.200471e-01 8.068521e-01 
7.875000e+09  5.221285e-01 8.055956e-01 
7.893750e+09  5.242011e-01 8.043372e-01 
7.912500e+09  5.262648e-01 8.030770e-01 
7.931250e+09  5.283197e-01 8.018152e-01 
7.950000e+09  5.303658e-01 8.005516e-01 
7.968750e+09  5.324032e-01 7.992864e-01 
7.987500e+09  5.344320e-01 7.980196e-01 
8.006250e+09  5.364521e-01 7.967511e-01 
8.025000e+09  5.384636e-01 7.954812e-01 
8.043750e+09  5.404665e-01 7.942097e-01 
8.062500e+09  5.424609e-01 7.929367e-01 
8.081250e+09  5.444467e-01 7.916623e-01 
8.100000e+09  5.464242e-01 7.903865e-01 
8.118750e+09  5.483932e-01 7.891093e-01 
8.137500e+09  5.503538e-01 7.878307e-01 
8.156250e+09  5.523061e-01 7.865508e-01 
8.175000e+09  5.542500e-01 7.852697e-01 
8.193750e+09  5.561857e-01 7.839872e-01 
8.212500e+09  5.581131e-01 7.827036e-01 
8.231250e+09  5.600324e-01 7.814188e-01 
8.250000e+09  5.619434e-01 7.801327e-01 
8.268750e+09  5.638464e-01 7.788456e-01 
8.287500e+09  5.657412e-01 7.775573e-01 
8.306250e+09  5.676280e-01 7.762680e-01 
8.325000e+09  5.695068e-01 7.749776e-01 
8.343750e+09  5.713776e-01 7.736862e-01 
8.362500e+09  5.732404e-01 7.723938e-01 
8.381250e+09  5.750953e-01 7.711004e-01 
8.400000e+09  5.769423e-01 7.698061e-01 
8.418750e+09  5.787815e-01 7.685109e-01 
8.437500e+09  5.806129e-01 7.672148e-01 
8.456250e+09  5.824365e-01 7.659179e-01 
8.475000e+09  5.842523e-01 7.646200e-01 
8.493750e+09  5.860605e-01 7.633214e-01 
8.512500e+09  5.878610e-01 7.620220e-01 
8.531250e+09  5.896538e-01 7.607219e-01 
8.550000e+09  5.914391e-01 7.594210e-01 
8.568750e+09  5.932167e-01 7.581194e-01 
8.587500e+09  5.949869e-01 7.568171e-01 
8.606250e+09  5.967495e-01 7.555141e-01 
8.625000e+09  5.985047e-01 7.542105e-01 
8.643750e+09  6.002524e-01 7.529063e-01 
8.662500e+09  6.019928e-01 7.516015e-01 
8.681250e+09  6.037258e-01 7.502961e-01 
8.700000e+09  6.054514e-01 7.489902e-01 
8.718750e+09  6.071698e-01 7.476837e-01 
8.737500e+09  6.088808e-01 7.463767e-01 
8.756250e+09  6.105847e-01 7.450693e-01 
8.775000e+09  6.122813e-01 7.437613e-01 
