#   Hz   S  RI   R   50
!
0.0 0.01804535247144849 0.0 0.9824251569220297 0.0 0.9824256230938211 0.0 0.018045498323167975 0.0
220000000.0 0.01812730656407011 0.0006823968261232993 0.9822990089934882 -0.008708060313830663 0.9822994701757752 -0.0087081062491304 0.018127448138742456 0.0006823552427102768
440000000.0 0.018366210073408818 0.001321977890849808 0.9819315030913551 -0.01735778501728026 0.9819319498738339 -0.017357873814765615 0.018366339155934257 0.001321896983851307
660000000.0 0.01874227143255307 0.0018809334036145508 0.9813534369313642 -0.02589956972909215 0.9813538615126132 -0.02589969568036517 0.01874238078465521 0.0018808174780046729
880000000.0 0.01922583275223702 0.002330464265213378 0.9806099639618583 -0.034299370610991545 0.9806103609235869 -0.03429952615821791 0.019225916639231955 0.0023303192755133777
1100000000.0 0.019781476031766436 0.00265311609966445 0.9797530081353147 -0.04254234948076836 0.9797533748482441 -0.0425425262007322 0.01978153059159396 0.002652949130008609
1320000000.0 0.020372364745883702 0.002843273110245446 0.9788333280866439 -0.05063299014088192 0.9788336647258974 -0.05063317976197217 0.020372388182975865 0.002843091793071605
1540000000.0 0.020964056490262596 0.002906090967212794 0.9778937243892671 -0.058592193625291084 0.9778940336046531 -0.05859238893594122 0.020964049100906802 0.0029059028954037235
1760000000.0 0.021527339465532497 0.002855396387593932 0.9769643148431923 -0.06645235435465896 0.9769646011695082 -0.06645254990645572 0.021527303514346313 0.0028552085594487913
1980000000.0 0.022039976012272762 0.0027111061149346074 0.9760601983068545 -0.07425151487025955 0.9760604674112582 -0.07425170742489882 0.022039915481144125 0.0027109244368456395
2200000000.0 0.02248746621735822 0.002496592641446104 0.9751813876894501 -0.08202752769967607 0.9751816455470831 -0.08202771640390238 0.02248738644317632 0.002496421505357045
2420000000.0 0.022863040493071675 0.0022362506035608397 0.9743146661168721 -0.08981289999297465 0.9743149181941567 -0.08981308628715826 0.022862947705091678 0.002236092556910524
2640000000.0 0.023167080648414023 0.001953375527451956 0.9734369434409188 -0.09763078742759276 0.9734371939568413 -0.09763097470628145 0.023166981415905133 0.001953231060168121
2860000000.0 0.023406109324232708 0.0016683919012843058 0.9725196616880453 -0.10549247588839113 0.9725199130194505 -0.10549266894251921 0.023406009933600435 0.0016682593824725032
3080000000.0 0.023591430558676556 0.0013974583520872145 0.9715337412691432 -0.11339660420083972 0.9715339935632644 -0.11339680848718126 0.023591336356542106 0.001397334151899815
3300000000.0 0.023737484744395992 0.0011515067234681988 0.9704544582885148 -0.12133026483066672 0.9704547093377557 -0.1213304856362237 0.02373739950529605 0.0011513855473098901
3520000000.0 0.02386000997880968 0.00093580063290585 0.9692655460044598 -0.12927191079864286 0.9692657914181966 -0.12927215239170675 0.02385993537570197 0.000935676072459903
3740000000.0 0.023974163886703037 0.0007500922126665891 0.9679618106763979 -0.13719569069308576 0.9679620443495813 -0.13719595556979572 0.023974099150213105 0.0007499574830898175
3960000000.0 0.024092820567206054 0.000589395269384285 0.9665497253467857 -0.14507650033097072 0.9665499401797433 -0.1450767886662136 0.02409276240821267 0.0005892440621445697
4180000000.0 0.02422527623921828 0.00044528889645713043 0.9650458300853927 -0.15289480582637058 0.9650460188644854 -0.15289511521481475 0.024225219077325385 0.0004451162443849745
4400000000.0 0.024376549418269368 0.00030755383617764016 0.963473242494969 -0.16064027910640372 0.9634733988133556 -0.1606406046356118 0.02437648591200546 0.0003073568726234433
4620000000.0 0.024547352690410532 0.00016587054495378385 0.9618570144974713 -0.16831353559067658 0.9618571335891586 -0.16831387023443029 0.02454727451558182 0.00016564904818337176
4840000000.0 0.024734678842929007 1.1304394970986387e-05 0.9602193098611124 -0.1759257049938559 0.9602193892410428 -0.1759260402648847 0.024734577626436542 1.1061039538667843e-05
5060000000.0 0.024932831141548668 -0.0001626299229470314 0.958575351436842 -0.18349605040454292 0.9585753912771089 -0.18349637717393338 0.024932699437608345 -0.00016288964342778286
5280000000.0 0.02513466989091265 -0.0003594247033829426 0.9569308368872538 -0.19104822656886983 0.9569308401021439 -0.19104853594900312 0.025134502086158618 -0.0003596928742428185
5500000000.0 0.02533285192757526 -0.0005795466410003794 0.955281160042118 -0.19860595243842483 0.9552811320913117 -0.1986062366336678 0.025332644975986716 -0.0005798136016953621
5720000000.0 0.02552088895092261 -0.000820825444612851 0.9536124213776758 -0.20618887017954712 0.9536123698220541 -0.20618912322582494 0.025520642861651042 -0.0008210806723101226
5940000000.0 0.025693917307378872 -0.0010791335022636295 0.9519039385770923 -0.2138092346876195 0.9519038724360178 -0.2138094530204024 0.025693635332843197 -0.0010793666188266635
6160000000.0 0.025849133571545373 -0.0013492196944834885 0.9501317916824185 -0.22146989336087422 0.9501317206496467 -0.22147007616668576 0.02584882206781877 -0.0013494215011707472
6380000000.0 0.025985896727876975 -0.0016255727664583278 0.9482728366968383 -0.22916381718737652 0.948272770279398 -0.22916396650693718 0.025985564685823137 -0.0016257362036291956
6600000000.0 0.026105529771571764 -0.001903208441648514 0.9463085746049925 -0.23687523957760248 0.9463085212578818 -0.23687536014279087 0.026105188047755204 -0.0019033293686331657
6820000000.0 0.02621087723062559 -0.002178293992473862 0.9442282683759741 -0.24458224189051717 0.9442282347138041 -0.24458234069648568 0.026210537542081795 -0.0021783716896969186
7040000000.0 0.026305695535648804 -0.002448545361140251 0.9420307791492981 -0.2522603976974545 0.9420307693193043 -0.2522604833374866 0.02630536931865098 -0.0024485826775204776
7260000000.0 0.026393970490616356 -0.002713359232874801 0.9397247682050559 -0.2598868826402088 0.9397247834983316 -0.25988696446184395 0.026393667753036074 -0.0027133623389453197
7480000000.0 0.026479265444740215 -0.0029736778922686254 0.9373271834631971 -0.26744432946269026 0.9373272222188537 -0.26744441663281804 0.026478993755120608 -0.0029736556506665675
7700000000.0 0.026564198485536965 -0.003231625116417941 0.9348602760832668 -0.2749237158914456 0.934860333904698 -0.2749238164769731 0.02656396223228774 -0.0032315881377867318
7920000000.0 0.02665012343023669 -0.0034899883226501885 0.932347694838066 -0.2823257420189638 0.9323477650979858 -0.2823258621914533 0.026649923449950996 -0.0034899478242075535
8140000000.0 0.02673705040285765 -0.0037516454504970607 0.929810395960042 -0.2896604549615017 0.9298104705313311 -0.28966059841699715 0.026736884023486694 -0.0037516120647479753
8360000000.0 0.02682379648030557 -0.004019037672979614 0.9272631278822663 -0.296945233729294 0.9272631980038974 -0.2969454013825394 0.026823657964333548 -0.004019020358572697
8580000000.0 0.02690831696921526 -0.0042937708842723035 0.924712103949954 -0.3042015605663734 0.9247121611263341 -0.3042017505400674 0.026908198286965373 -0.0042937760703218985
8800000000.0 0.02698814254214155 -0.004576396575166906 0.9221542149001165 -0.31145120248250685 0.9221542517373862 -0.3114514103759644 0.026988034365786128 -0.004576427631345369
9020000000.0 0.027060840096560502 -0.004866386022795329 0.9195778344506991 -0.3187124809182866 0.9195778453499455 -0.3187127003118093 0.027060732885617236 -0.0048664430998594035
9240000000.0 0.027124423326153693 -0.005162279432258001 0.9169650042250278 -0.32599723622710686 0.9169649858739932 -0.32599745936029245 0.027124308374207068 -0.005162359670317095
9460000000.0 0.02717765688107631 -0.005461968641053179 0.9142945874733304 -0.33330893875883777 0.9142945391004029 -0.3333091573112834 0.027177527207083073 -0.005462066701589167
9680000000.0 0.027220219873452554 -0.005763059014457031 0.9115458643004049 -0.34064220143772583 0.9115457876757537 -0.34064240733626855 0.027220070864826994 -0.005763167859402452
9900000000.0 0.02725271656674069 -0.006063251614273708 0.9087019986511723 -0.34798373783908443 0.9087018978404813 -0.34798392401495204 0.027252546312217827 -0.006063363431991814
10120000000.0 0.027276542752027507 -0.0063606887226710885 0.9057528332630187 -0.35531460052815045 0.9057527141606561 -0.3553147615503896 0.027276352038119022 -0.006360795886986522
10340000000.0 0.027293634972319653 -0.006654213424064105 0.9026965635586977 -0.36261334071442136 0.9026964332495401 -0.36261347323474596 0.027293426956320532 -0.006654309369921627
10560000000.0 0.027306145443598273 -0.006943507162087433 0.8995400065462489 -0.3698595743438315 0.8995398725665863 -0.36985967730499986 0.027305925055593358 -0.006943587071890384
10780000000.0 0.027316096192638233 -0.0072290877803046095 0.8962974067295657 -0.37703735349777906 0.8962972763131963 -0.3770374280835276 0.027315869354051746 -0.007229148999587564
11000000000.0 0.027325068913244925 -0.007512172880471799 0.8929879773009743 -0.3841377567435851 0.8929878567017936 -0.3841378060807926 0.027324841684028392 -0.007512215018905653
11220000000.0 0.027333980406214837 -0.007794435824148661 0.8896326106047073 -0.3911602417885966 0.8896325045783593 -0.3911602704463735 0.027333758181293345 -0.007794460543172708
11440000000.0 0.027342977485399822 -0.008077699611430785 0.8862503498341268 -0.3981125313962165 0.8862502613386904 -0.3981125447550782 0.027342764350644515 -0.008077710145474964
11660000000.0 0.02735146295004806 -0.008363622957809203 0.8828552522341446 -0.40500908053557855 0.8828551823772066 -0.4050090841166282 0.027351261280166128 -0.008363623453640653
11880000000.0 0.027358240684669806 -0.00865343117248417 0.8794541835707091 -0.4118684340404966 0.8794541317940671 -0.4118684328864984 0.027358051025409804 -0.008653425953924525
12100000000.0 0.02736174840831406 -0.008947732971745424 0.8760458913553203 -0.4187099709767288 0.8760458558158112 -0.41870996916469044 0.027361569641041753 -0.008947725841649696
12320000000.0 0.027360334710686992 -0.009246446647849352 0.8726214613528418 -0.42555061136824945 0.8726214394335112 -0.42555061171031144 0.027360164456567918 -0.009246440326659913
12540000000.0 0.027352533915058132 -0.00954883949207006 0.8691660231800714 -0.43240203147621936 0.869166012052491 -0.43240203543710765 0.02735236910472135 -0.009548835266374234
12760000000.0 0.027337296880950226 -0.009853666823098805 0.865661378027882 -0.43926881810133417 0.8656613751839195 -0.4392688259308832 0.027337134396858247 -0.00985366444377623
12980000000.0 0.027314145804662963 -0.010159383663438087 0.8620890965163074 -0.44614782288387794 0.8620891001947516 -0.446147833935359 0.02731398309823989 -0.01015938149641325
13200000000.0 0.027283234036079105 -0.010464393833933595 0.8584335828990529 -0.4530287846661488 0.8584335923477253 -0.45302879784756894 0.027283069629172426 -0.010464389231674988
13420000000.0 0.027245306101942538 -0.010767297961736708 0.8546846205549483 -0.4598960953613423 0.8546846360909319 -0.4598961096492133 0.027245139900800897 -0.010767287793992913
13640000000.0 0.0272015672186601 -0.0110671034038604 0.8508389980280942 -0.46673141187211564 0.8508390208859709 -0.46673142680741975 0.02720140059614118 -0.011067084664760668
13860000000.0 0.02715348439038302 -0.011363365243716027 0.8469009579503362 -0.4735166832042388 0.8469009899384816 -0.473516699290428 0.027153320025684925 -0.011363335641905984
14080000000.0 0.027102551237020624 -0.01165623803641773 0.8428813996475988 -0.48023708968089973 0.8428814426619979 -0.4802371086152489 0.027102392737885003 -0.011656196477352759
14300000000.0 0.027050054248006664 -0.011946431929882286 0.8387959753640178 -0.48688339926076374 0.8387960308329946 -0.4868834239529977 0.02704990561307953 -0.01194637881526129
14520000000.0 0.026996877734993045 -0.012235082252992574 0.8346624136427891 -0.4934533423766801 0.8346624819898317 -0.4934533767399332 0.02699674273855965 -0.012235019549929536
14740000000.0 0.026943377873532317 -0.012523555877031179 0.8304975410751528 -0.4999517801714506 0.8304976212874479 -0.49995182870539756 0.026943259466707767 -0.012523486944851022
14960000000.0 0.02688934389817241 -0.01281322771234625 0.8263145232432197 -0.5063896593052418 0.8263146126200793 -0.5063897265236377 0.026889243717626545 -0.012813156911969275
15180000000.0 0.02683404920585915 -0.013105264493560193 0.8221207952178825 -0.5127819637817156 0.8221208893483462 -0.5127820535610413 0.026833967263905145 -0.013105196636968243
15400000000.0 0.02677638003868144 -0.013400449961969041 0.8179170143938932 -0.5191450446810864 0.817917107380943 -0.5191451596198617 0.02677631464054047 -0.013400389681962584
15620000000.0 0.026715017520406094 -0.013699076768151313 0.813697176982611 -0.5254938003278204 0.8136972618979038 -0.5254939412063472 0.026714965420787804 -0.0136990278984969
15840000000.0 0.02664864199710235 -0.01400091815219892 0.8094498359616041 -0.5318391816746405 0.8094499054839636 -0.5318393470935554 0.02664859877444949 -0.01400088320488106
16060000000.0 0.0265761273800876 -0.014305279308880316 0.8051601805018367 -0.5381864202342684 0.8051602276682586 -0.5381866064896333 0.02657608797763464 -0.014305259120210254
16280000000.0 0.026496696863115878 -0.014611116502741623 0.8008126106182032 -0.5445342412447599 0.8008126295998077 -0.5445344424702029 0.026496656224574876 -0.014611110096463596
16500000000.0 0.02641001872824623 -0.014917202899302415 0.7963933782766227 -0.5508751594842769 0.7963933650850964 -0.5508753680594298 0.02640997244434151 -0.014917207585996961
16720000000.0 0.02631623059330849 -0.015222314454166276 0.7918928693870836 -0.5571967840629473 0.7918928224206938 -0.5571969912548127 0.02631617547432983 -0.015222326155608238
16940000000.0 0.026215891134573264 -0.015525407340761051 0.7873071656945153 -0.5634839030854856 0.7873070860473359 -0.5634840998584937 0.026215825633497714 -0.015525421098751177
17160000000.0 0.02610986887422672 -0.015825760363770786 0.7826386428341509 -0.56972099844986 0.7826385343175011 -0.5697211763551273 0.026109793303947262 -0.015825770968658063
17380000000.0 0.025999186835454404 -0.016123061454481346 0.7778955167600637 -0.5758947726423189 0.7778953856194191 -0.5758949246812706 0.025999103350326555 -0.016123064112280542
17600000000.0 0.025884848432794087 -0.01641742615101464 0.7730904243539408 -0.5819962668563868 0.7730902787037305 -0.5819963882120841 0.025884760775944787 -0.016417417102302715
17820000000.0 0.025767672677403885 -0.016709346827447624 0.7682382874276898 -0.5880222183946483 0.7682381364646149 -0.5880223069376541 0.0257675857268169 -0.016709323837496088
18040000000.0 0.025648164905943134 -0.016999582650726663 0.7633538320572704 -0.5939754373032213 0.7633536851436021 -0.5939754938065205 0.025648084079461363 -0.016999545308121842
18260000000.0 0.025526442903803608 -0.017289009790323006 0.7584491917011481 -0.5998641550820907 0.7584490574273727 -0.5998641831172851 0.025526373501516895 -0.017288959578077193
18480000000.0 0.025402228593835494 -0.017578457448941865 0.7535320003506922 -0.6057004787449406 0.7535318856889107 -0.6057004842734129 0.02540217516300015 -0.017578397583527163
18700000000.0 0.02527490428481537 -0.0178685567140593 0.7486042861272172 -0.6114982355966794 0.7486041957730967 -0.6114982263077835 0.025274870086759438 -0.017868491778803067
18920000000.0 0.025143621979098994 -0.01815962597757917 0.7436623277107465 -0.6172705892242738 0.7436622636857031 -0.6172705737022899 0.025143608621077094 -0.01815956140270544
19140000000.0 0.025007446279496474 -0.018451609653023376 0.7386974668966532 -0.6230278309709901 0.7386974284481753 -0.623027817790107 0.02500745355038449 -0.018451551111875065
19360000000.0 0.024865507144074765 -0.018744077688666403 0.7336977124137581 -0.6287757051561733 0.7336976962155016 -0.6287757020071828 0.02486553306521119 -0.01874403048666716
19580000000.0 0.024717138412371244 -0.019036283641732606 0.7286498484024089 -0.6345145247317008 0.7286498490215004 -0.6345145376763174 0.02471717948772407 -0.019036252171525915
19800000000.0 0.024561981285053325 -0.019327270330036943 0.7235416911574559 -0.6402391979982777 0.7235417017275964 -0.6402392309290346 0.02456203291145791 -0.019327257654336894
20020000000.0 0.024400037990934247 -0.019616005399198656 0.7183641256497076 -0.6459401390433803 0.7183641386676775 -0.6459401934013476 0.024400094971828604 -0.01961601300433813
20240000000.0 0.02423166875145628 -0.01990152522839049 0.7131125970778617 -0.6516048957651907 0.7131126052295691 -0.6516049705370258 0.02423172584779806 -0.019901552968847085
20460000000.0 0.024057533811552734 -0.020183064823206795 0.7077878246567321 -0.657220218210557 0.7077878215781682 -0.6572203101936241 0.024057586262185435 -0.020183111053205485
20680000000.0 0.02387849064272829 -0.020460153807253665 0.7023956322996416 -0.6627742220182816 0.7023956131884808 -0.6627743263113185 0.023878534593346958 -0.020460215672648368
20900000000.0 0.023695463283114126 -0.020732664082974313 0.6969459358820388 -0.6682582883215497 0.6969458978963241 -0.6682583989724598 0.023695496077320063 -0.020732737927744528
21120000000.0 0.023509305057643436 -0.021000802507142077 0.6914510669162274 -0.6736683870080472 0.6914510093253371 -0.6736684977335676 0.023509325363552103 -0.0210008843364383
21340000000.0 0.023320676791498317 -0.021265050863248747 0.6859237234738756 -0.6790056095908841 0.6859236475597842 -0.6790057144777711 0.023320684560256683 -0.02126513680070317
21560000000.0 0.023129959802885153 -0.021526064006673163 0.6803748999650365 -0.6842758350861345 0.680374808703953 -0.6842759291909897 0.023129956077993577 -0.02152615068820976
21780000000.0 0.02293721686376863 -0.02178454375079373 0.6748121456018634 -0.689488602364599 0.6748120431825984 -0.6894886821480958 0.022937203478890448 -0.02178462860958955
22000000000.0 0.022742206066851914 -0.022041109624976858 0.6692384374443833 -0.6946553970562672 0.6692383286965617 -0.6946554606139823 0.022742185282183705 -0.022041191040360193
22220000000.0 0.022544443692225174 -0.02229618748937857 0.6636518412876766 -0.6997876552516324 0.6636517310981707 -0.6997877023333011 0.022544417823899644 -0.02229626479324781
22440000000.0 0.0223433043390891 -0.022549933329741402 0.6580459951666411 -0.7048948243413502 0.658045887956627 -0.7048948561784529 0.022343275432452653 -0.022550006684216847
22660000000.0 0.02213814106609373 -0.022802203232919965 0.6524113121374324 -0.7099827999302082 0.6524112114572972 -0.7099828189144254 0.022138110653186 -0.022802273409508814
22880000000.0 0.021928405803476846 -0.023052572803195892 0.6467366847147085 -0.7150529847217307 0.6467365929927918 -0.7150529939914465 0.021928374769811694 -0.023052640904699304
23100000000.0 0.02171375100358882 -0.023300401438867795 0.641011399549087 -0.7201021062536508 0.6410113180064888 -0.7201021092513051 0.021713719571945154 -0.02330046860959654
23320000000.0 0.021494097039323846 -0.0235449301069919 0.6352269460528877 -0.7251228045836038 0.6352268747736163 -0.7251228046435242 0.021494064861216546 -0.023544997274626375
23540000000.0 0.02126965557114837 -0.023785396415279218 0.6293784275623955 -0.7301048778654772 0.6293783656888126 -0.7301048778811463 0.021269621902198634 -0.02378546409972371
23760000000.0 0.021040906115836092 -0.02402114846648505 0.623465352837998 -0.7350369707733377 0.6234652988479666 -0.7350369729768271 0.021040870041062042 -0.02402121667880593
23980000000.0 0.02080853037937294 -0.024251739472159542 0.6174916886309227 -0.7399084224956278 0.6174916406466516 -0.7399084283626379 0.020808491049573444 -0.02425180771199452
24200000000.0 0.02057331551837709 -0.024476988351470615 0.6114651755628298 -0.7447109679630153 0.6114651316425763 -0.7447109782373654 0.020573272359684706 -0.024477055696233898
24420000000.0 0.02033604235397773 -0.02469699712303544 0.6053960310209255 -0.7494400126971817 0.6053959893929555 -0.749440027511513 0.020335995218980423 -0.024697062388918844
