! Created Wed Mar 15 13:51:37 2023
# hz S ma R 50
! 1 Port Network Data from SP1.SP block
! freq  magS11  angS11  
!     
         100000000       0.941337414         177.602954
         200000000       0.941465652         175.191882
         300000000       0.941776494         172.778793
         400000000       0.941764484          170.37155
         500000000       0.941291155         167.968835
         600000000       0.941304665         165.579594
         700000000         0.9408198         163.208279
         800000000       0.940587692         160.858403
         900000000       0.940234243         158.526735
             1e+09       0.940050627         156.213283
           1.1e+09       0.939760668         153.920741
           1.2e+09       0.939450808         151.649817
           1.3e+09        0.93918401         149.405019
           1.4e+09       0.938907078         147.184096
           1.5e+09       0.938826887          144.99109
           1.6e+09        0.93863886         142.816633
           1.7e+09       0.938900198         140.677063
           1.8e+09       0.938718344         138.556093
           1.9e+09       0.938801402          136.46977
             2e+09       0.938889774         134.406637
           2.1e+09       0.939162982           132.3729
           2.2e+09       0.939158937          130.36624
           2.3e+09       0.939383025         128.398457
           2.4e+09       0.939540242         126.454919
           2.5e+09       0.939762162         124.534147
           2.6e+09       0.940160518         122.648932
           2.7e+09       0.940418334         120.798299
           2.8e+09       0.940715213         118.973202
           2.9e+09       0.941086797         117.173648
             3e+09       0.941567154         115.408501
           3.1e+09       0.941956124         113.675665
           3.2e+09       0.942458372         111.973304
           3.3e+09       0.942910908         110.296418
           3.4e+09       0.943318592         108.645977
           3.5e+09       0.943802975         107.028469
           3.6e+09       0.944344297         105.439744
           3.7e+09       0.944894892         103.876678
           3.8e+09       0.945545883         102.345168
           3.9e+09        0.94609748         100.816176
             4e+09       0.946421021         99.3318563
           4.1e+09       0.946851142         97.8767372
           4.2e+09       0.947322693         96.4508072
           4.3e+09       0.947741676         95.0545709
           4.4e+09       0.948183714         93.6807766
           4.5e+09       0.948738858         92.3319225
           4.6e+09       0.949343936         91.0079831
           4.7e+09       0.949928304          89.710641
           4.8e+09       0.950414508         88.4356926
           4.9e+09       0.950905902         87.1833488
             5e+09       0.951398403         85.9554346
           5.1e+09       0.951884687         84.7494406
           5.2e+09        0.95240396         83.5614835
           5.3e+09       0.952919058         82.3919345
           5.4e+09       0.953375711         81.2480195
           5.5e+09       0.953825023         80.1250493
           5.6e+09        0.95430322         79.0211149
           5.7e+09       0.954802356         77.9338904
           5.8e+09       0.955203178         76.8690832
           5.9e+09       0.955566084         75.8249831
             6e+09       0.955847239         74.8041725
           6.1e+09       0.956257914         73.8084066
           6.2e+09       0.956776845         72.8344966
           6.3e+09       0.957309714          71.866975
           6.4e+09       0.957874841         70.9083782
           6.5e+09       0.958370666         69.9707451
           6.6e+09       0.958860826         69.0484123
           6.7e+09       0.959298571         68.1419865
           6.8e+09       0.959730913         67.2486106
           6.9e+09       0.960153372         66.3700874
             7e+09       0.960577797         65.5050288
           7.1e+09        0.96099735          64.655517
           7.2e+09       0.961387062         63.8240264
           7.3e+09       0.961793498         63.0030906
           7.4e+09       0.962120693         62.1984453
           7.5e+09       0.962486573         61.4020696
           7.6e+09       0.962853728         60.6230917
           7.7e+09       0.963250924          59.853271
           7.8e+09       0.963623336         59.0958824
           7.9e+09       0.963972066         58.3505574
             8e+09       0.964348095         57.6132731
           8.1e+09       0.964656092         56.8955232
           8.2e+09       0.964995567         56.1844811
           8.3e+09       0.965303342         55.4864435
           8.4e+09       0.965587188         54.8002622
           8.5e+09       0.965900466         54.1202409
           8.6e+09       0.966212829         53.4537825
           8.7e+09       0.966550294         52.7937155
           8.8e+09       0.966893102         52.1421256
           8.9e+09       0.967197445         51.5043054
             9e+09       0.967526759         50.8718611
           9.1e+09       0.967798329         50.2489941
           9.2e+09       0.968005449         49.6358345
           9.3e+09       0.968237524         49.0275879
           9.4e+09        0.96846245         48.4330673
           9.5e+09       0.968691638          47.848541
           9.6e+09       0.968943656         47.2684914
           9.7e+09       0.969171848         46.7008784
           9.8e+09       0.969399214         46.1413212
           9.9e+09       0.969647492         45.5858562
             1e+10       0.969875946          45.039812
          1.01e+10       0.970100999         44.5007349
          1.02e+10       0.970345428         43.9654424
          1.03e+10       0.970561757         43.4384611
          1.04e+10       0.970749467         42.9196618
          1.05e+10       0.970955703         42.4043471
          1.06e+10       0.971170611         41.8953312
          1.07e+10       0.971376691         41.3976192
          1.08e+10       0.971600105         40.9030972
          1.09e+10       0.971840509         40.4117264
           1.1e+10       0.971993836         39.9322109
          1.11e+10       0.972155244         39.4562927
          1.12e+10       0.972332754         38.9832286
          1.13e+10       0.972504868         38.5181513
          1.14e+10       0.972669659         38.0612816
          1.15e+10       0.972849462         37.6070265
          1.16e+10       0.973044014         37.1553553
          1.17e+10       0.973205402         36.7143367
          1.18e+10       0.973377219           36.27631
          1.19e+10       0.973562688         35.8406531
           1.2e+10       0.973742476         35.4100345
          1.21e+10       0.973883494         34.9889772
          1.22e+10       0.974037456         34.5700761
          1.23e+10       0.974204158         34.1533064
          1.24e+10       0.974361895         33.7423876
          1.25e+10       0.974509554         33.3373656
          1.26e+10       0.974669308         32.9342945
          1.27e+10       0.974840977          32.533152
          1.28e+10       0.974979458         32.1392791
          1.29e+10       0.975098514         31.7508888
           1.3e+10       0.975228941         31.3642406
          1.31e+10       0.975370581         30.9793148
          1.32e+10        0.97549125          30.601132
          1.33e+10       0.975598675         30.2283326
          1.34e+10       0.975716767         29.8570868
          1.35e+10       0.975845391         29.4873775
          1.36e+10       0.975968574         29.1231298
          1.37e+10       0.976079964         28.7657031
          1.38e+10       0.976200881         28.4096769
          1.39e+10        0.97633121         28.0550357
           1.4e+10       0.976458487         27.7029296
          1.41e+10       0.976521515         27.3590496
          1.42e+10       0.976593654          27.016407
          1.43e+10       0.976674805         26.6749879
          1.44e+10       0.976764868         26.3347789
          1.45e+10       0.976851164         26.0015827
          1.46e+10       0.976941304         25.6716614
          1.47e+10       0.977039819         25.3428424
          1.48e+10       0.977146627         25.0151133
          1.49e+10       0.977251865         24.6898602
           1.5e+10       0.977319282         24.3721491
          1.51e+10       0.977394096         24.0554307
          1.52e+10       0.977476235         23.7396936
          1.53e+10       0.977565629         23.4249266
          1.54e+10       0.977638472         23.1150159
          1.55e+10       0.977692584         22.8102248
          1.56e+10       0.977753612         22.5062975
          1.57e+10       0.977821494         22.2032242
          1.58e+10       0.977896172          21.900995
          1.59e+10       0.977945521         21.6043447
           1.6e+10       0.977982761         21.3112074
          1.61e+10       0.978026241         21.0188314
          1.62e+10       0.978075909         20.7272076
          1.63e+10       0.978131715         20.4363273
          1.64e+10       0.978182267         20.1517675
          1.65e+10       0.978231847         19.8710919
          1.66e+10       0.978286779         19.5910926
          1.67e+10       0.978347021         19.3117617
          1.68e+10       0.978412533         19.0330911
          1.69e+10       0.978467472         18.7580694
           1.7e+10       0.978510336         18.4869031
          1.71e+10       0.978558115         18.2163343
          1.72e+10       0.978610772         17.9463556
          1.73e+10       0.978668274         17.6769597
          1.74e+10       0.978724749         17.4092577
          1.75e+10       0.978755304         17.1478999
          1.76e+10        0.97878982         16.8870765
          1.77e+10       0.978828269         16.6267806
          1.78e+10       0.978870623         16.3670053
          1.79e+10       0.978916855         16.1077438
           1.8e+10       0.978948737         15.8529295
          1.81e+10       0.978975722         15.6004837
          1.82e+10       0.979006539         15.3485009
          1.83e+10       0.979041164         15.0969751
          1.84e+10       0.979079573         14.8459002
          1.85e+10       0.979121748         14.5953874
          1.86e+10       0.979167992         14.3526485
          1.87e+10       0.979217935         14.1103146
          1.88e+10       0.979271555         13.8683803
          1.89e+10       0.979328832         13.6268403
           1.9e+10       0.979389747         13.3856891
          1.91e+10       0.979448669         13.1454831
          1.92e+10       0.979485101         12.9082413
          1.93e+10       0.979524977          12.671345
          1.94e+10       0.979568282          12.434789
          1.95e+10       0.979614999         12.1985682
          1.96e+10       0.979665112         11.9626778
          1.97e+10       0.979708842         11.7285505
          1.98e+10       0.979702168         11.5025674
          1.99e+10       0.979697938         11.2768687
             2e+10        0.97969614         11.0514498
          2.01e+10       0.979696759         10.8263059
          2.02e+10       0.979699781         10.6014326
          2.03e+10       0.979705194         10.3768251
          2.04e+10       0.979729041         10.1568575
          2.05e+10       0.979755377         9.93742112
          2.06e+10       0.979783184         9.71824369
          2.07e+10       0.979812454         9.49932071
          2.08e+10       0.979843177         9.28064768
          2.09e+10       0.979875344         9.06222009
           2.1e+10       0.979902838         8.84702213
          2.11e+10       0.979926821         8.63465965
          2.12e+10       0.979952743         8.42251341
          2.13e+10       0.979980596         8.21057949
          2.14e+10       0.980010371         7.99885402
          2.15e+10       0.980042059         7.78733313
          2.16e+10       0.980075653         7.57601295
          2.17e+10       0.980110747         7.36824129
          2.18e+10       0.980149265         7.16090287
          2.19e+10       0.980191297         6.95371255
           2.2e+10       0.980236837         6.74666748
          2.21e+10       0.980285879         6.53976478
          2.22e+10        0.98033842         6.33300161
          2.23e+10       0.980393034         6.12696877
          2.24e+10       0.980438287         5.92622529
          2.25e+10       0.980486104         5.72560318
          2.26e+10        0.98053648         5.52509949
          2.27e+10       0.980589414         5.32471131
          2.28e+10       0.980644902          5.1244357
          2.29e+10       0.980702943         4.92426974
           2.3e+10       0.980760614         4.72446158
          2.31e+10       0.980780257         4.52818308
          2.32e+10       0.980800944         4.33201216
          2.33e+10       0.980822674         4.13594557
          2.34e+10       0.980845442         3.93998005
          2.35e+10       0.980869247         3.74411237
          2.36e+10       0.980894084         3.54833929
          2.37e+10       0.980919952         3.35265758
          2.38e+10       0.980949013         3.16027776
          2.39e+10       0.980979924         2.96872657
           2.4e+10       0.981012213         2.77725437
          2.41e+10       0.981045877         2.58585824
          2.42e+10       0.981080913         2.39453527
          2.43e+10       0.981117319         2.20328258
          2.44e+10       0.981155092         2.01209724
          2.45e+10       0.981192284         1.82226946
          2.46e+10       0.981227724         1.63516037
          2.47e+10       0.981265909          1.4480794
          2.48e+10       0.981306839          1.2610244
          2.49e+10       0.981350516         1.07399324
           2.5e+10        0.98139694        0.886983761
          2.51e+10       0.981446114        0.699993835
          2.52e+10       0.981498037        0.513021319
          2.53e+10       0.981534592        0.327860304
          2.54e+10       0.981562418        0.143869227
          2.55e+10       0.981593526      -0.0401395238
          2.56e+10       0.981627922       -0.224167708
          2.57e+10       0.981665608       -0.408217084
          2.58e+10       0.981706589       -0.592289411
          2.59e+10       0.981750869       -0.776386448
           2.6e+10       0.981798454       -0.960509955
          2.61e+10       0.981834454        -1.14257079
          2.62e+10       0.981863966         -1.3234624
          2.63e+10       0.981895158        -1.50437262
          2.64e+10       0.981928034        -1.68530373
          2.65e+10       0.981962594          -1.866258
          2.66e+10       0.981998842         -2.0472377
          2.67e+10        0.98203678         -2.2282451
          2.68e+10        0.98207641         -2.4092825
          2.69e+10       0.982105668        -2.58915156
           2.7e+10       0.982118933        -2.76739287
          2.71e+10       0.982132408        -2.94566119
          2.72e+10       0.982146094        -3.12395905
          2.73e+10       0.982159989          -3.302289
          2.74e+10       0.982174095        -3.48065359
          2.75e+10       0.982188412        -3.65905537
          2.76e+10        0.98220294         -3.8374969
          2.77e+10       0.982217679        -4.01598071
          2.78e+10       0.982217667        -4.19256898
          2.79e+10       0.982215696        -4.36908341
           2.8e+10       0.982212619        -4.54564196
          2.81e+10       0.982208434        -4.72224723
          2.82e+10       0.982203139        -4.89890182
          2.83e+10       0.982196731        -5.07560834
          2.84e+10       0.982189211         -5.2523694
          2.85e+10       0.982180574         -5.4291876
          2.86e+10       0.982173403         -5.6052224
          2.87e+10       0.982174457        -5.77793743
          2.88e+10       0.982172697        -5.95071246
          2.89e+10       0.982168122        -6.12354979
           2.9e+10       0.982160727        -6.29645168
          2.91e+10       0.982150509        -6.46942044
          2.92e+10       0.982137465        -6.64245834
          2.93e+10       0.982121589        -6.81556766
          2.94e+10       0.982102879        -6.98875071
          2.95e+10       0.982084439        -7.16130768
          2.96e+10       0.982075757        -7.33074212
          2.97e+10       0.982061498        -7.50026767
          2.98e+10       0.982041655        -7.66988553
          2.99e+10       0.982016221        -7.83959694
             3e+10       0.981985189        -8.00940311
          3.01e+10        0.98194855        -8.17930528
          3.02e+10       0.981906297        -8.34930465
          3.03e+10        0.98185842        -8.51940246
          3.04e+10        0.98180491        -8.68959993
          3.05e+10       0.981819885        -8.85813348
          3.06e+10       0.981837133        -9.02652243
          3.07e+10       0.981845861        -9.19501932
          3.08e+10       0.981846058        -9.36362367
          3.09e+10       0.981837715          -9.532335
           3.1e+10       0.981820822         -9.7011528
          3.11e+10       0.981795369         -9.8700766
          3.12e+10       0.981761345        -10.0391059
          3.13e+10       0.981718737        -10.2082401
          3.14e+10         0.9816894        -10.3771582
          3.15e+10       0.981707991        -10.5453535
          3.16e+10       0.981716836        -10.7136711
          3.17e+10       0.981715923        -10.8821092
          3.18e+10       0.981705244        -11.0506656
          3.19e+10       0.981684787        -11.2193385
           3.2e+10        0.98165454        -11.3881259
          3.21e+10       0.981614493        -11.5570257
          3.22e+10       0.981564633         -11.726036
          3.23e+10       0.981504947        -11.8951546
          3.24e+10       0.981474862        -12.0629296
          3.25e+10       0.981499819        -12.2284515
          3.26e+10       0.981513679        -12.3941598
          3.27e+10       0.981516431        -12.5600496
          3.28e+10       0.981508061        -12.7261156
          3.29e+10       0.981488557        -12.8923528
           3.3e+10       0.981457907        -13.0587562
          3.31e+10       0.981416099        -13.2253207
          3.32e+10       0.981363121        -13.3920411
          3.33e+10       0.981298963        -13.5589124
          3.34e+10       0.981246966        -13.7257091
          3.35e+10        0.98129965        -13.8918299
          3.36e+10       0.981331156        -14.0586409
          3.37e+10       0.981341355        -14.2261165
          3.38e+10       0.981330125        -14.3942314
          3.39e+10       0.981297353        -14.5629599
           3.4e+10       0.981242936        -14.7322767
          3.41e+10       0.981166776        -14.9021562
          3.42e+10       0.981068787        -15.0725732
          3.43e+10       0.980948889        -15.2435021
          3.44e+10       0.980807011        -15.4149178
          3.45e+10       0.980885912        -15.5798162
          3.46e+10       0.981059616        -15.7416798
          3.47e+10       0.981175391        -15.9047496
          3.48e+10       0.981232993        -16.0688986
