! Created Wed Mar 15 13:52:24 2023
# hz S ma R 50
! 1 Port Network Data from SP1.SP block
! freq  magS11  angS11  
!     
         100000000       0.942451647         177.612413
         200000000       0.942445668         175.200392
         300000000       0.942632233         172.783443
         400000000       0.942462259         170.374379
         500000000       0.942124124         167.975057
         600000000       0.941911146         165.596686
         700000000       0.941620562         163.235074
         800000000       0.941175255         160.881763
         900000000       0.941124565         158.554249
             1e+09       0.940730241         156.247649
           1.1e+09       0.940246819         153.956519
           1.2e+09       0.940133924         151.691126
           1.3e+09       0.939860765         149.452282
           1.4e+09       0.939447059         147.237762
           1.5e+09       0.939678852         145.044328
           1.6e+09       0.939482332         142.874343
           1.7e+09       0.939501946         140.735287
           1.8e+09       0.939537021         138.618866
           1.9e+09       0.939439226         136.534911
             2e+09       0.939549104         134.478135
           2.1e+09       0.939628631         132.442806
           2.2e+09        0.93970333         130.441548
           2.3e+09        0.93993756         128.468564
           2.4e+09       0.940198497         126.526878
           2.5e+09       0.940408344         124.611911
           2.6e+09       0.940697029         122.726861
           2.7e+09       0.941041322         120.876588
           2.8e+09       0.941185549         119.048287
           2.9e+09       0.941535833         117.254728
             3e+09       0.941886176          115.48836
           3.1e+09       0.942324325         113.753678
           3.2e+09       0.942858516         112.047941
           3.3e+09       0.943366111         110.371565
           3.4e+09       0.943749935         108.724258
           3.5e+09       0.944152657         107.107657
           3.6e+09       0.944696157         105.517487
           3.7e+09       0.945290551         103.954177
           3.8e+09       0.945916797           102.4186
           3.9e+09       0.946318605         100.886855
             4e+09       0.946700498          99.406631
           4.1e+09       0.947056273         97.9555919
           4.2e+09        0.94748866         96.5294219
           4.3e+09       0.948063936         95.1275372
           4.4e+09       0.948533325         93.7543503
           4.5e+09       0.949025201           92.40354
           4.6e+09       0.949525504           91.07671
           4.7e+09       0.949993126         89.7768015
           4.8e+09       0.950437892         88.4987639
           4.9e+09       0.950922344         87.2438356
             5e+09       0.951444315         86.0142822
           5.1e+09        0.95196295         84.8053157
           5.2e+09       0.952498691         83.6150711
           5.3e+09       0.952985991         82.4457044
           5.4e+09       0.953407649         81.3010082
           5.5e+09       0.953818255         80.1766846
           5.6e+09       0.954235498         79.0725461
           5.7e+09       0.954684422         77.9844634
           5.8e+09       0.955078978         76.9161736
           5.9e+09       0.955432926          75.870914
             6e+09       0.955700952         74.8521482
           6.1e+09       0.956102583         73.8538135
           6.2e+09       0.956617011         72.8739043
           6.3e+09       0.957175489         71.9033357
           6.4e+09       0.957780468         70.9432275
           6.5e+09       0.958242933         70.0042016
           6.6e+09       0.958667691         69.0804857
           6.7e+09       0.959080216         68.1725016
           6.8e+09       0.959507934         67.2775106
           6.9e+09       0.959903817         66.3976326
             7e+09       0.960284664         65.5313798
           7.1e+09       0.960666516          64.679441
           7.2e+09       0.961027411         63.8437551
           7.3e+09       0.961416941         63.0192681
           7.4e+09       0.961781498          62.214001
           7.5e+09       0.962183534         61.4170322
           7.6e+09       0.962491069         60.6357238
           7.7e+09       0.962816147         59.8633035
           7.8e+09        0.96314115         59.1046244
           7.9e+09       0.963465885         58.3592919
             8e+09       0.963818887         57.6217311
           8.1e+09       0.964120798         56.8997939
           8.2e+09       0.964454442         56.1846313
           8.3e+09       0.964770098         55.4835425
           8.4e+09       0.965073071         54.7952361
           8.5e+09       0.965404828         54.1131398
           8.6e+09       0.965719191          53.445522
           8.7e+09       0.966057283         52.7843696
           8.8e+09       0.966395278         52.1312144
           8.9e+09       0.966679079         51.4903722
             9e+09        0.96698823         50.8549473
           9.1e+09       0.967254842          50.230438
           9.2e+09       0.967472995          49.617073
           9.3e+09        0.96771571         49.0086336
           9.4e+09       0.967936922         48.4131559
           9.5e+09       0.968153861         47.8272079
           9.6e+09       0.968393696         47.2457444
           9.7e+09       0.968608376         46.6759953
           9.8e+09       0.968821555         46.1139753
           9.9e+09       0.969055635         45.5560764
             1e+10       0.969272204         45.0078218
          1.01e+10       0.969486756         44.4666706
          1.02e+10       0.969720735         43.9293256
          1.03e+10       0.969925454         43.4009404
          1.04e+10       0.970100436         42.8813789
          1.05e+10       0.970294056         42.3653072
          1.06e+10       0.970492945          41.854895
          1.07e+10       0.970673378         41.3539978
          1.08e+10       0.970871424         40.8563146
          1.09e+10       0.971086731          40.361806
           1.1e+10       0.971248843         39.8804763
          1.11e+10       0.971421564         39.4028742
          1.12e+10       0.971610201         38.9281519
          1.13e+10       0.971781334         38.4616627
          1.14e+10       0.971932394         38.0036255
          1.15e+10       0.972098531         37.5482047
          1.16e+10       0.972279478         37.0953691
          1.17e+10       0.972458485         36.6527887
          1.18e+10       0.972649929          36.213208
          1.19e+10       0.972854757         35.7760341
           1.2e+10       0.973045366          35.343695
          1.21e+10       0.973174708         34.9202855
          1.22e+10       0.973317115         34.4990438
          1.23e+10       0.973472379         34.0799445
          1.24e+10       0.973605751         33.6671321
          1.25e+10       0.973715675         33.2606555
          1.26e+10        0.97383792         32.8561216
          1.27e+10       0.973972302         32.4535081
          1.28e+10       0.974093015         32.0588838
          1.29e+10       0.974207582         31.6702424
           1.3e+10       0.974333433         31.2833434
          1.31e+10       0.974470411         30.8981668
          1.32e+10       0.974594474         30.5187037
          1.33e+10       0.974711288         30.1438664
          1.34e+10       0.974838638         29.7706031
          1.35e+10       0.974976388         29.3988961
          1.36e+10        0.97510254         29.0325147
          1.37e+10       0.975208593         28.6727611
          1.38e+10       0.975324108         28.3144265
          1.39e+10       0.975448969         27.9574947
           1.4e+10       0.975572808         27.6032299
          1.41e+10       0.975644743         27.2578881
          1.42e+10       0.975725634         26.9137993
          1.43e+10       0.975815381         26.5709493
          1.44e+10       0.975913884         26.2293241
          1.45e+10       0.975989884         25.8944739
          1.46e+10       0.976062832         25.5628095
          1.47e+10       0.976144153         25.2322494
          1.48e+10       0.976233763         24.9027812
          1.49e+10       0.976325522         24.5758156
           1.5e+10       0.976396739         24.2565168
          1.51e+10       0.976475232          23.938223
          1.52e+10       0.976560929         23.6209227
          1.53e+10       0.976653761         23.3046043
          1.54e+10       0.976728167         22.9934514
          1.55e+10       0.976781794         22.6877513
          1.56e+10       0.976842177         22.3829244
          1.57e+10       0.976909255         22.0789607
          1.58e+10       0.976982971         21.7758501
          1.59e+10       0.977029378         21.4778552
           1.6e+10       0.977062563         21.1831091
          1.61e+10       0.977101941         20.8891311
          1.62e+10       0.977147461         20.5959123
          1.63e+10       0.977199071         20.3034436
          1.64e+10       0.977239052         20.0174455
          1.65e+10       0.977274431         19.7354142
          1.66e+10       0.977315152         19.4540585
          1.67e+10       0.977361174           19.17337
          1.68e+10       0.977412455         18.8933407
          1.69e+10       0.977463777         18.6171423
           1.7e+10       0.977514399         18.3450026
          1.71e+10       0.977569787         18.0734676
          1.72e+10       0.977629908         17.8025297
          1.73e+10       0.977694727         17.5321816
          1.74e+10       0.977757254         17.2633752
          1.75e+10       0.977787999         17.0000962
          1.76e+10       0.977822696         16.7373572
          1.77e+10       0.977861314         16.4751511
          1.78e+10       0.977903827         16.2134708
          1.79e+10       0.977950205         15.9523092
           1.8e+10       0.977991027         15.6957347
          1.81e+10       0.978031087         15.4416019
          1.82e+10       0.978074862         15.1879415
          1.83e+10       0.978122329         14.9347469
          1.84e+10       0.978173466         14.6820119
          1.85e+10       0.978228221         14.4298486
          1.86e+10       0.978284875         14.1855311
          1.87e+10       0.978344949         13.9416266
          1.88e+10       0.978408422         13.6981294
          1.89e+10       0.978475276          13.455034
           1.9e+10       0.978545492         13.2123346
          1.91e+10       0.978608471         12.9705398
          1.92e+10       0.978625631         12.7314933
          1.93e+10       0.978645919         12.4927954
          1.94e+10       0.978669318         12.2544408
          1.95e+10       0.978695812         12.0164242
          1.96e+10       0.978725385         11.7787402
          1.97e+10       0.978751968         11.5428289
          1.98e+10       0.978748195         11.3151046
          1.99e+10       0.978746751         11.0876691
             2e+10       0.978747624         10.8605178
          2.01e+10       0.978750799         10.6336457
          2.02e+10       0.978756264         10.4070481
          2.03e+10       0.978764006         10.1807203
          2.04e+10       0.978789577         9.95976554
          2.05e+10       0.978817731         9.73938494
          2.06e+10       0.978847488         9.51926146
          2.07e+10       0.978878837         9.29939054
          2.08e+10       0.978911769         9.07976764
          2.09e+10       0.978946276         8.86038825
           2.1e+10         0.9789758           8.643822
          2.11e+10       0.979001373         8.42972855
          2.12e+10       0.979028772         8.21585121
          2.13e+10       0.979057986         8.00218591
          2.14e+10       0.979089008         7.78872863
          2.15e+10       0.979121831         7.57547533
          2.16e+10       0.979156445           7.362422
          2.17e+10       0.979179335         7.15277725
          2.18e+10       0.979203692          6.9435644
          2.19e+10       0.979230674         6.73450986
           2.2e+10       0.979260274         6.52561025
          2.21e+10       0.979292485         6.31686215
          2.22e+10       0.979327302         6.10826218
          2.23e+10       0.979364539         5.90040839
          2.24e+10       0.979402517          5.6979195
          2.25e+10       0.979442564         5.49555952
          2.26e+10       0.979484674         5.29332521
          2.27e+10       0.979528845         5.09121335
          2.28e+10       0.979575074         4.88922072
          2.29e+10       0.979623357         4.68734411
           2.3e+10        0.97967217         4.48585055
          2.31e+10       0.979701677         4.28815259
          2.32e+10       0.979732088          4.0905655
          2.33e+10       0.979763402          3.8930859
          2.34e+10       0.979795614         3.69571044
          2.35e+10       0.979828722         3.49843575
          2.36e+10       0.979862723          3.3012585
          2.37e+10       0.979897614         3.10417533
          2.38e+10       0.979928136         2.90981327
          2.39e+10       0.979958485         2.71614494
           2.4e+10       0.979989894         2.52255579
          2.41e+10       0.980022361         2.32904272
          2.42e+10       0.980055883         2.13560264
          2.43e+10       0.980090458         1.94223245
          2.44e+10       0.980126083         1.74892907
          2.45e+10       0.980160458          1.5572966
          2.46e+10       0.980191679         1.36903887
          2.47e+10       0.980224789         1.18081777
          2.48e+10       0.980259786        0.992630735
          2.49e+10       0.980296671        0.804475242
           2.5e+10       0.980335443        0.616348746
          2.51e+10       0.980376102        0.428248711
          2.52e+10       0.980418649          0.2401726
          2.53e+10       0.980455684       0.0536659373
          2.54e+10       0.980490076        -0.13181919
          2.55e+10       0.980526768       -0.317305633
          2.56e+10       0.980565764       -0.502795647
          2.57e+10       0.980607064       -0.688291487
          2.58e+10       0.980650672       -0.873795406
          2.59e+10       0.980696589        -1.05930966
           2.6e+10       0.980744818         -1.2448365
          2.61e+10       0.980778567        -1.42810753
          2.62e+10       0.980803988        -1.61009969
          2.63e+10       0.980830382        -1.79210446
          2.64e+10       0.980857749        -1.97412435
          2.65e+10       0.980886091         -2.1561619
          2.66e+10       0.980915408        -2.33821963
          2.67e+10       0.980945701        -2.52030009
          2.68e+10       0.980976972        -2.70240579
          2.69e+10       0.980997348        -2.88338491
           2.7e+10       0.981001367        -3.06279789
          2.71e+10       0.981005003        -3.24223675
          2.72e+10       0.981008255        -3.42170416
          2.73e+10       0.981011122        -3.60120279
          2.74e+10       0.981013603        -3.78073533
          2.75e+10       0.981015698        -3.96030444
          2.76e+10       0.981017404        -4.13991282
          2.77e+10       0.981018721        -4.31956314
          2.78e+10       0.981024826        -4.49708963
          2.79e+10       0.981029348        -4.67452471
           2.8e+10       0.981031932        -4.85199983
          2.81e+10       0.981032575        -5.02951761
          2.82e+10       0.981031275        -5.20708068
          2.83e+10       0.981028029        -5.38469166
          2.84e+10       0.981022834        -5.56235318
          2.85e+10       0.981015688        -5.74006786
          2.86e+10       0.981009247        -5.91712514
          2.87e+10       0.981010387         -6.0913806
          2.88e+10       0.981007695        -6.26569373
          2.89e+10       0.981001169        -6.44006667
           2.9e+10       0.980990803        -6.61450156
          2.91e+10       0.980976594        -6.78900053
          2.92e+10       0.980958536        -6.96356571
          2.93e+10       0.980936624        -7.13819924
          2.94e+10       0.980910852        -7.31290324
          2.95e+10       0.980887195        -7.48699724
          2.96e+10        0.98088528        -7.65805345
          2.97e+10       0.980876603        -7.82919559
          2.98e+10       0.980861156        -8.00042435
          2.99e+10       0.980838933        -8.17174044
             3e+10       0.980809926        -8.34314453
          3.01e+10       0.980774126        -8.51463733
          3.02e+10       0.980731525        -8.68621952
          3.03e+10       0.980682113        -8.85789179
          3.04e+10        0.98062588         -9.0296548
          3.05e+10       0.980649615         -9.1995205
          3.06e+10       0.980676174        -9.36920006
          3.07e+10       0.980692943        -9.53897706
          3.08e+10       0.980699916        -9.70884996
          3.09e+10       0.980697083        -9.87881719
           3.1e+10       0.980684437        -10.0488772
          3.11e+10       0.980661969        -10.2190283
          3.12e+10       0.980629669        -10.3892691
          3.13e+10       0.980587528        -10.5595978
          3.14e+10       0.980562615        -10.7300891
          3.15e+10       0.980597264        -10.9008898
          3.16e+10        0.98061971        -11.0718108
          3.17e+10       0.980629947        -11.2428474
          3.18e+10       0.980627968        -11.4139951
          3.19e+10       0.980613765        -11.5852492
           3.2e+10       0.980587331        -11.7566053
          3.21e+10       0.980548661        -11.9280587
          3.22e+10       0.980497745        -12.0996046
          3.23e+10       0.980434577        -12.2712386
          3.24e+10       0.980402712        -12.4409077
          3.25e+10        0.98042954        -12.6073283
          3.26e+10       0.980441685         -12.773945
          3.27e+10       0.980439139        -12.9407475
          3.28e+10       0.980421895        -13.1077257
          3.29e+10       0.980389949        -13.2748695
           3.3e+10       0.980343296        -13.4421688
          3.31e+10       0.980281935        -13.6096133
          3.32e+10       0.980205866         -13.777193
          3.33e+10       0.980115089        -13.9448975
          3.34e+10       0.980041389        -14.1125964
          3.35e+10       0.980112563         -14.280098
          3.36e+10        0.98015874        -14.4482366
          3.37e+10       0.980179816        -14.6169781
          3.38e+10       0.980175702        -14.7862884
          3.39e+10        0.98014632        -14.9561336
           3.4e+10       0.980091605        -15.1264796
          3.41e+10       0.980011505        -15.2972927
          3.42e+10       0.979905981        -15.4685391
          3.43e+10       0.979775005        -15.6401851
          3.44e+10       0.979618562        -15.8121969
          3.45e+10       0.979678712        -15.9788364
          3.46e+10       0.979837629        -16.1429631
          3.47e+10       0.979944923        -16.3080427
          3.48e+10       0.980000439        -16.4739649
