!  2-Port S-parameters saved by WinCal
! VAR NAME=L3_THRU_deemb
! VAR ObjTypeName=DATASET
! VAR IndexType=Frequency
! VAR FILENAME=L3_2n0_THRU_deemb_GSGSG.S2P
!
# Hz S RI R 50
100000000.000 +1.4896616806E-002 +8.2033792975E-003  +9.8497934305E-001 -1.2203187576E-002  +9.8477061153E-001 -1.1969717480E-002  +1.4819432668E-002 +8.1892064291E-003 
103156084.685 +1.4761666744E-002 +8.5416470513E-003  +9.8487710578E-001 -1.2337971439E-002  +9.8461875506E-001 -1.2392755899E-002  +1.4797222845E-002 +8.4868873224E-003 
106411778.075 +1.4835353197E-002 +8.7447951088E-003  +9.8488166838E-001 -1.2778401324E-002  +9.8458819007E-001 -1.2718478192E-002  +1.4730335035E-002 +8.7758538574E-003 
109770223.905 +1.4765278335E-002 +9.0643489947E-003  +9.8490499522E-001 -1.3195666542E-002  +9.8478012521E-001 -1.3130838073E-002  +1.4890243151E-002 +9.0451128211E-003 
113234665.130 +1.4806947164E-002 +9.3166011928E-003  +9.8478954350E-001 -1.3566107312E-002  +9.8468539922E-001 -1.3448143324E-002  +1.4747632051E-002 +9.3955798258E-003 
116808447.054 +1.4766483230E-002 +9.6469063855E-003  +9.8483434498E-001 -1.4087088489E-002  +9.8469720302E-001 -1.3923770493E-002  +1.4810299641E-002 +9.6821764895E-003 
120495020.562 +1.4802940609E-002 +9.9691400832E-003  +9.8485486508E-001 -1.4557498334E-002  +9.8465099383E-001 -1.4515795836E-002  +1.4815964001E-002 +9.9439327434E-003 
124297945.452 +1.4791196831E-002 +1.0239548330E-002  +9.8477754698E-001 -1.4985136162E-002  +9.8463509887E-001 -1.4882933489E-002  +1.4766098994E-002 +1.0335428996E-002 
128220893.872 +1.4823866730E-002 +1.0588711226E-002  +9.8477633015E-001 -1.5349177809E-002  +9.8468459549E-001 -1.5342769041E-002  +1.4749179892E-002 +1.0669884309E-002 
132267653.866 +1.4825571987E-002 +1.0967095837E-002  +9.8478990193E-001 -1.5857355045E-002  +9.8469598830E-001 -1.5907305915E-002  +1.4732468729E-002 +1.0954770828E-002 
136442133.032 +1.4770386810E-002 +1.1287595598E-002  +9.8475861862E-001 -1.6380339309E-002  +9.8464914771E-001 -1.6342498190E-002  +1.4762521385E-002 +1.1350286992E-002 
140748362.296 +1.4746251729E-002 +1.1636962814E-002  +9.8471259738E-001 -1.6853014205E-002  +9.8460284049E-001 -1.6782370849E-002  +1.4767345198E-002 +1.1639141670E-002 
145190499.803 +1.4717513726E-002 +1.1983819026E-002  +9.8470310281E-001 -1.7461603544E-002  +9.8449519444E-001 -1.7381691020E-002  +1.4728149063E-002 +1.2029553291E-002 
149772834.930 +1.4742712490E-002 +1.2389520120E-002  +9.8459528653E-001 -1.7926989282E-002  +9.8446162292E-001 -1.8031056506E-002  +1.4730451903E-002 +1.2401512392E-002 
154499792.436 +1.4779468241E-002 +1.2927901858E-002  +9.8461699495E-001 -1.8527595875E-002  +9.8431596892E-001 -1.8395749049E-002  +1.4691022618E-002 +1.2849970317E-002 
159375936.722 +1.4774803978E-002 +1.3301027310E-002  +9.8457389304E-001 -1.9123359579E-002  +9.8431002275E-001 -1.9023740529E-002  +1.4831775664E-002 +1.3308298820E-002 
164405976.252 +1.4739012317E-002 +1.3716839797E-002  +9.8451809034E-001 -1.9688308928E-002  +9.8439430194E-001 -1.9633120186E-002  +1.4769167101E-002 +1.3729144662E-002 
169594768.090 +1.4808803685E-002 +1.4132557589E-002  +9.8459496261E-001 -2.0241477990E-002  +9.8440038392E-001 -2.0194472051E-002  +1.4756557662E-002 +1.4137663901E-002 
174947322.591 +1.4774484758E-002 +1.4614319907E-002  +9.8448679255E-001 -2.0953899487E-002  +9.8432967478E-001 -2.0944321186E-002  +1.4742136275E-002 +1.4657205206E-002 
180468808.246 +1.4753366795E-002 +1.5037668353E-002  +9.8446975041E-001 -2.1634031203E-002  +9.8429727031E-001 -2.1645884805E-002  +1.4735782998E-002 +1.5013828192E-002 
186164556.664 +1.4767788491E-002 +1.5522077170E-002  +9.8440875859E-001 -2.2298754085E-002  +9.8421920345E-001 -2.2241357849E-002  +1.4772627937E-002 +1.5562286836E-002 
192040067.725 +1.4739689173E-002 +1.6012590486E-002  +9.8438253522E-001 -2.2964290769E-002  +9.8416855932E-001 -2.2960953842E-002  +1.4783551903E-002 +1.6059374138E-002 
198101014.891 +1.4802572541E-002 +1.6603391248E-002  +9.8436435876E-001 -2.3725015876E-002  +9.8399753206E-001 -2.3686512431E-002  +1.4823438035E-002 +1.6598691925E-002 
204353250.682 +1.4748151395E-002 +1.7098343273E-002  +9.8439166457E-001 -2.4416280536E-002  +9.8417000686E-001 -2.4482251700E-002  +1.4821094407E-002 +1.7112940209E-002 
210802812.329 +1.4776063979E-002 +1.7630318160E-002  +9.8429858218E-001 -2.5293855831E-002  +9.8403640114E-001 -2.5215359585E-002  +1.4745462731E-002 +1.7634567912E-002 
217455927.604 +1.4742593021E-002 +1.8278208266E-002  +9.8422255288E-001 -2.6016485313E-002  +9.8402130123E-001 -2.6044996492E-002  +1.4761164199E-002 +1.8241124225E-002 
224319020.831 +1.4743833160E-002 +1.8804723659E-002  +9.8414329116E-001 -2.6846415286E-002  +9.8401110048E-001 -2.6766906570E-002  +1.4747801236E-002 +1.8801885581E-002 
231398719.092 +1.4704046493E-002 +1.9421921744E-002  +9.8413421060E-001 -2.7622510954E-002  +9.8389924174E-001 -2.7680533749E-002  +1.4712149678E-002 +1.9418581967E-002 
238701858.626 +1.4804375292E-002 +2.0018843332E-002  +9.8401771262E-001 -2.8558320010E-002  +9.8373567759E-001 -2.8479400133E-002  +1.4730557326E-002 +2.0059309318E-002 
246235491.428 +1.4767895525E-002 +2.0703211950E-002  +9.8404030651E-001 -2.9466460652E-002  +9.8367717970E-001 -2.9420422958E-002  +1.4750680593E-002 +2.0759733346E-002 
254006892.062 +1.4773332587E-002 +2.1408006392E-002  +9.8400793871E-001 -3.0311320460E-002  +9.8354791645E-001 -3.0433741028E-002  +1.4776895386E-002 +2.1375411771E-002 
262023564.680 +1.4698889293E-002 +2.2086403346E-002  +9.8365826634E-001 -3.1273585785E-002  +9.8339868521E-001 -3.1211317579E-002  +1.4722113101E-002 +2.2113747091E-002 
270293250.275 +1.4718154771E-002 +2.2806095126E-002  +9.8365194540E-001 -3.2335520453E-002  +9.8340601873E-001 -3.2222170424E-002  +1.4728365027E-002 +2.2824480512E-002 
278823934.151 +1.4777183429E-002 +2.3548003147E-002  +9.8364906604E-001 -3.3246775320E-002  +9.8337804844E-001 -3.3279302221E-002  +1.4765966003E-002 +2.3531785408E-002 
287623853.634 +1.4816365681E-002 +2.4373095012E-002  +9.8356839245E-001 -3.4174437035E-002  +9.8328607021E-001 -3.4240134890E-002  +1.4818815429E-002 +2.4357663462E-002 
296701506.028 +1.4812521980E-002 +2.5147874110E-002  +9.8356265754E-001 -3.5287072091E-002  +9.8311222398E-001 -3.5362336031E-002  +1.4861778447E-002 +2.5127201432E-002 
306065656.819 +1.4844324873E-002 +2.5928098164E-002  +9.8337228517E-001 -3.6413395848E-002  +9.8304433113E-001 -3.6435754607E-002  +1.4890357664E-002 +2.5913910828E-002 
315725348.139 +1.4883600766E-002 +2.6771455863E-002  +9.8306604176E-001 -3.7624386926E-002  +9.8302207187E-001 -3.7546955688E-002  +1.4938132743E-002 +2.6751705336E-002 
325689907.497 +1.4902113442E-002 +2.7594507136E-002  +9.8310518477E-001 -3.8718580137E-002  +9.8270565138E-001 -3.8742475607E-002  +1.4947088822E-002 +2.7601416235E-002 
335968956.787 +1.4926333393E-002 +2.8518811754E-002  +9.8309360543E-001 -3.9948168097E-002  +9.8262659446E-001 -3.9955836430E-002  +1.4890541831E-002 +2.8452210250E-002 
346572421.578 +1.4960847471E-002 +2.9380683898E-002  +9.8277589963E-001 -4.1243916593E-002  +9.8270328132E-001 -4.1212285940E-002  +1.4991138086E-002 +2.9436668810E-002 
357510540.696 +1.4933027166E-002 +3.0364578921E-002  +9.8275998179E-001 -4.2476200584E-002  +9.8249214876E-001 -4.2462569707E-002  +1.4981077076E-002 +3.0399492601E-002 
368793876.117 +1.5009217825E-002 +3.1393128251E-002  +9.8249797501E-001 -4.3836311962E-002  +9.8227749645E-001 -4.3774139529E-002  +1.5021634309E-002 +3.1358914361E-002 
380433323.160 +1.5052031683E-002 +3.2365556057E-002  +9.8217191669E-001 -4.5241160673E-002  +9.8208580315E-001 -4.5199297061E-002  +1.5055832810E-002 +3.2362523854E-002 
392440121.007 +1.5098410545E-002 +3.3412361933E-002  +9.8222193726E-001 -4.6606801305E-002  +9.8204738996E-001 -4.6603435622E-002  +1.5087879737E-002 +3.3386403526E-002 
404825863.563 +1.5118245073E-002 +3.4472408505E-002  +9.8199599167E-001 -4.8027884280E-002  +9.8178537684E-001 -4.7964868537E-002  +1.5143694853E-002 +3.4512159731E-002 
417602510.642 +1.5209279705E-002 +3.5655636375E-002  +9.8183606899E-001 -4.9456331892E-002  +9.8172476191E-001 -4.9436522851E-002  +1.5206013579E-002 +3.5607150136E-002 
430782399.524 +1.5217266766E-002 +3.6861845853E-002  +9.8157607193E-001 -5.1011834268E-002  +9.8124762358E-001 -5.1123521983E-002  +1.5163564936E-002 +3.6733168320E-002 
444378256.859 +1.5216029243E-002 +3.8036090589E-002  +9.8124856818E-001 -5.2502628289E-002  +9.8101897678E-001 -5.2635398036E-002  +1.5227715906E-002 +3.8003692791E-002 
458403210.966 +1.5277435787E-002 +3.9279921580E-002  +9.8102215858E-001 -5.4215199036E-002  +9.8093856028E-001 -5.4161852619E-002  +1.5359031130E-002 +3.9239593212E-002 
472870804.502 +1.5405391907E-002 +4.0518544252E-002  +9.8078871664E-001 -5.5875939781E-002  +9.8071570594E-001 -5.5886067024E-002  +1.5480270981E-002 +4.0476120250E-002 
487795007.541 +1.5471180984E-002 +4.1857219980E-002  +9.8057217931E-001 -5.7585069283E-002  +9.8028807430E-001 -5.7579202388E-002  +1.5501070239E-002 +4.1833348986E-002 
503190231.066 +1.5545073507E-002 +4.3208316735E-002  +9.8021134877E-001 -5.9343807544E-002  +9.7996124354E-001 -5.9288424178E-002  +1.5599868155E-002 +4.3151867990E-002 
519071340.884 +1.5692806297E-002 +4.4561882757E-002  +9.7997178359E-001 -6.1197730285E-002  +9.7976648790E-001 -6.1179913924E-002  +1.5679264701E-002 +4.4617993663E-002 
535453671.976 +1.5743780629E-002 +4.6011760996E-002  +9.7961649485E-001 -6.3088491128E-002  +9.7945348754E-001 -6.3029988938E-002  +1.5749829059E-002 +4.5987748941E-002 
552353043.311 +1.5839147248E-002 +4.7575184768E-002  +9.7938122014E-001 -6.4954928546E-002  +9.7913982667E-001 -6.4921883048E-002  +1.5866756892E-002 +4.7529150042E-002 
569785773.116 +1.5951182580E-002 +4.9126787880E-002  +9.7896159154E-001 -6.6920577944E-002  +9.7889161353E-001 -6.6899184621E-002  +1.5914466465E-002 +4.9094326774E-002 
587768694.637 +1.6037431264E-002 +5.0741699855E-002  +9.7863605469E-001 -6.8970424864E-002  +9.7855601799E-001 -6.8898617088E-002  +1.6107921411E-002 +5.0697957667E-002 
606319172.390 +1.6171474600E-002 +5.2513034054E-002  +9.7809908947E-001 -7.0898202390E-002  +9.7816412172E-001 -7.0965076179E-002  +1.6184944523E-002 +5.2426820555E-002 
625455118.930 +1.6460899534E-002 +5.4215168436E-002  +9.7785044570E-001 -7.3045047706E-002  +9.7781070592E-001 -7.3053128727E-002  +1.6448465563E-002 +5.4208248786E-002 
645195012.148 +1.6633510694E-002 +5.5904234124E-002  +9.7739302896E-001 -7.5281900060E-002  +9.7738167624E-001 -7.5263027686E-002  +1.6752756179E-002 +5.5864404516E-002 
665557913.113 +1.6805313691E-002 +5.7699115339E-002  +9.7700340542E-001 -7.7664708090E-002  +9.7694669554E-001 -7.7665851579E-002  +1.6862128779E-002 +5.7609238004E-002 
686563484.476 +1.6984909102E-002 +5.9568681486E-002  +9.7651308032E-001 -7.9963902598E-002  +9.7641133599E-001 -7.9905677002E-002  +1.7037401449E-002 +5.9527682796E-002 
708232009.461 +1.7307489572E-002 +6.1574285692E-002  +9.7602179342E-001 -8.2331170682E-002  +9.7604753534E-001 -8.2364193514E-002  +1.7318203854E-002 +6.1507716887E-002 
730584411.443 +1.7545361383E-002 +6.3468503468E-002  +9.7569690180E-001 -8.4815020952E-002  +9.7549744770E-001 -8.4841190839E-002  +1.7607092124E-002 +6.3449698072E-002 
753642274.161 +1.7827665066E-002 +6.5517765319E-002  +9.7512810144E-001 -8.7419221917E-002  +9.7501988463E-001 -8.7412776541E-002  +1.7870551023E-002 +6.5488476568E-002 
777427862.554 +1.8109594380E-002 +6.7641020192E-002  +9.7475190014E-001 -9.0099128880E-002  +9.7443015527E-001 -9.0030043396E-002  +1.8151870694E-002 +6.7540881389E-002 
801964144.258 +1.8386821900E-002 +6.9802847580E-002  +9.7402019100E-001 -9.2808357403E-002  +9.7381290354E-001 -9.2761710752E-002  +1.8489199959E-002 +6.9718436581E-002 
827274811.792 +1.8679671541E-002 +7.2035639788E-002  +9.7327287644E-001 -9.5584791274E-002  +9.7314868888E-001 -9.5581860130E-002  +1.8772775002E-002 +7.1945096169E-002 
853384305.427 +1.9026303977E-002 +7.4322591708E-002  +9.7267052574E-001 -9.8505486056E-002  +9.7247800722E-001 -9.8431857402E-002  +1.9103317965E-002 +7.4261535156E-002 
880317836.792 +1.9358832427E-002 +7.6724250186E-002  +9.7191984831E-001 -1.0136875678E-001  +9.7189821631E-001 -1.0142204020E-001  +1.9435589517E-002 +7.6643045272E-002 
908101413.216 +1.9731066629E-002 +7.9219478315E-002  +9.7104923476E-001 -1.0437965842E-001  +9.7099972343E-001 -1.0433562075E-001  +1.9783862114E-002 +7.9133349264E-002 
936761862.839 +2.0220301557E-002 +8.1832493704E-002  +9.7030592719E-001 -1.0741869743E-001  +9.7025717353E-001 -1.0740936148E-001  +2.0265125906E-002 +8.1734712228E-002 
966326860.524 +2.0705112444E-002 +8.4449910994E-002  +9.6961795048E-001 -1.1061213250E-001  +9.6956699363E-001 -1.1060792473E-001  +2.0778254267E-002 +8.4380878686E-002 
996824954.573 +2.1211401233E-002 +8.7112073692E-002  +9.6877142348E-001 -1.1391639592E-001  +9.6877701686E-001 -1.1396152055E-001  +2.1291352890E-002 +8.6995784298E-002 
1028285594.298 +2.1719176875E-002 +8.9878408414E-002  +9.6782163064E-001 -1.1728961148E-001  +9.6772780900E-001 -1.1727118148E-001  +2.1835674010E-002 +8.9815491570E-002 
1060739158.454 +2.2297385254E-002 +9.2778940843E-002  +9.6696151749E-001 -1.2073640417E-001  +9.6688459554E-001 -1.2071511857E-001  +2.2431685194E-002 +9.2683322234E-002 
1094216984.579 +2.2892111371E-002 +9.5712833381E-002  +9.6591489719E-001 -1.2433957170E-001  +9.6580499399E-001 -1.2430553300E-001  +2.2972074392E-002 +9.5621223128E-002 
1128751399.246 +2.3519985425E-002 +9.8748481159E-002  +9.6483444948E-001 -1.2794483583E-001  +9.6473142705E-001 -1.2798337444E-001  +2.3621464497E-002 +9.8666779750E-002 
1164375749.286 +2.4192112030E-002 +1.0192111543E-001  +9.6373068408E-001 -1.3172075314E-001  +9.6351067631E-001 -1.3168187771E-001  +2.4309793474E-002 +1.0173473036E-001 
1201124433.981 +2.4918391878E-002 +1.0519484092E-001  +9.6249375406E-001 -1.3553924580E-001  +9.6232890563E-001 -1.3547337721E-001  +2.5031701127E-002 +1.0510162813E-001 
1239032938.286 +2.5707992953E-002 +1.0859037444E-001  +9.6125838878E-001 -1.3943739867E-001  +9.6108867577E-001 -1.3936123079E-001  +2.5781400222E-002 +1.0843963236E-001 
1278137867.090 +2.6561196734E-002 +1.1207320683E-001  +9.5990332666E-001 -1.4337928319E-001  +9.5976634323E-001 -1.4336345707E-001  +2.6668281617E-002 +1.1191056228E-001 
1318476980.562 +2.7516484731E-002 +1.1568222269E-001  +9.5859324058E-001 -1.4752766799E-001  +9.5838427383E-001 -1.4749788964E-001  +2.7609201535E-002 +1.1552175089E-001 
1360089230.617 +2.8555510278E-002 +1.1939203177E-001  +9.5711862130E-001 -1.5165106054E-001  +9.5700024161E-001 -1.5166029460E-001  +2.8618760422E-002 +1.1922974097E-001 
1403014798.522 +2.9667128345E-002 +1.2318755272E-001  +9.5568030598E-001 -1.5598415520E-001  +9.5552535963E-001 -1.5598273231E-001  +2.9772897699E-002 +1.2299856478E-001 
1447295133.702 +3.0830114725E-002 +1.2708292242E-001  +9.5423266853E-001 -1.6046387706E-001  +9.5399709533E-001 -1.6038792229E-001  +3.0974544590E-002 +1.2690089158E-001 
1492972993.759 +3.2129226936E-002 +1.3099431639E-001  +9.5260551420E-001 -1.6504692953E-001  +9.5243598764E-001 -1.6498921275E-001  +3.2266294458E-002 +1.3086743808E-001 
1540092485.762 +3.3452114742E-002 +1.3510159364E-001  +9.5097602475E-001 -1.6977546409E-001  +9.5071571262E-001 -1.6971833238E-001  +3.3595284257E-002 +1.3490628409E-001 
1588699108.835 +3.4892734535E-002 +1.3926661985E-001  +9.4898346453E-001 -1.7461841424E-001  +9.4889818502E-001 -1.7457783898E-001  +3.5032639241E-002 +1.3907633268E-001 
1638839798.095 +3.6392688039E-002 +1.4360547569E-001  +9.4724831235E-001 -1.7955641772E-001  +9.4699654160E-001 -1.7953142445E-001  +3.6534353679E-002 +1.4338011465E-001 
1690562969.969 +3.7997790710E-002 +1.4809077381E-001  +9.4527586401E-001 -1.8455364624E-001  +9.4515164069E-001 -1.8457596470E-001  +3.8116096527E-002 +1.4786925905E-001 
1743918568.949 +3.9725647137E-002 +1.5269637372E-001  +9.4323698118E-001 -1.8973619420E-001  +9.4303305450E-001 -1.8967186470E-001  +3.9921400068E-002 +1.5243204550E-001 
1798958115.817 +4.1527596677E-002 +1.5737889122E-001  +9.4087739056E-001 -1.9502525498E-001  +9.4071791543E-001 -1.9497922863E-001  +4.1705069461E-002 +1.5712896169E-001 
1855734757.394 +4.3635018375E-002 +1.6246090255E-001  +9.3868196821E-001 -2.0018323404E-001  +9.3863503378E-001 -2.0016791948E-001  +4.3811261464E-002 +1.6223289920E-001 
1914303317.860 +4.6150692501E-002 +1.6734030984E-001  +9.3668883828E-001 -2.0572372700E-001  +9.3661956973E-001 -2.0570435914E-001  +4.6311339813E-002 +1.6711028661E-001 
1974720351.694 +4.8630622372E-002 +1.7209323744E-001  +9.3440785352E-001 -2.1176957605E-001  +9.3418347790E-001 -2.1166253072E-001  +4.8779372954E-002 +1.7184866737E-001 
2037044198.279 +5.1099598460E-002 +1.7688877227E-001  +9.3197314701E-001 -2.1803121444E-001  +9.3171256185E-001 -2.1791117553E-001  +5.1277019591E-002 +1.7663294410E-001 
2101335038.241 +5.3494440453E-002 +1.8186274343E-001  +9.2898353281E-001 -2.2427945534E-001  +9.2886297393E-001 -2.2423389833E-001  +5.3724854832E-002 +1.8160248052E-001 
2167654951.557 +5.6022250747E-002 +1.8710072216E-001  +9.2577147745E-001 -2.3053701314E-001  +9.2562203191E-001 -2.3051465031E-001  +5.6259590023E-002 +1.8683652990E-001 
2236067977.500 +5.8834701739E-002 +1.9246876454E-001  +9.2263456001E-001 -2.3688924684E-001  +9.2254043770E-001 -2.3687789704E-001  +5.9097562672E-002 +1.9221172355E-001 
2306640176.477 +6.1695743383E-002 +1.9801704404E-001  +9.1919240605E-001 -2.4334969884E-001  +9.1919902417E-001 -2.4333098689E-001  +6.2005448982E-002 +1.9769763393E-001 
2379439693.817 +6.4957200212E-002 +2.0365640690E-001  +9.1584288993E-001 -2.4998049954E-001  +9.1564802754E-001 -2.4992306869E-001  +6.5212099416E-002 +2.0328057979E-001 
2454536825.575 +6.8368470715E-002 +2.0933603871E-001  +9.1223643260E-001 -2.5686886514E-001  +9.1195128208E-001 -2.5678953284E-001  +6.8600875448E-002 +2.0904774097E-001 
2532004086.407 +7.1804918887E-002 +2.1503146627E-001  +9.0815675016E-001 -2.6394792378E-001  +9.0799401035E-001 -2.6389119128E-001  +7.2079697030E-002 +2.1465173001E-001 
2611916279.594 +7.5382617021E-002 +2.2104266368E-001  +9.0399755645E-001 -2.7099166063E-001  +9.0388332932E-001 -2.7098386092E-001  +7.5716934359E-002 +2.2064632696E-001 
2694350569.271 +7.9245223748E-002 +2.2702652603E-001  +8.9958173131E-001 -2.7817085951E-001  +8.9943699163E-001 -2.7811870359E-001  +7.9559706849E-002 +2.2673058083E-001 
2779386554.939 +8.3339911118E-002 +2.3332131900E-001  +8.9491409950E-001 -2.8537956954E-001  +8.9486791955E-001 -2.8536141506E-001  +8.3667184739E-002 +2.3294214857E-001 
2867106348.328 +8.7788266876E-002 +2.3964038961E-001  +8.9009026232E-001 -2.9286867889E-001  +8.9001069581E-001 -2.9276544245E-001  +8.8066929482E-002 +2.3919007371E-001 
2957594652.681 +9.2345271124E-002 +2.4617322892E-001  +8.8503134934E-001 -3.0032181635E-001  +8.8505139271E-001 -3.0032859653E-001  +9.2660807595E-002 +2.4572284663E-001 
3050938844.549 +9.7302924798E-002 +2.5273367719E-001  +8.7991841757E-001 -3.0791419054E-001  +8.7962606648E-001 -3.0785120381E-001  +9.7637835153E-002 +2.5222705848E-001 
3147229058.161 +1.0244948766E-001 +2.5935499132E-001  +8.7427829393E-001 -3.1567134213E-001  +8.7417735567E-001 -3.1557442425E-001  +1.0278766228E-001 +2.5884820406E-001 
3246558272.458 +1.0796027780E-001 +2.6627266724E-001  +8.6852224129E-001 -3.2330478868E-001  +8.6845246859E-001 -3.2328023979E-001  +1.0826947955E-001 +2.6565779873E-001 
3349022400.874 +1.1406548073E-001 +2.7311378116E-001  +8.6269735188E-001 -3.3122901830E-001  +8.6256060684E-001 -3.3121264378E-001  +1.1437368523E-001 +2.7241826099E-001 
3454720383.955 +1.2022181117E-001 +2.7973701276E-001  +8.5639821741E-001 -3.3946676920E-001  +8.5613893746E-001 -3.3943678592E-001  +1.2059141242E-001 +2.7905167449E-001 
