!  2-Port S-parameters saved by WinCal
! VAR NAME=L3_THRU_deemb
! VAR ObjTypeName=DATASET
! VAR IndexType=Frequency
! VAR FILENAME=meas_L3_THRU_deemb_GSGSG_meas_L1_0n4_THRU_deemb_GSGSG_PQD701W03Cx5y8.S2P.S2P
!
# Hz S RI R 50
100000000.000 +1.4638137659E-002 +8.2798241182E-003  +9.8533767250E-001 -1.2014701576E-002  +9.8505203751E-001 -1.1850611710E-002  +1.4567180132E-002 +8.2765100252E-003 
103156084.685 +1.4588110562E-002 +8.5101364049E-003  +9.8509467133E-001 -1.2316246596E-002  +9.8502153985E-001 -1.2411092267E-002  +1.4583357217E-002 +8.5274925251E-003 
106411778.075 +1.4624835286E-002 +8.6963376148E-003  +9.8516660090E-001 -1.2752346418E-002  +9.8502007213E-001 -1.2728428414E-002  +1.4548993131E-002 +8.7662976961E-003 
109770223.905 +1.4561327016E-002 +9.0474055364E-003  +9.8510972917E-001 -1.3189070591E-002  +9.8503065320E-001 -1.3146302905E-002  +1.4564737134E-002 +8.9839473228E-003 
113234665.130 +1.4637453735E-002 +9.3400656142E-003  +9.8513826196E-001 -1.3656714075E-002  +9.8508474434E-001 -1.3579254480E-002  +1.4534240088E-002 +9.3926652173E-003 
116808447.054 +1.4536190175E-002 +9.6250681290E-003  +9.8507374484E-001 -1.4070973419E-002  +9.8497102238E-001 -1.3926205469E-002  +1.4564737956E-002 +9.6226008444E-003 
120495020.562 +1.4581868557E-002 +9.9115942231E-003  +9.8502684081E-001 -1.4494582161E-002  +9.8497888329E-001 -1.4423267456E-002  +1.4559326549E-002 +9.8978753933E-003 
124297945.452 +1.4580008897E-002 +1.0218491313E-002  +9.8516491874E-001 -1.4962969114E-002  +9.8516607129E-001 -1.4969210197E-002  +1.4585121190E-002 +1.0271817398E-002 
128220893.872 +1.4652538600E-002 +1.0534724594E-002  +9.8505449408E-001 -1.5451319927E-002  +9.8510703871E-001 -1.5403030839E-002  +1.4489998830E-002 +1.0593321100E-002 
132267653.866 +1.4631264720E-002 +1.0888497328E-002  +9.8505737896E-001 -1.5863573459E-002  +9.8507479759E-001 -1.5911814548E-002  +1.4515145411E-002 +1.0875856525E-002 
136442133.032 +1.4549928344E-002 +1.1233813787E-002  +9.8480454461E-001 -1.6409755708E-002  +9.8497116351E-001 -1.6447217873E-002  +1.4511051394E-002 +1.1290184731E-002 
140748362.296 +1.4589710808E-002 +1.1652338715E-002  +9.8490685728E-001 -1.6892960487E-002  +9.8496361987E-001 -1.6940573945E-002  +1.4517123176E-002 +1.1691236917E-002 
145190499.803 +1.4534835415E-002 +1.1943138031E-002  +9.8491049632E-001 -1.7445244865E-002  +9.8490656986E-001 -1.7471344030E-002  +1.4542501813E-002 +1.2043086667E-002 
149772834.930 +1.4496886891E-002 +1.2348280564E-002  +9.8464733161E-001 -1.7934590487E-002  +9.8477841828E-001 -1.7982157890E-002  +1.4462168149E-002 +1.2437034039E-002 
154499792.436 +1.4484399426E-002 +1.2802562231E-002  +9.8480432216E-001 -1.8509797865E-002  +9.8466539290E-001 -1.8481717079E-002  +1.4466186889E-002 +1.2786183294E-002 
159375936.722 +1.4524504552E-002 +1.3282912801E-002  +9.8476809264E-001 -1.9130289267E-002  +9.8478349525E-001 -1.9086051332E-002  +1.4549427835E-002 +1.3264926567E-002 
164405976.252 +1.4565785839E-002 +1.3686666279E-002  +9.8463092172E-001 -1.9638172075E-002  +9.8474926928E-001 -1.9660242627E-002  +1.4591966783E-002 +1.3731325488E-002 
169594768.090 +1.4572131807E-002 +1.4123129369E-002  +9.8468943537E-001 -2.0284106663E-002  +9.8470066779E-001 -2.0349057167E-002  +1.4540839069E-002 +1.4160337498E-002 
174947322.591 +1.4607021024E-002 +1.4554195506E-002  +9.8473147841E-001 -2.0964013344E-002  +9.8467694035E-001 -2.1029697256E-002  +1.4574429027E-002 +1.4587079666E-002 
180468808.246 +1.4623545325E-002 +1.5013797685E-002  +9.8465371481E-001 -2.1645945864E-002  +9.8467221910E-001 -2.1669548503E-002  +1.4544331877E-002 +1.4999782970E-002 
186164556.664 +1.4607822661E-002 +1.5463905339E-002  +9.8470727967E-001 -2.2312501645E-002  +9.8466735676E-001 -2.2318870168E-002  +1.4577497960E-002 +1.5544398453E-002 
192040067.725 +1.4589360004E-002 +1.5965343352E-002  +9.8452314472E-001 -2.3030544842E-002  +9.8459926582E-001 -2.3045348103E-002  +1.4613106919E-002 +1.5977297294E-002 
198101014.891 +1.4660217774E-002 +1.6433054129E-002  +9.8465107562E-001 -2.3720393218E-002  +9.8445301187E-001 -2.3834121221E-002  +1.4619044974E-002 +1.6504297482E-002 
204353250.682 +1.4595538231E-002 +1.7033082056E-002  +9.8458786910E-001 -2.4474224749E-002  +9.8449950792E-001 -2.4508288283E-002  +1.4654140404E-002 +1.7064359139E-002 
210802812.329 +1.4663088473E-002 +1.7581527739E-002  +9.8449303259E-001 -2.5403568772E-002  +9.8438013470E-001 -2.5293493182E-002  +1.4643864302E-002 +1.7578201967E-002 
217455927.604 +1.4587996001E-002 +1.8168257579E-002  +9.8437054284E-001 -2.6108905211E-002  +9.8434893991E-001 -2.6105762859E-002  +1.4603238056E-002 +1.8139315691E-002 
224319020.831 +1.4616890164E-002 +1.8747274275E-002  +9.8426105727E-001 -2.6855386394E-002  +9.8431011974E-001 -2.6940384114E-002  +1.4628084358E-002 +1.8711920642E-002 
231398719.092 +1.4636676124E-002 +1.9336827335E-002  +9.8425767507E-001 -2.7687024552E-002  +9.8419718055E-001 -2.7797491481E-002  +1.4633700976E-002 +1.9285806073E-002 
238701858.626 +1.4676150826E-002 +1.9900005130E-002  +9.8418777101E-001 -2.8598238691E-002  +9.8419744070E-001 -2.8569133559E-002  +1.4626970299E-002 +1.9902349866E-002 
246235491.428 +1.4654010421E-002 +2.0568237169E-002  +9.8413785147E-001 -2.9557007500E-002  +9.8411319544E-001 -2.9554017719E-002  +1.4622905601E-002 +2.0611568657E-002 
254006892.062 +1.4646023543E-002 +2.1236033023E-002  +9.8416325735E-001 -3.0444406212E-002  +9.8400366900E-001 -3.0525924929E-002  +1.4678462365E-002 +2.1187087683E-002 
262023564.680 +1.4538882811E-002 +2.1952006448E-002  +9.8395154141E-001 -3.1331654375E-002  +9.8387440687E-001 -3.1453220421E-002  +1.4659706366E-002 +2.1888736059E-002 
270293250.275 +1.4623514906E-002 +2.2641744125E-002  +9.8398578964E-001 -3.2345761913E-002  +9.8391901896E-001 -3.2320510690E-002  +1.4658728494E-002 +2.2703048931E-002 
278823934.151 +1.4711870564E-002 +2.3431123238E-002  +9.8390222690E-001 -3.3397301564E-002  +9.8378326481E-001 -3.3401001984E-002  +1.4654778769E-002 +2.3407988065E-002 
287623853.634 +1.4758234913E-002 +2.4214881600E-002  +9.8381851400E-001 -3.4341233186E-002  +9.8376043812E-001 -3.4450270364E-002  +1.4686932236E-002 +2.4146025324E-002 
296701506.028 +1.4751543490E-002 +2.4948692402E-002  +9.8378659867E-001 -3.5487882936E-002  +9.8363736292E-001 -3.5543448965E-002  +1.4801685927E-002 +2.4931014547E-002 
306065656.819 +1.4802427789E-002 +2.5769119851E-002  +9.8366492148E-001 -3.6552578756E-002  +9.8356275877E-001 -3.6604969728E-002  +1.4816672468E-002 +2.5749752983E-002 
315725348.139 +1.4845512966E-002 +2.6573604986E-002  +9.8329536262E-001 -3.7823633930E-002  +9.8349957424E-001 -3.7779748159E-002  +1.4812309366E-002 +2.6526761176E-002 
325689907.497 +1.4874108577E-002 +2.7430597397E-002  +9.8334946404E-001 -3.8982737532E-002  +9.8336201461E-001 -3.9000005742E-002  +1.4913125338E-002 +2.7438926345E-002 
335968956.787 +1.4916872614E-002 +2.8287619784E-002  +9.8338141947E-001 -4.0208045001E-002  +9.8318989022E-001 -4.0195699799E-002  +1.4904614574E-002 +2.8238749799E-002 
346572421.578 +1.4947220402E-002 +2.9111413831E-002  +9.8299863095E-001 -4.1526608316E-002  +9.8315044350E-001 -4.1465849975E-002  +1.4911040228E-002 +2.9200854435E-002 
357510540.696 +1.4955426042E-002 +3.0089514271E-002  +9.8297638357E-001 -4.2739386163E-002  +9.8286241835E-001 -4.2769378366E-002  +1.4974282222E-002 +3.0081724512E-002 
368793876.117 +1.5002374357E-002 +3.1067900444E-002  +9.8288266252E-001 -4.4098631521E-002  +9.8267337285E-001 -4.4109215966E-002  +1.5003965490E-002 +3.1066290272E-002 
380433323.160 +1.5040729734E-002 +3.2065648223E-002  +9.8264880747E-001 -4.5451670914E-002  +9.8261151597E-001 -4.5450028717E-002  +1.5074675387E-002 +3.2060388142E-002 
392440121.007 +1.5125453301E-002 +3.3098761145E-002  +9.8248090235E-001 -4.6887477587E-002  +9.8246043826E-001 -4.6904123214E-002  +1.5063358148E-002 +3.3080998035E-002 
404825863.563 +1.5118682814E-002 +3.4157508631E-002  +9.8217038484E-001 -4.8349060106E-002  +9.8235196037E-001 -4.8392167675E-002  +1.5126735701E-002 +3.4129515939E-002 
417602510.642 +1.5152303090E-002 +3.5174105646E-002  +9.8196650903E-001 -4.9870396171E-002  +9.8209755978E-001 -4.9987357013E-002  +1.5195898624E-002 +3.5170026536E-002 
430782399.524 +1.5203125979E-002 +3.6432853125E-002  +9.8192257765E-001 -5.1262189710E-002  +9.8178758532E-001 -5.1470287171E-002  +1.5183620410E-002 +3.6285059327E-002 
444378256.859 +1.5277730737E-002 +3.7613804818E-002  +9.8170278977E-001 -5.2931507248E-002  +9.8157784415E-001 -5.3000501344E-002  +1.5289532645E-002 +3.7567371104E-002 
458403210.966 +1.5316811036E-002 +3.8837408995E-002  +9.8138262647E-001 -5.4581192704E-002  +9.8142578514E-001 -5.4539030011E-002  +1.5353699536E-002 +3.8766621225E-002 
472870804.502 +1.5422386405E-002 +4.0079198410E-002  +9.8123760881E-001 -5.6282015449E-002  +9.8117935877E-001 -5.6344297891E-002  +1.5456750116E-002 +4.0043374132E-002 
487795007.541 +1.5557666786E-002 +4.1385948487E-002  +9.8098225498E-001 -5.8083655970E-002  +9.8091110377E-001 -5.8058742546E-002  +1.5521515401E-002 +4.1298948373E-002 
503190231.066 +1.5607297985E-002 +4.2664211220E-002  +9.8055256611E-001 -5.9874808776E-002  +9.8060749289E-001 -5.9818579837E-002  +1.5668912010E-002 +4.2631145968E-002 
519071340.884 +1.5706694091E-002 +4.3950736292E-002  +9.8035255199E-001 -6.1673707174E-002  +9.8035713740E-001 -6.1729275983E-002  +1.5739144494E-002 +4.3971635456E-002 
535453671.976 +1.5738763193E-002 +4.5369710473E-002  +9.7995937664E-001 -6.3567586351E-002  +9.7997917616E-001 -6.3546973715E-002  +1.5747926209E-002 +4.5339679618E-002 
552353043.311 +1.5830910265E-002 +4.6925612156E-002  +9.7964389208E-001 -6.5518128633E-002  +9.7965129501E-001 -6.5497670441E-002  +1.5811762627E-002 +4.6934258998E-002 
569785773.116 +1.5956965628E-002 +4.8417477355E-002  +9.7931824880E-001 -6.7500302833E-002  +9.7930773990E-001 -6.7461444482E-002  +1.5970368978E-002 +4.8430649708E-002 
587768694.637 +1.6017402576E-002 +5.0058866152E-002  +9.7893639286E-001 -6.9581186707E-002  +9.7893119577E-001 -6.9553381719E-002  +1.6091882148E-002 +5.0023191223E-002 
606319172.390 +1.6197774814E-002 +5.1817226923E-002  +9.7846371769E-001 -7.1453988494E-002  +9.7849484695E-001 -7.1526878425E-002  +1.6214000395E-002 +5.1738722905E-002 
625455118.930 +1.6515195055E-002 +5.3487272011E-002  +9.7821240727E-001 -7.3643649309E-002  +9.7827764063E-001 -7.3678828389E-002  +1.6580014603E-002 +5.3479745370E-002 
645195012.148 +1.6734142811E-002 +5.5142935925E-002  +9.7789005299E-001 -7.5985130444E-002  +9.7791531506E-001 -7.6000312225E-002  +1.6812704084E-002 +5.5065720224E-002 
665557913.113 +1.6870388132E-002 +5.6858334275E-002  +9.7725823939E-001 -7.8356492330E-002  +9.7744858689E-001 -7.8390017581E-002  +1.6968502321E-002 +5.6752235248E-002 
686563484.476 +1.7024703617E-002 +5.8684890073E-002  +9.7695776667E-001 -8.0645739073E-002  +9.7693701935E-001 -8.0689392067E-002  +1.7114965330E-002 +5.8634008218E-002 
708232009.461 +1.7342661813E-002 +6.0636341280E-002  +9.7646261754E-001 -8.3074155379E-002  +9.7665862373E-001 -8.3174658501E-002  +1.7408720476E-002 +6.0556191354E-002 
730584411.443 +1.7654959715E-002 +6.2466490789E-002  +9.7599426111E-001 -8.5671945417E-002  +9.7607280028E-001 -8.5735423309E-002  +1.7706180416E-002 +6.2468095541E-002 
753642274.161 +1.7838671626E-002 +6.4448972173E-002  +9.7558258591E-001 -8.8373197259E-002  +9.7543935381E-001 -8.8363019013E-002  +1.7907365997E-002 +6.4413558571E-002 
777427862.554 +1.8123318636E-002 +6.6522033998E-002  +9.7504011893E-001 -9.1054730879E-002  +9.7480002279E-001 -9.0972000910E-002  +1.8166486685E-002 +6.6409820603E-002 
801964144.258 +1.8353247936E-002 +6.8614145437E-002  +9.7432346951E-001 -9.3820261369E-002  +9.7413373527E-001 -9.3814846422E-002  +1.8463931971E-002 +6.8558855804E-002 
827274811.792 +1.8643167036E-002 +7.0839703136E-002  +9.7366070119E-001 -9.6657256680E-002  +9.7373161879E-001 -9.6677415139E-002  +1.8748853917E-002 +7.0759282057E-002 
853384305.427 +1.8971529643E-002 +7.3074416749E-002  +9.7285472499E-001 -9.9531023647E-002  +9.7296330234E-001 -9.9544282532E-002  +1.9083530529E-002 +7.3002129336E-002 
880317836.792 +1.9290742073E-002 +7.5434508495E-002  +9.7215642944E-001 -1.0252190475E-001  +9.7224577959E-001 -1.0260402779E-001  +1.9364949511E-002 +7.5335939406E-002 
908101413.216 +1.9607378318E-002 +7.7914116516E-002  +9.7147839054E-001 -1.0550516975E-001  +9.7149153312E-001 -1.0552228568E-001  +1.9690407545E-002 +7.7834445528E-002 
936761862.839 +2.0068768199E-002 +8.0474786011E-002  +9.7057217247E-001 -1.0854679180E-001  +9.7068744876E-001 -1.0864585992E-001  +2.0134515740E-002 +8.0357874662E-002 
966326860.524 +2.0576642842E-002 +8.2945639124E-002  +9.6983678182E-001 -1.1186482280E-001  +9.7005337975E-001 -1.1192877890E-001  +2.0678377076E-002 +8.2882278644E-002 
996824954.573 +2.0985687948E-002 +8.5625427815E-002  +9.6896706575E-001 -1.1521282747E-001  +9.6895187632E-001 -1.1524454430E-001  +2.1065855289E-002 +8.5466309228E-002 
1028285594.298 +2.1489010383E-002 +8.8330522798E-002  +9.6799617589E-001 -1.1861586129E-001  +9.6805010234E-001 -1.1867930560E-001  +2.1604038533E-002 +8.8274093086E-002 
1060739158.454 +2.2007686740E-002 +9.1155337975E-002  +9.6695860483E-001 -1.2215284828E-001  +9.6703022991E-001 -1.2218052559E-001  +2.2165317622E-002 +9.1057499648E-002 
1094216984.579 +2.2538439196E-002 +9.4056653232E-002  +9.6581520024E-001 -1.2573798691E-001  +9.6588720417E-001 -1.2576895287E-001  +2.2654874574E-002 +9.3936894907E-002 
1128751399.246 +2.3112326900E-002 +9.7022472484E-002  +9.6469757244E-001 -1.2938700871E-001  +9.6474608809E-001 -1.2948754444E-001  +2.3241848610E-002 +9.6925417268E-002 
1164375749.286 +2.3711986415E-002 +1.0016058190E-001  +9.6353238683E-001 -1.3321717599E-001  +9.6351464308E-001 -1.3324635928E-001  +2.3838856200E-002 +1.0000311521E-001 
1201124433.981 +2.4400721441E-002 +1.0342250472E-001  +9.6238461676E-001 -1.3703370725E-001  +9.6232465073E-001 -1.3705528449E-001  +2.4531425343E-002 +1.0328119208E-001 
1239032938.286 +2.5118788458E-002 +1.0674695960E-001  +9.6099102277E-001 -1.4093334688E-001  +9.6097633645E-001 -1.4091215418E-001  +2.5240376025E-002 +1.0661786672E-001 
1278137867.090 +2.5928420802E-002 +1.1023860804E-001  +9.5961917967E-001 -1.4496097140E-001  +9.5964877691E-001 -1.4493306368E-001  +2.6057622391E-002 +1.1007432950E-001 
1318476980.562 +2.6837730252E-002 +1.1381233647E-001  +9.5825544964E-001 -1.4905969509E-001  +9.5842107432E-001 -1.4905356912E-001  +2.6961241051E-002 +1.1363360922E-001 
1360089230.617 +2.7830257692E-002 +1.1750948375E-001  +9.5681520245E-001 -1.5326185987E-001  +9.5694966654E-001 -1.5329900270E-001  +2.7935915503E-002 +1.1731827115E-001 
1403014798.522 +2.8865734734E-002 +1.2123631349E-001  +9.5522103687E-001 -1.5752250833E-001  +9.5526802564E-001 -1.5760370289E-001  +2.9019398561E-002 +1.2103567832E-001 
1447295133.702 +3.0004686632E-002 +1.2510421784E-001  +9.5391079874E-001 -1.6210785759E-001  +9.5374482979E-001 -1.6207994988E-001  +3.0167230666E-002 +1.2489217983E-001 
1492972993.759 +3.1249562408E-002 +1.2903712301E-001  +9.5229718403E-001 -1.6669323705E-001  +9.5223553088E-001 -1.6671938425E-001  +3.1403724280E-002 +1.2885934504E-001 
1540092485.762 +3.2527410164E-002 +1.3307228012E-001  +9.5052759928E-001 -1.7142891451E-001  +9.5037196206E-001 -1.7140617699E-001  +3.2724351452E-002 +1.3286302466E-001 
1588699108.835 +3.3913400778E-002 +1.3725790357E-001  +9.4864190524E-001 -1.7631183059E-001  +9.4856568429E-001 -1.7629040445E-001  +3.4072221267E-002 +1.3701440170E-001 
1638839798.095 +3.5354543720E-002 +1.4155957482E-001  +9.4675129040E-001 -1.8122955796E-001  +9.4660038319E-001 -1.8128283043E-001  +3.5519281968E-002 +1.4131547116E-001 
1690562969.969 +3.6894113338E-002 +1.4600440477E-001  +9.4473794689E-001 -1.8626171758E-001  +9.4448437341E-001 -1.8632029868E-001  +3.7038200691E-002 +1.4575186625E-001 
1743918568.949 +3.8578406183E-002 +1.5057012128E-001  +9.4267905199E-001 -1.9145762008E-001  +9.4254805243E-001 -1.9144286175E-001  +3.8820497777E-002 +1.5028895478E-001 
1798958115.817 +4.0310602679E-002 +1.5531707289E-001  +9.4030112809E-001 -1.9672591202E-001  +9.4018666933E-001 -1.9673730215E-001  +4.0507973591E-002 +1.5501035577E-001 
1855734757.394 +4.2403288751E-002 +1.6031904203E-001  +9.3797142667E-001 -2.0189864467E-001  +9.3794030767E-001 -2.0186715362E-001  +4.2565120436E-002 +1.6002676931E-001 
1914303317.860 +4.4826343320E-002 +1.6518467796E-001  +9.3598974259E-001 -2.0752267139E-001  +9.3587127017E-001 -2.0749379018E-001  +4.5001858708E-002 +1.6488271109E-001 
1974720351.694 +4.7184294632E-002 +1.6993505432E-001  +9.3368740152E-001 -2.1351205089E-001  +9.3345621842E-001 -2.1345864957E-001  +4.7406865618E-002 +1.6959612841E-001 
2037044198.279 +4.9614437637E-002 +1.7467872743E-001  +9.3105493394E-001 -2.1976663685E-001  +9.3077355606E-001 -2.1966272038E-001  +4.9805964335E-002 +1.7438585062E-001 
2101335038.241 +5.2078348031E-002 +1.7969320587E-001  +9.2814469120E-001 -2.2601094002E-001  +9.2791183178E-001 -2.2594546494E-001  +5.2275223724E-002 +1.7936185759E-001 
2167654951.557 +5.4523339388E-002 +1.8484922848E-001  +9.2491709924E-001 -2.3235089278E-001  +9.2469693957E-001 -2.3230777127E-001  +5.4785119419E-002 +1.8449822507E-001 
2236067977.500 +5.7232805404E-002 +1.9017913057E-001  +9.2171225194E-001 -2.3874293966E-001  +9.2155252759E-001 -2.3869228437E-001  +5.7499472154E-002 +1.8980390758E-001 
2306640176.477 +6.0059294857E-002 +1.9560355583E-001  +9.1820435962E-001 -2.4537639658E-001  +9.1818190721E-001 -2.4533579664E-001  +6.0407607738E-002 +1.9519883183E-001 
2379439693.817 +6.3168141670E-002 +2.0127565727E-001  +9.1467047577E-001 -2.5195991810E-001  +9.1463362787E-001 -2.5192581745E-001  +6.3422119079E-002 +2.0085901868E-001 
2454536825.575 +6.6437390106E-002 +2.0691676251E-001  +9.1095895873E-001 -2.5884153418E-001  +9.1082130849E-001 -2.5881996035E-001  +6.6718772984E-002 +2.0653939777E-001 
2532004086.407 +6.9773067141E-002 +2.1265319333E-001  +9.0695668429E-001 -2.6593128758E-001  +9.0671282797E-001 -2.6583532054E-001  +7.0104700902E-002 +2.1215615120E-001 
2611916279.594 +7.3290407195E-002 +2.1859871025E-001  +9.0267262326E-001 -2.7302369887E-001  +9.0235318661E-001 -2.7294864415E-001  +7.3576770723E-002 +2.1809006705E-001 
2694350569.271 +7.7012843654E-002 +2.2473704256E-001  +8.9817138941E-001 -2.8010014646E-001  +8.9795157123E-001 -2.8004212307E-001  +7.7350829712E-002 +2.2424360007E-001 
2779386554.939 +8.1021350018E-002 +2.3100494717E-001  +8.9324922101E-001 -2.8729124521E-001  +8.9316604323E-001 -2.8726740822E-001  +8.1301663300E-002 +2.3050256354E-001 
2867106348.328 +8.5345961512E-002 +2.3741092985E-001  +8.8845827956E-001 -2.9461152579E-001  +8.8832197254E-001 -2.9454638188E-001  +8.5639060139E-002 +2.3687533356E-001 
2957594652.681 +9.0037102540E-002 +2.4396383174E-001  +8.8341810223E-001 -3.0199363720E-001  +8.8330821258E-001 -3.0202892585E-001  +9.0318296371E-002 +2.4342451785E-001 
3050938844.549 +9.4877601671E-002 +2.5043286159E-001  +8.7809441847E-001 -3.0965630294E-001  +8.7805575792E-001 -3.0965851452E-001  +9.5258626216E-002 +2.4986742340E-001 
3147229058.161 +9.9963265424E-002 +2.5708243444E-001  +8.7245727374E-001 -3.1750376692E-001  +8.7242064653E-001 -3.1742523592E-001  +1.0027902837E-001 +2.5646480702E-001 
3246558272.458 +1.0543007414E-001 +2.6405318591E-001  +8.6675113043E-001 -3.2510997085E-001  +8.6664322803E-001 -3.2510320304E-001  +1.0576082248E-001 +2.6333367886E-001 
3349022400.874 +1.1149972622E-001 +2.7087678147E-001  +8.6091809287E-001 -3.3309048239E-001  +8.6075862590E-001 -3.3305053288E-001  +1.1174037500E-001 +2.7009492157E-001 
3454720383.955 +1.1749774574E-001 +2.7755242231E-001  +8.5450569117E-001 -3.4125148517E-001  +8.5418546139E-001 -3.4115128354E-001  +1.1788416758E-001 +2.7670505892E-001 
