! VERSION = 6.00
!Data measured by ggf on Mon Jan 22 14:08:55 2018 using model file NPN_MEAS_SCALE
BEGIN_HEADER
 ICCAP_INPUTS
  ve         V  E GROUND SMU_E 0.1 CON        0
  vc         V  C GROUND SMU_C 0.1 SYNC       1 0 vb
  vs         V  S GROUND SMU_S 0.015 CON        0
  vb         V  B GROUND SMU_B 0.015 LIN        1    -1         1.04       103  0.02      
 ICCAP_OUTPUTS
  ib         I  B GROUND SMU_B M
  ic         I  C GROUND SMU_C M
 ICCAP_VALUES
  TNOM "27"
  TEMP "27"
  TECHNO "SG13G2"
  LOT "EDJ802"
  WAFER "02"
  CHIP "(3.3)"
  MODULE "S439S"
  DEV_NAME "D43"
  DEV_GEOM_L "0.9"
  DEV_GEOM_W "0.07"
  NUM_OF_TRANS_RF "1"
  REMARKS "Nx=8; Power -30/-20dBm, Slope: 0.1dB/GHz"
  TIMEDATE "Mon Jan 22 13:50:26     2018"
  OPERATOR "ggf"
END_HEADER

BEGIN_DB
 ICCAP_VAR ve         0              
 ICCAP_VAR vs         0              

 #vb              vc              ib              ic             
  -1              -1              -1.3672e-005    -0.006638      
  -0.98           -0.98           -1.1182e-005    -0.005815      
  -0.96           -0.96           -8.993e-006     -0.0050406     
  -0.94           -0.94           -7.0874e-006    -0.0043162     
  -0.92           -0.92           -5.4528e-006    -0.0036442     
  -0.9            -0.9            -4.1016e-006    -0.0030344     
  -0.88           -0.88           -2.99e-006      -0.0024788     
  -0.86           -0.86           -2.1168e-006    -0.0019876     
  -0.84           -0.84           -1.4554e-006    -0.0015616     
  -0.82           -0.82           -9.7714e-007    -0.0012008     
  -0.8            -0.8            -6.4778e-007    -0.00090414    
  -0.78           -0.78           -4.3098e-007    -0.00066736    
  -0.76           -0.76           -2.9352e-007    -0.0004841     
  -0.74           -0.74           -2.0754e-007    -0.0003469     
  -0.72           -0.72           -1.535e-007     -0.0002457     
  -0.7            -0.7            -1.1776e-007    -0.00017194    
  -0.68           -0.68           -9.314e-008     -0.00011892    
  -0.66           -0.66           -7.5274e-008    -8.1182e-005   
  -0.64           -0.64           -6.1668e-008    -5.4536e-005   
  -0.62           -0.62           -5.0826e-008    -3.5972e-005   
  -0.6            -0.6            -4.2106e-008    -2.3292e-005   
  -0.58           -0.58           -3.4866e-008    -1.4646e-005   
  -0.56           -0.56           -2.8878e-008    -8.9668e-006   
  -0.54           -0.54           -2.3846e-008    -5.3084e-006   
  -0.52           -0.52           -1.962e-008     -3.03e-006     
  -0.5            -0.5            -1.6034e-008    -1.6698e-006   
  -0.48           -0.48           -1.3098e-008    -8.7938e-007   
  -0.46           -0.46           -1.0588e-008    -4.458e-007    
  -0.44           -0.44           -8.5688e-009    -2.1994e-007   
  -0.42           -0.42           -6.9148e-009    -1.0646e-007   
  -0.4            -0.4            -5.4938e-009    -5.0832e-008   
  -0.38           -0.38           -4.379e-009     -2.3968e-008   
  -0.36           -0.36           -3.416e-009     -1.126e-008    
  -0.34           -0.34           -2.6604e-009    -5.2502e-009   
  -0.32           -0.32           -2.0748e-009    -2.4224e-009   
  -0.3            -0.3            -1.5966e-009    -1.1022e-009   
  -0.28           -0.28           -1.2014e-009    -5.1076e-010   
  -0.26           -0.26           -9.0316e-010    -2.3678e-010   
  -0.24           -0.24           -6.776e-010     -1.0782e-010   
  -0.22           -0.22           -4.9088e-010    -4.714e-011    
  -0.2            -0.2            -3.5834e-010    -1.204e-011    
  -0.18           -0.18           -2.448e-010     -3.6e-012      
  -0.16           -0.16           -1.71e-010      6.86e-012      
  -0.14           -0.14           -1.0768e-010    3.82e-012      
  -0.12           -0.12           -7.414e-011     1.464e-011     
  -0.1            -0.1            -4.066e-011     1.384e-011     
  -0.08           -0.08           -1.788e-011     1.546e-011     
  -0.06           -0.06           -3.28e-012      1.074e-011     
  -0.04           -0.04           6.44e-012       1.36e-011      
  -0.02           -0.02           1.158e-011      1.3e-011       
  0               0               1.002e-011      1.736e-011     
  0.02            0.02            9.92e-012       1.316e-011     
  0.04            0.04            1.436e-011      1.278e-011     
  0.06            0.06            1.296e-011      1.42e-011      
  0.08            0.08            1.512e-011      1.414e-011     
  0.1             0.1             1.264e-011      1.596e-011     
  0.12            0.12            1.55e-011       1.628e-011     
  0.14            0.14            1.74e-011       1.672e-011     
  0.16            0.16            1.59e-011       1.698e-011     
  0.18            0.18            2.052e-011      1.586e-011     
  0.2             0.2             1.874e-011      1.762e-011     
  0.22            0.22            2.002e-011      1.662e-011     
  0.24            0.24            1.596e-011      1.536e-011     
  0.26            0.26            9.92e-012       1.642e-011     
  0.28            0.28            8.04e-012       1.6e-011       
  0.3             0.3             9.6e-012        1.874e-011     
  0.32            0.32            1.488e-011      2.582e-011     
  0.34            0.34            1.94e-011       4.59e-011      
  0.36            0.36            1.172e-011      8.634e-011     
  0.38            0.38            2.778e-011      1.7526e-010    
  0.4             0.4             1.496e-011      3.682e-010     
  0.42            0.42            1.924e-011      7.742e-010     
  0.44            0.44            3.138e-011      1.6478e-009    
  0.46            0.46            3.768e-011      3.5516e-009    
  0.48            0.48            4.338e-011      7.611e-009     
  0.5             0.5             6.44e-011       1.6334e-008    
  0.52            0.52            9.58e-011       3.5158e-008    
  0.54            0.54            1.7066e-010     7.5514e-008    
  0.56            0.56            3.1212e-010     1.628e-007     
  0.58            0.58            5.7638e-010     3.4866e-007    
  0.6             0.6             1.1884e-009     7.467e-007     
  0.62            0.62            2.3648e-009     1.6064e-006    
  0.64            0.64            4.9364e-009     3.4528e-006    
  0.66            0.66            1.0206e-008     7.4008e-006    
  0.68            0.68            2.114e-008      1.5774e-005    
  0.7             0.7             4.395e-008      3.3482e-005    
  0.72            0.72            9.0814e-008     7.0894e-005    
  0.74            0.74            1.8654e-007     0.00014826     
  0.76            0.76            3.801e-007      0.00030602     
  0.78            0.78            7.5406e-007     0.00061256     
  0.8             0.8             1.4412e-006     0.0011762      
  0.82            0.82            2.6298e-006     0.002134       
  0.84            0.84            4.5374e-006     0.0035868      
  0.86            0.86            7.4144e-006     0.0055764      
  0.88            0.88            1.159e-005      0.0080478      
  0.9             0.9             1.7608e-005     0.01095        
  0.92            0.92            2.626e-005      0.014258       
  0.94            0.94            3.8508e-005     0.0179         
  0.96            0.96            5.5534e-005     0.021834       
  0.98            0.98            7.9114e-005     0.026082       
  1               1               0.000110946     0.030582       
  1.02            1.02            0.00015256      0.03503        
  1.04            1.04            0.0002138       0.038942       
END_DB

