! VERSION = 6.00
!Data measured by ggf on Mon Jan 22 14:08:55 2018 using model file NPN_MEAS_SCALE
BEGIN_HEADER
 ICCAP_INPUTS
  vc         V  C GROUND SMU_C 0.1 CON        1.2
  ve         V  E GROUND SMU_E 0.1 CON        0
  vs         V  S GROUND SMU_S 0.015 CON        0
  freq       F  LIST       1 74 100000000 200000000 300000000 400000000 500000000 600000000 700000000 800000000 900000000 1000000000 2000000000 3000000000 4000000000 5000000000 6000000000 7000000000 8000000000 9000000000 10000000000 11000000000 12000000000 13000000000 14000000000 15000000000 16000000000 17000000000 18000000000 19000000000 20000000000 21000000000 22000000000 23000000000 24000000000 25000000000 26000000000 27000000000 28000000000 29000000000 30000000000 31000000000 32000000000 33000000000 34000000000 35000000000 36000000000 37000000000 38000000000 39000000000 40000000000 41000000000 42000000000 43000000000 44000000000 45000000000 46000000000 47000000000 48000000000 49000000000 50000000000 51000000000 52000000000 53000000000 54000000000 55000000000 56000000000 57000000000 58000000000 59000000000 60000000000 61000000000 62000000000 63000000000 64000000000 65000000000
  vb         V  B GROUND SMU_B 0.015 LIN        2    0.68       1.04       37   0.01      
 ICCAP_OUTPUTS
  ic         I  C GROUND SMU_C M
  ib         I  B GROUND SMU_B M
  S          S  B C GROUND NWA M
 ICCAP_VALUES
  TNOM "27"
  TEMP "27"
  TECHNO "SG13G2"
  LOT "EDJ802"
  WAFER "02"
  CHIP "(3.3)"
  MODULE "S439S"
  DEV_NAME "D43"
  DEV_GEOM_L "0.9"
  DEV_GEOM_W "0.07"
  NUM_OF_TRANS_RF "1"
  REMARKS "Nx=8; Power -30/-20dBm, Slope: 0.1dB/GHz"
  TIMEDATE "Mon Jan 22 13:50:26     2018"
  OPERATOR "ggf"
END_HEADER

BEGIN_DB
 ICCAP_VAR vc         1.2            
 ICCAP_VAR ve         0              
 ICCAP_VAR vs         0              
 ICCAP_VAR vb         0.68           

 #freq            ic              ib              R:S(1,1)        I:S(1,1)        R:S(1,2)        I:S(1,2)        R:S(2,1)        I:S(2,1)        R:S(2,2)        I:S(2,2)       
  1e+008          1.5854e-005     1.8706e-008     0.999335        -0.00458748     3.56174e-005    0.00121845      -0.0664249      0.000403276     0.999053        -0.00391106    
  2e+008          1.5854e-005     1.8706e-008     0.999797        -0.00824395     3.42591e-006    0.00227466      -0.0645365      0.00223476      0.999791        -0.00656877    
  3e+008          1.5854e-005     1.8706e-008     0.999897        -0.0122131      6.09207e-005    0.00355063      -0.0646727      0.00370875      0.999752        -0.00972191    
  4e+008          1.5854e-005     1.8706e-008     0.999616        -0.0156787      8.1155e-005     0.00466235      -0.0635671      0.00513835      0.999753        -0.0128994     
  5e+008          1.5854e-005     1.8706e-008     0.999481        -0.0198918      0.000126892     0.00589595      -0.0644143      0.00654756      0.99956         -0.0161318     
  6e+008          1.5854e-005     1.8706e-008     0.999419        -0.0237769      0.00017473      0.00707117      -0.0643357      0.00790627      0.999574        -0.0193579     
  7e+008          1.5854e-005     1.8706e-008     0.999125        -0.0276409      0.000236115     0.00828514      -0.0643502      0.00950321      0.999341        -0.0225778     
  8e+008          1.5854e-005     1.8706e-008     0.99902         -0.0313912      0.000304464     0.00941367      -0.0645415      0.0109914       0.999157        -0.0257334     
  9e+008          1.5854e-005     1.8706e-008     0.99888         -0.0354769      0.000344925     0.0105979       -0.0638487      0.0126298       0.999           -0.0290158     
  1e+009          1.5854e-005     1.8706e-008     0.998696        -0.0395228      0.000415437     0.0117645       -0.0644006      0.0141419       0.999119        -0.0320745     
  2e+009          1.5854e-005     1.8706e-008     0.995832        -0.0786258      0.00169413      0.023485        -0.061387       0.0283945       0.996477        -0.063937      
  3e+009          1.5854e-005     1.8706e-008     0.990946        -0.117295       0.00377005      0.0350474       -0.0600222      0.0421138       0.992737        -0.0955183     
  4e+009          1.5854e-005     1.8706e-008     0.984094        -0.156329       0.00667696      0.0463551       -0.0570194      0.0564167       0.987622        -0.126418      
  5e+009          1.5854e-005     1.8706e-008     0.976079        -0.193167       0.0103486       0.0574978       -0.0520262      0.0698825       0.981758        -0.156757      
  6e+009          1.5854e-005     1.8706e-008     0.966108        -0.230387       0.0147624       0.068207        -0.0465554      0.0830003       0.974384        -0.186939      
  7e+009          1.5854e-005     1.8706e-008     0.954716        -0.267964       0.0199976       0.0787714       -0.0409213      0.0957008       0.965668        -0.216632      
  8e+009          1.5854e-005     1.8706e-008     0.941626        -0.302672       0.0258713       0.0886797       -0.0340673      0.107872        0.956459        -0.245361      
  9e+009          1.5854e-005     1.8706e-008     0.92683         -0.338037       0.032409        0.0981817       -0.0264368      0.11943         0.945901        -0.273532      
  1e+010          1.5854e-005     1.8706e-008     0.911092        -0.372001       0.0395454       0.107023        -0.0172667      0.13018         0.934628        -0.301373      
  1.1e+010        1.5854e-005     1.8706e-008     0.893549        -0.403691       0.0471034       0.115428        -0.008684       0.141006        0.922292        -0.328085      
  1.2e+010        1.5854e-005     1.8706e-008     0.874767        -0.435293       0.0553762       0.123338        0.000429946     0.1506          0.908799        -0.354425      
  1.3e+010        1.5854e-005     1.8706e-008     0.854758        -0.464976       0.0639178       0.130527        0.0101285       0.15999         0.89515         -0.379278      
  1.4e+010        1.5854e-005     1.8706e-008     0.833987        -0.493842       0.0734271       0.13695         0.0214058       0.167922        0.880225        -0.403647      
  1.5e+010        1.5854e-005     1.8706e-008     0.811697        -0.521685       0.0829154       0.14238         0.0324993       0.174444        0.865049        -0.426877      
  1.6e+010        1.5854e-005     1.8706e-008     0.78987         -0.546798       0.0924295       0.147309        0.0436133       0.180459        0.848786        -0.449901      
  1.7e+010        1.5854e-005     1.8706e-008     0.767005        -0.571834       0.10243         0.151528        0.0558568       0.186108        0.833075        -0.471595      
  1.8e+010        1.5854e-005     1.8706e-008     0.743107        -0.594456       0.112159        0.154783        0.0667702       0.190799        0.815781        -0.492157      
  1.9e+010        1.5854e-005     1.8706e-008     0.718812        -0.617285       0.121806        0.157947        0.0785163       0.194578        0.798171        -0.512654      
  2e+010          1.5854e-005     1.8706e-008     0.694664        -0.637829       0.131754        0.160195        0.0901722       0.198227        0.780688        -0.531043      
  2.1e+010        1.5854e-005     1.8706e-008     0.669706        -0.656974       0.141651        0.161699        0.100755        0.200737        0.762214        -0.549522      
  2.2e+010        1.5854e-005     1.8706e-008     0.644799        -0.674801       0.151749        0.162454        0.113059        0.201763        0.744335        -0.566846      
  2.3e+010        1.5854e-005     1.8706e-008     0.620519        -0.691773       0.161053        0.162616        0.124196        0.203219        0.726223        -0.583359      
  2.4e+010        1.5854e-005     1.8706e-008     0.595796        -0.707459       0.170231        0.162562        0.13495         0.203112        0.708276        -0.598932      
  2.5e+010        1.5854e-005     1.8706e-008     0.571035        -0.723298       0.179268        0.162282        0.145637        0.203686        0.689065        -0.614725      
  2.6e+010        1.5854e-005     1.8706e-008     0.544929        -0.736448       0.188814        0.161206        0.15726         0.203279        0.670425        -0.629721      
  2.7e+010        1.5854e-005     1.8706e-008     0.520017        -0.748752       0.197598        0.159861        0.167489        0.202086        0.652836        -0.641623      
  2.8e+010        1.5854e-005     1.8706e-008     0.494781        -0.760239       0.206277        0.157072        0.177679        0.199726        0.630677        -0.655732      
  2.9e+010        1.5854e-005     1.8706e-008     0.470237        -0.770997       0.214088        0.155179        0.186283        0.198309        0.612578        -0.666866      
  3e+010          1.5854e-005     1.8706e-008     0.445926        -0.781028       0.222245        0.153118        0.196287        0.196568        0.594146        -0.679303      
  3.1e+010        1.5854e-005     1.8706e-008     0.420455        -0.790056       0.229883        0.149855        0.206399        0.192974        0.575502        -0.688538      
  3.2e+010        1.5854e-005     1.8706e-008     0.396206        -0.797938       0.238173        0.146851        0.215392        0.189234        0.556063        -0.698821      
  3.3e+010        1.5854e-005     1.8706e-008     0.371864        -0.804233       0.246262        0.143321        0.224615        0.186421        0.537598        -0.70961       
  3.4e+010        1.5854e-005     1.8706e-008     0.348459        -0.809272       0.253573        0.139283        0.233795        0.182762        0.519082        -0.717913      
  3.5e+010        1.5854e-005     1.8706e-008     0.325214        -0.814137       0.260128        0.134771        0.242013        0.177773        0.500042        -0.725152      
  3.6e+010        1.5854e-005     1.8706e-008     0.300968        -0.818665       0.2671          0.130627        0.249304        0.173472        0.481923        -0.732774      
  3.7e+010        1.5854e-005     1.8706e-008     0.279759        -0.823802       0.273697        0.125455        0.257923        0.16854         0.464094        -0.740148      
  3.8e+010        1.5854e-005     1.8706e-008     0.25753         -0.826975       0.280044        0.119864        0.265742        0.163106        0.44665         -0.746738      
  3.9e+010        1.5854e-005     1.8706e-008     0.236503        -0.829604       0.285203        0.114898        0.271845        0.156773        0.428459        -0.752706      
  4e+010          1.5854e-005     1.8706e-008     0.214084        -0.832435       0.290707        0.109325        0.277448        0.151659        0.411638        -0.758211      
  4.1e+010        1.5854e-005     1.8706e-008     0.191306        -0.833527       0.295757        0.103889        0.285116        0.145761        0.393697        -0.764698      
  4.2e+010        1.5854e-005     1.8706e-008     0.171304        -0.833824       0.301391        0.0975559       0.290646        0.138522        0.375122        -0.768354      
  4.3e+010        1.5854e-005     1.8706e-008     0.149184        -0.833442       0.305242        0.091116        0.296555        0.13279         0.359396        -0.772846      
  4.4e+010        1.5854e-005     1.8706e-008     0.130948        -0.833303       0.308938        0.0860518       0.301956        0.126323        0.342195        -0.776434      
  4.5e+010        1.5854e-005     1.8706e-008     0.111245        -0.834326       0.313541        0.0801956       0.306504        0.120938        0.326157        -0.780222      
  4.6e+010        1.5854e-005     1.8706e-008     0.090662        -0.833429       0.317481        0.0733901       0.310388        0.114422        0.310052        -0.783489      
  4.7e+010        1.5854e-005     1.8706e-008     0.0705456       -0.831007       0.320091        0.0670426       0.314871        0.106635        0.295052        -0.7862        
  4.8e+010        1.5854e-005     1.8706e-008     0.0514333       -0.830518       0.323013        0.061741        0.319031        0.100252        0.278997        -0.790141      
  4.9e+010        1.5854e-005     1.8706e-008     0.0366859       -0.82705        0.326196        0.0546471       0.321287        0.0939448       0.26438         -0.792257      
  5e+010          1.5854e-005     1.8706e-008     0.0151534       -0.825901       0.328789        0.0484543       0.327461        0.088207        0.248103        -0.795669      
  5.1e+010        1.5854e-005     1.8706e-008     0.000371884     -0.822229       0.331024        0.042254        0.330508        0.0805477       0.231556        -0.79866       
  5.2e+010        1.5854e-005     1.8706e-008     -0.0150508      -0.818905       0.332986        0.0351837       0.330938        0.0730103       0.217804        -0.799781      
  5.3e+010        1.5854e-005     1.8706e-008     -0.0314667      -0.817278       0.334554        0.0286519       0.335344        0.067855        0.201515        -0.803862      
  5.4e+010        1.5854e-005     1.8706e-008     -0.0484035      -0.812931       0.335749        0.0224832       0.336179        0.0596066       0.186664        -0.804069      
  5.5e+010        1.5854e-005     1.8706e-008     -0.0621914      -0.810783       0.336278        0.0164774       0.336721        0.0527437       0.16958         -0.802856      
  5.6e+010        1.5854e-005     1.8706e-008     -0.0767037      -0.80856        0.335985        0.0117058       0.336908        0.0485075       0.160795        -0.804007      
  5.7e+010        1.5854e-005     1.8706e-008     -0.0929369      -0.807818       0.338261        0.0075183       0.342133        0.045892        0.147283        -0.807336      
  5.8e+010        1.5854e-005     1.8706e-008     -0.106322       -0.807015       0.342178        0.00166251      0.343669        0.0383139       0.131941        -0.810714      
  5.9e+010        1.5854e-005     1.8706e-008     -0.124608       -0.801302       0.34453         -0.00636294     0.347912        0.0294161       0.116908        -0.811376      
  6e+010          1.5854e-005     1.8706e-008     -0.140192       -0.797606       0.344479        -0.0143989      0.348988        0.0199462       0.103028        -0.811062      
  6.1e+010        1.5854e-005     1.8706e-008     -0.155805       -0.795486       0.344597        -0.0211764      0.348522        0.0158245       0.0885471       -0.812957      
  6.2e+010        1.5854e-005     1.8706e-008     -0.169614       -0.789437       0.343384        -0.0280339      0.349349        0.00797724      0.0742933       -0.814945      
  6.3e+010        1.5854e-005     1.8706e-008     -0.183277       -0.786958       0.343394        -0.0340374      0.35133         0.00165366      0.0583862       -0.812719      
  6.4e+010        1.5854e-005     1.8706e-008     -0.199915       -0.781216       0.344283        -0.0404286      0.34988         -0.00825966     0.0481495       -0.815203      
  6.5e+010        1.5854e-005     1.8706e-008     -0.215821       -0.776934       0.34158         -0.0489205      0.349279        -0.0129495      0.0305602       -0.815243      
END_DB

BEGIN_DB
 ICCAP_VAR vc         1.2            
 ICCAP_VAR ve         0              
 ICCAP_VAR vs         0              
 ICCAP_VAR vb         0.69           

 #freq            ic              ib              R:S(1,1)        I:S(1,1)        R:S(1,2)        I:S(1,2)        R:S(2,1)        I:S(2,1)        R:S(2,2)        I:S(2,2)       
  1e+008          2.3078e-005     2.74e-008       0.999217        -0.00426957     -6.29148e-006   0.00120125      -0.0963225      0.000215551     0.998914        -0.00392472    
  2e+008          2.3078e-005     2.74e-008       0.999719        -0.00844132     -2.53491e-006   0.00238387      -0.0934769      0.00196345      0.999636        -0.00584068    
  3e+008          2.3078e-005     2.74e-008       0.999704        -0.0124078      5.79763e-005    0.0035396       -0.0938517      0.0036015       0.999786        -0.00977836    
  4e+008          2.3078e-005     2.74e-008       0.999623        -0.0157178      8.38502e-005    0.00469638      -0.0925137      0.00539433      0.999721        -0.0129842     
  5e+008          2.3078e-005     2.74e-008       0.999637        -0.0200388      0.000125694     0.00588976      -0.0937487      0.00694495      0.999474        -0.0162568     
  6e+008          2.3078e-005     2.74e-008       0.99935         -0.0239433      0.00018828      0.00709317      -0.0935271      0.00834762      0.999483        -0.0194275     
  7e+008          2.3078e-005     2.74e-008       0.999233        -0.0278727      0.000226699     0.00826408      -0.0936176      0.010092        0.999343        -0.0227542     
  8e+008          2.3078e-005     2.74e-008       0.998919        -0.0318164      0.000301649     0.00944353      -0.0938372      0.0117933       0.999208        -0.0258094     
  9e+008          2.3078e-005     2.74e-008       0.998951        -0.0357666      0.000342363     0.0106229       -0.0929533      0.013555        0.99893         -0.0291784     
  1e+009          2.3078e-005     2.74e-008       0.998701        -0.0399392      0.000450551     0.0118012       -0.0939049      0.0152337       0.999037        -0.0322849     
  2e+009          2.3078e-005     2.74e-008       0.995636        -0.0794695      0.00177187      0.0234853       -0.0900304      0.0305835       0.996396        -0.0642859     
  3e+009          2.3078e-005     2.74e-008       0.99069         -0.118476       0.00381232      0.0350551       -0.0890117      0.0454979       0.992571        -0.0959528     
  4e+009          2.3078e-005     2.74e-008       0.983839        -0.15692        0.00673387      0.0464179       -0.0857193      0.0608384       0.987476        -0.127055      
  5e+009          2.3078e-005     2.74e-008       0.975568        -0.195168       0.0104517       0.0574767       -0.0801217      0.0755374       0.981484        -0.157553      
  6e+009          2.3078e-005     2.74e-008       0.965565        -0.232369       0.0148698       0.0682493       -0.0742813      0.0896496       0.974075        -0.187834      
  7e+009          2.3078e-005     2.74e-008       0.953671        -0.26963        0.0201046       0.0787543       -0.0682958      0.103439        0.965319        -0.217698      
  8e+009          2.3078e-005     2.74e-008       0.940325        -0.305548       0.0260221       0.0886533       -0.0608746      0.116651        0.955911        -0.246683      
  9e+009          2.3078e-005     2.74e-008       0.925265        -0.341106       0.0325862       0.0981496       -0.0527496      0.129244        0.94513         -0.274832      
  1e+010          2.3078e-005     2.74e-008       0.90917         -0.375296       0.0397566       0.106947        -0.0428712      0.140785        0.933884        -0.30285       
  1.1e+010        2.3078e-005     2.74e-008       0.891446        -0.407228       0.0473454       0.115337        -0.033867       0.152249        0.921252        -0.329615      
  1.2e+010        2.3078e-005     2.74e-008       0.872302        -0.438906       0.0556599       0.123229        -0.0242106      0.16296         0.907676        -0.355988      
  1.3e+010        2.3078e-005     2.74e-008       0.852015        -0.46883        0.0641954       0.130374        -0.0140115      0.173022        0.893861        -0.380892      
  1.4e+010        2.3078e-005     2.74e-008       0.830976        -0.497405       0.0737183       0.136744        -0.00180917     0.181778        0.878742        -0.405343      
  1.5e+010        2.3078e-005     2.74e-008       0.808212        -0.525363       0.0832308       0.142097        0.0104701       0.188627        0.863441        -0.42859       
