! VERSION = 6.00
!Data measured by ggf on Mon Jan 22 14:08:55 2018 using model file NPN_MEAS_SCALE
BEGIN_HEADER
 ICCAP_INPUTS
  vc         V  C GROUND SMU_C 0.1 SYNC       1 0.5 vb
  ve         V  E GROUND SMU_E 0 CON        0
  vs         V  S GROUND SMU_S 0 CON        0
  freq       F  LIST       1 74 100000000 200000000 300000000 400000000 500000000 600000000 700000000 800000000 900000000 1000000000 2000000000 3000000000 4000000000 5000000000 6000000000 7000000000 8000000000 9000000000 10000000000 11000000000 12000000000 13000000000 14000000000 15000000000 16000000000 17000000000 18000000000 19000000000 20000000000 21000000000 22000000000 23000000000 24000000000 25000000000 26000000000 27000000000 28000000000 29000000000 30000000000 31000000000 32000000000 33000000000 34000000000 35000000000 36000000000 37000000000 38000000000 39000000000 40000000000 41000000000 42000000000 43000000000 44000000000 45000000000 46000000000 47000000000 48000000000 49000000000 50000000000 51000000000 52000000000 53000000000 54000000000 55000000000 56000000000 57000000000 58000000000 59000000000 60000000000 61000000000 62000000000 63000000000 64000000000 65000000000
  vb         V  B GROUND SMU_B 0.015 LIN        2    0.68       1.04       37   0.01      
 ICCAP_OUTPUTS
  ic         I  C GROUND SMU_C M
  ib         I  B GROUND SMU_B M
  S          S  B C GROUND NWA M
  S_deemb    S B C GROUND n/a B
 ICCAP_VALUES
  TNOM "27"
  TEMP "27"
  TECHNO "SG13G2"
  LOT "EDJ802"
  WAFER "02"
  CHIP "(3.3)"
  MODULE "S439S"
  DEV_NAME "D43"
  DEV_GEOM_L "0.9"
  DEV_GEOM_W "0.07"
  NUM_OF_TRANS_RF "1"
  REMARKS "Nx=8; Power -30/-20dBm, Slope: 0.1dB/GHz"
  TIMEDATE "Mon Jan 22 13:50:26     2018"
  OPERATOR "ggf"
END_HEADER

BEGIN_DB
 ICCAP_VAR vc         1.18           
 ICCAP_VAR ve         0              
 ICCAP_VAR vs         0              
 ICCAP_VAR vb         0.68           

 #freq            ic              ib              R:S(1,1)        I:S(1,1)        R:S(1,2)        I:S(1,2)        R:S(2,1)        I:S(2,1)        R:S(2,2)        I:S(2,2)        R:S_deemb(1,1)  I:S_deemb(1,1)  R:S_deemb(1,2)  I:S_deemb(1,2)  R:S_deemb(2,1)  I:S_deemb(2,1)  R:S_deemb(2,2)  I:S_deemb(2,2) 
  1e+008          1.5798e-005     1.9038e-008     0.999479        -0.00419889     7.6987e-005     0.00120951      -0.0661982      0.000448323     0.998847        -0.0038509      0.999899        -0.00195204     9.22691e-005    0.00096144      -0.0662423      -3.0395e-005    0.999191        -0.00193242    
  2e+008          1.5798e-005     1.9038e-008     1.00004         -0.00836396     -5.73342e-006   0.00234913      -0.0641391      0.00208516      0.9995          -0.00656171     1.00015         -0.00473348     -3.27526e-005   0.00182799      -0.0643493      0.00144951      0.999646        -0.00311427    
  3e+008          1.5798e-005     1.9038e-008     0.999936        -0.0123233      4.87339e-005    0.00354061      -0.0646141      0.00372222      0.999377        -0.00908898     0.999943        -0.00721192     -1.59549e-005   0.00267638      -0.0647306      0.00262652      0.99977         -0.00458514    
  4e+008          1.5798e-005     1.9038e-008     0.999802        -0.0156154      4.6672e-005     0.00472177      -0.0634406      0.00512122      0.999526        -0.012901       1.00024         -0.00966687     -4.79238e-006   0.00359733      -0.0633754      0.00358674      0.999702        -0.0061619     
  5e+008          1.5798e-005     1.9038e-008     0.999663        -0.0199221      0.000112929     0.00589759      -0.0644208      0.00647828      0.999362        -0.0161708      0.999739        -0.0114707      3.29017e-005    0.00451952      -0.0644896      0.00446331      0.99972         -0.00778366    
  6e+008          1.5798e-005     1.9038e-008     0.999483        -0.0239526      0.000140208     0.00707194      -0.064357       0.00799766      0.999373        -0.0194389      1.00004         -0.0146434      5.61871e-005    0.00539045      -0.0644493      0.00575333      0.999744        -0.00937095    
  7e+008          1.5798e-005     1.9038e-008     0.999411        -0.027714       0.000194878     0.00827564      -0.0643605      0.00955134      0.999217        -0.0226135      0.999971        -0.0169649      8.50849e-005    0.00633638      -0.0645306      0.00679079      0.99965         -0.0108694     
  8e+008          1.5798e-005     1.9038e-008     0.99915         -0.0315947      0.000279596     0.00942725      -0.0644407      0.0109903       0.999208        -0.0257257      0.999928        -0.0194271      9.47051e-005    0.00718225      -0.0645973      0.00776064      0.999794        -0.0124416     
  9e+008          1.5798e-005     1.9038e-008     0.998972        -0.0353449      0.000402267     0.0106264       -0.0638323      0.0126408       0.998859        -0.0291978      0.999716        -0.0215131      0.000207575     0.00810561      -0.0640335      0.00925722      0.999585        -0.0141366     
  1e+009          1.5798e-005     1.9038e-008     0.998858        -0.0395749      0.000431347     0.0117926       -0.0644092      0.0141673       0.999063        -0.0322143      0.999834        -0.0239998      0.000181268     0.00900956      -0.0647294      0.0104085       0.999639        -0.0156881     
  2e+009          1.5798e-005     1.9038e-008     0.995762        -0.0788704      0.00170523      0.023465        -0.0613797      0.0284603       0.996277        -0.0640662      0.998475        -0.0482075      0.000693995     0.0179931       -0.0625393      0.021017        0.998648        -0.0311744     
  3e+009          1.5798e-005     1.9038e-008     0.99088         -0.117637       0.00379002      0.0350556       -0.0600726      0.0423741       0.99255         -0.0955094      0.996574        -0.0724487      0.00155963      0.0269787       -0.0627232      0.031138        0.997314        -0.0463392     
  4e+009          1.5798e-005     1.9038e-008     0.984325        -0.15579        0.00671302      0.0464255       -0.0570622      0.0564373       0.987301        -0.126548       0.993918        -0.0962199      0.00281247      0.0359546       -0.0617242      0.0418675       0.995343        -0.0614464     
  5e+009          1.5798e-005     1.9038e-008     0.976177        -0.193567       0.0103888       0.0575991       -0.0520309      0.0700173       0.981651        -0.156744       0.990512        -0.119784       0.00442119      0.0448405       -0.0591392      0.052316        0.993456        -0.0762523     
  6e+009          1.5798e-005     1.9038e-008     0.96619         -0.231359       0.0148107       0.0683416       -0.0464966      0.0830929       0.974342        -0.186666       0.986162        -0.143573       0.0063242       0.0536439       -0.056716       0.0625355       0.991061        -0.0907333     
  7e+009          1.5798e-005     1.9038e-008     0.954482        -0.26756        0.0200505       0.0788462       -0.0408951      0.095855        0.965494        -0.216591       0.981335        -0.166993       0.00863844      0.0624428       -0.0546124      0.072725        0.988099        -0.10565       
  8e+009          1.5798e-005     1.9038e-008     0.941567        -0.302533       0.0259219       0.0887765       -0.0339983      0.108011        0.956484        -0.245522       0.975601        -0.189425       0.0112776       0.0710067       -0.0515573      0.0827844       0.985171        -0.12011       
  9e+009          1.5798e-005     1.9038e-008     0.926798        -0.338548       0.0324704       0.0982808       -0.0262671      0.119619        0.945654        -0.273502       0.969517        -0.213751       0.0142731       0.079573        -0.0479654      0.0926944       0.98138         -0.134305      
  1e+010          1.5798e-005     1.9038e-008     0.910925        -0.37257        0.0395946       0.107072        -0.0170992      0.1304          0.934355        -0.301478       0.962338        -0.235792       0.0175244       0.0878338       -0.0434264      0.102383        0.977522        -0.148686      
  1.1e+010        1.5798e-005     1.9038e-008     0.893427        -0.403599       0.047181        0.115577        -0.00862656     0.141027        0.922067        -0.328111       0.954443        -0.257984       0.0211673       0.0960834       -0.039833       0.111968        0.973433        -0.162408      
  1.2e+010        1.5798e-005     1.9038e-008     0.874435        -0.435814       0.0555126       0.123476        0.00050625      0.150901        0.908367        -0.354501       0.946068        -0.280185       0.0251524       0.104253        -0.0358576      0.121634        0.968887        -0.176486      
  1.3e+010        1.5798e-005     1.9038e-008     0.85449         -0.465413       0.0640212       0.13066         0.0103202       0.159978        0.894906        -0.379279       0.936856        -0.3013         0.0293169       0.112243        -0.0313794      0.13105         0.964336        -0.189627      
  1.4e+010        1.5798e-005     1.9038e-008     0.83377         -0.494243       0.073544        0.137075        0.0214512       0.167934        0.879895        -0.403675       0.92717         -0.32258        0.034352        0.120024        -0.02569        0.139928        0.95912         -0.20338       
  1.5e+010        1.5798e-005     1.9038e-008     0.811444        -0.521737       0.0830357       0.142552        0.0326663       0.174585        0.864842        -0.42676        0.916571        -0.342734       0.0394512       0.127392        -0.0195902      0.148316        0.953891        -0.216189      
  1.6e+010        1.5798e-005     1.9038e-008     0.789327        -0.548256       0.0925472       0.147515        0.0439041       0.180577        0.84844         -0.449777       0.905968        -0.363903       0.0445875       0.134602        -0.013614       0.156407        0.948179        -0.22921       
  1.7e+010        1.5798e-005     1.9038e-008     0.766469        -0.57249        0.102638        0.151685        0.0560759       0.186305        0.832917        -0.471682       0.894403        -0.38316        0.0503906       0.14145         -0.00655554     0.164822        0.942834        -0.241964      
  1.8e+010        1.5798e-005     1.9038e-008     0.742227        -0.595876       0.112411        0.154888        0.0672472       0.190887        0.815442        -0.492134       0.882135        -0.402445       0.0561523       0.147963        -0.000472378    0.172463        0.936312        -0.254363      
  1.9e+010        1.5798e-005     1.9038e-008     0.718277        -0.617602       0.122073        0.158105        0.078758        0.194605        0.79775         -0.513232       0.870147        -0.420471       0.0618958       0.154682        0.00614494      0.179919        0.930225        -0.267508      
  2e+010          1.5798e-005     1.9038e-008     0.693889        -0.638502       0.131958        0.160274        0.0904719       0.198173        0.780351        -0.5308         0.857346        -0.439032       0.068168        0.160681        0.0132117       0.187169        0.923366        -0.278519      
  2.1e+010        1.5798e-005     1.9038e-008     0.669022        -0.657538       0.141858        0.161769        0.101053        0.200761        0.76189         -0.549443       0.844202        -0.456572       0.0746361       0.166564        0.0194365       0.194118        0.916546        -0.290567      
  2.2e+010        1.5798e-005     1.9038e-008     0.643916        -0.675398       0.152009        0.162512        0.113347        0.20167         0.744134        -0.566624       0.830583        -0.473249       0.0817009       0.171907        0.0279597       0.200253        0.909704        -0.301552      
  2.3e+010        1.5798e-005     1.9038e-008     0.619576        -0.692232       0.161408        0.162686        0.124571        0.203297        0.725777        -0.583257       0.817164        -0.489449       0.0883944       0.176904        0.0354418       0.206749        0.902706        -0.313032      
  2.4e+010        1.5798e-005     1.9038e-008     0.5947          -0.707971       0.17053         0.162599        0.135284        0.203383        0.70817         -0.598722       0.80294         -0.505079       0.09498         0.181519        0.0430692       0.211928        0.895892        -0.323798      
  2.5e+010        1.5798e-005     1.9038e-008     0.570276        -0.724371       0.179648        0.162338        0.146355        0.203379        0.688698        -0.614507       0.789789        -0.521814       0.101679        0.186414        0.0506507       0.217678        0.888132        -0.334971      
  2.6e+010        1.5798e-005     1.9038e-008     0.544423        -0.737113       0.1891          0.161249        0.157423        0.203606        0.669936        -0.630144       0.774749        -0.536091       0.108814        0.190919        0.0584273       0.223686        0.880616        -0.346222      
  2.7e+010        1.5798e-005     1.9038e-008     0.519122        -0.749279       0.197942        0.159909        0.167761        0.202149        0.652541        -0.641415       0.759517        -0.550596       0.11594         0.195072        0.0666998       0.227934        0.872926        -0.355223      
  2.8e+010        1.5798e-005     1.9038e-008     0.493394        -0.760426       0.20665         0.157071        0.177428        0.199774        0.630285        -0.655574       0.743628        -0.564271       0.123724        0.198686        0.0741838       0.231951        0.86479         -0.366202      
  2.9e+010        1.5798e-005     1.9038e-008     0.469281        -0.77133        0.214417        0.155116        0.186572        0.198261        0.611889        -0.66713        0.729086        -0.577586       0.13058         0.202309        0.0817776       0.23728         0.857012        -0.375999      
  3e+010          1.5798e-005     1.9038e-008     0.445319        -0.781027       0.222559        0.153061        0.196648        0.196584        0.593616        -0.679135       0.714364        -0.590336       0.137935        0.205799        0.090541        0.241454        0.849372        -0.385534      
  3.1e+010        1.5798e-005     1.9038e-008     0.419368        -0.790279       0.230256        0.149853        0.20715         0.193045        0.575002        -0.688093       0.697352        -0.603485       0.145231        0.20863         0.10056         0.244881        0.840694        -0.394254      
  3.2e+010        1.5798e-005     1.9038e-008     0.39569         -0.79838        0.23858         0.146876        0.215584        0.189561        0.555717        -0.698641       0.681765        -0.614798       0.152979        0.211844        0.107705        0.248223        0.832754        -0.403941      
  3.3e+010        1.5798e-005     1.9038e-008     0.370796        -0.80468        0.246561        0.143462        0.224984        0.186498        0.537795        -0.709177       0.664952        -0.626269       0.161058        0.214821        0.116572        0.252289        0.825147        -0.412946      
  3.4e+010        1.5798e-005     1.9038e-008     0.347656        -0.808778       0.253782        0.139145        0.23395         0.182529        0.518804        -0.717613       0.648948        -0.635214       0.168984        0.216474        0.125781        0.25458         0.816313        -0.421951      
  3.5e+010        1.5798e-005     1.9038e-008     0.324537        -0.814447       0.260439        0.13467         0.242353        0.17748         0.499534        -0.725019       0.633344        -0.645739       0.176594        0.218314        0.134975        0.257061        0.807189        -0.430512      
  3.6e+010        1.5798e-005     1.9038e-008     0.300191        -0.818846       0.267566        0.130593        0.25034         0.173092        0.481806        -0.731359       0.616239        -0.655318       0.185214        0.220581        0.143842        0.259148        0.798377        -0.438251      
  3.7e+010        1.5798e-005     1.9038e-008     0.279073        -0.824277       0.273857        0.12532         0.258604        0.168294        0.463655        -0.739605       0.601635        -0.665305       0.192681        0.221183        0.153029        0.261323        0.789646        -0.447368      
  3.8e+010        1.5798e-005     1.9038e-008     0.256474        -0.826803       0.280445        0.119953        0.26595         0.163304        0.4463          -0.746426       0.584579        -0.672864       0.200856        0.221855        0.161577        0.262937        0.781425        -0.454654      
  3.9e+010        1.5798e-005     1.9038e-008     0.234995        -0.82986        0.285587        0.114686        0.271745        0.157344        0.428984        -0.752101       0.568753        -0.681208       0.208281        0.222526        0.169087        0.263398        0.772993        -0.461395      
  4e+010          1.5798e-005     1.9038e-008     0.212799        -0.832162       0.291047        0.1092          0.278217        0.151511        0.4111          -0.757632       0.552906        -0.688428       0.216353        0.223221        0.178154        0.264424        0.763347        -0.469045      
  4.1e+010        1.5798e-005     1.9038e-008     0.190512        -0.83483        0.296155        0.103505        0.285757        0.144865        0.393422        -0.76439        0.536961        -0.697557       0.223892        0.223639        0.188062        0.264561        0.754768        -0.477047      
  4.2e+010        1.5798e-005     1.9038e-008     0.169995        -0.8339         0.301815        0.0974411       0.29129         0.138544        0.374707        -0.76797        0.52014         -0.70254        0.232568        0.223233        0.196927        0.264619        0.745117        -0.483627      
  4.3e+010        1.5798e-005     1.9038e-008     0.148133        -0.8332         0.305568        0.0910179       0.296916        0.13199         0.359475        -0.772345       0.502419        -0.709803       0.239478        0.22223         0.206122        0.264396        0.736983        -0.490112      
  4.4e+010        1.5798e-005     1.9038e-008     0.129512        -0.834594       0.309374        0.0856527       0.30128         0.125858        0.341823        -0.776047       0.489474        -0.715114       0.247142        0.222582        0.213975        0.264246        0.727207        -0.497169      
  4.5e+010        1.5798e-005     1.9038e-008     0.110041        -0.833907       0.313861        0.0800252       0.30615         0.120246        0.325962        -0.779694       0.473356        -0.720377       0.255324        0.221568        0.221621        0.26343         0.718905        -0.5033        
  4.6e+010        1.5798e-005     1.9038e-008     0.0884471       -0.834376       0.3177          0.0732304       0.311284        0.113023        0.310022        -0.782867       0.455754        -0.729162       0.262792        0.220184        0.230811        0.262863        0.709577        -0.509672      
  4.7e+010        1.5798e-005     1.9038e-008     0.0669727       -0.829949       0.320465        0.0665836       0.315586        0.106094        0.295431        -0.785832       0.435879        -0.731946       0.269822        0.218126        0.239069        0.261485        0.701149        -0.515636      
  4.8e+010        1.5798e-005     1.9038e-008     0.05034         -0.830794       0.323586        0.0613167       0.319645        0.0997236       0.279219        -0.789532       0.423273        -0.738179       0.277082        0.217805        0.247764        0.260487        0.691429        -0.521445      
