! VERSION = 6.00
!Data measured by ggf on Mon Jan 22 14:08:55 2018 using model file NPN_MEAS_SCALE
BEGIN_HEADER
 ICCAP_INPUTS
  vce        V  C GROUND SMU_C 0.015 LIN        2    1.8        -0.6       25   -0.1      
  vb         V  B GROUND SMU_B 0.015 CON        0
  ve         V  E GROUND SMU_E 0 CON        0
  vs         V  S GROUND SMU_S 0 CON        0
  freq       F  LIST       1 74 100000000 200000000 300000000 400000000 500000000 600000000 700000000 800000000 900000000 1000000000 2000000000 3000000000 4000000000 5000000000 6000000000 7000000000 8000000000 9000000000 10000000000 11000000000 12000000000 13000000000 14000000000 15000000000 16000000000 17000000000 18000000000 19000000000 20000000000 21000000000 22000000000 23000000000 24000000000 25000000000 26000000000 27000000000 28000000000 29000000000 30000000000 31000000000 32000000000 33000000000 34000000000 35000000000 36000000000 37000000000 38000000000 39000000000 40000000000 41000000000 42000000000 43000000000 44000000000 45000000000 46000000000 47000000000 48000000000 49000000000 50000000000 51000000000 52000000000 53000000000 54000000000 55000000000 56000000000 57000000000 58000000000 59000000000 60000000000 61000000000 62000000000 63000000000 64000000000 65000000000
 ICCAP_OUTPUTS
  S          S  B C GROUND NWA M
  ic         I  C GROUND SMU_C M
  S_deemb    S B C GROUND n/a B
 ICCAP_VALUES
  TNOM "27"
  TEMP "27"
  TECHNO "SG13G2"
  LOT "EDJ802"
  WAFER "02"
  CHIP "(3.3)"
  MODULE "S439S"
  DEV_NAME "D43"
  DEV_GEOM_L "0.9"
  DEV_GEOM_W "0.07"
  NUM_OF_TRANS_RF "1"
  REMARKS "Nx=8; Power -30/-20dBm, Slope: 0.1dB/GHz"
  TIMEDATE "Mon Jan 22 13:50:26     2018"
  OPERATOR "ggf"
END_HEADER

BEGIN_DB
 ICCAP_VAR vce        1.8            
 ICCAP_VAR vb         0              
 ICCAP_VAR ve         0              
 ICCAP_VAR vs         0              

 #freq            R:S(1,1)        I:S(1,1)        R:S(1,2)        I:S(1,2)        R:S(2,1)        I:S(2,1)        R:S(2,2)        I:S(2,2)        ic              R:S_deemb(1,1)  I:S_deemb(1,1)  R:S_deemb(1,2)  I:S_deemb(1,2)  R:S_deemb(2,1)  I:S_deemb(2,1)  R:S_deemb(2,2)  I:S_deemb(2,2) 
  1e+008          0.999941        -0.00409174     -8.85957e-005   0.00110844      -0.000186646    0.00141362      0.998594        -0.00388029     2.1978e-008     1.00036         -0.00185212     -7.3154e-005    0.000859956     -0.000203325    0.00107369      0.998938        -0.00197063    
  2e+008          0.999966        -0.00784154     4.47924e-005    0.00218352      0.000146781     0.00228971      0.999774        -0.00626103     2.1978e-008     1.00007         -0.00422825     1.85789e-005    0.00166248      -5.28508e-005   0.0018831       0.999919        -0.00282971    
  3e+008          0.999897        -0.0113569      2.75629e-005    0.00333312      -2.66451e-005   0.00333448      0.999591        -0.00867597     2.1978e-008     0.999898        -0.00627392     -3.55384e-005   0.00246865      -0.000126003    0.00255151      0.999981        -0.00419944    
  4e+008          0.999539        -0.0143509      4.8672e-005     0.00445968      0.000124786     0.00445125      1.0002          -0.0129194      2.1978e-008     0.999972        -0.00843966     -4.33129e-007   0.00333495      0.000214241     0.00332301      1.00038         -0.00621223    
  5e+008          0.999924        -0.0188469      0.00010316      0.00559338      5.40404e-005    0.00563855      0.99974         -0.0153586      2.1978e-008     0.99999         -0.0104384      2.69854e-005    0.00421472      4.70665e-006    0.00416993      1.00009         -0.00701347    
  6e+008          0.99945         -0.0217513      0.000142023     0.00668023      0.000142692     0.00673759      0.999654        -0.0185252      2.1978e-008     0.99998         -0.0124964      6.4434e-005     0.0049984       8.91981e-005    0.00512299      1.00001         -0.00850956    
  7e+008          0.999297        -0.0252038      0.000168879     0.00777697      0.000244127     0.00778573      0.99969         -0.021539       2.1978e-008     0.999828        -0.0145186      6.81893e-005    0.00583689      0.000120451     0.00575709      1.00011         -0.00985303    
  8e+008          0.999103        -0.028686       0.000232016     0.00887725      0.000272789     0.00897635      0.999504        -0.0245674      2.1978e-008     0.999839        -0.0165911      5.87054e-005    0.00663102      0.000177775     0.00657659      1.00007         -0.0113532     
  9e+008          0.999053        -0.0322442      0.000303908     0.00998923      0.000343833     0.00997129      0.999374        -0.0278356      2.1978e-008     0.999748        -0.0184921      0.000124058     0.00746588      0.000216348     0.00752153      1.00007         -0.0128487     
  1e+009          0.998828        -0.0360918      0.000421971     0.011107        0.000447837     0.0112347       0.999457        -0.030808       2.1978e-008     0.999742        -0.020607       0.00018976      0.00832294      0.000208853     0.00852486      1               -0.0143673     
  2e+009          0.996329        -0.0718383      0.00150536      0.022115        0.00155563      0.0221772       0.997162        -0.0612349      2.1978e-008     0.998791        -0.0413268      0.000564475     0.0166302       0.000685599     0.0167494       0.99941         -0.0284887     
  3e+009          0.992414        -0.106641       0.00332276      0.0330297       0.00352481      0.0331278       0.99385         -0.0910027      2.1978e-008     0.997534        -0.0616251      0.00125255      0.0249114       0.00148907      0.0249159       0.998327        -0.0420283     
  4e+009          0.986757        -0.141392       0.00588459      0.043794        0.00594408      0.0440312       0.989559        -0.121378       2.1978e-008     0.995352        -0.0819741      0.00225571      0.033229        0.00234133      0.0334199       0.997149        -0.0564623     
  5e+009          0.979933        -0.176278       0.00915076      0.0543682       0.00908524      0.0546664       0.983886        -0.150778       2.1978e-008     0.992771        -0.102547       0.00359272      0.0414435       0.00356203      0.0417211       0.995032        -0.0704998     
  6e+009          0.971879        -0.210024       0.0130397       0.0646023       0.0130641       0.0649726       0.976909        -0.179979       2.1978e-008     0.989653        -0.12207        0.00512649      0.049624        0.00506813      0.0499325       0.992732        -0.0842385     
  7e+009          0.96212         -0.244732       0.0176665       0.0747089       0.0176856       0.0749874       0.969257        -0.208428       2.1978e-008     0.986234        -0.143702       0.00698422      0.0578645       0.00693243      0.0580967       0.990613        -0.0975373     
  8e+009          0.951191        -0.276533       0.0228495       0.0842678       0.0230203       0.0845932       0.960649        -0.236351       2.1978e-008     0.981691        -0.162579       0.00911861      0.0658627       0.00921878      0.0662149       0.987738        -0.110901      
  9e+009          0.939029        -0.309415       0.0287297       0.0934539       0.0287513       0.0938712       0.951133        -0.263747       2.1978e-008     0.977347        -0.183193       0.0116264       0.0738648       0.0116769       0.074234        0.984949        -0.124255      
  1e+010          0.92579         -0.341015       0.0350923       0.102148        0.0353026       0.102539        0.94089         -0.290844       2.1978e-008     0.971931        -0.202131       0.0142716       0.0817349       0.0144787       0.082106        0.981765        -0.137475      
  1.1e+010        0.910924        -0.370747       0.0419458       0.110482        0.0423851       0.111131        0.92955         -0.31714        2.1978e-008     0.966008        -0.222279       0.0173218       0.0894967       0.0176074       0.0899789       0.978313        -0.150572      
  1.2e+010        0.895171        -0.400312       0.0494408       0.118406        0.0497468       0.119009        0.917087        -0.343023       2.1978e-008     0.95988         -0.240818       0.0205992       0.0972877       0.0208372       0.0978667       0.974648        -0.163739      
  1.3e+010        0.878184        -0.428448       0.0571437       0.125669        0.0576575       0.126204        0.90436         -0.3677         2.1978e-008     0.952839        -0.259405       0.0240395       0.104942        0.0244217       0.105499        0.970546        -0.176435      
  1.4e+010        0.860807        -0.456152       0.0658015       0.132358        0.0663173       0.132823        0.890318        -0.391413       2.1978e-008     0.945798        -0.278305       0.0282288       0.112519        0.0285657       0.112893        0.965907        -0.189042      
  1.5e+010        0.841154        -0.483058       0.074521        0.138024        0.0744691       0.13877         0.876243        -0.414748       2.1978e-008     0.937274        -0.296618       0.0325486       0.1196          0.0323732       0.120254        0.961494        -0.2016        
  1.6e+010        0.822507        -0.508446       0.0833169       0.143356        0.0834225       0.143652        0.860976        -0.437294       2.1978e-008     0.929504        -0.315164       0.0369156       0.126664        0.0369578       0.126922        0.956576        -0.213559      
  1.7e+010        0.802336        -0.53216        0.0926534       0.148031        0.0927659       0.148546        0.845755        -0.459821       2.1978e-008     0.92011         -0.33251        0.0418302       0.133519        0.0419557       0.134027        0.951484        -0.226553      
  1.8e+010        0.781555        -0.555506       0.101714        0.15179         0.101576        0.152579        0.82997         -0.47975        2.1978e-008     0.910993        -0.350054       0.046674        0.140014        0.046397        0.140587        0.946353        -0.237593      
  1.9e+010        0.760789        -0.576921       0.110639        0.155542        0.111166        0.155762        0.812838        -0.500692       2.1978e-008     0.901828        -0.366046       0.0514695       0.146697        0.0518249       0.147069        0.940603        -0.250049      
  2e+010          0.73935         -0.598314       0.119967        0.158389        0.120786        0.159033        0.796709        -0.518826       2.1978e-008     0.891905        -0.38344        0.0568525       0.15286         0.0573564       0.153445        0.93507         -0.260883      
  2.1e+010        0.717631        -0.617619       0.129379        0.160628        0.129365        0.16127         0.778862        -0.53745        2.1978e-008     0.881866        -0.399407       0.0624583       0.15897         0.062191        0.159427        0.92873         -0.27231       
  2.2e+010        0.694997        -0.636041       0.139067        0.162245        0.139056        0.162452        0.762152        -0.555132       2.1978e-008     0.870812        -0.414968       0.0685889       0.164705        0.0684025       0.165017        0.92304         -0.283046      
  2.3e+010        0.673762        -0.653675       0.148017        0.163118        0.147928        0.163868        0.744484        -0.571898       2.1978e-008     0.860733        -0.430073       0.0743797       0.169911        0.0739742       0.170445        0.916714        -0.29399       
  2.4e+010        0.651385        -0.670243       0.15689         0.163896        0.156642        0.164461        0.72754         -0.587638       2.1978e-008     0.849265        -0.444854       0.0802071       0.175002        0.0797511       0.175434        0.910626        -0.304416      
  2.5e+010        0.629758        -0.687796       0.165675        0.164413        0.165775        0.165174        0.708732        -0.603806       2.1978e-008     0.839384        -0.460849       0.0860237       0.18023         0.0854449       0.181153        0.903657        -0.315307      
  2.6e+010        0.606113        -0.701722       0.175037        0.164173        0.174967        0.164837        0.690678        -0.619422       2.1978e-008     0.827062        -0.47455        0.0924744       0.185235        0.0918745       0.185744        0.896775        -0.325806      
  2.7e+010        0.583072        -0.715426       0.183642        0.163726        0.18383         0.164286        0.67405         -0.631499       2.1978e-008     0.814868        -0.488929       0.098667        0.189942        0.0985165       0.190252        0.890236        -0.334955      
  2.8e+010        0.559974        -0.727846       0.192253        0.161883        0.191824        0.16246         0.652402        -0.6465         2.1978e-008     0.802389        -0.501953       0.105556        0.194256        0.10437         0.194015        0.883128        -0.346043      
  2.9e+010        0.537576        -0.740376       0.200004        0.160929        0.199794        0.16185         0.634444        -0.658329       2.1978e-008     0.790411        -0.515425       0.111642        0.198687        0.110581        0.199741        0.875988        -0.355562      
  3e+010          0.515938        -0.751772       0.208363        0.159838        0.208267        0.160587        0.616163        -0.6712         2.1978e-008     0.779031        -0.52811        0.118446        0.203055        0.117726        0.203557        0.868758        -0.365615      
  3.1e+010        0.49128         -0.763072       0.215959        0.157372        0.21628         0.15817         0.599487        -0.68016        2.1978e-008     0.764517        -0.541976       0.124857        0.206388        0.124718        0.206929        0.862262        -0.372995      
  3.2e+010        0.469526        -0.772413       0.224541        0.155247        0.223903        0.155394        0.579813        -0.691667       2.1978e-008     0.751711        -0.552895       0.132088        0.210409        0.130842        0.210527        0.854448        -0.383479      
  3.3e+010        0.446499        -0.78001        0.232641        0.152702        0.231691        0.153308        0.56122         -0.703187       2.1978e-008     0.737907        -0.564026       0.139461        0.214215        0.137676        0.214767        0.846722        -0.393465      
  3.4e+010        0.424449        -0.786958       0.240316        0.149319        0.240323        0.150002        0.543152        -0.712077       2.1978e-008     0.724716        -0.574795       0.14692         0.216975        0.146295        0.217467        0.839222        -0.402138      
  3.5e+010        0.40252         -0.794498       0.24711         0.145549        0.247202        0.146535        0.524279        -0.719451       2.1978e-008     0.711731        -0.58603        0.153846        0.219541        0.153072        0.220803        0.830718        -0.410092      
  3.6e+010        0.378877        -0.80147        0.254404        0.142363        0.254069        0.142946        0.506881        -0.727101       2.1978e-008     0.697083        -0.597327       0.161675        0.222912        0.160299        0.223155        0.823176        -0.418753      
  3.7e+010        0.359171        -0.807744       0.261527        0.137837        0.261723        0.139165        0.488952        -0.735428       2.1978e-008     0.684764        -0.606811       0.169227        0.224609        0.16835         0.225998        0.814847        -0.427523      
  3.8e+010        0.337887        -0.811803       0.268479        0.133125        0.268232        0.135123        0.471665        -0.742977       2.1978e-008     0.670257        -0.614767       0.176996        0.226152        0.17548         0.228189        0.807253        -0.435242      
  3.9e+010        0.317134        -0.817577       0.274092        0.128695        0.273856        0.129817        0.454199        -0.748958       2.1978e-008     0.657021        -0.625087       0.183983        0.228071        0.182415        0.22928         0.79899         -0.442115      
  4e+010          0.295878        -0.822573       0.280122        0.123799        0.279567        0.124929        0.436123        -0.754482       2.1978e-008     0.644089        -0.634049       0.191853        0.229823        0.190093        0.230968        0.789302        -0.449614      
  4.1e+010        0.27309         -0.826411       0.285646        0.118805        0.285391        0.12038         0.420316        -0.760179       2.1978e-008     0.628905        -0.644018       0.198927        0.231202        0.196887        0.232312        0.782374        -0.454972      
  4.2e+010        0.25394         -0.827635       0.291995        0.113479        0.291565        0.115485        0.402327        -0.767233       2.1978e-008     0.615165        -0.650365       0.207346        0.232259        0.205441        0.234544        0.775877        -0.464731      
  4.3e+010        0.23059         -0.827754       0.29699         0.107201        0.296752        0.109188        0.386011        -0.772919       2.1978e-008     0.596854        -0.658789       0.215187        0.232405        0.214033        0.234475        0.767489        -0.473117      
  4.4e+010        0.21447         -0.832041       0.300883        0.102378        0.300045        0.103082        0.367837        -0.775739       2.1978e-008     0.588965        -0.665296       0.222068        0.233623        0.220526        0.233707        0.756833        -0.479231      
  4.5e+010        0.195065        -0.833585       0.305826        0.0976538       0.306204        0.0992435       0.35236         -0.779421       2.1978e-008     0.574628        -0.672837       0.229839        0.234129        0.228511        0.235751        0.749142        -0.485045      
  4.6e+010        0.173771        -0.835511       0.310776        0.0910009       0.310088        0.0929971       0.336033        -0.783028       2.1978e-008     0.558911        -0.682703       0.238029        0.233818        0.235536        0.235661        0.73985         -0.491958      
  4.7e+010        0.152191        -0.833318       0.313997        0.08464         0.314706        0.0871432       0.321956        -0.786573       2.1978e-008     0.54077         -0.687943       0.244946        0.23273         0.243259        0.235919        0.732569        -0.498121      
  4.8e+010        0.135716        -0.836486       0.317504        0.0799197       0.317773        0.0811868       0.30603         -0.790093       2.1978e-008     0.530315        -0.696459       0.251901        0.233644        0.250469        0.235007        0.723207        -0.503296      
  4.9e+010        0.12025         -0.8326         0.321746        0.0733573       0.320033        0.0755575       0.289671        -0.793879       2.1978e-008     0.516219        -0.698411       0.260809        0.231647        0.256856        0.234271        0.713947        -0.510424      
  5e+010          0.10006         -0.83558        0.32479         0.0670672       0.325171        0.0703233       0.274074        -0.796254       2.1978e-008     0.501222        -0.708463       0.267469        0.230943        0.265818        0.234403        0.704018        -0.514938      
  5.1e+010        0.0833085       -0.831241       0.327222        0.0610689       0.328663        0.0631664       0.258507        -0.801119       2.1978e-008     0.484936        -0.71096        0.274538        0.230022        0.273106        0.232475        0.697135        -0.521831      
  5.2e+010        0.0671855       -0.830933       0.330026        0.0551697       0.328729        0.0578597       0.247262        -0.799561       2.1978e-008     0.471481        -0.715674       0.282181        0.228637        0.278285        0.231483        0.689935        -0.521659      
