! VERSION = 6.00
!Data measured by ggf on Mon Jan 22 14:08:55 2018 using model file NPN_MEAS_SCALE
BEGIN_HEADER
 ICCAP_INPUTS
  vc         V  C GROUND SMU_C 0.1 SYNC       1 0.25 vb
  ve         V  E GROUND SMU_E 0 CON        0
  vs         V  S GROUND SMU_S 0 CON        0
  freq       F  LIST       1 74 100000000 200000000 300000000 400000000 500000000 600000000 700000000 800000000 900000000 1000000000 2000000000 3000000000 4000000000 5000000000 6000000000 7000000000 8000000000 9000000000 10000000000 11000000000 12000000000 13000000000 14000000000 15000000000 16000000000 17000000000 18000000000 19000000000 20000000000 21000000000 22000000000 23000000000 24000000000 25000000000 26000000000 27000000000 28000000000 29000000000 30000000000 31000000000 32000000000 33000000000 34000000000 35000000000 36000000000 37000000000 38000000000 39000000000 40000000000 41000000000 42000000000 43000000000 44000000000 45000000000 46000000000 47000000000 48000000000 49000000000 50000000000 51000000000 52000000000 53000000000 54000000000 55000000000 56000000000 57000000000 58000000000 59000000000 60000000000 61000000000 62000000000 63000000000 64000000000 65000000000
  vb         V  B GROUND SMU_B 0.015 LIN        2    0.68       1.04       37   0.01      
 ICCAP_OUTPUTS
  ic         I  C GROUND SMU_C M
  ib         I  B GROUND SMU_B M
  S          S  B C GROUND NWA M
  S_deemb    S B C GROUND n/a B
 ICCAP_VALUES
  TNOM "27"
  TEMP "27"
  TECHNO "SG13G2"
  LOT "EDJ802"
  WAFER "02"
  CHIP "(3.3)"
  MODULE "S439S"
  DEV_NAME "D43"
  DEV_GEOM_L "0.9"
  DEV_GEOM_W "0.07"
  NUM_OF_TRANS_RF "1"
  REMARKS "Nx=8; Power -30/-20dBm, Slope: 0.1dB/GHz"
  TIMEDATE "Mon Jan 22 13:50:26     2018"
  OPERATOR "ggf"
END_HEADER

BEGIN_DB
 ICCAP_VAR vc         0.93           
 ICCAP_VAR ve         0              
 ICCAP_VAR vs         0              
 ICCAP_VAR vb         0.68           

 #freq            ic              ib              R:S(1,1)        I:S(1,1)        R:S(1,2)        I:S(1,2)        R:S(2,1)        I:S(2,1)        R:S(2,2)        I:S(2,2)        R:S_deemb(1,1)  I:S_deemb(1,1)  R:S_deemb(1,2)  I:S_deemb(1,2)  R:S_deemb(2,1)  I:S_deemb(2,1)  R:S_deemb(2,2)  I:S_deemb(2,2) 
  1e+008          1.5778e-005     2.0834e-008     0.999343        -0.00428509     7.16525e-005    0.00120357      -0.0663144      0.000376031     0.999067        -0.00367304     0.999763        -0.00203858     8.69572e-005    0.000955475     -0.0663584      -0.00010296     0.999411        -0.00175404    
  2e+008          1.5778e-005     2.0834e-008     1.00005         -0.00818401     8.23136e-006    0.00239794      -0.0642486      0.00230822      0.999739        -0.00656719     1.00016         -0.00455343     -1.89157e-005   0.00187678      -0.0644595      0.0016722       0.999885        -0.00311889    
  3e+008          1.5778e-005     2.0834e-008     0.99985         -0.0121856      7.16066e-005    0.00360407      -0.0646586      0.00367035      0.999521        -0.00913347     0.999857        -0.00707457     6.65492e-006    0.00273993      -0.0647748      0.00257442      0.999915        -0.00462897    
  4e+008          1.5778e-005     2.0834e-008     0.999678        -0.0157435      6.36674e-005    0.00478593      -0.0635904      0.00526094      0.999701        -0.0130389      1.00012         -0.00979562     1.16452e-005    0.00366159      -0.0635264      0.00372542      0.999877        -0.00629855    
  5e+008          1.5778e-005     2.0834e-008     0.99979         -0.0205226      0.000112055     0.00599892      -0.0644315      0.00678606      0.999531        -0.0162664      0.999871        -0.0120702      3.0677e-005     0.00462066      -0.0645034      0.00477062      0.99989         -0.00787788    
  6e+008          1.5778e-005     2.0834e-008     0.999497        -0.0238779      0.00019056      0.00721656      -0.064245       0.00817927      0.999508        -0.0196289      1.00005         -0.0145685      0.000105047     0.00553547      -0.0643392      0.00593594      0.999881        -0.00955966    
  7e+008          1.5778e-005     2.0834e-008     0.99924         -0.0277936      0.000243623     0.00841136      -0.0642713      0.00970095      0.999334        -0.0227891      0.999801        -0.0170465      0.000132058     0.00647274      -0.0644433      0.00694147      0.999768        -0.0110437     
  8e+008          1.5778e-005     2.0834e-008     0.998966        -0.031695       0.000288714     0.00961715      -0.0644173      0.0111748       0.999181        -0.0259352      0.999746        -0.0195296      0.000101049     0.00737259      -0.0645767      0.00794574      0.99977         -0.0126516     
  9e+008          1.5778e-005     2.0834e-008     0.998896        -0.0356511      0.000338442     0.0107914       -0.0639042      0.0128174       0.999009        -0.029539       0.999645        -0.0218202      0.000140494     0.0082696       -0.064109       0.00943256      0.999741        -0.0144754     
  1e+009          1.5778e-005     2.0834e-008     0.998695        -0.0397822      0.000432676     0.0120077       -0.0644899      0.0143546       0.999015        -0.0324851      0.999675        -0.0242096      0.00017845      0.00922508      -0.064814       0.0105948       0.999596        -0.0159595     
  2e+009          1.5778e-005     2.0834e-008     0.995757        -0.0793163      0.00176372      0.0239093       -0.0613207      0.0288692       0.996312        -0.0647431      0.998486        -0.0486544      0.000735098     0.0184396       -0.062497       0.021428        0.998708        -0.031851      
  3e+009          1.5778e-005     2.0834e-008     0.990826        -0.118167       0.00388359      0.0356836       -0.060033       0.0429464       0.992461        -0.0965995      0.996551        -0.0729823      0.00161646      0.0276133       -0.062719       0.0317139       0.997285        -0.047436      
  4e+009          1.5778e-005     2.0834e-008     0.983975        -0.156645       0.00684414      0.0472718       -0.0567562      0.0574014       0.987066        -0.127998       0.99363         -0.097103       0.00287738      0.0368159       -0.0614938      0.0428582       0.995214        -0.0629178     
  5e+009          1.5778e-005     2.0834e-008     0.975705        -0.194654       0.0106364       0.0585875       -0.0516493      0.0711879       0.981035        -0.158442       0.990138        -0.120918       0.00457253      0.0458618       -0.0588714      0.0535314       0.992994        -0.0780119     
  6e+009          1.5778e-005     2.0834e-008     0.965743        -0.232431       0.0151543       0.0695661       -0.0460785      0.0843818       0.973573        -0.188628       0.985834        -0.144703       0.00652865      0.0549205       -0.0564475      0.0638853       0.990506        -0.0927881     
  7e+009          1.5778e-005     2.0834e-008     0.954006        -0.268792       0.0205135       0.0802672       -0.0403615      0.0973193       0.964525        -0.218648       0.981016        -0.168299       0.00891681      0.0639435       -0.0542734      0.0742793       0.987393        -0.107843      
  8e+009          1.5778e-005     2.0834e-008     0.940768        -0.304026       0.0265414       0.0903479       -0.0333132      0.109684        0.955176        -0.247738       0.975014        -0.191053       0.011666        0.0726997       -0.0511229      0.0845926       0.984184        -0.122533      
  9e+009          1.5778e-005     2.0834e-008     0.925797        -0.339257       0.0332542       0.100021        -0.0254961      0.121401        0.944247        -0.27592        0.968645        -0.214637       0.0147848       0.0814794       -0.0474798      0.094646        0.980364        -0.136978      
  1e+010          1.5778e-005     2.0834e-008     0.909814        -0.374069       0.0405793       0.108959        -0.0162674      0.132417        0.932732        -0.303933       0.961491        -0.237523       0.0181767       0.0899487       -0.0429589      0.104612        0.976341        -0.151467      
  1.1e+010        1.5778e-005     2.0834e-008     0.892039        -0.405974       0.0483521       0.117524        -0.00723395     0.142985        0.920139        -0.330682       0.953478        -0.260687       0.0219563       0.0983288       -0.0388337      0.114273        0.972005        -0.165407      
  1.2e+010        1.5778e-005     2.0834e-008     0.873069        -0.437585       0.0568248       0.125515        0.00201052      0.152933        0.906256        -0.357158       0.945052        -0.28231        0.0260453       0.106649        -0.0347805      0.124072        0.967334        -0.179657      
  1.3e+010        1.5778e-005     2.0834e-008     0.852967        -0.466867       0.0655455       0.132814        0.0118201       0.162173        0.892494        -0.382134       0.935645        -0.303173       0.0303772       0.114841        -0.0303651      0.1337          0.962566        -0.193115      
  1.4e+010        1.5778e-005     2.0834e-008     0.83193         -0.496134       0.0752762       0.139293        0.0234206       0.170336        0.877206        -0.406359       0.925743        -0.325019       0.0355808       0.122785        -0.0242732      0.142946        0.957072        -0.206825      
  1.5e+010        1.5778e-005     2.0834e-008     0.809212        -0.52408        0.0849723       0.144765        0.0350234       0.176889        0.861921        -0.429638       0.914855        -0.345783       0.040854        0.130256        -0.0177936      0.151393        0.951687        -0.219957      
  1.6e+010        1.5778e-005     2.0834e-008     0.787164        -0.549937       0.0946963       0.149729        0.0462249       0.182895        0.845287        -0.452633       0.904187        -0.366305       0.046199        0.137565        -0.0118657      0.159543        0.945771        -0.233085      
  1.7e+010        1.5778e-005     2.0834e-008     0.763845        -0.57438        0.104912        0.153913        0.0585464       0.188657        0.829497        -0.474475       0.892206        -0.385948       0.0521071       0.144527        -0.00468297     0.168104        0.940172        -0.245919      
  1.8e+010        1.5778e-005     2.0834e-008     0.739641        -0.597509       0.114899        0.157091        0.0699684       0.193227        0.8119          -0.494937       0.879911        -0.405023       0.0580843       0.151125        0.00164955      0.175862        0.933555        -0.258447      
  1.9e+010        1.5778e-005     2.0834e-008     0.71545         -0.61952        0.124732        0.160338        0.0816558       0.196968        0.794069        -0.515402       0.867751        -0.423477       0.063991        0.157984        0.00843924      0.18346         0.927161        -0.271069      
  2e+010          1.5778e-005     2.0834e-008     0.691121        -0.640104       0.134833        0.162432        0.0934218       0.200334        0.776394        -0.533468       0.854916        -0.441749       0.0704955       0.164035        0.0156054       0.190587        0.920183        -0.282757      
  2.1e+010        1.5778e-005     2.0834e-008     0.665964        -0.659052       0.14494         0.163883        0.104304        0.203011        0.757628        -0.55205        0.841429        -0.459352       0.0771966       0.170011        0.022121        0.197806        0.913045        -0.294942      
  2.2e+010        1.5778e-005     2.0834e-008     0.64077         -0.676758       0.15525         0.164601        0.11674         0.203866        0.739759        -0.569259       0.827652        -0.475957       0.0844371       0.175445        0.0308128       0.203999        0.90611         -0.306084      
  2.3e+010        1.5778e-005     2.0834e-008     0.616341        -0.693512       0.164696        0.164666        0.128199        0.204958        0.721337        -0.585633       0.81408         -0.492148       0.0912233       0.180402        0.0387355       0.210077        0.898945        -0.317398      
  2.4e+010        1.5778e-005     2.0834e-008     0.591224        -0.709181       0.174052        0.164476        0.138939        0.205202        0.703469        -0.601005       0.79956         -0.507845       0.0981022       0.185058        0.0463524       0.215506        0.891834        -0.328252      
  2.5e+010        1.5778e-005     2.0834e-008     0.566838        -0.724763       0.183282        0.164088        0.149727        0.205226        0.683936        -0.616794       0.78615         -0.523738       0.104989        0.189911        0.0536522       0.221234        0.884024        -0.339536      
  2.6e+010        1.5778e-005     2.0834e-008     0.540739        -0.737758       0.192983        0.162859        0.161588        0.205089        0.664893        -0.632261       0.770865        -0.538445       0.112458        0.194444        0.06243         0.227244        0.876122        -0.350834      
  2.7e+010        1.5778e-005     2.0834e-008     0.515371        -0.75027        0.201872        0.161426        0.171823        0.203595        0.647316        -0.643681       0.755659        -0.553398       0.119677        0.198594        0.0706116       0.231495        0.8683          -0.360145      
  2.8e+010        1.5778e-005     2.0834e-008     0.489801        -0.761365       0.210655        0.158596        0.182011        0.200945        0.625067        -0.657495       0.73987         -0.567018       0.12756         0.202303        0.0787976       0.235493        0.859999        -0.370881      
  2.9e+010        1.5778e-005     2.0834e-008     0.465416        -0.772022       0.218508        0.156425        0.190971        0.199864        0.606672        -0.66846        0.724914        -0.58022        0.134642        0.205774        0.0860674       0.241259        0.851955        -0.380132      
  3e+010          1.5778e-005     2.0834e-008     0.441224        -0.781534       0.226936        0.154249        0.201348        0.197699        0.588029        -0.68083        0.709798        -0.592906       0.14239         0.209343        0.0953984       0.245133        0.84405         -0.390322      
  3.1e+010        1.5778e-005     2.0834e-008     0.415521        -0.790492       0.234583        0.150702        0.211315        0.193764        0.569692        -0.689514       0.692904        -0.605629       0.149805        0.211808        0.10504         0.247912        0.835514        -0.398659      
  3.2e+010        1.5778e-005     2.0834e-008     0.391835        -0.798303       0.242885        0.147822        0.220232        0.190284        0.550249        -0.700026       0.677135        -0.616683       0.157527        0.215177        0.112764        0.251538        0.827358        -0.408494      
  3.3e+010        1.5778e-005     2.0834e-008     0.367005        -0.804673       0.251154        0.14418         0.229655        0.187055        0.531848        -0.710422       0.660349        -0.628236       0.166079        0.218106        0.121791        0.255507        0.819127        -0.417681      
  3.4e+010        1.5778e-005     2.0834e-008     0.343855        -0.809334       0.258242        0.139876        0.238921        0.183116        0.512835        -0.71895        0.644535        -0.637863       0.173868        0.21979         0.131336        0.258061        0.810289        -0.426892      
  3.5e+010        1.5778e-005     2.0834e-008     0.320441        -0.814306       0.264935        0.135282        0.247287        0.178118        0.493657        -0.725936       0.628237        -0.647759       0.181654        0.221532        0.140555        0.260599        0.801002        -0.435029      
  3.6e+010        1.5778e-005     2.0834e-008     0.295983        -0.818424       0.272078        0.13116         0.254993        0.173397        0.475954        -0.732232       0.610828        -0.657076       0.190365        0.223791        0.149333        0.262212        0.792155        -0.442755      
  3.7e+010        1.5778e-005     2.0834e-008     0.275165        -0.823071       0.278587        0.125622        0.263549        0.168161        0.457767        -0.740389       0.59611         -0.666034       0.198263        0.22422         0.159135        0.264052        0.783265        -0.451868      
  3.8e+010        1.5778e-005     2.0834e-008     0.252833        -0.825196       0.285033        0.120065        0.271133        0.162773        0.440334        -0.747151       0.579103        -0.672994       0.206419        0.224624        0.168212        0.26536         0.774875        -0.459191      
  3.9e+010        1.5778e-005     2.0834e-008     0.231367        -0.829174       0.290205        0.114879        0.276713        0.156583        0.422278        -0.753038       0.56369         -0.682393       0.213881        0.225503        0.175663        0.265561        0.765714        -0.466664      
  4e+010          1.5778e-005     2.0834e-008     0.208811        -0.831723       0.295707        0.109147        0.282661        0.151504        0.405174        -0.758118       0.547536        -0.690111       0.22215         0.225962        0.183748        0.267171        0.756666        -0.473424      
  4.1e+010        1.5778e-005     2.0834e-008     0.186684        -0.83273        0.300942        0.103528        0.290362        0.144596        0.38729         -0.7648         0.530859        -0.69724        0.229895        0.226509        0.194099        0.267065        0.747758        -0.481546      
  4.2e+010        1.5778e-005     2.0834e-008     0.166255        -0.832141       0.306236        0.0972587       0.296414        0.138652        0.368504        -0.768077       0.514263        -0.702582       0.238304        0.225693        0.203388        0.267873        0.737794        -0.487915      
  4.3e+010        1.5778e-005     2.0834e-008     0.145012        -0.831592       0.310264        0.0902739       0.301817        0.13167         0.353291        -0.772428       0.497261        -0.709635       0.245879        0.224212        0.212592        0.26704         0.729588        -0.494378      
  4.4e+010        1.5778e-005     2.0834e-008     0.125385        -0.832128       0.314126        0.0850982       0.307635        0.124583        0.335808        -0.776094       0.482519        -0.714431       0.253607        0.224816        0.222815        0.266645        0.719836        -0.501347      
  4.5e+010        1.5778e-005     2.0834e-008     0.106481        -0.832216       0.318606        0.079335        0.311582        0.120367        0.319781        -0.779567       0.467509        -0.720373       0.261865        0.223679        0.228574        0.266962        0.711272        -0.50748       
  4.6e+010        1.5778e-005     2.0834e-008     0.0855211       -0.832006       0.322239        0.0726494       0.314973        0.113268        0.303616        -0.782628       0.450369        -0.727981       0.269079        0.222266        0.235697        0.265452        0.701662        -0.513882      
  4.7e+010        1.5778e-005     2.0834e-008     0.0658528       -0.829987       0.325065        0.0661092       0.320574        0.104819        0.288986        -0.785278       0.433841        -0.732582       0.276023        0.220431        0.246299        0.26314         0.692835        -0.519525      
  4.8e+010        1.5778e-005     2.0834e-008     0.0469737       -0.828983       0.328321        0.0603979       0.324619        0.0988357       0.272811        -0.789063       0.41746         -0.73778        0.283902        0.219642        0.254956        0.262562        0.683166        -0.525448      
