! VERSION = 6.00
!Data measured by ggf on Mon Jan 22 14:08:55 2018 using model file NPN_MEAS_SCALE
BEGIN_HEADER
 ICCAP_INPUTS
  vbe        V  B GROUND SMU_B 0.015 LIN        2    0.6        -1.8       25   -0.1      
  vc         V  C GROUND SMU_C 0.015 CON        0
  ve         V  E GROUND SMU_E 0 CON        0
  vs         V  S GROUND SMU_S 0 CON        0
  freq       F  LIST       1 74 100000000 200000000 300000000 400000000 500000000 600000000 700000000 800000000 900000000 1000000000 2000000000 3000000000 4000000000 5000000000 6000000000 7000000000 8000000000 9000000000 10000000000 11000000000 12000000000 13000000000 14000000000 15000000000 16000000000 17000000000 18000000000 19000000000 20000000000 21000000000 22000000000 23000000000 24000000000 25000000000 26000000000 27000000000 28000000000 29000000000 30000000000 31000000000 32000000000 33000000000 34000000000 35000000000 36000000000 37000000000 38000000000 39000000000 40000000000 41000000000 42000000000 43000000000 44000000000 45000000000 46000000000 47000000000 48000000000 49000000000 50000000000 51000000000 52000000000 53000000000 54000000000 55000000000 56000000000 57000000000 58000000000 59000000000 60000000000 61000000000 62000000000 63000000000 64000000000 65000000000
 ICCAP_OUTPUTS
  S          S  B C GROUND NWA M
  ib         I  B GROUND SMU_B M
  S_deemb    S B C GROUND n/a B
 ICCAP_VALUES
  TNOM "27"
  TEMP "27"
  TECHNO "SG13G2"
  LOT "EDJ802"
  WAFER "02"
  CHIP "(3.3)"
  MODULE "S439S"
  DEV_NAME "D43"
  DEV_GEOM_L "0.9"
  DEV_GEOM_W "0.07"
  NUM_OF_TRANS_RF "1"
  REMARKS "Nx=8; Power -30/-20dBm, Slope: 0.1dB/GHz"
  TIMEDATE "Mon Jan 22 13:50:26     2018"
  OPERATOR "ggf"
END_HEADER

BEGIN_DB
 ICCAP_VAR vbe        0.6            
 ICCAP_VAR vc         0              
 ICCAP_VAR ve         0              
 ICCAP_VAR vs         0              

 #freq            R:S(1,1)        I:S(1,1)        R:S(1,2)        I:S(1,2)        R:S(2,1)        I:S(2,1)        R:S(2,2)        I:S(2,2)        ib              R:S_deemb(1,1)  I:S_deemb(1,1)  R:S_deemb(1,2)  I:S_deemb(1,2)  R:S_deemb(2,1)  I:S_deemb(2,1)  R:S_deemb(2,2)  I:S_deemb(2,2) 
  1e+008          0.999394        -0.00462227     0.000151994     0.00156662      0.000151192     0.00160378      0.994185        -0.00383027     1.703e-007      0.999815        -0.00238418     0.000166466     0.00131944      0.000134197     0.00126548      0.994528        -0.00192916    
  2e+008          1.00006         -0.00905038     0.000244028     0.00310146      4.03222e-005    0.00288779      0.994688        -0.00731131     1.703e-007      1.00018         -0.00543693     0.000214025     0.00258257      -0.000161442    0.00248213      0.994836        -0.00389782    
  3e+008          0.999708        -0.0129952      0.000294455     0.00460763      0.000236024     0.00464256      0.993955        -0.0103673      1.703e-007      0.999718        -0.00791342     0.000223921     0.0037473       0.000129311     0.00386354      0.994351        -0.00591713    
  4e+008          0.99923         -0.0159658      0.000276642     0.00619297      0.000303872     0.00623997      0.994909        -0.0153274      1.703e-007      0.999675        -0.0100571      0.000214305     0.00507338      0.000379341     0.00511631      0.995101        -0.00865645    
  5e+008          0.999301        -0.0211263      0.000400616     0.00773068      0.000566386     0.00767456      0.994228        -0.0182568      1.703e-007      0.999389        -0.0127236      0.00030287      0.00635918      0.00049605      0.0062151       0.994603        -0.00995945    
  6e+008          0.99918         -0.0253049      0.000450778     0.00923234      0.000329203     0.00917662      0.994137        -0.02203        1.703e-007      0.999747        -0.0160544      0.000342447     0.00755936      0.000246195     0.00756935      0.994534        -0.0120713     
  7e+008          0.999035        -0.0294397      0.000541204     0.0107892       0.000561733     0.0107177       0.994036        -0.0256526      1.703e-007      0.999617        -0.0187595      0.000398384     0.00886014      0.000396511     0.00869986      0.994506        -0.014035      
  8e+008          0.998758        -0.0333735      0.000681555     0.012315        0.000697506     0.0122218       0.99394         -0.0293374      1.703e-007      0.999559        -0.0212863      0.00045382      0.0100831       0.000549565     0.00983602      0.994575        -0.0162001     
  9e+008          0.998635        -0.0376248      0.000758156     0.0138074       0.000761952     0.0137724       0.993982        -0.0331172      1.703e-007      0.999415        -0.0238817      0.000509425     0.0112999       0.000566069     0.0113375       0.99477         -0.0182151     
  1e+009          0.998294        -0.0420044      0.000874622     0.0153648       0.000852729     0.0153246       0.993557        -0.0367491      1.703e-007      0.999312        -0.0265326      0.000557214     0.0125991       0.000531691     0.0126322       0.994211        -0.020409      
  2e+009          0.99502         -0.0834387      0.00275644      0.0304704       0.00277629      0.0303817       0.990252        -0.0726538      1.703e-007      0.997888        -0.0529884      0.00148479      0.0250603       0.00158071      0.0250266       0.992919        -0.0401554     
  3e+009          0.989382        -0.123971       0.00578116      0.0453546       0.00571647      0.0454121       0.984697        -0.108447       1.703e-007      0.995398        -0.0791558      0.0029818       0.0374382       0.00295106      0.037389        0.990131        -0.0599799     
  4e+009          0.981601        -0.164148       0.0099503       0.0599425       0.00991818      0.0598574       0.977434        -0.142175       1.703e-007      0.991747        -0.105178       0.00506981      0.0498015       0.0050827       0.0496628       0.986548        -0.0781685     
  5e+009          0.97209         -0.203984       0.0151984       0.0740965       0.0152473       0.0739726       0.969515        -0.17525        1.703e-007      0.987276        -0.131087       0.0077505       0.0619236       0.00786724      0.0617852       0.982896        -0.0963397     
  6e+009          0.96105         -0.242501       0.0214797       0.0876896       0.0213924       0.0875844       0.959442        -0.207745       1.703e-007      0.982111        -0.155915       0.0109385       0.0739373       0.0108114       0.0737599       0.978301        -0.114032      
  7e+009          0.947682        -0.280801       0.0289277       0.100927        0.0284986       0.100635        0.94778         -0.239493       1.703e-007      0.976003        -0.181886       0.014819        0.0859672       0.0143774       0.0855778       0.973071        -0.131538      
  8e+009          0.932797        -0.31686        0.0370574       0.1131          0.0367875       0.112835        0.936188        -0.270084       1.703e-007      0.9686          -0.205951       0.0190685       0.0973604       0.0187995       0.0970633       0.968127        -0.148491      
  9e+009          0.916144        -0.353905       0.046307        0.124907        0.0458615       0.124519        0.922436        -0.299597       1.703e-007      0.960932        -0.231931       0.0240697       0.108993        0.0237582       0.108479        0.961988        -0.16521       
  1e+010          0.898392        -0.388369       0.0559743       0.135276        0.0556637       0.135071        0.909337        -0.328749       1.703e-007      0.952106        -0.25509        0.0292131       0.11965         0.0289833       0.119334        0.956887        -0.181673      
  1.1e+010        0.878826        -0.420662       0.0663939       0.145385        0.0663984       0.145236        0.893884        -0.356396       1.703e-007      0.942439        -0.279356       0.0350502       0.130498        0.0350211       0.130105        0.950159        -0.197664      
  1.2e+010        0.858008        -0.452401       0.0776893       0.154601        0.0773902       0.154383        0.877427        -0.38344        1.703e-007      0.932254        -0.301918       0.0413932       0.141122        0.0411648       0.140752        0.943293        -0.213705      
  1.3e+010        0.835898        -0.482114       0.0891726       0.162806        0.0892919       0.162277        0.861171        -0.408877       1.703e-007      0.920917        -0.324119       0.0479925       0.151377        0.0481849       0.150772        0.936361        -0.228901      
  1.4e+010        0.813316        -0.510776       0.101604        0.169763        0.101592        0.169453        0.843855        -0.433214       1.703e-007      0.909309        -0.346177       0.0555432       0.16101         0.0554983       0.160488        0.929057        -0.243958      
  1.5e+010        0.788663        -0.538318       0.114384        0.175713        0.113496        0.175425        0.825655        -0.45665        1.703e-007      0.896317        -0.367501       0.0635822       0.170387        0.062779        0.169788        0.920943        -0.258752      
  1.6e+010        0.764985        -0.563004       0.12669         0.180622        0.125657        0.179978        0.807211        -0.479272       1.703e-007      0.883578        -0.387719       0.0713635       0.178973        0.0704567       0.177985        0.913253        -0.272827      
  1.7e+010        0.73995         -0.587071       0.139688        0.184641        0.138878        0.184417        0.788953        -0.500914       1.703e-007      0.869576        -0.407945       0.0799673       0.187239        0.0793216       0.186738        0.905206        -0.286985      
  1.8e+010        0.714263        -0.609578       0.152735        0.187758        0.151287        0.187589        0.768401        -0.520772       1.703e-007      0.855357        -0.427336       0.0890076       0.195419        0.0876115       0.194649        0.895426        -0.30065       
  1.9e+010        0.688889        -0.629936       0.164829        0.190202        0.164127        0.189396        0.748836        -0.540996       1.703e-007      0.841233        -0.444929       0.0973838       0.202911        0.0967638       0.201869        0.887173        -0.314488      
  2e+010          0.662777        -0.64972        0.177395        0.191507        0.176981        0.191255        0.729364        -0.557771       1.703e-007      0.825981        -0.463399       0.106669        0.209676        0.106142        0.208986        0.877899        -0.326312      
  2.1e+010        0.636863        -0.667405       0.190089        0.192066        0.188613        0.192127        0.708428        -0.575175       1.703e-007      0.810916        -0.480404       0.116398        0.216365        0.114759        0.215776        0.868017        -0.338943      
  2.2e+010        0.6104          -0.683716       0.20195         0.191394        0.200978        0.191171        0.68997         -0.591396       1.703e-007      0.794941        -0.496343       0.125764        0.221647        0.124719        0.221196        0.860018        -0.350128      
  2.3e+010        0.585267        -0.699142       0.213782        0.190427        0.212745        0.190576        0.669253        -0.606765       1.703e-007      0.779761        -0.511774       0.13554         0.227128        0.134318        0.226736        0.849929        -0.362106      
  2.4e+010        0.559459        -0.71327        0.22519         0.189053        0.223487        0.188951        0.649785        -0.621002       1.703e-007      0.763567        -0.526419       0.14512         0.232003        0.143342        0.231228        0.840558        -0.373195      
  2.5e+010        0.534355        -0.727792       0.236361        0.187317        0.234588        0.186971        0.62841         -0.635387       1.703e-007      0.748509        -0.541815       0.154725        0.236977        0.15259         0.236077        0.830043        -0.384653      
  2.6e+010        0.508239        -0.739261       0.248122        0.184551        0.246239        0.184971        0.607424        -0.649212       1.703e-007      0.732085        -0.555234       0.165219        0.241456        0.162772        0.241072        0.819187        -0.395898      
  2.7e+010        0.481319        -0.750009       0.258518        0.181614        0.257025        0.181403        0.589155        -0.65904        1.703e-007      0.713942        -0.569113       0.174976        0.245306        0.173292        0.244181        0.809615        -0.404583      
  2.8e+010        0.456291        -0.759184       0.268388        0.176714        0.266516        0.177034        0.566355        -0.671488       1.703e-007      0.697443        -0.580625       0.185177        0.248026        0.182505        0.247051        0.799745        -0.415125      
  2.9e+010        0.431733        -0.768628       0.277859        0.173135        0.275643        0.173856        0.546113        -0.681571       1.703e-007      0.68121         -0.592741       0.194934        0.251379        0.191838        0.251439        0.788901        -0.425011      
  3e+010          0.407945        -0.776696       0.287035        0.169232        0.285649        0.169669        0.527021        -0.691989       1.703e-007      0.665381        -0.60381        0.204562        0.254068        0.202576        0.253751        0.779294        -0.434118      
  3.1e+010        0.381511        -0.784888       0.295345        0.164168        0.2954          0.164626        0.508631        -0.699216       1.703e-007      0.646816        -0.616079       0.213729        0.255811        0.213419        0.255918        0.769608        -0.44158       
  3.2e+010        0.357941        -0.790797       0.305132        0.159262        0.303064        0.159988        0.487856        -0.708795       1.703e-007      0.629746        -0.625065       0.224454        0.258336        0.221444        0.258497        0.759002        -0.451875      
  3.3e+010        0.333406        -0.795251       0.314322        0.153908        0.311799        0.15445         0.468264        -0.717205       1.703e-007      0.611751        -0.634298       0.235352        0.260403        0.231939        0.26022         0.748018        -0.460216      
  3.4e+010        0.310772        -0.798499       0.322075        0.147656        0.320423        0.149062        0.449559        -0.724004       1.703e-007      0.595254        -0.642051       0.245303        0.260774        0.24251         0.261367        0.738078        -0.46807       
  3.5e+010        0.288074        -0.802979       0.329029        0.141405        0.328339        0.142228        0.430255        -0.729338       1.703e-007      0.57891         -0.650879       0.254678        0.261283        0.253192        0.262041        0.727172        -0.475001      
  3.6e+010        0.263831        -0.805493       0.336938        0.135361        0.335123        0.135985        0.412343        -0.734213       1.703e-007      0.560443        -0.658063       0.265736        0.262137        0.262742        0.261833        0.716763        -0.481692      
  3.7e+010        0.243431        -0.809152       0.343717        0.127931        0.342665        0.129607        0.393691        -0.740746       1.703e-007      0.545193        -0.66554        0.275375        0.261062        0.272986        0.262317        0.705949        -0.489822      
  3.8e+010        0.221734        -0.809992       0.350449        0.120643        0.349673        0.122607        0.376054        -0.746083       1.703e-007      0.52782         -0.670459       0.285168        0.260051        0.283148        0.261844        0.696042        -0.496188      
  3.9e+010        0.200821        -0.812036       0.355613        0.113862        0.353769        0.115231        0.358313        -0.750434       1.703e-007      0.511614        -0.677048       0.293991        0.259426        0.290604        0.260169        0.685794        -0.502213      
  4e+010          0.17936         -0.814669       0.361541        0.106424        0.359236        0.108099        0.340223        -0.753952       1.703e-007      0.496202        -0.683995       0.304164        0.258539        0.300237        0.259466        0.674164        -0.508074      
  4.1e+010        0.156711        -0.81552        0.366855        0.0987981       0.365008        0.100237        0.323309        -0.758006       1.703e-007      0.478314        -0.690825       0.313662        0.257185        0.309961        0.25749         0.664307        -0.513135      
  4.2e+010        0.138256        -0.81315        0.371893        0.0909892       0.370728        0.0930863       0.305814        -0.761817       1.703e-007      0.462776        -0.692667       0.322994        0.254768        0.320342        0.2568          0.655458        -0.519757      
  4.3e+010        0.115077        -0.811305       0.375655        0.0830092       0.374648        0.0849733       0.290014        -0.765409       1.703e-007      0.442333        -0.69864        0.331643        0.252203        0.329627        0.253832        0.645604        -0.525914      
  4.4e+010        0.0995392       -0.811663       0.379574        0.0759912       0.37823         0.0774259       0.271968        -0.766739       1.703e-007      0.43208         -0.70069        0.340843        0.250766        0.338286        0.251563        0.633272        -0.53065       
  4.5e+010        0.080266        -0.810755       0.383986        0.069233        0.381874        0.0711888       0.256802        -0.768879       1.703e-007      0.415774        -0.705171       0.350038        0.248567        0.34574         0.249392        0.624342        -0.535027      
  4.6e+010        0.0607164       -0.811031       0.387375        0.0605257       0.385914        0.0633609       0.240985        -0.770739       1.703e-007      0.400063        -0.712015       0.358638        0.244797        0.354889        0.247319        0.613734        -0.539965      
  4.7e+010        0.0396808       -0.80594        0.389816        0.0524925       0.389328        0.0556317       0.226732        -0.772918       1.703e-007      0.380073        -0.71309        0.366596        0.240874        0.363397        0.244251        0.604647        -0.544836      
  4.8e+010        0.024214        -0.806205       0.392638        0.0456769       0.391947        0.0477506       0.210789        -0.774978       1.703e-007      0.36841         -0.717303       0.374779        0.238571        0.371938        0.24051         0.593919        -0.548675      
  4.9e+010        0.0100018       -0.7995         0.394897        0.037307        0.392779        0.0403176       0.195908        -0.776674       1.703e-007      0.354062        -0.714573       0.382796        0.232855        0.378222        0.236149        0.584614        -0.552683      
  5e+010          -0.0102161      -0.799549       0.397472        0.0296681       0.398042        0.0327656       0.179621        -0.777661       1.703e-007      0.336584        -0.720878       0.390641        0.229949        0.389388        0.233435        0.572587        -0.556415      
  5.1e+010        -0.025763       -0.793853       0.399492        0.0221456       0.399057        0.0240291       0.164786        -0.780904       1.703e-007      0.320506        -0.720239       0.398828        0.226438        0.39555         0.227818        0.56486         -0.561516      
  5.2e+010        -0.040763       -0.791534       0.401019        0.013909        0.398822        0.017431        0.153093        -0.7782         1.703e-007      0.307328        -0.721525       0.406601        0.221168        0.401468        0.224481        0.55622         -0.560422      
